#  HZ   S   RI   R     50.00 
! Rohde & Schwarz ZVA40 4Ports - Version 3.90 - 1145.1110k42 SN: 100403
! Date: 2023-09-26 11:12:02
! Measurement: S12 
! 
 2.300000000000000E10    2.781266776155681E-4   3.625050313607791E-4  
 2.304000000000000E10   -1.852198130819016E-4  -5.985372381992639E-4  
 2.308000000000000E10   -4.207527854666114E-4  -7.114508321210745E-4  
 2.312000000000000E10   -5.232577852560209E-4   3.791847327910365E-4  
 2.316000000000000E10    1.011495443351567E-3   1.140301358014346E-3  
 2.320000000000000E10    8.401084799170497E-4  -5.179018133543433E-4  
 2.324000000000000E10   -3.191769312210382E-4  -1.624303321979940E-3  
 2.328000000000000E10   -8.477980868369342E-4   1.231180131062866E-4  
 2.332000000000000E10    3.943848566263915E-4   1.582045404801611E-4  
 2.336000000000000E10    2.929504901133479E-4   4.795756404809655E-4  
 2.340000000000000E10    5.707673123087735E-4  -1.031157499119640E-3  
 2.344000000000000E10   -9.225772542553024E-5  -1.049716518461705E-3  
 2.348000000000000E10   -1.139649874895811E-3   5.004818008355798E-4  
 2.352000000000000E10   -4.516884313374758E-4   9.198126667924228E-4  
 2.356000000000000E10   -1.697189277880826E-4   7.474213615967893E-5  
 2.360000000000000E10    4.286814030848909E-4  -9.584503188952806E-4  
 2.364000000000000E10   -3.542861635424198E-4  -5.910182659849525E-4  
 2.368000000000000E10   -5.542980790138246E-4  -9.645689819427211E-5  
 2.372000000000000E10   -1.439284058269113E-4   1.396514510892332E-3  
 2.376000000000000E10    1.414484486289322E-3   3.283210289031268E-4  
 2.380000000000000E10    1.295752357318998E-3  -7.504680468384179E-4  
 2.384000000000000E10   -1.026171193964780E-3  -7.955842056609693E-4  
 2.388000000000000E10   -1.023248586107045E-3   1.761896746240557E-3  
 2.392000000000000E10   -1.673986443653703E-4   1.673376614980400E-3  
 2.396000000000000E10    1.038330820351839E-3  -2.176911568753422E-4  
 2.400000000000000E10    2.133290308411233E-4  -1.158459822170437E-3  
 2.404000000000000E10   -9.188303637434730E-4   2.001895645381883E-4  
 2.408000000000000E10    1.559412406235934E-4   1.388021415971220E-3  
 2.412000000000000E10    9.126855155453063E-6   5.426236198544503E-4  
 2.416000000000000E10    7.054010250587018E-4   1.432995906746947E-4  
 2.420000000000000E10    1.286867084410043E-4  -7.052525140419604E-4  
 2.424000000000000E10   -4.167457038369031E-4  -1.031647608639673E-3  
 2.428000000000000E10   -1.203308446928859E-4   1.209314574703574E-3  
 2.432000000000000E10   -1.608400551378728E-4   3.470428947787733E-4  
 2.436000000000000E10    9.402786556035282E-4  -8.783562767952681E-4  
 2.440000000000000E10    1.152927247539163E-3  -1.159540812838823E-3  
 2.444000000000000E10   -1.168833295034245E-3   3.959951977431763E-5  
 2.448000000000000E10   -1.933407780900598E-3   2.021766409222037E-4  
 2.452000000000000E10    1.771499505385757E-3   1.550829134881492E-5  
 2.456000000000000E10    1.502010999888182E-3  -1.598866506025195E-3  
 2.460000000000000E10   -3.801344213634727E-5   9.046207231134178E-4  
 2.464000000000000E10   -1.406885808512569E-3  -1.455508460104465E-4  
 2.468000000000000E10   -1.200107323043048E-3   1.221223832212389E-3  
 2.472000000000000E10    8.890438589304689E-4   7.845664657540621E-4  
 2.476000000000000E10    1.341435956493020E-3  -2.889780490696431E-4  
 2.480000000000000E10   -1.344840924587101E-3  -1.399560367982835E-3  
 2.484000000000000E10   -7.505939380228521E-4   1.134173156172038E-4  
 2.488000000000000E10   -5.183844038280660E-4   5.368571220636369E-4  
 2.492000000000000E10    1.920421527177096E-3   1.400898089572787E-3  
 2.496000000000000E10    7.294900095835330E-4   7.987206101045009E-5  
 2.500000000000000E10    1.182706997670234E-3  -6.377003751248125E-4  
 2.504000000000000E10   -1.374661238240078E-3   4.811988414302468E-4  
 2.508000000000000E10    1.065154611400794E-4   9.478345599099997E-4  
 2.512000000000000E10    4.601151007283481E-4   9.615423183739187E-4  
 2.516000000000000E10    1.375822791680695E-4  -8.624303073138000E-4  
 2.520000000000000E10   -9.746765921190385E-4  -2.600531762950123E-4  
 2.524000000000000E10   -5.186647095829250E-4   1.176710872128606E-4  
 2.528000000000000E10    3.304338698461653E-4   1.671873498558998E-3  
 2.532000000000000E10    4.909648747667673E-4  -6.602591534857639E-4  
 2.536000000000000E10    4.410772002823652E-4  -2.602153904289008E-3  
 2.540000000000000E10   -4.887465610429647E-4  -3.611230056993664E-4  
 2.544000000000000E10   -1.969120690245181E-4   1.410780878499151E-3  
 2.548000000000000E10   -3.960079338280486E-4   7.435014373925517E-4  
 2.552000000000000E10    1.497639272466302E-3  -4.962779303304852E-4  
 2.556000000000000E10   -4.067709001365293E-4  -4.570335353147239E-4  
 2.560000000000000E10   -2.667282545082271E-4  -1.520962190851570E-4  
 2.564000000000000E10   -6.919882191829384E-4   1.236794784780592E-3  
 2.568000000000000E10    4.877824299950154E-4   1.195568399667740E-3  
 2.572000000000000E10    7.733754795640707E-4  -4.561845371313386E-5  
 2.576000000000000E10   -6.032793848486618E-4  -1.226979846611619E-3  
 2.580000000000000E10   -1.407105877809227E-3  -1.852676285803316E-5  
 2.584000000000000E10   -5.665231076050552E-4   7.035131280049682E-4  
 2.588000000000000E10    6.118104458004237E-4   2.911640013679863E-4  
 2.592000000000000E10    3.824686404820533E-4  -1.100250343486667E-3  
 2.596000000000000E10    2.100619698911906E-4  -1.530054888039828E-3  
 2.600000000000000E10   -6.730929210400210E-4  -7.434061434343458E-4  
 2.604000000000000E10    5.870517502743751E-4   8.411025990769269E-4  
 2.608000000000000E10    8.792268476858737E-4   6.037832919880748E-4  
 2.612000000000000E10   -9.460740822553627E-5  -1.098837785467506E-3  
 2.616000000000000E10   -1.213848954744637E-3  -1.244943110577763E-3  
 2.620000000000000E10   -6.889176324047150E-4  -4.028100952506063E-5  
 2.624000000000000E10    4.601745273917914E-4   7.699552301503720E-4  
 2.628000000000000E10    5.638156786039473E-4   8.765927124153824E-4  
 2.632000000000000E10    9.168748034760357E-4  -3.012425614139066E-4  
 2.636000000000000E10   -9.096202492835004E-4  -1.441215923782438E-3  
 2.640000000000000E10   -1.094596653161571E-3  -3.705123450607062E-4  
 2.644000000000000E10    5.398585505597297E-5   2.351391348123551E-3  
 2.648000000000000E10    1.914968546010554E-3  -5.979117629602553E-4  
 2.652000000000000E10   -3.647087863460184E-4  -8.110796028561892E-4  
 2.656000000000000E10   -7.547834627330305E-4  -3.799422520436349E-4  
 2.660000000000000E10   -7.880513306334617E-4   1.059251407131553E-3  
 2.664000000000000E10   -4.091808022372425E-5   6.711246149726214E-4  
 2.668000000000000E10    1.181115346175619E-3   3.561379917748273E-4  
 2.672000000000000E10    4.700114877969028E-4  -9.208476694002748E-4  
 2.676000000000000E10   -7.952053704857830E-5  -1.399436992794276E-3  
 2.680000000000000E10   -3.573295894712210E-4   1.035565809428692E-3  
 2.684000000000000E10   -7.808606215752666E-5   1.343450952395797E-3  
 2.688000000000000E10    6.234043813832106E-4   3.754503052979709E-4  
 2.692000000000000E10    2.555083973407745E-4  -1.404306828260422E-3  
 2.696000000000000E10   -6.819295199578630E-4  -5.616373729631306E-4  
 2.700000000000000E10   -3.343738517877646E-4   5.449390612058342E-4  
