#  HZ   S   RI   R     50.00 
! Rohde & Schwarz ZVA40 4Ports - Version 3.90 - 1145.1110k42 SN: 100403
! Date: 2023-09-26 11:13:07
! Measurement: S12 
! 
 2.300000000000000E10   -1.209598275989294E-3   9.462651883792133E-5  
 2.304000000000000E10   -5.915052451334894E-4   7.763729413837196E-4  
 2.308000000000000E10   -1.051371432200540E-4   4.010504777012393E-5  
 2.312000000000000E10   -5.213534307666043E-7  -1.256816538978369E-4  
 2.316000000000000E10    8.343150362595918E-4  -2.058385875177861E-4  
 2.320000000000000E10   -7.829925802506507E-4  -5.745702861882747E-4  
 2.324000000000000E10   -7.891366299904885E-4   3.631723201859743E-4  
 2.328000000000000E10    5.176067558541895E-4   5.488152219329031E-4  
 2.332000000000000E10    1.204892616969347E-3  -3.691219391327352E-4  
 2.336000000000000E10    4.187980449661613E-4  -4.116455033630134E-4  
 2.340000000000000E10   -3.785794748060406E-4  -4.710946544751526E-4  
 2.344000000000000E10   -1.001422402694077E-3  -1.752761368062813E-4  
 2.348000000000000E10    6.674200625702740E-4   5.510591782614590E-4  
 2.352000000000000E10    9.799837478399278E-4  -3.297438454840333E-4  
 2.356000000000000E10   -7.634531485915185E-4  -1.104255772344768E-3  
 2.360000000000000E10   -1.446768207448721E-3   3.324226969856769E-4  
 2.364000000000000E10    3.186899486128241E-4   4.872227059754545E-4  
 2.368000000000000E10    1.633377776803450E-4   5.432913230307402E-4  
 2.372000000000000E10    2.031183763008565E-4  -4.850253174692394E-4  
 2.376000000000000E10    2.635726785018109E-4  -5.620260141181760E-4  
 2.380000000000000E10   -8.086695089846851E-4  -1.589319949522615E-4  
 2.384000000000000E10   -2.906105695223436E-4   6.383259479999544E-4  
 2.388000000000000E10    7.259690676137807E-4   7.321033905133605E-4  
 2.392000000000000E10    8.632238280713560E-4   4.668963291889407E-4  
 2.396000000000000E10   -7.300420610412957E-4  -9.456707595057786E-4  
 2.400000000000000E10   -9.723745949909094E-4   1.821293010003865E-4  
 2.404000000000000E10   -5.922796917272734E-4   1.666458726072312E-3  
 2.408000000000000E10    1.257080310782790E-3   6.438442427903414E-4  
 2.412000000000000E10    1.036082447186113E-3  -6.352553308878096E-4  
 2.416000000000000E10   -1.189886166036129E-3  -3.809642622068524E-4  
 2.420000000000000E10   -9.067885571643711E-4   5.638998205587270E-4  
 2.424000000000000E10    1.231090734992922E-3   5.350847846329213E-4  
 2.428000000000000E10    2.895498134516181E-3  -7.076610690504313E-4  
 2.432000000000000E10    1.225333527997137E-4  -8.522565572321415E-4  
 2.436000000000000E10   -1.385276813523472E-3  -7.832829498797658E-5  
 2.440000000000000E10    1.834870146762580E-4   1.456091449748724E-4  
 2.444000000000000E10    7.749547740273179E-4   4.239478533313145E-4  
 2.448000000000000E10    2.257462963283062E-4   9.731691225320102E-4  
 2.452000000000000E10   -4.512738543868066E-4  -7.472508799426258E-4  
 2.456000000000000E10   -1.302532234430313E-3   2.363247855588795E-4  
 2.460000000000000E10    1.668677714049817E-4   7.846078177435327E-4  
 2.464000000000000E10    6.406825584892186E-4   1.230040208652616E-3  
 2.468000000000000E10   -1.002545574710704E-4   6.430087425714360E-4  
 2.472000000000000E10   -1.029059402014315E-3  -1.712599986800552E-3  
 2.476000000000000E10   -9.732180742248896E-4  -5.451650427043438E-4  
 2.480000000000000E10   -3.951362742662431E-4   1.134814095427841E-3  
 2.484000000000000E10    1.366767586813868E-3  -1.125059969574207E-5  
 2.488000000000000E10   -4.534115384481848E-4  -1.074768047454953E-3  
 2.492000000000000E10   -9.650389545168730E-4  -1.300557530672662E-3  
 2.496000000000000E10    1.268753108926117E-4   1.529568707884849E-3  
 2.500000000000000E10    2.421407869245857E-4   2.786965336844326E-4  
 2.504000000000000E10   -4.883465145677328E-4   1.248935138367117E-3  
 2.508000000000000E10   -8.575252757370470E-5  -1.487182777816057E-3  
 2.512000000000000E10    9.428447976782923E-5  -1.208949440947175E-3  
 2.516000000000000E10   -1.947430368030071E-3   5.966572305873037E-4  
 2.520000000000000E10    7.696809441149247E-5   9.053686465129260E-4  
 2.524000000000000E10    1.034327317999303E-3  -9.255929425239564E-4  
 2.528000000000000E10    5.013372426927100E-5  -1.512018677569926E-3  
 2.532000000000000E10   -4.507626522214153E-4  -3.434698062390083E-5  
 2.536000000000000E10   -3.165863909959794E-4   4.715995378658178E-4  
 2.540000000000000E10    6.621749749079347E-4   7.374452670205386E-4  
 2.544000000000000E10    7.599402435235680E-4  -6.366974402010441E-4  
 2.548000000000000E10   -4.271552482247452E-6  -1.039194945066050E-3  
 2.552000000000000E10   -2.001110388155282E-3  -3.863407351076612E-5  
 2.556000000000000E10    7.786153123572937E-4   1.100729153496028E-3  
 2.560000000000000E10    7.944924799501899E-4   5.219256112843752E-4  
 2.564000000000000E10    1.229697220399231E-3  -5.276198813710365E-4  
 2.568000000000000E10   -9.153430596143009E-4  -3.622927895680071E-4  
 2.572000000000000E10   -5.023430169209841E-4   4.153215286947788E-4  
 2.576000000000000E10   -9.031936574215540E-4   1.497337405401469E-3  
 2.580000000000000E10    9.484203714057805E-4  -3.297121474310755E-4  
 2.584000000000000E10    3.145403468668461E-4  -6.955587412312628E-4  
 2.588000000000000E10    1.456823785722255E-4  -1.318319623748958E-3  
 2.592000000000000E10   -1.604303064882756E-3   9.395534399837258E-4  
 2.596000000000000E10    3.278152011930949E-5   1.360708867856115E-3  
 2.600000000000000E10    5.258295290319252E-4  -4.918981687605380E-4  
 2.604000000000000E10    1.915179645709694E-4  -1.417677957978845E-3  
 2.608000000000000E10   -7.356472675129772E-4  -3.674866487323308E-4  
 2.612000000000000E10   -7.316762160018089E-4   8.524385880567136E-4  
 2.616000000000000E10    4.832059864252806E-4   1.751134514966608E-3  
 2.620000000000000E10    2.903237965829672E-4  -4.221365581616760E-4  
 2.624000000000000E10   -1.421637770305854E-4  -1.092401018864662E-3  
 2.628000000000000E10   -4.437912088115700E-4   1.993943010270597E-4  
 2.632000000000000E10    1.576347616016865E-4  -2.396070637106896E-5  
 2.636000000000000E10    3.994785558988808E-5   5.321844446465374E-4  
 2.640000000000000E10    3.794360402792693E-4  -8.263609862886373E-5  
 2.644000000000000E10    3.597880899600685E-4  -1.686221427759529E-3  
 2.648000000000000E10   -6.833152104586365E-4  -4.012398254572415E-4  
 2.652000000000000E10   -1.318608581885696E-3   1.273570670047403E-3  
 2.656000000000000E10    4.049098281515762E-4   7.736889414288107E-4  
 2.660000000000000E10    1.127052814044431E-3  -6.260553552098574E-4  
 2.664000000000000E10   -8.501544854190203E-4  -8.247050794467333E-4  
 2.668000000000000E10   -1.042293839660287E-3  -6.511018146395684E-4  
 2.672000000000000E10   -6.177589893111962E-4   9.950832970663909E-4  
 2.676000000000000E10    9.486606301620606E-4   7.967950463533403E-4  
 2.680000000000000E10    1.076928871549666E-3  -7.091462145805361E-4  
 2.684000000000000E10    4.650082298669965E-4  -1.166536535519362E-3  
 2.688000000000000E10   -1.112019732066244E-3  -4.431407415270811E-5  
 2.692000000000000E10    9.954158474951980E-5   1.298627048136294E-3  
 2.696000000000000E10    1.153636542497576E-3   2.612735424097637E-5  
 2.700000000000000E10    5.710479716561736E-4  -7.198493759999053E-4  
