#  HZ   S   RI   R     50.00 
! Rohde & Schwarz ZVA40 4Ports - Version 3.90 - 1145.1110k42 SN: 100403
! Date: 2023-09-26 11:14:07
! Measurement: S12 
! 
 2.300000000000000E10   -5.976665682271125E-4  -6.633215411342683E-4  
 2.304000000000000E10   -9.781774183809759E-4   5.046450235880912E-5  
 2.308000000000000E10   -3.411859631612897E-4   1.957509523215704E-4  
 2.312000000000000E10    7.790161072975026E-5   1.116689084529877E-3  
 2.316000000000000E10    4.548460445478559E-4   1.699057606766001E-4  
 2.320000000000000E10   -4.681885909177363E-4  -8.988128741793338E-4  
 2.324000000000000E10   -9.739462549835445E-4   4.568830394782128E-4  
 2.328000000000000E10    1.725925471987576E-4   4.470491022914649E-4  
 2.332000000000000E10    2.562550054118038E-4   7.943053562100978E-5  
 2.336000000000000E10    2.357876348646824E-4   5.293048007320614E-5  
 2.340000000000000E10    4.672828456573189E-4  -6.026380212046207E-4  
 2.344000000000000E10   -2.104864348834381E-4  -4.582486620242707E-5  
 2.348000000000000E10   -7.112045928761364E-4   1.759916090175510E-3  
 2.352000000000000E10    1.123349453933537E-3   6.766372567117214E-4  
 2.356000000000000E10    7.865943453609945E-4  -2.844759064111859E-4  
 2.360000000000000E10   -3.586286209789106E-4  -7.240832836925985E-4  
 2.364000000000000E10   -8.182438597548753E-4   8.692317588590087E-4  
 2.368000000000000E10    1.817058002017440E-5   7.983954404573888E-4  
 2.372000000000000E10    7.870804614312949E-4  -2.087089947415516E-4  
 2.376000000000000E10   -3.452247060295195E-4  -8.515591586679221E-4  
 2.380000000000000E10   -1.008604828782380E-3  -4.838079715333880E-5  
 2.384000000000000E10   -1.393653088891879E-4   6.727735200375319E-4  
 2.388000000000000E10    6.293820798806848E-4   1.696567218974233E-4  
 2.392000000000000E10    5.276803718991578E-4  -6.638237792160363E-4  
 2.396000000000000E10    5.283498091651127E-4  -7.457147560566667E-4  
 2.400000000000000E10   -5.757379181776198E-4  -7.487271933704616E-4  
 2.404000000000000E10   -4.552663487885149E-4  -7.687180317193272E-5  
 2.408000000000000E10   -2.079417775981128E-4   5.913487018998714E-4  
 2.412000000000000E10    7.941750958710908E-4  -2.009923154711723E-4  
 2.416000000000000E10   -5.685550796240574E-5  -6.298391517400743E-4  
 2.420000000000000E10   -1.423815809808672E-3  -7.311099272519351E-4  
 2.424000000000000E10   -1.461958916559816E-3   1.415341486908496E-3  
 2.428000000000000E10    1.116526345193387E-3   1.308440233692529E-4  
 2.432000000000000E10    5.494274785313756E-4  -1.698731041140854E-3  
 2.436000000000000E10   -4.742940151691438E-4  -5.430040597189219E-4  
 2.440000000000000E10   -1.468208304345608E-3   1.374333993466571E-3  
 2.444000000000000E10   -7.519435698892923E-4   1.015424011008814E-3  
 2.448000000000000E10    8.689248448982838E-4   4.879671513438225E-4  
 2.452000000000000E10    1.218194218471647E-3  -1.382710574746132E-3  
 2.456000000000000E10    1.963095986489206E-4  -3.490937538444998E-4  
 2.460000000000000E10   -1.862922646749765E-3   9.901816034466032E-4  
 2.464000000000000E10   -4.052427905611694E-4   2.006518378742041E-4  
 2.468000000000000E10    1.404664542801679E-3  -1.402226169928908E-4  
 2.472000000000000E10   -1.763486027717641E-6  -7.398292395435275E-4  
 2.476000000000000E10   -2.783373311143369E-4   1.696639230996371E-4  
 2.480000000000000E10   -1.231251746490598E-4   9.195411437451842E-4  
 2.484000000000000E10    1.428684054031968E-3   8.394915373213592E-4  
 2.488000000000000E10    1.307833186338656E-3  -1.389579346067272E-3  
 2.492000000000000E10   -7.775368936769666E-4  -1.309190768942237E-3  
 2.496000000000000E10   -1.319852951210924E-3  -3.252246099524201E-4  
 2.500000000000000E10   -7.926392189599578E-4   5.998684096671643E-4  
 2.504000000000000E10    1.075862224161625E-3   1.218142780005932E-3  
 2.508000000000000E10    8.781868249569090E-4  -4.009346994757654E-4  
 2.512000000000000E10    8.037388146668667E-5  -6.072942173257471E-4  
 2.516000000000000E10   -1.408415718309582E-3   2.657927880138160E-4  
 2.520000000000000E10    9.925576122477653E-4   9.997730510281401E-4  
 2.524000000000000E10    5.060321378484369E-4  -7.017804659903003E-6  
 2.528000000000000E10    6.903822390884161E-4  -6.829414034103976E-4  
 2.532000000000000E10    8.958835793677717E-4  -6.393255377709865E-4  
 2.536000000000000E10   -1.585129339747131E-3  -4.978059529550374E-4  
 2.540000000000000E10    1.291017483033240E-3   1.266155498951673E-3  
 2.544000000000000E10    8.452400509994480E-4   3.827558967843652E-4  
 2.548000000000000E10    7.908061829209330E-4  -7.283554586153478E-4  
 2.552000000000000E10   -9.308317864239219E-4   1.462293186448515E-4  
 2.556000000000000E10   -8.532391804568472E-4   7.001851891167462E-4  
 2.560000000000000E10   -1.708301050467416E-4   5.122287123035640E-4  
 2.564000000000000E10    1.301763927623630E-3  -6.094834878081457E-4  
 2.568000000000000E10    1.763701317459345E-4  -1.054725725542754E-3  
 2.572000000000000E10   -8.837020737193530E-4  -5.496787267346518E-4  
 2.576000000000000E10   -1.438110131606460E-3  -2.319483990594746E-4  
 2.580000000000000E10   -2.674988416358829E-4   1.654197621732950E-3  
 2.584000000000000E10    1.475163358196617E-3  -4.607364952508361E-4  
 2.588000000000000E10   -5.281650872193278E-4  -1.391211190469563E-3  
 2.592000000000000E10   -1.307863541200757E-3   1.081111552100629E-4  
 2.596000000000000E10   -4.511249987352640E-4   6.335541539536792E-4  
 2.600000000000000E10    1.052977182552219E-3   1.265683724850417E-3  
 2.604000000000000E10    3.574114856459202E-4  -3.802340780496599E-4  
 2.608000000000000E10   -2.624064760021866E-4  -4.925664165653289E-4  
 2.612000000000000E10   -6.157371628656985E-4   9.751816022694112E-4  
 2.616000000000000E10   -3.358115685936064E-4   2.652590126663447E-3  
 2.620000000000000E10    1.067201482616365E-3  -5.710967665612699E-4  
 2.624000000000000E10    4.449069675887004E-4  -1.634264508165420E-3  
 2.628000000000000E10   -6.653644473627210E-4   3.600948206335298E-5  
 2.632000000000000E10   -1.323871161803603E-3   1.211220606997609E-3  
 2.636000000000000E10    2.076345943585038E-4   3.824619454569184E-4  
 2.640000000000000E10    5.237517540547998E-4  -1.886728158399463E-3  
 2.644000000000000E10    1.493455411605537E-4  -1.156110908987001E-3  
 2.648000000000000E10   -5.553624384701253E-4   9.943343976512551E-5  
 2.652000000000000E10   -1.054722115263343E-3   1.386142112210393E-3  
 2.656000000000000E10    1.114958505193121E-3  -4.395204718336464E-4  
 2.660000000000000E10    6.544311564788224E-4  -1.289867704130710E-3  
 2.664000000000000E10   -7.131064990460874E-4  -5.085329758673907E-4  
 2.668000000000000E10   -1.017617036385462E-3  -2.769166607502846E-5  
 2.672000000000000E10   -9.945849068909885E-4   8.982120382785798E-4  
 2.676000000000000E10    1.123340342290700E-3   1.102969115861692E-3  
 2.680000000000000E10    1.004604374110699E-3  -1.104438409198076E-3  
 2.684000000000000E10   -1.203086206763983E-3  -4.418566681779922E-4  
 2.688000000000000E10   -8.571065969672058E-4  -1.554350006878376E-4  
 2.692000000000000E10    3.888663911260664E-4   8.650574057474734E-4  
 2.696000000000000E10    8.485187776321546E-4   1.003282112501562E-3  
 2.700000000000000E10    2.762948881564662E-4   2.169012873303146E-4  
