#  HZ   S   RI   R     50.00 
! Rohde & Schwarz ZVA40 4Ports - Version 3.90 - 1145.1110k42 SN: 100403
! Date: 2023-10-04 11:48:34
! Measurement: S12 
! 
 2.200000000000000E10    3.128623357042670E-4  -1.865843776613474E-3  
 2.202000000000000E10   -2.203309442847967E-3  -1.799795310944319E-3  
 2.204000000000000E10   -4.110703244805336E-3   2.478648908436298E-3  
 2.206000000000000E10    1.391946803778410E-3   3.729651449248195E-3  
 2.208000000000000E10    3.479255596175790E-3  -1.107089265133254E-4  
 2.210000000000000E10   -8.053933561313897E-5  -3.491285722702742E-3  
 2.212000000000000E10   -3.458108985796571E-3  -3.663034294731915E-4  
 2.214000000000000E10   -1.716341939754784E-3   2.384539926424623E-3  
 2.216000000000000E10    1.489695045165718E-3   1.980705885216594E-3  
 2.218000000000000E10    7.275146199390292E-4   3.638554189819843E-4  
 2.220000000000000E10    8.330320706591010E-4  -1.825751241995022E-4  
 2.222000000000000E10   -1.239379198523238E-4  -1.129400843637995E-4  
 2.224000000000000E10   -1.600712188519537E-3  -9.255680488422513E-4  
 2.226000000000000E10   -1.501619233749807E-3   1.731477212160826E-3  
 2.228000000000000E10    7.880249177105725E-4   1.748158596456051E-3  
 2.230000000000000E10    2.736743539571762E-3  -1.080598682165146E-3  
 2.232000000000000E10    4.930135328322649E-4  -1.424317480996251E-3  
 2.234000000000000E10   -1.107725198380649E-3   3.156645107083023E-4  
 2.236000000000000E10    1.127589261159301E-3   7.804268389008939E-4  
 2.238000000000000E10    1.099014305509627E-3   5.792488227598369E-4  
 2.240000000000000E10   -9.497877326793969E-4  -3.043590368179139E-5  
 2.242000000000000E10    6.004078386467882E-5   1.230122870765626E-3  
 2.244000000000000E10    3.565944207366556E-4   1.398416119627655E-3  
 2.246000000000000E10    9.691683226265013E-4  -1.161713968031108E-3  
 2.248000000000000E10    4.886242095381022E-4  -1.403776230290532E-3  
 2.250000000000000E10   -5.203647888265550E-4   4.473887966014445E-4  
 2.252000000000000E10    1.105154515244067E-4   2.277597086504102E-4  
 2.254000000000000E10    6.479534786194563E-4   6.489608203992248E-4  
 2.256000000000000E10    1.688268093857914E-4   1.481299754232168E-3  
 2.258000000000000E10    2.320636995136738E-3  -2.033201308222488E-4  
 2.260000000000000E10    3.545320942066610E-4  -1.755528035573661E-3  
 2.262000000000000E10   -2.056844532489777E-3  -1.252972870133817E-3  
 2.264000000000000E10   -1.253096153959632E-3   1.466236426495016E-3  
 2.266000000000000E10    1.228662091307342E-3   1.666291849687696E-3  
 2.268000000000000E10    1.736761536449194E-3  -7.050303975120187E-4  
 2.270000000000000E10    5.924365832470357E-4  -1.450912095606327E-3  
 2.272000000000000E10   -1.138785373768769E-4  -6.997159216552973E-4  
 2.274000000000000E10   -1.016974332742393E-3  -1.699329295661300E-4  
 2.276000000000000E10   -8.138914126902819E-4   2.314852645213250E-5  
 2.278000000000000E10    3.367491008248180E-4   1.391193713061512E-3  
 2.280000000000000E10    2.714416244998574E-3   5.398756475187838E-4  
 2.282000000000000E10    3.217123681679368E-3  -4.578274092637003E-4  
 2.284000000000000E10   -1.140208332799375E-3  -2.641329076141119E-3  
 2.286000000000000E10   -1.704332651570439E-3   4.512757877819240E-4  
 2.288000000000000E10    1.297653216170147E-4   2.162486547604203E-3  
 2.290000000000000E10    1.268106629140675E-3   2.686040243133903E-4  
 2.292000000000000E10    1.004717429168522E-3  -1.470011775381863E-4  
 2.294000000000000E10    4.057021214975976E-6  -1.275409478694201E-3  
 2.296000000000000E10   -1.895135501399636E-3  -2.466548932716250E-3  
 2.298000000000000E10   -1.889983657747507E-3  -4.947764682583511E-4  
 2.300000000000000E10   -8.304659859277308E-4   8.232265245169401E-4  
 2.302000000000000E10    1.643783063627780E-3   4.735610273201019E-4  
 2.304000000000000E10    2.608037088066340E-3  -1.700521563179791E-3  
 2.306000000000000E10   -4.063117667101324E-4  -1.525285304524005E-3  
 2.308000000000000E10   -1.959316432476044E-3   2.247118936793413E-5  
 2.310000000000000E10    4.042450455017388E-4   2.579057356342673E-3  
 2.312000000000000E10   -1.064894371666014E-3   9.164345101453364E-4  
 2.314000000000000E10   -1.226384891197085E-3  -5.452720142784528E-5  
 2.316000000000000E10   -1.193402917124331E-3   9.728845907375217E-4  
 2.318000000000000E10   -7.933526649139822E-4  -8.293180144391954E-4  
 2.320000000000000E10   -6.058723665773869E-4  -1.429791911505163E-3  
 2.322000000000000E10   -7.172600016929209E-4  -8.382914238609374E-4  
 2.324000000000000E10   -8.959557744674385E-4   3.384654701221734E-4  
 2.326000000000000E10    2.533944207243621E-4   2.404833066975698E-4  
 2.328000000000000E10    1.461442909203470E-3   1.842136960476637E-3  
 2.330000000000000E10    1.362778712064028E-3   9.145842632278800E-4  
 2.332000000000000E10    1.059786067344248E-3  -6.667916022706777E-5  
 2.334000000000000E10   -1.195884309709072E-3   3.145530936308205E-4  
 2.336000000000000E10   -3.249290864914656E-3   5.448477459140122E-4  
 2.338000000000000E10   -7.021435885690153E-4   4.588748794049025E-3  
 2.340000000000000E10    1.585948630236089E-3   1.046380028128624E-3  
 2.342000000000000E10    1.494714408181608E-3  -2.789431251585484E-3  
 2.344000000000000E10   -7.735625258646905E-4  -2.608374459668994E-3  
 2.346000000000000E10   -1.539103570394218E-3  -8.630874217487872E-4  
 2.348000000000000E10    1.563073310535401E-4   1.592521555721760E-3  
 2.350000000000000E10    2.837262814864516E-3   1.988265430554748E-3  
 2.352000000000000E10    3.834338625892997E-3   9.703828254714608E-4  
 2.354000000000000E10    1.429819385521114E-3  -2.426207764074206E-3  
 2.356000000000000E10   -2.231912920251489E-3  -8.295397274196148E-4  
 2.358000000000000E10   -2.676360309123993E-3   1.473489101044834E-3  
 2.360000000000000E10   -2.753306762315333E-4   2.528143813833594E-3  
 2.362000000000000E10    2.619248814880848E-3  -8.133389928843826E-5  
 2.364000000000000E10    9.287399007007480E-4  -3.208826761692762E-3  
 2.366000000000000E10   -1.865922124125063E-3  -2.536695217713714E-3  
 2.368000000000000E10   -9.345515863969922E-4  -2.411957975709811E-4  
 2.370000000000000E10    8.276196895167232E-4   7.274732342921197E-4  
 2.372000000000000E10    7.759767468087375E-4  -1.581393880769610E-4  
 2.374000000000000E10    4.337512364145368E-4   5.371427978388965E-4  
 2.376000000000000E10    5.815436816192232E-5   3.439156862441450E-4  
 2.378000000000000E10   -8.418438956141472E-4   2.315836027264595E-4  
 2.380000000000000E10   -1.181323663331568E-3   2.671621332410723E-4  
 2.382000000000000E10   -5.920131225138903E-4  -6.882074521854520E-4  
 2.384000000000000E10   -1.132155302911997E-3  -7.052391301840544E-4  
 2.386000000000000E10   -8.770996355451644E-4  -2.865385613404214E-4  
 2.388000000000000E10   -2.238040615338832E-4   4.772898682858795E-4  
 2.390000000000000E10    1.881587551906705E-3   5.111696082167327E-4  
 2.392000000000000E10    1.458051498048008E-3  -9.909640066325665E-4  
 2.394000000000000E10   -6.451031658798456E-4  -1.168948365375400E-3  
 2.396000000000000E10   -3.152116900309920E-3   1.442593289539218E-3  
 2.398000000000000E10   -1.208308458444662E-4   2.557297935709357E-3  
 2.400000000000000E10    2.092398470267654E-3   1.265576109290123E-3  
 2.402000000000000E10    1.577602932229638E-3  -1.618337701074779E-3  
 2.404000000000000E10   -9.465866605751216E-4  -2.378813922405243E-3  
 2.406000000000000E10   -1.948079792782664E-3  -3.550300316419452E-4  
 2.408000000000000E10   -7.389240781776607E-4   1.837060437537730E-3  
 2.410000000000000E10    1.704660360701382E-3   2.208923222497106E-3  
 2.412000000000000E10    2.801527502015233E-3   6.552966660819948E-4  
 2.414000000000000E10    1.107875374145806E-3  -2.097109565511346E-3  
 2.416000000000000E10   -1.558821764774621E-3  -2.462077885866165E-3  
 2.418000000000000E10   -3.259895369410515E-3   5.100154667161405E-4  
 2.420000000000000E10    1.189079775940627E-4   2.584558445960283E-3  
 2.422000000000000E10    3.540090285241604E-3   3.333705826662481E-4  
 2.424000000000000E10    1.898593967780471E-3  -2.159290947020054E-3  
 2.426000000000000E10   -2.426231803838164E-4  -1.866592909209430E-3  
 2.428000000000000E10   -1.519367448054254E-3   3.703930706251413E-4  
 2.430000000000000E10   -5.484031862579286E-4   1.754784025251865E-3  
 2.432000000000000E10    6.369640468619764E-4   1.103684422560036E-3  
 2.434000000000000E10    6.241413066163659E-4   8.190537300833967E-6  
 2.436000000000000E10    4.374411946628243E-5  -1.571074826642871E-3  
 2.438000000000000E10   -1.067099743522704E-3  -1.126022776588798E-3  
 2.440000000000000E10   -8.850644808262587E-4  -5.645990604534745E-4  
 2.442000000000000E10    8.814565953798592E-4   6.633626762777567E-4  
 2.444000000000000E10    1.647434663027525E-3  -1.705583235889208E-5  
 2.446000000000000E10    1.015140878735110E-4  -4.349841619841754E-4  
 2.448000000000000E10   -8.119111298583448E-4   1.363277784548700E-3  
 2.450000000000000E10    4.169280291534960E-4   2.283532870933414E-3  
 2.452000000000000E10    2.630054077599198E-4   3.491003008093685E-4  
 2.454000000000000E10   -1.354379579424858E-3  -2.013945253565908E-3  
 2.456000000000000E10   -3.319817362353206E-3  -9.174326551146805E-4  
 2.458000000000000E10   -1.183722866699100E-3   2.711543638724834E-4  
 2.460000000000000E10    1.364891184493899E-3   6.914806435815990E-4  
 2.462000000000000E10    3.017746610566974E-3  -1.578029361553490E-3  
 2.464000000000000E10    1.355836051516235E-3  -2.000175882130861E-3  
 2.466000000000000E10   -7.566281128674746E-4  -9.720175876282156E-4  
 2.468000000000000E10   -1.948382938280702E-3   1.606317120604217E-3  
 2.470000000000000E10   -1.042657415382564E-3   2.928339643403888E-3  
 2.472000000000000E10    2.074148971587420E-3   1.862547476775944E-3  
 2.474000000000000E10    9.962037438526750E-4  -2.007609000429511E-3  
 2.476000000000000E10   -1.990196062251926E-3  -4.202423151582480E-3  
 2.478000000000000E10   -3.886025398969650E-3  -7.571824244223535E-4  
 2.480000000000000E10   -1.169719267636538E-3   2.530855825170875E-3  
 2.482000000000000E10    3.128605894744396E-3   1.144373207353056E-3  
 2.484000000000000E10    2.377494936808944E-3  -1.580214011482894E-3  
 2.486000000000000E10   -3.333275963086635E-4  -2.102981787174940E-3  
 2.488000000000000E10   -2.115268027409911E-3   4.660337872337550E-4  
 2.490000000000000E10   -1.247753622010350E-3   1.877402421087027E-3  
 2.492000000000000E10   -9.123413474299014E-5   1.854484085924923E-3  
 2.494000000000000E10    8.407966815866530E-4   3.397013933863491E-4  
 2.496000000000000E10    3.486715431790799E-4  -1.418148982338607E-3  
 2.498000000000000E10   -1.997777959331870E-3  -2.011009724810720E-3  
 2.500000000000000E10   -1.339010894298554E-3   6.968142697587609E-4  
 2.502000000000000E10    4.333907418185845E-5   2.150678774341941E-3  
 2.504000000000000E10    1.629938720725477E-3  -5.334584857337177E-4  
 2.506000000000000E10   -8.744308724999428E-4  -8.417961071245372E-4  
 2.508000000000000E10   -1.708483207039535E-3   8.461649413220584E-4  
 2.510000000000000E10    1.757533173076809E-4   1.659662928432226E-3  
 2.512000000000000E10    1.452162978239358E-3  -3.445825714152306E-4  
 2.514000000000000E10    3.617851471062750E-4  -1.329163322225213E-3  
 2.516000000000000E10   -1.286764862015843E-3   9.585917723597959E-5  
 2.518000000000000E10    6.332217890303582E-5   1.661077607423067E-3  
 2.520000000000000E10    4.808917292393744E-4   1.723380759358406E-3  
 2.522000000000000E10    1.419086009263992E-3   9.825952583923936E-4  
 2.524000000000000E10    9.487565839663148E-4   2.948247129097581E-5  
 2.526000000000000E10   -1.111330348066986E-3  -2.217315370216966E-3  
 2.528000000000000E10   -2.508328994736075E-3  -5.087461322546005E-4  
 2.530000000000000E10   -1.202709507197142E-3   1.672228099778295E-3  
 2.532000000000000E10    3.026541089639068E-3   1.424915040843189E-3  
 2.534000000000000E10    3.457893151789904E-3  -2.211069455370307E-3  
 2.536000000000000E10    1.907165715238079E-4  -2.827601507306099E-3  
 2.538000000000000E10   -1.578254741616547E-3   7.863175706006587E-4  
 2.540000000000000E10    2.063338470179588E-4   2.893490251153708E-3  
 2.542000000000000E10    1.552358036860824E-3   1.646995078772306E-3  
 2.544000000000000E10    1.095367129892111E-3   4.749958752654493E-4  
 2.546000000000000E10   -8.768807310843840E-5  -1.304065110161901E-3  
 2.548000000000000E10   -1.640324597246945E-3  -1.482507563196123E-3  
 2.550000000000000E10   -2.362956292927265E-3  -5.675926222465932E-4  
 2.552000000000000E10    5.892926128581166E-4   1.479455153457820E-3  
 2.554000000000000E10    2.490091836079955E-3   1.847608946263790E-4  
 2.556000000000000E10    1.851355889812112E-3  -2.574432175606489E-3  
 2.558000000000000E10   -8.156900876201689E-4  -1.000334043055773E-3  
 2.560000000000000E10   -6.682865787297487E-4   1.167356269434094E-3  
 2.562000000000000E10    9.449476492591202E-4   2.137742005288601E-3  
 2.564000000000000E10    5.075975204817951E-4  -2.285556256538257E-4  
 2.566000000000000E10   -1.219449331983924E-3  -2.441335163894109E-5  
 2.568000000000000E10   -1.110953744500876E-3   6.063951295800507E-4  
 2.570000000000000E10    3.243884129915386E-4  -4.593260819092393E-4  
 2.572000000000000E10   -2.021450345637277E-4  -3.757808590307832E-4  
 2.574000000000000E10    6.174397422000766E-4  -6.900942535139620E-4  
 2.576000000000000E10    4.178613016847521E-4  -4.944494576193392E-4  
 2.578000000000000E10   -6.444063619710505E-4  -4.387237713672221E-4  
 2.580000000000000E10   -9.509408264420927E-4   1.625009695999324E-3  
 2.582000000000000E10    1.054356689564884E-3   3.406924661248922E-4  
 2.584000000000000E10    1.787898712791503E-3  -6.272030877880752E-4  
 2.586000000000000E10   -1.446434180252254E-3  -2.276848070323467E-3  
 2.588000000000000E10   -2.174149267375469E-3  -1.359837624477223E-4  
 2.590000000000000E10   -1.444975612685084E-3   1.981374574825168E-3  
 2.592000000000000E10    2.001619432121515E-3   5.043183336965740E-4  
 2.594000000000000E10    1.554118003696203E-3  -7.242961437441409E-4  
 2.596000000000000E10   -8.750346605665982E-4  -1.475911354646087E-3  
 2.598000000000000E10   -1.468760892748833E-3  -1.256861141882837E-3  
 2.600000000000000E10   -1.457680715247989E-3   6.792108761146665E-4  
 2.602000000000000E10   -1.693983067525551E-4   1.945098978467286E-3  
 2.604000000000000E10    1.902047428302467E-3   7.867371314205229E-4  
 2.606000000000000E10    1.540304161608219E-3  -1.876485883258283E-3  
 2.608000000000000E10   -1.628940575756133E-3  -1.436632126569748E-3  
 2.610000000000000E10   -3.069464117288590E-3   3.696192870847881E-4  
 2.612000000000000E10   -3.755054203793407E-4   1.943591283634305E-3  
 2.614000000000000E10    1.467627123929560E-3  -1.678849184827413E-5  
 2.616000000000000E10    4.443175857886672E-4  -1.338594360277057E-3  
 2.618000000000000E10   -8.583376184105873E-4  -1.053731888532639E-3  
 2.620000000000000E10   -1.074598636478186E-3  -4.998177755624056E-4  
 2.622000000000000E10   -2.442497352603823E-4   3.131219418719411E-4  
 2.624000000000000E10    6.396670942194760E-4   8.133710944093764E-4  
 2.626000000000000E10    3.757781814783812E-4   2.300211053807288E-4  
 2.628000000000000E10   -1.655204141570721E-5  -5.587055347859860E-4  
 2.630000000000000E10   -1.388767617754638E-3   3.690770245157182E-4  
 2.632000000000000E10   -5.774879828095436E-4   6.785857840441167E-4  
 2.634000000000000E10    4.446364182513207E-4   1.311297528445721E-4  
 2.636000000000000E10   -4.398327146191150E-4  -1.140563050284982E-3  
 2.638000000000000E10   -1.526412437669933E-3  -7.055236492305994E-4  
 2.640000000000000E10    7.940485375002027E-5   9.659436182118952E-4  
 2.642000000000000E10    1.135578728280962E-3   1.094725565053523E-3  
 2.644000000000000E10    1.078287372365594E-3  -2.068337053060532E-4  
 2.646000000000000E10    8.068982861004770E-4  -2.773315063677728E-4  
 2.648000000000000E10   -1.442654058337212E-3   5.035263602621853E-4  
 2.650000000000000E10   -1.945513882674277E-3   1.050167018547654E-3  
 2.652000000000000E10   -1.296117552556098E-4   2.097077667713165E-3  
 2.654000000000000E10    2.022222150117159E-3   5.929821054451168E-4  
 2.656000000000000E10    1.627848367206752E-3  -1.727620488964021E-3  
 2.658000000000000E10   -1.279798219911754E-3  -2.134699374437332E-3  
 2.660000000000000E10   -1.321971649304032E-3   1.166326925158501E-3  
 2.662000000000000E10    7.138313376344740E-4   2.361182821914554E-3  
 2.664000000000000E10    2.720808377489448E-3   1.319108996540308E-3  
 2.666000000000000E10    1.286259037442505E-3  -7.536324555985630E-4  
 2.668000000000000E10   -1.101505913538858E-4  -9.584880899637938E-4  
 2.670000000000000E10   -1.496690907515585E-3  -4.471829743124545E-4  
 2.672000000000000E10   -7.006152882240713E-4   8.508697501383722E-4  
 2.674000000000000E10    6.461536977440119E-4   1.628821599297226E-3  
 2.676000000000000E10    2.407566877081990E-3  -5.630539380945265E-4  
 2.678000000000000E10    8.746109087951481E-4  -1.681788591668010E-3  
 2.680000000000000E10   -1.310313702560961E-3  -9.115035063587129E-4  
 2.682000000000000E10   -5.647638463415206E-4   7.124405237846077E-4  
 2.684000000000000E10    1.308746752329171E-3   1.037032809108496E-3  
 2.686000000000000E10    9.090692037716508E-4  -5.043050623498857E-4  
 2.688000000000000E10   -4.352520627435297E-4  -1.032142783515155E-3  
 2.690000000000000E10   -5.229784292168915E-4  -9.949130617314950E-5  
 2.692000000000000E10   -7.207316230051220E-5  -1.991882454603910E-4  
 2.694000000000000E10    4.621853586286306E-4  -1.460625440813601E-3  
 2.696000000000000E10    7.481786306016147E-4  -5.956148379482329E-4  
 2.698000000000000E10    2.586238842923194E-4  -6.545084761455655E-4  
 2.700000000000000E10   -4.244122246745974E-4  -3.868756175506860E-5  
 2.702000000000000E10   -4.374965792521834E-4   7.728379569016397E-4  
 2.704000000000000E10    9.920521406456828E-4   8.928623865358532E-4  
 2.706000000000000E10    5.629712832160294E-4  -1.555039430968463E-3  
 2.708000000000000E10   -1.646421616896987E-3  -1.634791377000511E-3  
 2.710000000000000E10   -2.827504184097052E-3   3.261781530454755E-4  
 2.712000000000000E10    2.370949232499697E-6   1.176683697849512E-3  
 2.714000000000000E10    2.321384614333510E-3   3.058201982639730E-4  
 2.716000000000000E10    8.023324189707637E-4  -2.317298669368029E-3  
 2.718000000000000E10   -1.259999116882682E-3  -1.233063288964331E-3  
 2.720000000000000E10   -2.176280133426189E-3   3.922840696759522E-4  
 2.722000000000000E10   -3.818090772256255E-4   8.523053838871419E-4  
 2.724000000000000E10    7.966767880134285E-4   6.910959491506219E-4  
 2.726000000000000E10    1.363631803542376E-3  -8.355164318345487E-4  
 2.728000000000000E10    6.020333967171609E-4  -1.697363564744592E-3  
 2.730000000000000E10   -2.028080169111490E-3  -4.727529303636402E-4  
 2.732000000000000E10   -1.715302933007479E-3   1.377346226945519E-3  
 2.734000000000000E10    4.828880482818931E-4   1.908377860672772E-3  
 2.736000000000000E10    1.027560327202082E-3  -8.119464473566040E-5  
 2.738000000000000E10   -5.960648413747549E-4  -1.107388408854604E-3  
 2.740000000000000E10   -1.402453170157969E-3  -4.638205864466727E-4  
 2.742000000000000E10   -1.602708827704191E-3   5.160362343303859E-4  
 2.744000000000000E10    5.391901941038668E-4  -5.356651963666081E-4  
 2.746000000000000E10    5.689238896593452E-4   1.052475054166280E-4  
 2.748000000000000E10    2.902947308029980E-4  -5.089425394544378E-5  
 2.750000000000000E10    2.644252963364124E-4  -2.461661060806364E-4  
 2.752000000000000E10    1.648265024414286E-4   7.171594770625234E-4  
 2.754000000000000E10   -4.342690808698535E-4   9.566048975102603E-4  
 2.756000000000000E10    1.497063931310549E-4   4.359316080808640E-4  
