#  HZ   S   RI   R     50.00 
! Rohde & Schwarz ZVA40 4Ports - Version 3.90 - 1145.1110k42 SN: 100403
! Date: 2023-10-04 11:48:12
! Measurement: S12 
! 
 2.200000000000000E10    6.173823494464159E-4   9.625353413866833E-5  
 2.202000000000000E10   -9.831644274527207E-5  -1.751929521560669E-3  
 2.204000000000000E10   -1.713892095722258E-3   8.272140403278172E-4  
 2.206000000000000E10   -2.695872390177101E-4   1.600252464413643E-3  
 2.208000000000000E10    5.764867528341711E-4   2.933973737526685E-4  
 2.210000000000000E10   -1.663142815232277E-3  -6.205492536537349E-4  
 2.212000000000000E10   -1.745631569065154E-3   1.430603209882975E-3  
 2.214000000000000E10    1.094182138331235E-3   4.799752496182919E-4  
 2.216000000000000E10    1.562181976623833E-3  -1.328569604083896E-3  
 2.218000000000000E10   -2.471509855240583E-3  -1.167569658719003E-3  
 2.220000000000000E10   -3.301668039057404E-4   1.461999840103090E-3  
 2.222000000000000E10    3.721421817317605E-4   3.012607572600246E-3  
 2.224000000000000E10    1.657607033848763E-3  -9.062010212801397E-4  
 2.226000000000000E10    5.781259969808161E-4  -1.240642595803365E-4  
 2.228000000000000E10   -5.685458891093731E-4  -8.360817446373403E-5  
 2.230000000000000E10    1.689044584054500E-4  -5.921893171034753E-4  
 2.232000000000000E10   -6.318258820101619E-4   2.930364862550050E-4  
 2.234000000000000E10   -1.584808342158794E-4   2.746670739725232E-3  
 2.236000000000000E10    2.436963841319084E-3   7.582184625789523E-4  
 2.238000000000000E10    1.904449425637722E-3  -1.106209354475141E-3  
 2.240000000000000E10   -2.395404502749443E-3  -1.510171219706535E-3  
 2.242000000000000E10   -1.722224405966699E-3   7.451673736795783E-4  
 2.244000000000000E10   -8.749988046474755E-5   1.578662893734872E-3  
 2.246000000000000E10    1.667886972427368E-3  -4.990754678146914E-5  
 2.248000000000000E10    1.490772468969226E-3  -3.875096081173979E-5  
 2.250000000000000E10    3.049864026252180E-4  -8.387775160372257E-4  
 2.252000000000000E10    4.927898771711625E-5  -8.337391191162169E-4  
 2.254000000000000E10   -5.963900475762785E-4   6.810697868786519E-6  
 2.256000000000000E10   -1.004706951789558E-3   2.276292769238353E-3  
 2.258000000000000E10    1.234553987160325E-3   1.877381815575063E-3  
 2.260000000000000E10    2.426991006359458E-3  -4.401557380333543E-4  
 2.262000000000000E10   -1.311929430812597E-3  -2.047221874818206E-3  
 2.264000000000000E10   -1.053623622283340E-3  -5.518379039131105E-4  
 2.266000000000000E10   -1.585326208441984E-5   6.086307694204152E-4  
 2.268000000000000E10    3.389705962035805E-4  -7.922109216451645E-5  
 2.270000000000000E10    9.497712599113584E-4   2.023200795520097E-4  
 2.272000000000000E10    1.372183440253139E-3   9.270902373827994E-4  
 2.274000000000000E10    1.030187937431037E-3  -1.791850430890918E-3  
 2.276000000000000E10   -2.744644589256495E-4  -1.263458514586091E-3  
 2.278000000000000E10   -1.226754859089851E-3   1.249562366865575E-3  
 2.280000000000000E10    9.607228566892445E-4   7.039459305815399E-4  
 2.282000000000000E10    8.603874593973160E-4   1.108510536141694E-3  
 2.284000000000000E10    2.431367756798863E-4  -1.518970937468112E-3  
 2.286000000000000E10    2.741221396718174E-4  -6.065860725357197E-5  
 2.288000000000000E10    5.514471558853984E-4   2.593355202407111E-5  
 2.290000000000000E10    3.744116838788614E-5  -1.057592569850385E-3  
 2.292000000000000E10   -1.724803354591131E-3  -7.609481108374894E-4  
 2.294000000000000E10   -3.980321926064789E-4   1.058962312527001E-3  
 2.296000000000000E10    1.003714744001627E-3  -2.908746537286788E-4  
 2.298000000000000E10    1.275251968763769E-3  -2.060172846540809E-3  
 2.300000000000000E10    9.200632484862581E-5  -1.451837480999529E-3  
 2.302000000000000E10   -1.079814159311354E-3  -1.596583984792233E-3  
 2.304000000000000E10   -5.864129634574056E-4   5.307761966832914E-5  
 2.306000000000000E10   -6.417079130187631E-4   2.086401218548417E-3  
 2.308000000000000E10    1.362840412184596E-3   8.913601050153375E-4  
 2.310000000000000E10    1.804802450351417E-3  -1.111518940888345E-3  
 2.312000000000000E10   -1.866369042545557E-3  -2.516910666599870E-3  
 2.314000000000000E10   -5.006463266909123E-3  -1.276458846405149E-3  
 2.316000000000000E10   -2.416673582047224E-3   2.199812326580286E-3  
 2.318000000000000E10    1.655127038247883E-3   1.816887990571559E-3  
 2.320000000000000E10    2.419400261715055E-3  -2.787737641483545E-3  
 2.322000000000000E10   -8.933453354984522E-4  -2.737044123932719E-3  
 2.324000000000000E10   -1.924624666571617E-3  -8.841100498102605E-4  
 2.326000000000000E10   -1.253108843229711E-3   1.482775551266968E-3  
 2.328000000000000E10    8.511463965987787E-5   3.325772937387228E-3  
 2.330000000000000E10    1.461930922232568E-3   1.899608061648905E-3  
 2.332000000000000E10    1.703457906842232E-3  -2.376041520619765E-4  
 2.334000000000000E10   -2.353496383875608E-3  -1.185837434604764E-3  
 2.336000000000000E10   -3.262330777943134E-3   1.002680393867195E-3  
 2.338000000000000E10   -1.155522535555065E-3   2.543043345212936E-3  
 2.340000000000000E10    9.948897641152144E-4   4.114039766136557E-4  
 2.342000000000000E10    1.392217003740370E-3  -1.817587530240417E-3  
 2.344000000000000E10   -6.721828831359744E-4  -7.812005351297557E-4  
 2.346000000000000E10    8.763928199186921E-4   9.353648638352752E-4  
 2.348000000000000E10    2.499942667782307E-3   3.000437282025814E-4  
 2.350000000000000E10    1.468171481974423E-3   5.480077234096825E-4  
 2.352000000000000E10    3.954877684009261E-5   1.319274306297302E-3  
 2.354000000000000E10   -1.343264011666179E-4   1.306144869886339E-3  
 2.356000000000000E10    2.811290614772588E-4   1.545402803458273E-3  
 2.358000000000000E10    1.869082334451377E-4   3.303185803815723E-4  
 2.360000000000000E10    1.018809969536960E-3  -1.718773040920496E-3  
 2.362000000000000E10   -1.698429579846561E-3  -2.996658906340599E-3  
 2.364000000000000E10   -1.568277599290013E-3  -8.526166784577072E-4  
 2.366000000000000E10    2.582707093097270E-4   1.566428341902793E-3  
 2.368000000000000E10    3.779146354645491E-3   5.175917758606374E-4  
 2.370000000000000E10    3.781026462092996E-3  -2.229720121249557E-3  
 2.372000000000000E10   -1.140296692028642E-3  -3.247059416025877E-3  
 2.374000000000000E10   -3.135257167741656E-3   1.661410322412849E-3  
 2.376000000000000E10   -8.979679550975561E-4   4.263393115252256E-3  
 2.378000000000000E10    1.896776724606752E-3   1.992540434002876E-3  
 2.380000000000000E10    9.965082863345742E-4  -2.164590405300260E-3  
 2.382000000000000E10   -1.279793679714203E-3  -3.139734268188477E-3  
 2.384000000000000E10   -3.451884957030416E-3  -2.650276059284806E-3  
 2.386000000000000E10   -2.486559795215726E-3   5.046892911195755E-4  
 2.388000000000000E10    1.394262886606157E-3   2.003021072596312E-3  
 2.390000000000000E10    3.608380677178502E-3  -4.301436420064420E-4  
 2.392000000000000E10    1.496013603173196E-3  -2.105094259604812E-3  
 2.394000000000000E10   -1.905321376398206E-3  -9.998257737606764E-4  
 2.396000000000000E10   -2.254520310088992E-3   1.778850564733148E-3  
 2.398000000000000E10   -3.695622144732624E-4   2.798548666760325E-3  
 2.400000000000000E10    1.239776844158769E-3   9.819377446547151E-4  
 2.402000000000000E10   -1.223129802383483E-3  -1.377329230308533E-3  
 2.404000000000000E10   -1.373341656289995E-3  -5.971216014586389E-4  
 2.406000000000000E10   -1.767847134033218E-4  -7.215234654722735E-5  
 2.408000000000000E10    3.867767518386245E-4  -6.035547121427953E-4  
 2.410000000000000E10    9.924602927640081E-4  -5.362533556763083E-5  
 2.412000000000000E10    2.838337095454335E-4   3.916822897735983E-4  
 2.414000000000000E10   -1.145270434790291E-4   6.963926716707647E-4  
 2.416000000000000E10    9.363036951981485E-4   1.490334514528513E-3  
 2.418000000000000E10    4.155863716732711E-4   1.092621358111501E-3  
 2.420000000000000E10    6.511364481411874E-4  -8.856320637278259E-4  
 2.422000000000000E10   -9.607014944776893E-4  -4.185500147286803E-4  
 2.424000000000000E10   -2.044810215011239E-3   2.410782144579571E-5  
 2.426000000000000E10   -1.468326372560114E-4   1.992407953366637E-3  
 2.428000000000000E10    2.639125334098935E-3   7.561807287856937E-4  
 2.430000000000000E10    1.990981632843614E-3  -2.122122794389725E-3  
 2.432000000000000E10   -7.874428993090987E-4  -2.561969915404916E-3  
 2.434000000000000E10   -2.514644525945187E-3   2.845778944902122E-4  
 2.436000000000000E10   -7.213934441097081E-4   2.256945939734578E-3  
 2.438000000000000E10    2.600187901407480E-3   1.399015425704420E-3  
 2.440000000000000E10    1.977677457034588E-3  -5.706621450372040E-4  
 2.442000000000000E10    6.291405297815800E-4  -2.009142190217972E-3  
 2.444000000000000E10   -1.997521379962564E-3  -1.099594635888934E-3  
 2.446000000000000E10   -1.924616401083767E-3   1.747357076965272E-3  
 2.448000000000000E10    4.106234700884670E-5   2.572621917352080E-3  
 2.450000000000000E10    2.062362618744373E-3   1.287201186642051E-3  
 2.452000000000000E10    9.400411508977413E-4  -2.251424128189683E-3  
 2.454000000000000E10   -2.079542959108949E-3  -3.406196134164929E-3  
 2.456000000000000E10   -2.483179327100515E-3  -3.766550216823816E-4  
 2.458000000000000E10   -3.057844005525112E-4   1.124922884628177E-3  
 2.460000000000000E10    2.934011630713940E-3   4.411659901961684E-4  
 2.462000000000000E10    2.034780336543918E-3  -1.218020101077855E-3  
 2.464000000000000E10   -4.503190211835317E-5  -7.350019295699894E-4  
 2.466000000000000E10   -1.201768172904849E-3   7.456777384504676E-4  
 2.468000000000000E10   -1.252588815987110E-3   8.241379982791841E-4  
 2.470000000000000E10   -7.019289769232273E-4   8.137186523526907E-4  
 2.472000000000000E10   -9.521348401904106E-4  -1.260885619558394E-4  
 2.474000000000000E10   -1.120831817388535E-3  -1.522700767964125E-3  
 2.476000000000000E10   -7.659007678739727E-4  -1.384944422170520E-3  
 2.478000000000000E10   -4.350764502305538E-4  -2.250677789561451E-4  
 2.480000000000000E10    1.271972549147904E-3  -1.019129529595375E-3  
 2.482000000000000E10    8.285898366011679E-4  -5.803610547445715E-4  
 2.484000000000000E10   -1.336309011094272E-3  -7.426446245517582E-5  
 2.486000000000000E10   -1.209281384944916E-3   2.460517222061753E-3  
 2.488000000000000E10    1.112916506826878E-3   2.475757151842117E-3  
 2.490000000000000E10    4.816325090359896E-4  -2.704655053094029E-4  
 2.492000000000000E10   -1.771881361491978E-3  -2.431131200864911E-3  
 2.494000000000000E10   -2.844798611477017E-3  -8.345774258486927E-4  
 2.496000000000000E10   -1.771596376784146E-3   6.904691108502448E-4  
 2.498000000000000E10    1.293719280511141E-3   1.411742268828675E-4  
 2.500000000000000E10    2.216585678979754E-3  -3.178494516760111E-4  
 2.502000000000000E10    2.059223596006632E-3  -1.299141440540552E-3  
 2.504000000000000E10   -9.557700832374394E-4  -1.344198361039162E-3  
 2.506000000000000E10   -2.482309937477112E-3   1.438783714547753E-3  
 2.508000000000000E10   -1.485025393776596E-3   3.518676385283470E-3  
 2.510000000000000E10    2.092554001137614E-3   1.713995705358684E-3  
 2.512000000000000E10    2.204628894105554E-3  -1.587478676810861E-3  
 2.514000000000000E10   -2.081879414618015E-3  -2.775916596874595E-3  
 2.516000000000000E10   -2.711186185479164E-3   1.830877445172519E-4  
 2.518000000000000E10   -7.996381464181468E-5   2.516099018976092E-3  
 2.520000000000000E10    2.527101431041956E-3   1.197685720399022E-3  
 2.522000000000000E10    1.438090577721596E-3  -2.669079985935241E-4  
 2.524000000000000E10    3.929496742784977E-4  -8.064913563430309E-4  
 2.526000000000000E10   -2.945457235909998E-4  -4.645031294785440E-4  
 2.528000000000000E10   -8.556357352063060E-4   7.466616225428879E-4  
 2.530000000000000E10    7.059707422740758E-5   1.264050719328225E-3  
 2.532000000000000E10    1.878007315099239E-3   3.558389435056597E-4  
 2.534000000000000E10    9.036067058332264E-4  -1.356985419988632E-3  
 2.536000000000000E10   -7.567889406345785E-4  -4.951495211571455E-4  
 2.538000000000000E10    2.197450376115739E-4   1.638776389881969E-3  
 2.540000000000000E10    2.218879526481032E-3   4.443521320354193E-4  
 2.542000000000000E10    6.752064218744636E-4  -1.132660894654691E-3  
 2.544000000000000E10   -1.525839441455901E-3  -9.201195789501071E-4  
 2.546000000000000E10   -9.710017475299537E-4   1.264231395907700E-3  
 2.548000000000000E10    1.393888844177127E-3   3.294583584647626E-4  
 2.550000000000000E10    1.925177173689008E-3  -1.134915510192514E-3  
 2.552000000000000E10    3.816324460785836E-4  -1.523650251328945E-3  
 2.554000000000000E10   -2.416619281575549E-5  -1.105078845284879E-3  
 2.556000000000000E10   -8.211497915908694E-4   5.203977343626320E-4  
 2.558000000000000E10    1.776570570655167E-4   1.948136137798429E-3  
 2.560000000000000E10    2.406832762062550E-3   1.134662074036896E-3  
 2.562000000000000E10    1.484729233197868E-3  -1.149092800915241E-3  
 2.564000000000000E10   -2.199469599872828E-3  -2.305220114067197E-3  
 2.566000000000000E10   -2.807907061651349E-3   4.054191522300243E-4  
 2.568000000000000E10   -2.706955710891634E-4   2.631997689604759E-3  
 2.570000000000000E10    2.386928535997868E-3   1.005210215225816E-4  
 2.572000000000000E10    1.631532213650644E-3  -2.192386658862233E-3  
 2.574000000000000E10   -4.416139563545585E-4  -1.756123383529484E-3  
 2.576000000000000E10   -1.489592599682510E-3   9.376406524097547E-5  
 2.578000000000000E10   -6.725677521899343E-4   1.474877353757620E-3  
 2.580000000000000E10    6.670437869615853E-4   1.557065290398896E-3  
 2.582000000000000E10    1.582295284606516E-3  -1.001916389213875E-4  
 2.584000000000000E10    1.999323285417631E-5  -1.564047764986754E-3  
 2.586000000000000E10   -2.169807907193899E-3  -1.318626222200692E-3  
 2.588000000000000E10   -1.718087587505579E-3   6.901081069372594E-4  
 2.590000000000000E10    3.253021277487278E-4   9.601434576325119E-4  
 2.592000000000000E10    1.159785664640367E-3  -9.728347649797797E-4  
 2.594000000000000E10   -5.952461506240070E-4  -9.975563734769821E-4  
 2.596000000000000E10   -1.151543459855020E-3  -1.232870854437351E-4  
 2.598000000000000E10    1.191193950944580E-4   5.578894633799791E-4  
 2.600000000000000E10    4.598204977810383E-4  -2.670936519280076E-4  
 2.602000000000000E10   -6.487337668659166E-5  -4.942669766023755E-4  
 2.604000000000000E10   -7.322953315451741E-4   1.396628504153341E-4  
 2.606000000000000E10   -4.673391231335700E-4   8.809220162220299E-4  
 2.608000000000000E10   -5.345700192265213E-4   2.210434031439945E-4  
 2.610000000000000E10    3.752660413738340E-4   3.681491070892662E-4  
 2.612000000000000E10    3.996361629106104E-4  -7.732565863989294E-4  
 2.614000000000000E10   -8.438549702987075E-4  -1.621403382159770E-3  
 2.616000000000000E10   -1.713557518087328E-3   3.569567634258419E-4  
 2.618000000000000E10   -3.937161527574062E-4   1.829227199777961E-3  
 2.620000000000000E10    1.987899886444211E-3   7.419056055368856E-5  
 2.622000000000000E10    1.633058185689151E-3  -1.634162035770714E-3  
 2.624000000000000E10   -9.020894649438560E-4  -1.047110999934375E-3  
 2.626000000000000E10   -1.391009544022381E-3   3.615384630393237E-4  
 2.628000000000000E10   -6.921208696439862E-4   1.779950456693769E-3  
 2.630000000000000E10    7.163912523537874E-4   1.406681141816080E-3  
 2.632000000000000E10    1.057106419466436E-3  -9.955597488442436E-5  
 2.634000000000000E10    1.873673027148470E-4  -1.504678744822741E-3  
 2.636000000000000E10   -1.767715904861689E-3  -1.503578503616154E-3  
 2.638000000000000E10   -1.468185218982399E-3   7.821928011253476E-4  
 2.640000000000000E10    9.532548137940466E-4   2.043991815298796E-3  
 2.642000000000000E10    1.971723744645715E-3   2.225658972747624E-4  
 2.644000000000000E10    7.337672868743539E-4  -8.948320173658431E-4  
 2.646000000000000E10   -8.293630089610815E-4   3.235110780224204E-4  
 2.648000000000000E10   -1.261527417227626E-3   8.599312859587371E-4  
 2.650000000000000E10   -6.084053893573582E-4   4.087372508365661E-4  
 2.652000000000000E10   -3.050118102692068E-4   1.060346956364811E-3  
 2.654000000000000E10    8.328128024004400E-4   7.996658678166568E-5  
 2.656000000000000E10    4.600391912390478E-5  -9.702409151941538E-4  
 2.658000000000000E10   -6.064014742150903E-4  -2.008011651923880E-4  
 2.660000000000000E10    3.729077288880944E-4   6.048459326848388E-4  
 2.662000000000000E10    1.219406491145492E-3   4.783796903211623E-4  
 2.664000000000000E10    3.016435948666185E-4   1.828901295084506E-4  
 2.666000000000000E10   -1.733472745399922E-4   7.083412492647767E-4  
 2.668000000000000E10    1.592898624949157E-4   1.450208364985883E-3  
 2.670000000000000E10    8.669281960465014E-4   3.193909069523215E-4  
 2.672000000000000E10    3.004130849149078E-4  -4.963597166351974E-4  
 2.674000000000000E10   -8.732181158848107E-4  -1.767171343090013E-4  
 2.676000000000000E10   -7.829412934370339E-4   3.110456163994968E-4  
 2.678000000000000E10    2.968825283460319E-4   4.828092642128468E-4  
 2.680000000000000E10    7.744861650280654E-4   3.274457121733576E-4  
 2.682000000000000E10    1.797984936274588E-3   4.192701453575864E-5  
 2.684000000000000E10    7.450765115208924E-4  -1.125197391957045E-3  
 2.686000000000000E10   -1.794191426597536E-3  -7.594061898998916E-4  
 2.688000000000000E10   -1.576509093865752E-3   1.253926428034902E-3  
 2.690000000000000E10    1.035713125020266E-3   1.533832750283182E-3  
 2.692000000000000E10    1.879941672086716E-3  -1.200449652969837E-3  
 2.694000000000000E10    1.185993896797299E-3  -2.083147410303354E-3  
 2.696000000000000E10   -1.123200403526425E-3  -9.203468798659742E-4  
 2.698000000000000E10   -8.217625436373055E-4   8.513718494214118E-4  
 2.700000000000000E10    4.962258972227573E-4   1.338075613602996E-3  
 2.702000000000000E10    7.692517247051001E-4   4.129552398808301E-4  
 2.704000000000000E10    3.022958408109844E-4  -7.291488000191748E-4  
 2.706000000000000E10   -2.930457121692598E-4  -1.544683822430670E-3  
 2.708000000000000E10   -1.900161616504192E-3  -1.352049643173814E-3  
 2.710000000000000E10   -1.296854228712618E-3  -1.639541587792337E-4  
 2.712000000000000E10    1.341966562904418E-3   9.454914252273738E-4  
 2.714000000000000E10    1.534718205220997E-3  -1.018922659568489E-3  
 2.716000000000000E10   -5.059912218712270E-4  -1.137849758379161E-3  
 2.718000000000000E10   -6.126146181486547E-4   1.485737448092550E-4  
 2.720000000000000E10   -3.545548534020782E-4   5.512770148925483E-4  
 2.722000000000000E10   -1.301059091929346E-4  -6.310698227025569E-4  
 2.724000000000000E10   -6.291696336120367E-4  -3.266260318923742E-4  
 2.726000000000000E10   -1.246303785592318E-3   3.667171113193035E-4  
 2.728000000000000E10    2.186864585382864E-4  -9.934016998158768E-5  
 2.730000000000000E10    6.679756334051490E-4  -8.015664061531425E-4  
 2.732000000000000E10   -8.067580638453364E-4  -2.533280057832599E-4  
 2.734000000000000E10   -5.137145635671914E-4  -1.357626315439120E-4  
 2.736000000000000E10   -1.324682962149382E-4   3.755900252144784E-4  
 2.738000000000000E10   -1.086704898625612E-3   8.458530646748841E-4  
 2.740000000000000E10   -1.323951728409156E-4   6.516413995996118E-4  
 2.742000000000000E10    1.074133557267487E-3  -5.607662606053054E-4  
 2.744000000000000E10   -8.034720085561276E-4  -1.521706115454435E-3  
 2.746000000000000E10   -1.747003756463528E-3  -2.289265976287425E-4  
 2.748000000000000E10   -6.257022032514215E-4   1.007929095067084E-3  
 2.750000000000000E10    1.219493919052184E-3   6.745759746991098E-4  
 2.752000000000000E10    1.342468429356813E-3  -7.752074161544442E-4  
 2.754000000000000E10   -1.562836259836331E-4  -3.092594852205366E-4  
 2.756000000000000E10   -9.746252326294780E-4   6.405723397620022E-4  
