#  HZ   S   RI   R     50.00 
! Rohde & Schwarz ZVA40 4Ports - Version 3.90 - 1145.1110k42 SN: 100403
! Date: 2023-10-04 11:47:57
! Measurement: S12 
! 
 2.200000000000000E10    2.019722247496247E-3   1.135407015681267E-3  
 2.202000000000000E10    3.163452201988548E-4  -1.479288679547608E-3  
 2.204000000000000E10   -1.229079789482057E-3  -3.514498821459711E-4  
 2.206000000000000E10   -2.581772860139608E-3   1.218061312101781E-3  
 2.208000000000000E10    1.233532093465328E-4  -1.380528847221285E-4  
 2.210000000000000E10    4.656052260543220E-5   2.654461241036188E-6  
 2.212000000000000E10    8.283271454274654E-4  -5.106311291456223E-4  
 2.214000000000000E10    2.176556037738919E-3  -1.226181775564328E-4  
 2.216000000000000E10    4.984501865692437E-4  -1.921044196933508E-3  
 2.218000000000000E10   -1.705207861959934E-3   3.536108706612140E-4  
 2.220000000000000E10   -6.929283263161779E-4   2.846484538167715E-3  
 2.222000000000000E10    1.958358800038695E-3   2.185744699090719E-3  
 2.224000000000000E10    1.007813611067832E-3  -1.957061467692256E-3  
 2.226000000000000E10   -1.101700123399496E-3  -1.564822043292224E-3  
 2.228000000000000E10   -1.845620106905699E-3   2.770001883618534E-4  
 2.230000000000000E10   -1.195054865092970E-4  -7.028658001217991E-5  
 2.232000000000000E10    2.260386681882665E-4   2.620378218125552E-4  
 2.234000000000000E10    1.448667608201504E-3   1.169230439700186E-3  
 2.236000000000000E10    1.185730565339327E-3  -5.015280912630260E-4  
 2.238000000000000E10    1.180564635433257E-3  -1.520529971458018E-3  
 2.240000000000000E10   -2.663530176505446E-3  -5.670814425684512E-4  
 2.242000000000000E10   -9.838497499004006E-4   1.441527507267892E-3  
 2.244000000000000E10    2.467029029503465E-3   2.207308309152722E-3  
 2.246000000000000E10    1.576892449520528E-3  -9.977183071896434E-4  
 2.248000000000000E10   -1.543396210763603E-4  -1.399361644871533E-3  
 2.250000000000000E10   -5.407856660895050E-4  -6.302877591224387E-5  
 2.252000000000000E10   -1.945410622283816E-4  -6.158272185530223E-7  
 2.254000000000000E10   -4.727483610622585E-4  -4.693087976193056E-5  
 2.256000000000000E10   -2.717184834182262E-4   1.083721057511866E-3  
 2.258000000000000E10    1.037892070598900E-3   8.192165114451200E-5  
 2.260000000000000E10    7.886438397690654E-4  -1.373728620819747E-3  
 2.262000000000000E10   -1.711225719191134E-3  -1.305780024267733E-3  
 2.264000000000000E10   -9.151488484349102E-5   6.050555384717882E-4  
 2.266000000000000E10    7.986173150129616E-4   1.021252246573567E-3  
 2.268000000000000E10    1.514666597358882E-3  -7.080492796376348E-4  
 2.270000000000000E10   -6.155551527626813E-4   4.763806937262416E-4  
 2.272000000000000E10   -1.371380058117211E-4   1.137536484748125E-3  
 2.274000000000000E10    1.766501925885677E-3   1.781821920303628E-4  
 2.276000000000000E10    6.244037649594247E-5  -1.300506177358329E-3  
 2.278000000000000E10   -2.504723379388452E-3  -7.120792288333178E-4  
 2.280000000000000E10   -5.708421813324094E-4   5.005894854548387E-5  
 2.282000000000000E10    1.036261906847358E-3   1.664257724769414E-3  
 2.284000000000000E10    8.528645848855376E-4  -5.309353582561016E-4  
 2.286000000000000E10    2.305899979546666E-3  -8.248559897765517E-4  
 2.288000000000000E10    2.233515406260267E-4  -9.610165725462139E-4  
 2.290000000000000E10   -1.805766602046788E-3  -8.350986754521728E-4  
 2.292000000000000E10   -9.867345215752721E-4   2.364853862673044E-3  
 2.294000000000000E10    1.955324318259955E-3   2.963588107377291E-3  
 2.296000000000000E10    2.627453533932567E-3  -1.377296750433743E-3  
 2.298000000000000E10    2.864629495888948E-4  -3.966446034610272E-3  
 2.300000000000000E10   -4.168363753706217E-3  -7.031519780866802E-4  
 2.302000000000000E10   -2.331514609977603E-3   1.746806898154318E-3  
 2.304000000000000E10    2.747412072494626E-3   1.140351872891188E-3  
 2.306000000000000E10    2.363451058045030E-3  -1.146311755292118E-3  
 2.308000000000000E10    2.267071395181119E-4  -3.257622243836522E-3  
 2.310000000000000E10   -1.106056035496295E-3  -1.924028270877898E-3  
 2.312000000000000E10   -2.629226539283991E-3  -1.386955118505284E-4  
 2.314000000000000E10   -1.077944471035153E-4   1.712170545943081E-3  
 2.316000000000000E10    2.509968122467399E-3   9.986246004700661E-4  
 2.318000000000000E10    1.693541300483048E-3  -2.082424238324165E-3  
 2.320000000000000E10   -1.871192827820778E-3  -2.441940829157829E-3  
 2.322000000000000E10   -1.861770288087428E-3   5.539355333894491E-4  
 2.324000000000000E10   -4.725072358269244E-4   2.320718718692660E-3  
 2.326000000000000E10    8.950736373662949E-4   5.413069084170274E-5  
 2.328000000000000E10   -1.770827511791140E-4  -1.627880847081542E-3  
 2.330000000000000E10   -2.585399430245161E-3  -3.005038597621024E-4  
 2.332000000000000E10    2.741008756856900E-5   9.074959671124816E-4  
 2.334000000000000E10    2.586520859040320E-4   1.850265107350424E-4  
 2.336000000000000E10   -4.924980457872152E-4  -2.033967524766922E-3  
 2.338000000000000E10   -7.871339912526310E-4  -4.376926226541400E-4  
 2.340000000000000E10   -9.955306304618716E-4   7.003792561590672E-4  
 2.342000000000000E10    2.857661165762693E-4   1.363953808322549E-3  
 2.344000000000000E10    2.011208562180400E-3   2.073654206469655E-3  
 2.346000000000000E10    1.821485115215182E-3  -9.740406530909240E-4  
 2.348000000000000E10   -1.473205746151507E-3  -1.339506241492927E-3  
 2.350000000000000E10   -3.199913306161761E-3   1.723895431496203E-3  
 2.352000000000000E10   -9.397708927281201E-4   3.152512013912201E-3  
 2.354000000000000E10    2.891831332817674E-3   2.001357264816761E-3  
 2.356000000000000E10    2.129895612597466E-3  -2.539072185754776E-3  
 2.358000000000000E10   -1.465434092096984E-3  -3.882852615788579E-3  
 2.360000000000000E10   -2.991975052282214E-3   1.248288608621806E-4  
 2.362000000000000E10   -1.207494715345092E-4   2.658593235537410E-3  
 2.364000000000000E10    3.766874084249139E-3   1.382938120514154E-3  
 2.366000000000000E10    3.774608718231320E-3  -7.579355151392520E-4  
 2.368000000000000E10    6.322323461063206E-4  -2.263127826154232E-3  
 2.370000000000000E10   -1.406773808412254E-3  -1.065042219124734E-3  
 2.372000000000000E10   -2.564999042078853E-3   3.348611993715167E-3  
 2.374000000000000E10    1.222493476234376E-3   3.034788882359862E-3  
 2.376000000000000E10    2.333962824195623E-3  -3.098242741543800E-4  
 2.378000000000000E10   -7.592279871460050E-5  -2.949966117739677E-3  
 2.380000000000000E10   -2.287893090397120E-3  -2.894105389714241E-3  
 2.382000000000000E10   -1.646065036766231E-3  -8.821582014206797E-5  
 2.384000000000000E10    1.115020015276969E-3   8.798331837169826E-4  
 2.386000000000000E10    2.533846534788609E-3  -1.232211478054524E-3  
 2.388000000000000E10    9.999884059652686E-4  -1.185389701277018E-3  
 2.390000000000000E10   -4.484251549001783E-4   7.020246121101081E-4  
 2.392000000000000E10    3.142887144349515E-4   7.110585574992001E-4  
 2.394000000000000E10    4.920866922475398E-4   9.738230728544295E-4  
 2.396000000000000E10   -3.756347286980599E-4  -1.210376140079461E-4  
 2.398000000000000E10   -1.455178251489997E-3  -3.855197865050286E-4  
 2.400000000000000E10   -2.035268582403660E-3   3.588087856769562E-4  
 2.402000000000000E10   -3.161798813380301E-4   9.657554073783103E-6  
 2.404000000000000E10    2.033044118434191E-3  -9.723154362291098E-4  
 2.406000000000000E10    1.164450310170651E-3  -2.132911467924714E-3  
 2.408000000000000E10   -9.540853789076209E-4  -1.846955507062376E-3  
 2.410000000000000E10   -1.009785453788936E-3   1.466918387450278E-3  
 2.412000000000000E10    6.140448967926204E-4   3.606064477935433E-3  
 2.414000000000000E10    2.732021734118462E-3   1.240109675563872E-3  
 2.416000000000000E10    6.800992996431887E-4  -1.744176959618926E-3  
 2.418000000000000E10   -2.828530035912991E-3  -1.766064437106252E-3  
 2.420000000000000E10   -3.654695581644774E-3  -4.237002576701343E-5  
 2.422000000000000E10   -5.607869243249297E-4   1.796971075236797E-3  
 2.424000000000000E10    1.505267224274576E-3   1.332301617367193E-4  
 2.426000000000000E10    2.980407094582915E-3  -2.138246083632112E-3  
 2.428000000000000E10    4.401675541885197E-4  -2.374482806771994E-3  
 2.430000000000000E10   -2.097696298733354E-3  -9.464271133765578E-4  
 2.432000000000000E10   -9.407147881574929E-4   2.731002168729901E-3  
 2.434000000000000E10    6.024626782163978E-4   2.940216101706028E-3  
 2.436000000000000E10    1.874502049759030E-3   6.342926644720137E-4  
 2.438000000000000E10    1.010556588880718E-3  -1.934852451086044E-3  
 2.440000000000000E10   -2.978984965011478E-3  -1.149613526649773E-3  
 2.442000000000000E10   -2.523812465369701E-3   1.135398088081274E-5  
 2.444000000000000E10    7.609345484524965E-4   1.775376731529832E-3  
 2.446000000000000E10    1.039499067701399E-3   2.352933370275423E-4  
 2.448000000000000E10    6.081809988245368E-4  -1.646568067371845E-3  
 2.450000000000000E10   -8.928561874199659E-5  -1.434783916920424E-4  
 2.452000000000000E10   -9.563405765220523E-4   1.810321409720928E-4  
 2.454000000000000E10   -8.475995855405927E-6   3.648495476227254E-4  
 2.456000000000000E10    1.876362366601825E-4   9.213925804942846E-4  
 2.458000000000000E10   -2.014778729062527E-4   3.178149345330894E-4  
 2.460000000000000E10    4.273228987585753E-4  -2.435492206132039E-4  
 2.462000000000000E10    1.002199642243795E-4   3.714998892974109E-4  
 2.464000000000000E10   -2.841458190232515E-4  -1.071380611392669E-4  
 2.466000000000000E10    6.708178552798927E-4  -3.207566915079951E-4  
 2.468000000000000E10   -1.014451754599577E-5  -5.480176769196987E-4  
 2.470000000000000E10   -1.838478376157582E-3  -7.029243279248476E-4  
 2.472000000000000E10   -2.649457892403007E-4   1.227901084348559E-3  
 2.474000000000000E10    1.891533378511667E-3   6.935069686733186E-4  
 2.476000000000000E10    1.770579721778631E-3  -2.465276047587395E-3  
 2.478000000000000E10   -3.248209832236171E-4  -1.776726800017059E-3  
 2.480000000000000E10   -2.079397439956665E-3   1.273855596082285E-4  
 2.482000000000000E10   -3.720074892044067E-4   1.917730667628348E-3  
 2.484000000000000E10    7.945683901198208E-4   1.845804159529507E-3  
 2.486000000000000E10    1.416878076270223E-3  -6.354549550451338E-4  
 2.488000000000000E10   -6.875797407701612E-4  -2.178377006202936E-3  
 2.490000000000000E10   -2.356791635975242E-3  -2.437575487419963E-3  
 2.492000000000000E10   -2.266391413286328E-3  -1.285814796574414E-4  
 2.494000000000000E10    3.389743214938790E-4   1.183902146294713E-3  
 2.496000000000000E10    2.932120114564896E-3   8.034463826334104E-5  
 2.498000000000000E10    2.377407392486930E-3  -3.215263364836574E-3  
 2.500000000000000E10   -1.101904315873981E-3  -8.531718631274998E-4  
 2.502000000000000E10   -2.705348422750831E-3   1.353662577457726E-3  
 2.504000000000000E10    1.454445446142927E-4   2.640611957758665E-3  
 2.506000000000000E10   -7.716193067608401E-5   1.409511314705014E-3  
 2.508000000000000E10   -3.601658972911537E-4  -9.001140133477747E-4  
 2.510000000000000E10   -7.847907254472375E-4  -1.260190969333053E-3  
 2.512000000000000E10   -1.754970871843398E-3  -1.517172437161207E-3  
 2.514000000000000E10   -1.231571659445763E-3  -5.314554437063634E-4  
 2.516000000000000E10    1.073892111890018E-3   7.959036738611758E-4  
 2.518000000000000E10    1.973164733499289E-3   6.741174729540944E-4  
 2.520000000000000E10    1.053876243531704E-3  -8.015146013349295E-4  
 2.522000000000000E10   -1.312993845203891E-4   1.133623649366200E-3  
 2.524000000000000E10   -1.553896290715784E-4   2.567269140854478E-3  
 2.526000000000000E10    7.351599633693695E-4   8.785842801444233E-4  
 2.528000000000000E10   -5.060865660198033E-4  -1.427987881470472E-4  
 2.530000000000000E10   -2.547621494159102E-3   2.788604469969869E-4  
 2.532000000000000E10   -2.153086243197322E-4   1.041635405272245E-3  
 2.534000000000000E10    1.671842648647726E-3  -5.585778271779418E-4  
 2.536000000000000E10    1.146264723502100E-3  -1.779593643732369E-3  
 2.538000000000000E10    8.192009991034865E-4  -4.721985314972699E-4  
 2.540000000000000E10    6.335348007269204E-4   2.341170620638877E-4  
 2.542000000000000E10    3.389982739463449E-4   9.025111794471741E-4  
 2.544000000000000E10    5.403682007454336E-4   1.980843488126993E-3  
 2.546000000000000E10    1.906385528855026E-3   8.826753473840654E-4  
 2.548000000000000E10    1.347346114926040E-3  -1.101801986806095E-3  
 2.550000000000000E10   -1.781431958079338E-3  -1.217041979543865E-3  
 2.552000000000000E10   -2.910202834755182E-3   1.081498106941581E-3  
 2.554000000000000E10    1.244130544364452E-3   1.843132660724223E-3  
 2.556000000000000E10    2.623974345624447E-3  -3.529002424329519E-4  
 2.558000000000000E10    5.608061328530312E-4  -2.814777195453644E-3  
 2.560000000000000E10   -7.409053505398333E-4  -1.168336719274521E-3  
 2.562000000000000E10   -8.161113364621997E-4   4.373084811959416E-4  
 2.564000000000000E10   -2.572686644271016E-4   9.104004129767418E-4  
 2.566000000000000E10    1.122648129239678E-3   7.747830823063850E-4  
 2.568000000000000E10    1.399839064106345E-3   6.536013097502291E-5  
 2.570000000000000E10   -1.503734893049114E-5  -2.225832315161824E-3  
 2.572000000000000E10   -1.453193021006882E-3  -9.619326447136700E-4  
 2.574000000000000E10   -1.698097330518067E-3   1.144705107435584E-3  
 2.576000000000000E10    1.157204038463533E-3   3.140817570965737E-4  
 2.578000000000000E10    1.496558426879346E-3  -8.449473534710705E-4  
 2.580000000000000E10   -9.780824184417725E-4  -5.216415156610310E-4  
 2.582000000000000E10   -5.749596166424453E-4  -1.978025538846850E-4  
 2.584000000000000E10    3.308822051621974E-4   4.558172076940537E-4  
 2.586000000000000E10   -6.021019653417170E-4  -4.694170202128589E-4  
 2.588000000000000E10   -6.495444104075432E-4  -6.160233751870692E-4  
 2.590000000000000E10   -6.345174042508006E-4   7.702605216763914E-4  
 2.592000000000000E10   -4.982984391972423E-4  -9.178043110296130E-4  
 2.594000000000000E10    3.618275222834200E-4  -6.160735501907766E-4  
 2.596000000000000E10   -1.866215316113085E-4   9.946184582076967E-5  
 2.598000000000000E10    5.460328538902104E-4  -1.214824151247740E-3  
 2.600000000000000E10   -5.773394950665534E-4  -8.648265502415597E-4  
 2.602000000000000E10   -1.048988313414156E-3   5.683687049895525E-4  
 2.604000000000000E10    1.409342366969213E-4   1.522618462331593E-3  
 2.606000000000000E10    2.089683199301362E-3  -6.208592094480991E-4  
 2.608000000000000E10   -3.113953280262649E-4  -1.165263587608933E-3  
 2.610000000000000E10   -2.298979787155986E-3  -6.138688768260181E-4  
 2.612000000000000E10   -1.442452310584486E-3   1.698027015663683E-3  
 2.614000000000000E10   -2.538400294724852E-4   4.399180761538446E-4  
 2.616000000000000E10    1.014179317280650E-3  -3.158171894028783E-4  
 2.618000000000000E10    2.523371658753604E-4  -9.688927675597370E-4  
 2.620000000000000E10    2.543313021305949E-4  -1.434498582966626E-3  
 2.622000000000000E10   -9.837014367803931E-4  -2.615769044496119E-4  
 2.624000000000000E10   -1.060185953974724E-3   1.560263684950769E-3  
 2.626000000000000E10    1.111270510591567E-3   1.927191391587257E-3  
 2.628000000000000E10    1.758543890900910E-3  -7.274459494510666E-5  
 2.630000000000000E10   -8.681646431796253E-4  -1.202712533995509E-3  
 2.632000000000000E10   -2.401164500042796E-3  -3.878499846905470E-4  
 2.634000000000000E10   -2.239553577965125E-4   8.016648353077471E-4  
 2.636000000000000E10    3.573311259970069E-4  -2.167259081033990E-4  
 2.638000000000000E10    4.699688288383186E-4  -4.008192991022952E-5  
 2.640000000000000E10    9.033886599354446E-4   5.993570666760206E-4  
 2.642000000000000E10    6.962529150769115E-4  -2.746274403762072E-4  
 2.644000000000000E10   -2.850461169146001E-4   3.216810728190467E-5  
 2.646000000000000E10   -3.331101615913212E-4   6.925334455445409E-4  
 2.648000000000000E10    3.327206650283188E-4   1.419426058419049E-3  
 2.650000000000000E10    2.629790687933564E-4  -3.877802100760164E-6  
 2.652000000000000E10   -7.327792118303478E-4   2.853930345736444E-4  
 2.654000000000000E10    1.899926282931119E-4   2.446825419610832E-5  
 2.656000000000000E10    1.017971197143197E-3  -6.986899534240365E-4  
 2.658000000000000E10   -2.328953560208902E-4  -1.559051452204585E-3  
 2.660000000000000E10   -3.708560543600470E-4   6.453373935073614E-4  
 2.662000000000000E10    3.005259786732495E-4   1.804121187888086E-3  
 2.664000000000000E10    1.451287651434541E-3   4.688405024353415E-4  
 2.666000000000000E10    4.950826405547559E-4  -1.836018054746091E-4  
 2.668000000000000E10   -4.199866089038551E-4   4.946003318764269E-4  
 2.670000000000000E10   -1.524738036096096E-3   2.946945896837860E-4  
 2.672000000000000E10   -8.836638880893588E-4   1.073941966751590E-4  
 2.674000000000000E10   -7.448528776876628E-4   1.240442623384297E-3  
 2.676000000000000E10    6.729346932843328E-4  -3.639830974861980E-4  
 2.678000000000000E10    1.534479670226574E-3  -9.498783037997782E-4  
 2.680000000000000E10   -1.306527992710471E-3  -1.009569386951625E-3  
 2.682000000000000E10   -7.678415859118104E-4   2.717053575906903E-4  
 2.684000000000000E10    2.212917024735361E-5   1.700780005194247E-3  
 2.686000000000000E10    1.071456004865468E-3  -3.021017073479015E-5  
 2.688000000000000E10    3.017925519088749E-5  -5.410814192146063E-4  
 2.690000000000000E10    2.282556379213929E-4   1.442885695723817E-4  
 2.692000000000000E10   -1.709065982140601E-4   2.283906651427969E-4  
 2.694000000000000E10   -5.830484442412853E-4  -9.862695587798953E-4  
 2.696000000000000E10   -1.136871171183884E-3   8.129215566441417E-4  
 2.698000000000000E10    2.792670566122979E-4   5.105501622892916E-4  
 2.700000000000000E10    1.443247776478529E-3  -2.095046947943047E-4  
 2.702000000000000E10   -8.748518885113299E-4  -1.256461720913649E-3  
 2.704000000000000E10   -6.806151941418648E-5  -9.558142046444118E-4  
 2.706000000000000E10   -1.543560792924836E-4  -1.756060373736545E-4  
 2.708000000000000E10    1.288879138883203E-4  -2.166252525057644E-4  
 2.710000000000000E10    4.561472815112211E-5  -8.588047785451636E-5  
 2.712000000000000E10    1.341715687885881E-3   1.095537096261978E-3  
 2.714000000000000E10    9.086527279578149E-4  -3.947844961658120E-4  
 2.716000000000000E10   -4.903728840872645E-4  -1.918478985317051E-3  
 2.718000000000000E10   -1.745858462527394E-3   7.330043008551002E-4  
 2.720000000000000E10   -3.062259056605399E-4   1.057546818628907E-3  
 2.722000000000000E10    1.332694897428155E-3  -1.219721070810920E-5  
 2.724000000000000E10   -8.391186711378396E-4  -1.664157956838608E-3  
 2.726000000000000E10   -4.869392432738096E-4  -1.428394927643240E-3  
 2.728000000000000E10    8.839242509566248E-4  -8.960714330896735E-4  
 2.730000000000000E10   -5.151548539288342E-4  -9.633864974603057E-4  
 2.732000000000000E10   -4.663155123125762E-4   5.615773261524737E-4  
 2.734000000000000E10    1.315302215516567E-3   1.288093393668532E-3  
 2.736000000000000E10    7.135682390071452E-4   4.213773354422301E-5  
 2.738000000000000E10   -9.932430693879724E-4  -1.282401150092483E-3  
 2.740000000000000E10   -1.553768641315401E-3   4.559316148515791E-4  
 2.742000000000000E10   -5.287535022944212E-4   9.148840908892453E-4  
 2.744000000000000E10    2.061480336124077E-5  -1.117831328883767E-3  
 2.746000000000000E10   -5.750739946961403E-4  -8.223934564739466E-4  
 2.748000000000000E10   -3.242078237235546E-4   3.493845579214394E-4  
 2.750000000000000E10    1.362932729534805E-3  -2.090530906571075E-4  
 2.752000000000000E10    1.708145282464102E-4  -5.255462019704282E-4  
 2.754000000000000E10   -1.633325358852744E-3   2.642646140884608E-4  
 2.756000000000000E10   -3.757135709747672E-4   1.595385954715312E-3  
