#  HZ   S   RI   R     50.00 
! Rohde & Schwarz ZVA40 4Ports - Version 3.90 - 1145.1110k42 SN: 100403
! Date: 2023-10-04 11:47:36
! Measurement: S12 
! 
 2.200000000000000E10    2.367891138419509E-3  -1.731701340759173E-4  
 2.202000000000000E10   -1.574407331645489E-3  -2.780936192721129E-3  
 2.204000000000000E10   -3.793297102674842E-3  -5.853276816196740E-4  
 2.206000000000000E10   -1.258404110558331E-3   2.558438340201974E-3  
 2.208000000000000E10    1.939614186994731E-3  -1.014152076095343E-4  
 2.210000000000000E10    2.009032992646098E-3  -9.116089786402881E-4  
 2.212000000000000E10   -1.316988636972383E-4  -1.258755102753639E-3  
 2.214000000000000E10    1.848940883064643E-4  -2.210938400821760E-4  
 2.216000000000000E10   -9.059162111952901E-4   1.309219864197075E-3  
 2.218000000000000E10   -1.167582347989082E-3   1.699990476481617E-3  
 2.220000000000000E10    1.457814360037446E-3   1.735324971377850E-3  
 2.222000000000000E10    1.573661807924509E-3  -9.971910185413435E-5  
 2.224000000000000E10   -1.138615305535495E-3  -2.849346259608865E-3  
 2.226000000000000E10   -2.341844141483307E-3  -2.946451713796705E-4  
 2.228000000000000E10   -4.974706098437309E-4   2.172333188354969E-3  
 2.230000000000000E10    2.575065242126584E-3  -2.206931094406173E-4  
 2.232000000000000E10    1.702148350887001E-3  -9.768739109858871E-4  
 2.234000000000000E10   -4.449622938409448E-4  -5.192755488678813E-4  
 2.236000000000000E10    4.859085311181843E-4   5.714187864214182E-4  
 2.238000000000000E10    4.645571461878717E-4  -1.929400168592110E-4  
 2.240000000000000E10   -6.610527634620667E-4   9.664449607953429E-4  
 2.242000000000000E10    2.908899041358382E-4   4.693947848863900E-4  
 2.244000000000000E10    6.274683400988579E-4   6.189744453877211E-4  
 2.246000000000000E10    5.788875205325894E-5  -1.154701807536185E-3  
 2.248000000000000E10   -2.682802150957286E-4   7.072325388435274E-5  
 2.250000000000000E10    3.838215779978782E-4   9.944970952346921E-4  
 2.252000000000000E10    4.332958487793803E-4  -9.095652494579554E-4  
 2.254000000000000E10   -9.536405559629202E-4  -9.727111901156604E-4  
 2.256000000000000E10   -1.012590248137713E-3   9.326662984676659E-4  
 2.258000000000000E10    1.231548725627363E-3   1.160052372142673E-3  
 2.260000000000000E10    1.761703635565937E-3  -1.622991985641420E-3  
 2.262000000000000E10   -6.886270130053163E-4  -1.935844193212688E-3  
 2.264000000000000E10   -1.518567674793303E-3   3.103031485807151E-5  
 2.266000000000000E10    1.124707923736423E-4   1.545695820823312E-3  
 2.268000000000000E10    5.018856027163565E-4   7.239176193252206E-4  
 2.270000000000000E10    1.271840534172952E-3   2.435912902001292E-4  
 2.272000000000000E10    1.164114568382502E-3  -9.123236668528989E-5  
 2.274000000000000E10   -1.275257440283895E-3  -2.337549347430468E-3  
 2.276000000000000E10   -2.465542871505022E-3  -4.513933381531388E-4  
 2.278000000000000E10   -1.595565350726247E-3   2.554771257564426E-3  
 2.280000000000000E10    2.802823437377811E-3   9.469319484196603E-4  
 2.282000000000000E10    3.636101959273219E-3   7.961170049384236E-4  
 2.284000000000000E10   -1.086726668290794E-3  -3.121257061138749E-3  
 2.286000000000000E10   -2.181124407798052E-3  -2.162061718991026E-5  
 2.288000000000000E10   -9.952845721272752E-5   3.069086000323296E-3  
 2.290000000000000E10    1.598008559085429E-3   2.071316353976727E-3  
 2.292000000000000E10    1.732659758999944E-3   6.658830534433946E-5  
 2.294000000000000E10    7.423121132887900E-4  -7.818403537385166E-4  
 2.296000000000000E10   -1.841362915001810E-3  -1.406761468388140E-3  
 2.298000000000000E10   -1.804117695428431E-3   1.575750502524898E-4  
 2.300000000000000E10   -2.506322925910354E-4   2.215532818809152E-3  
 2.302000000000000E10    2.498843008652329E-3  -5.753841251134872E-4  
 2.304000000000000E10    1.922972500324249E-3  -2.584310946986079E-3  
 2.306000000000000E10   -6.012410740368068E-4  -1.391809200868011E-3  
 2.308000000000000E10   -2.832288155332208E-4   7.770897354930639E-4  
 2.310000000000000E10    1.790407812222838E-3   1.160634797997773E-3  
 2.312000000000000E10    1.563465339131653E-3   2.226701908512041E-4  
 2.314000000000000E10   -1.048782025463879E-3  -1.978016516659409E-4  
 2.316000000000000E10   -1.293905312195420E-3   1.151320873759687E-3  
 2.318000000000000E10    1.755973207764328E-4   7.603652193211019E-4  
 2.320000000000000E10    5.302450153976679E-4  -1.221716287545860E-3  
 2.322000000000000E10   -9.344922145828605E-4  -1.150395604781807E-3  
 2.324000000000000E10   -1.146335271187127E-3  -1.548193511553109E-3  
 2.326000000000000E10   -7.039724732749164E-4  -3.318849776405841E-4  
 2.328000000000000E10    3.733272606041282E-4   7.924062665551901E-4  
 2.330000000000000E10    2.553038299083710E-3   2.463218879711349E-5  
 2.332000000000000E10    2.090279944241047E-3  -2.891729585826397E-3  
 2.334000000000000E10   -1.572316163219512E-3  -1.712024211883545E-3  
 2.336000000000000E10   -2.178539521992207E-3   1.039712340570986E-3  
 2.338000000000000E10    7.381389150395989E-5   4.311101976782084E-3  
 2.340000000000000E10    2.256979933008552E-3   1.003795303404331E-3  
 2.342000000000000E10    1.237765653058887E-3  -2.528727054595947E-3  
 2.344000000000000E10   -3.274148795753717E-3  -1.904760021716356E-3  
 2.346000000000000E10   -3.787891473621130E-3   5.185994086787105E-4  
 2.348000000000000E10   -7.355839479714632E-4   2.023293636739254E-3  
 2.350000000000000E10    2.283109584823251E-3   1.079635112546384E-3  
 2.352000000000000E10    2.324143424630165E-3  -1.542046433314681E-3  
 2.354000000000000E10    9.028261993080378E-4  -3.028003266081214E-3  
 2.356000000000000E10   -2.513038692995906E-3   1.770494272932410E-4  
 2.358000000000000E10   -1.551906345412135E-3   2.020723884925246E-3  
 2.360000000000000E10    2.818209584802389E-3   3.037023358047009E-3  
 2.362000000000000E10    2.025955822318792E-3   1.789262023521587E-4  
 2.364000000000000E10   -3.119071479886770E-4  -1.732419244945049E-3  
 2.366000000000000E10   -2.290831180289388E-3  -1.186544322990812E-4  
 2.368000000000000E10   -1.683716196566820E-3   1.893978915177286E-3  
 2.370000000000000E10    1.111630233936012E-3   1.083912909962237E-3  
 2.372000000000000E10    6.264123949222267E-4  -3.880698641296476E-4  
 2.374000000000000E10   -8.328708936460316E-4  -1.014640671201050E-3  
 2.376000000000000E10    1.319303555646911E-4   2.825077099259943E-4  
 2.378000000000000E10    5.429053562693298E-4   6.049309158697724E-4  
 2.380000000000000E10    1.069560297764838E-3  -4.628994502127171E-4  
 2.382000000000000E10    9.304831037297845E-4  -6.629257695749402E-4  
 2.384000000000000E10   -4.674569645430893E-4   3.150349366478622E-4  
 2.386000000000000E10   -3.432210942264646E-4   1.455116551369429E-3  
 2.388000000000000E10    1.321688294410706E-3   1.870688400231302E-3  
 2.390000000000000E10    1.780874794349074E-3  -6.394027150236070E-4  
 2.392000000000000E10    2.624662010930479E-4  -2.055104356259108E-3  
 2.394000000000000E10   -2.213958883658052E-3  -1.879426126834005E-4  
 2.396000000000000E10   -2.247744007036090E-3   9.488816722296178E-4  
 2.398000000000000E10    1.389083452522755E-3   2.358004916459322E-3  
 2.400000000000000E10    2.797166816890240E-3  -2.092262875521556E-4  
 2.402000000000000E10   -1.367180520901457E-4  -3.017874201759696E-3  
 2.404000000000000E10   -1.514508272521198E-3  -1.072423066943884E-3  
 2.406000000000000E10   -1.213708426803350E-3   2.435176400467753E-3  
 2.408000000000000E10    6.334926583804190E-4   2.135924063622952E-3  
 2.410000000000000E10    2.747690537944436E-3   7.530797738581896E-4  
 2.412000000000000E10    5.587278865277767E-4  -6.193917361088097E-4  
 2.414000000000000E10   -1.546367770060897E-3  -2.592631848528981E-3  
 2.416000000000000E10   -2.284660236909986E-3   3.778754617087543E-4  
 2.418000000000000E10   -9.888194035738707E-4   1.723447698168457E-3  
 2.420000000000000E10    2.168753417208791E-3   5.409467848949134E-4  
 2.422000000000000E10    2.607968403026462E-3  -8.718619938008487E-4  
 2.424000000000000E10   -4.205658115097322E-5  -2.279574284330010E-3  
 2.426000000000000E10   -1.150023890659213E-3  -7.677284884266555E-4  
 2.428000000000000E10   -5.811040755361319E-4   1.968485536053777E-3  
 2.430000000000000E10   -3.887565690092742E-4   9.079757146537304E-4  
 2.432000000000000E10    1.060741487890482E-3  -6.052219541743398E-4  
 2.434000000000000E10   -8.088659960776568E-4  -6.796457455493510E-4  
 2.436000000000000E10   -1.505254884250462E-3  -7.148749427869916E-4  
 2.438000000000000E10   -6.456894916482270E-4  -1.251005451194942E-3  
 2.440000000000000E10   -3.381324349902570E-4  -6.695203483104706E-4  
 2.442000000000000E10   -3.457726561464369E-4  -4.394235438667238E-4  
 2.444000000000000E10    2.712627465371043E-4  -1.148047886090353E-4  
 2.446000000000000E10    2.145558391930535E-4   4.142227408010513E-4  
 2.448000000000000E10   -3.178911356371827E-5   1.472504663979635E-4  
 2.450000000000000E10    2.097903052344918E-5   4.253790830262005E-4  
 2.452000000000000E10   -1.225696178153157E-3   3.413278318475932E-4  
 2.454000000000000E10   -1.812192844226956E-3  -4.545380070339888E-4  
 2.456000000000000E10   -1.810195855796337E-3   7.707608165219426E-4  
 2.458000000000000E10   -1.153427456301870E-5   1.579825300723314E-3  
 2.460000000000000E10    1.839940669015050E-3  -8.726184023544192E-4  
 2.462000000000000E10    2.223743940703571E-4  -2.074535004794598E-3  
 2.464000000000000E10   -1.229813788086176E-3  -8.762789075262845E-4  
 2.466000000000000E10   -7.045736419968307E-4   1.920048496685922E-3  
 2.468000000000000E10    4.298095300327987E-4   2.139384625479579E-3  
 2.470000000000000E10    1.995730446651578E-3   4.857330059166998E-4  
 2.472000000000000E10    8.195958216674626E-4  -1.706823968561366E-4  
 2.474000000000000E10   -8.217350114136934E-4  -1.276682363823056E-3  
 2.476000000000000E10   -1.556909992359579E-3  -4.057764308527112E-4  
 2.478000000000000E10   -1.098390435799956E-3   1.647298107855022E-3  
 2.480000000000000E10    8.454991620965302E-4   1.538977143354714E-3  
 2.482000000000000E10    2.786817029118538E-3  -8.636562852188945E-4  
 2.484000000000000E10    3.562967758625746E-4  -1.979488413780928E-3  
 2.486000000000000E10   -2.051941119134426E-3  -1.228931359946728E-3  
 2.488000000000000E10    1.429178064427106E-5   1.252595917321742E-3  
 2.490000000000000E10    1.075892942026258E-3   1.321116695180535E-3  
 2.492000000000000E10    1.569179934449494E-3  -4.021569620817900E-4  
 2.494000000000000E10    1.042200601659715E-3  -7.697406108491123E-4  
 2.496000000000000E10   -8.587403863202781E-5  -8.211007225327194E-4  
 2.498000000000000E10   -7.119477377273142E-4  -7.635070360265672E-4  
 2.500000000000000E10   -3.355712105985731E-4   4.434834409039468E-4  
 2.502000000000000E10   -2.777577610686421E-4   4.411101690493524E-4  
 2.504000000000000E10    8.683219784870744E-4  -1.055297092534602E-3  
 2.506000000000000E10    1.803373306756839E-4  -9.877133416011930E-4  
 2.508000000000000E10   -1.078750705346465E-3  -1.235972275026143E-3  
 2.510000000000000E10    7.893961737863720E-4  -7.759174332022667E-4  
 2.512000000000000E10    6.216216715984047E-4  -4.506442055571824E-4  
 2.514000000000000E10   -2.765832177828997E-4  -3.252014867030084E-4  
 2.516000000000000E10    3.813398652710021E-4   1.121134846471250E-3  
 2.518000000000000E10    8.588269120082259E-4   1.499071251600981E-3  
 2.520000000000000E10    5.323709920048714E-4  -3.585489757824689E-4  
 2.522000000000000E10   -1.197623554617167E-3   1.588466548128054E-4  
 2.524000000000000E10   -2.168625826016069E-3   5.837354110553861E-4  
 2.526000000000000E10   -1.227985252626240E-3   3.575327573344111E-4  
 2.528000000000000E10   -5.543523002415896E-4   4.651669223676436E-5  
 2.530000000000000E10   -3.027130442205817E-4  -2.229409001301974E-4  
 2.532000000000000E10    9.360588737763465E-4  -1.454646000638604E-3  
 2.534000000000000E10    7.691289065405726E-4  -9.526436333544552E-4  
 2.536000000000000E10   -8.751213317736983E-4  -1.167539667221718E-4  
 2.538000000000000E10    2.960113051813096E-4   2.029098803177476E-3  
 2.540000000000000E10    1.785632106475532E-3   2.598758786916733E-3  
 2.542000000000000E10    1.672609476372600E-3   1.690739190962631E-5  
 2.544000000000000E10   -2.437493967590854E-4  -1.991268363781273E-4  
 2.546000000000000E10   -1.932457787916064E-3   1.034218585118651E-3  
 2.548000000000000E10   -1.131094526499510E-3   7.245175074785948E-4  
 2.550000000000000E10    7.689460471738130E-5   4.413767310325056E-4  
 2.552000000000000E10    6.968160741962493E-4   4.305231559555978E-4  
 2.554000000000000E10    1.520828111097217E-3  -1.573270885273814E-3  
 2.556000000000000E10    1.031347434036434E-3  -1.777073135599494E-3  
 2.558000000000000E10   -1.237126067280769E-3  -5.016127252019942E-4  
 2.560000000000000E10    9.725586860440671E-4   1.291736960411072E-3  
 2.562000000000000E10    1.723831519484520E-3   1.506736502051354E-3  
 2.564000000000000E10    1.100629335269332E-3  -5.933607826591469E-5  
 2.566000000000000E10   -4.329652001615614E-4  -3.320920804981142E-4  
 2.568000000000000E10   -8.119486737996340E-4   4.651119234040380E-4  
 2.570000000000000E10   -9.609533008188009E-4   8.128197077894583E-5  
 2.572000000000000E10   -2.714002039283514E-4  -8.840183727443218E-4  
 2.574000000000000E10   -1.964214316103607E-4  -6.591778947040439E-5  
 2.576000000000000E10    2.578276325948536E-4  -7.006105734035373E-4  
 2.578000000000000E10    2.358681376790628E-4  -1.050362712703645E-3  
 2.580000000000000E10   -5.782006774097681E-4  -8.461026591248810E-4  
 2.582000000000000E10    4.740205185953528E-4  -2.897645754273981E-4  
 2.584000000000000E10   -5.182959648664109E-5  -1.170726318378002E-4  
 2.586000000000000E10   -7.466694805771112E-4  -1.821141049731523E-4  
 2.588000000000000E10   -8.508110186085105E-4   5.070132319815457E-4  
 2.590000000000000E10    6.128397653810680E-4  -2.070368500426412E-4  
 2.592000000000000E10    9.291757305618376E-5  -9.327440056949854E-4  
 2.594000000000000E10   -1.247911481186748E-3  -1.791456481441855E-3  
 2.596000000000000E10   -1.269288244657219E-3   5.779213388450444E-4  
 2.598000000000000E10   -4.848944954574108E-4   2.067278983304277E-4  
 2.600000000000000E10    1.469092094339430E-3   2.109566266881302E-4  
 2.602000000000000E10    2.609906077850610E-4  -9.230851428583264E-4  
 2.604000000000000E10    3.668039280455560E-4  -1.018184237182140E-3  
 2.606000000000000E10   -9.342112462036312E-4   3.533552226144821E-4  
 2.608000000000000E10   -1.371487160213292E-3   6.502142641693354E-4  
 2.610000000000000E10   -3.223733801860362E-4   1.599824870936573E-3  
 2.612000000000000E10    1.316467765718699E-3   3.085774078499526E-4  
 2.614000000000000E10    2.684016944840550E-4  -1.023641321808100E-3  
 2.616000000000000E10   -9.550568065606058E-4  -1.664750510826707E-3  
 2.618000000000000E10   -7.819111342541874E-4   6.689078290946782E-4  
 2.620000000000000E10    1.774147858668584E-5   2.889558090828359E-4  
 2.622000000000000E10    1.585406949743629E-3   2.523644943721592E-4  
 2.624000000000000E10    1.922859373735264E-4   7.996088243089616E-4  
 2.626000000000000E10    6.232775631360710E-4  -3.301325778011233E-4  
 2.628000000000000E10   -5.418370710685849E-4  -2.190894738305360E-4  
 2.630000000000000E10   -1.171754091046751E-3  -5.285233783069998E-5  
 2.632000000000000E10   -7.421064656227827E-4   4.652951611205936E-4  
 2.634000000000000E10    7.424455252476037E-4   4.728612257167697E-4  
 2.636000000000000E10    5.256109870970249E-4   1.016848982544616E-4  
 2.638000000000000E10    3.172111173626036E-4  -8.559784037061036E-4  
 2.640000000000000E10    9.147058008238673E-4   7.662688731215894E-4  
 2.642000000000000E10   -9.135393775068224E-4  -2.900251092796680E-5  
 2.644000000000000E10    3.227124398108572E-4   2.517367538530380E-4  
 2.646000000000000E10   -4.037283069919795E-4   2.170605119317770E-3  
 2.648000000000000E10    7.050489657558501E-4   4.241632123012096E-4  
 2.650000000000000E10    3.612803120631725E-4  -7.007422973401845E-4  
 2.652000000000000E10   -3.895811678376049E-4  -1.147035276517272E-3  
 2.654000000000000E10   -3.581831406336278E-4   3.724102862179279E-4  
 2.656000000000000E10    3.256220370531082E-4  -4.853623249800876E-5  
 2.658000000000000E10    9.909638902172446E-4   9.840178536251187E-4  
 2.660000000000000E10    6.784726865589619E-4   4.134315240662545E-4  
 2.662000000000000E10    1.319496193900704E-3   2.478460082784295E-4  
 2.664000000000000E10   -1.051770756021142E-3  -7.334370166063309E-4  
 2.666000000000000E10   -1.021207892335951E-3   6.710654997732490E-5  
 2.668000000000000E10   -7.945346878841519E-4   1.363798044621944E-3  
 2.670000000000000E10    6.502866744995117E-4  -6.695315823890269E-4  
 2.672000000000000E10   -1.703909038042184E-5  -8.999016718007624E-4  
 2.674000000000000E10    2.197549911215901E-4  -6.065302877686918E-4  
 2.676000000000000E10   -6.944972119526938E-5   3.948115045204759E-4  
 2.678000000000000E10   -9.813773067435250E-5  -6.056303391233087E-4  
 2.680000000000000E10   -6.085665663704276E-4   5.412853206507862E-4  
 2.682000000000000E10   -6.999381585046649E-4   5.570481298491359E-4  
 2.684000000000000E10    1.341118710115552E-3   7.845405489206314E-4  
 2.686000000000000E10   -3.463917528279126E-5  -1.066368655301631E-3  
 2.688000000000000E10   -4.339669831097126E-4  -1.297363545745611E-3  
 2.690000000000000E10   -1.018171315081418E-3   5.481592379510403E-4  
 2.692000000000000E10   -6.034753751009703E-4  -4.851739213336259E-4  
 2.694000000000000E10    4.119799705222249E-4   3.131120174657553E-4  
 2.696000000000000E10    1.153933233581483E-3   5.455552600324154E-4  
 2.698000000000000E10    6.665688706561923E-4  -2.756068715825677E-4  
 2.700000000000000E10   -5.822097227792256E-5  -1.599671435542405E-3  
 2.702000000000000E10   -1.630927086807787E-3   6.824685842730105E-4  
 2.704000000000000E10   -1.019901596009731E-3   1.502075465396047E-3  
 2.706000000000000E10    1.499553676694632E-3   9.517059079371393E-4  
 2.708000000000000E10    6.779862451367080E-4  -1.418893923982978E-3  
 2.710000000000000E10   -7.478765328414738E-4  -1.844181795604527E-3  
 2.712000000000000E10   -1.144235255196691E-3   3.764270222745836E-4  
 2.714000000000000E10    7.676148379687220E-5   1.621249830350280E-4  
 2.716000000000000E10    3.834388044197112E-4   2.540917776059359E-4  
 2.718000000000000E10    5.267527885735035E-4   6.639995262958109E-4  
 2.720000000000000E10    4.642204439733177E-4  -5.937623791396618E-4  
 2.722000000000000E10   -1.394153223372996E-4  -1.593448105268180E-3  
 2.724000000000000E10   -8.374346652999520E-4  -1.371270191157237E-4  
 2.726000000000000E10   -2.627812209539115E-4   9.809302864596248E-4  
 2.728000000000000E10    1.472909469157457E-3   2.080154663417488E-4  
 2.730000000000000E10    4.349257214926183E-4  -7.312795496545732E-4  
 2.732000000000000E10   -7.834015414118767E-4  -1.358823064947501E-4  
 2.734000000000000E10    2.995773456859752E-6   7.094084867276251E-4  
 2.736000000000000E10    4.287906922399998E-4  -6.952952389838174E-5  
 2.738000000000000E10   -9.155774023383856E-4  -1.039585215039551E-3  
 2.740000000000000E10   -1.230550114996731E-3   1.718325511319563E-4  
 2.742000000000000E10    2.772936422843486E-4   3.430100332479924E-4  
 2.744000000000000E10    8.393099415116012E-4  -7.543825195170939E-4  
 2.746000000000000E10    1.347341894870624E-4  -5.985963507555425E-4  
 2.748000000000000E10    1.302806485909969E-4  -3.408912452869117E-4  
 2.750000000000000E10   -1.710307988105342E-4  -4.991993773728609E-4  
 2.752000000000000E10   -8.824164979159832E-4   1.820575562305749E-4  
 2.754000000000000E10   -8.834895561449230E-4   1.208077766932547E-3  
 2.756000000000000E10    1.281053759157658E-3   9.852903895080090E-4  
