#  HZ   S   RI   R     50.00 
! Rohde & Schwarz ZVA40 4Ports - Version 3.90 - 1145.1110k42 SN: 100403
! Date: 2023-10-04 11:47:13
! Measurement: S12 
! 
 2.200000000000000E10   -1.890814979560673E-3   6.700294907204807E-4  
 2.202000000000000E10   -1.367424731142819E-3   6.101097678765655E-4  
 2.204000000000000E10    1.568627776578069E-3   9.359180112369359E-4  
 2.206000000000000E10    1.886023557744920E-3   2.463349956087768E-4  
 2.208000000000000E10    9.732808102853596E-4  -2.316040918231010E-3  
 2.210000000000000E10   -2.194199943915010E-3  -2.740852360147983E-4  
 2.212000000000000E10   -1.244860119186342E-3   2.078487537801266E-3  
 2.214000000000000E10    1.934777479618788E-3   2.450820524245501E-3  
 2.216000000000000E10    9.409787016920745E-4  -7.693612715229392E-4  
 2.218000000000000E10   -1.194333191961050E-3  -1.162930624559522E-3  
 2.220000000000000E10   -1.248917076736689E-3  -1.805970823625103E-4  
 2.222000000000000E10    4.629747709259391E-4   5.880619864910841E-4  
 2.224000000000000E10   -5.328691331669688E-4  -7.325503393076360E-4  
 2.226000000000000E10    6.217070040293038E-4  -3.794983203988522E-4  
 2.228000000000000E10    1.001084223389626E-3   1.798715675249696E-5  
 2.230000000000000E10    3.189176204614341E-4  -8.253563428297639E-4  
 2.232000000000000E10    1.063041738234460E-3   4.207735473755747E-4  
 2.234000000000000E10    1.538179640192539E-4   8.872285252436996E-4  
 2.236000000000000E10    1.634332002140582E-4   4.569746088236570E-4  
 2.238000000000000E10   -2.401827659923583E-4   6.204262899700552E-5  
 2.240000000000000E10   -2.192162675783038E-3   1.075878390111029E-3  
 2.242000000000000E10    3.050015366170555E-4   5.821684026159346E-4  
 2.244000000000000E10    1.716755796223879E-3  -4.170682514086366E-4  
 2.246000000000000E10   -5.130329373059794E-5  -2.359055681154132E-3  
 2.248000000000000E10   -1.019254908896983E-3  -6.075315759517252E-4  
 2.250000000000000E10   -1.079619745723903E-3   1.758207683451474E-3  
 2.252000000000000E10    1.381291775032878E-3   9.610696579329670E-4  
 2.254000000000000E10    2.192840911448002E-3   6.030183285474777E-4  
 2.256000000000000E10    1.586696598678827E-4  -8.630994125269353E-4  
 2.258000000000000E10   -4.282260488253087E-4  -1.517214812338352E-3  
 2.260000000000000E10   -1.835546805523336E-3   6.780038238503039E-4  
 2.262000000000000E10   -1.275723101571202E-3   1.388479839079082E-3  
 2.264000000000000E10    1.657956163398922E-3   1.330989995040000E-3  
 2.266000000000000E10    2.008292125537992E-3  -9.154698345810175E-4  
 2.268000000000000E10    4.769680963363498E-4  -3.343182848766446E-3  
 2.270000000000000E10   -2.132181776687503E-3  -5.960254929959774E-4  
 2.272000000000000E10   -1.648175879381597E-3   1.747557194903493E-3  
 2.274000000000000E10    2.274666447192431E-3   1.142190303653479E-3  
 2.276000000000000E10    2.839235123246908E-3  -6.721703102812171E-4  
 2.278000000000000E10   -4.993556285626255E-5  -1.409445889294148E-3  
 2.280000000000000E10   -6.994415889494121E-4  -1.848080661147833E-3  
 2.282000000000000E10   -8.825338445603848E-4   4.114045586902648E-4  
 2.284000000000000E10   -1.076358719728887E-3   8.187370258383453E-4  
 2.286000000000000E10    1.647720113396645E-3   6.015450344420970E-4  
 2.288000000000000E10    1.112765399739146E-3  -7.345159247051925E-5  
 2.290000000000000E10   -1.379948225803673E-3  -2.415555529296398E-3  
 2.292000000000000E10   -1.657171407714486E-3  -7.784200715832412E-4  
 2.294000000000000E10   -7.742848829366267E-4   9.113065316341817E-4  
 2.296000000000000E10    3.881352768075885E-6  -3.285871061962098E-4  
 2.298000000000000E10    8.688708767294884E-4  -1.594014698639512E-3  
 2.300000000000000E10   -2.795559703372419E-4   6.507175858132541E-4  
 2.302000000000000E10    7.241728599183261E-5   2.027037116931751E-4  
 2.304000000000000E10    1.296338159590960E-3   4.639565886463970E-4  
 2.306000000000000E10   -3.719068481586874E-4   4.690985369961709E-4  
 2.308000000000000E10   -1.194966025650501E-3   2.759592607617378E-4  
 2.310000000000000E10   -9.870148496702313E-4   1.453078119084239E-3  
 2.312000000000000E10   -7.354074041359127E-4   1.322035444900394E-3  
 2.314000000000000E10    9.231022704625502E-5  -8.451449102722108E-4  
 2.316000000000000E10    9.480101289227605E-4  -1.390302786603570E-3  
 2.318000000000000E10   -1.526841544546187E-3  -1.328518264926970E-3  
 2.320000000000000E10   -1.166857779026032E-3  -1.544469414511696E-4  
 2.322000000000000E10    8.618998108431697E-4   2.182389609515667E-3  
 2.324000000000000E10    2.184573793783784E-3   1.185199944302440E-3  
 2.326000000000000E10    2.980761928483844E-3  -7.972198072820902E-4  
 2.328000000000000E10   -3.186165995430201E-4  -1.386719290167093E-3  
 2.330000000000000E10   -2.830974292010069E-3   7.280077552422881E-4  
 2.332000000000000E10   -7.207602029666305E-4   2.773499349132180E-3  
 2.334000000000000E10    1.407151925377548E-3   2.494077663868666E-3  
 2.336000000000000E10    1.835714210756123E-3  -1.639844034798443E-3  
 2.338000000000000E10    4.248818731866777E-4  -2.300839871168137E-3  
 2.340000000000000E10   -2.487824531272054E-3  -1.460568164475262E-3  
 2.342000000000000E10   -1.138675725087524E-3   2.563070738688111E-4  
 2.344000000000000E10    1.425310736522079E-3   2.144380938261747E-3  
 2.346000000000000E10    3.124218201264739E-3  -5.849528242833912E-4  
 2.348000000000000E10    1.812148722819984E-3  -1.816259580664337E-3  
 2.350000000000000E10   -8.346686372533441E-4  -1.200146391056478E-3  
 2.352000000000000E10   -1.730786752887070E-3   1.215203199535608E-3  
 2.354000000000000E10   -4.172082844888791E-5   1.820954377762973E-3  
 2.356000000000000E10    1.250278903171420E-3   6.880875444039702E-4  
 2.358000000000000E10    1.516507036285475E-4  -1.939843641594052E-3  
 2.360000000000000E10   -1.374929677695036E-3  -6.278305081650615E-4  
 2.362000000000000E10   -1.707869232632220E-3  -1.344846095889807E-4  
 2.364000000000000E10    5.686652148142457E-4  -4.977620556019247E-4  
 2.366000000000000E10   -1.324778131674975E-4  -6.264339317567647E-4  
 2.368000000000000E10   -9.443894959986210E-4  -6.060348823666573E-4  
 2.370000000000000E10    2.394005277892575E-4  -1.130290111177601E-4  
 2.372000000000000E10    3.036911075469106E-4   6.986790103837848E-4  
 2.374000000000000E10    2.970130881294608E-4  -1.478703343309462E-4  
 2.376000000000000E10   -7.731904042884708E-5  -3.770970506593585E-4  
 2.378000000000000E10   -1.717359293252230E-3   2.036784862866625E-4  
 2.380000000000000E10   -1.823375816456974E-3   9.193142759613693E-4  
 2.382000000000000E10    1.688445627223700E-4   1.507771201431751E-3  
 2.384000000000000E10    4.535841871984303E-4  -9.525570203550160E-5  
 2.386000000000000E10    5.667808582074940E-4  -2.480992116034031E-3  
 2.388000000000000E10   -1.168339163996279E-3  -1.063455943949521E-3  
 2.390000000000000E10   -2.486472483724356E-3   1.797416014596820E-3  
 2.392000000000000E10    5.605935002677143E-4   2.094637602567673E-3  
 2.394000000000000E10    2.435334026813507E-3   1.441944856196642E-3  
 2.396000000000000E10    4.085383552592248E-4  -1.635587075725198E-3  
 2.398000000000000E10   -1.243110164068639E-3  -1.130063901655376E-3  
 2.400000000000000E10   -2.368297660723329E-3   1.486113294959068E-3  
 2.402000000000000E10   -5.191442905925214E-4   2.281928900629282E-3  
 2.404000000000000E10    2.019022824242711E-3   1.027288613840938E-3  
 2.406000000000000E10    1.705762580968440E-3  -3.278831136412919E-4  
 2.408000000000000E10   -2.114456729032099E-4  -1.752444426529110E-3  
 2.410000000000000E10   -1.127049210481346E-3  -9.623551159165800E-4  
 2.412000000000000E10   -1.108836848288775E-3   2.482407260686159E-3  
 2.414000000000000E10    1.008079969324172E-3   1.087329932488501E-3  
 2.416000000000000E10    2.459448296576738E-3   2.622867468744516E-4  
 2.418000000000000E10   -2.270115219289437E-4  -8.346161339432001E-4  
 2.420000000000000E10   -1.139854313805699E-3  -9.505464113317430E-4  
 2.422000000000000E10   -2.472985070198774E-4   6.736088544130325E-4  
 2.424000000000000E10    5.316135502653197E-5   1.397200103383511E-4  
 2.426000000000000E10    2.065412845695391E-4  -8.396211196668446E-4  
 2.428000000000000E10    8.429730078205466E-4   4.506411787588149E-4  
 2.430000000000000E10    6.863072630949318E-4  -6.090775132179260E-4  
 2.432000000000000E10    9.674850734882057E-4  -1.491929171606898E-3  
 2.434000000000000E10   -4.473738663364202E-4  -3.902577645931160E-6  
 2.436000000000000E10   -1.562016841489822E-4  -8.972818613983691E-5  
 2.438000000000000E10    2.175978152081370E-4   2.507465542294085E-4  
 2.440000000000000E10   -6.293358746916056E-4   6.821508286520839E-4  
 2.442000000000000E10    8.546566095901653E-5  -3.734705387614667E-4  
 2.444000000000000E10    8.434192277491093E-4  -6.948744994588196E-4  
 2.446000000000000E10   -1.004979945719242E-3  -1.372226630337536E-3  
 2.448000000000000E10   -1.994355581700802E-3  -1.246243133209646E-3  
 2.450000000000000E10   -5.637325812131167E-4   1.294114626944065E-3  
 2.452000000000000E10    4.357741854619235E-4  -8.950715709943324E-5  
 2.454000000000000E10    1.691916724666953E-3  -1.861791359260678E-3  
 2.456000000000000E10   -1.870388659881428E-4  -1.582019380293787E-3  
 2.458000000000000E10   -1.110783196054399E-3  -6.602461799047887E-4  
 2.460000000000000E10   -3.905764606315643E-4   4.904184024780989E-4  
 2.462000000000000E10   -2.387775311945006E-4   1.567372586578131E-3  
 2.464000000000000E10    1.302710529671458E-6   7.199802203103900E-4  
 2.466000000000000E10    9.212153381668031E-4  -8.037897641770542E-4  
 2.468000000000000E10   -9.488943614996970E-4  -7.990286685526371E-4  
 2.470000000000000E10   -2.773167332634330E-3  -1.126564806327224E-3  
 2.472000000000000E10   -1.346353325061500E-3   1.447041402570903E-3  
 2.474000000000000E10    2.433619956718758E-4   1.237138756550849E-3  
 2.476000000000000E10    1.670526340603828E-3  -8.167216437868774E-4  
 2.478000000000000E10    2.679596655070782E-4  -1.179978135041893E-3  
 2.480000000000000E10   -8.425216074101627E-4   3.086070137214847E-5  
 2.482000000000000E10   -2.014824567595497E-4   1.043985597789288E-3  
 2.484000000000000E10   -4.607525479514152E-4   1.170993433333933E-3  
 2.486000000000000E10   -3.890943771693856E-4   1.406052848324180E-3  
 2.488000000000000E10    1.076191314496100E-3   7.577017531730235E-4  
 2.490000000000000E10   -1.785636995919049E-4  -6.201197975315154E-4  
 2.492000000000000E10   -1.036046189256012E-3  -1.265829661861062E-3  
 2.494000000000000E10   -5.953157669864595E-4   1.308017235714942E-4  
 2.496000000000000E10    2.346995170228183E-4   8.374044555239379E-4  
 2.498000000000000E10    1.510757603682578E-3  -5.618705763481557E-4  
 2.500000000000000E10    1.647569937631488E-3   1.607251033419743E-4  
 2.502000000000000E10   -2.429675078019500E-5  -2.072111101369956E-6  
 2.504000000000000E10    4.211596678942442E-4  -4.903851076960564E-4  
 2.506000000000000E10   -3.068848454859108E-4   6.445565959438682E-4  
 2.508000000000000E10   -1.107389689423144E-3   6.642861990258098E-4  
 2.510000000000000E10    1.198455458506942E-3   8.423560648225248E-4  
 2.512000000000000E10    6.135439034551382E-4  -4.808975500054658E-4  
 2.514000000000000E10   -6.321937544271350E-4  -1.681745750829577E-3  
 2.516000000000000E10   -2.015317586483434E-4  -5.298929754644632E-4  
 2.518000000000000E10   -8.834409527480602E-5   6.013413658365607E-4  
 2.520000000000000E10   -2.493054853403010E-5  -6.598393083550036E-4  
 2.522000000000000E10    1.219158992171288E-3   5.053301574662328E-4  
 2.524000000000000E10    2.295875310664997E-5   4.525351687334478E-4  
 2.526000000000000E10    7.568830042146146E-4  -9.976491564884782E-4  
 2.528000000000000E10    1.238776712852996E-5  -1.017592949210666E-4  
 2.530000000000000E10   -1.724181231111288E-3  -1.556146307848394E-4  
 2.532000000000000E10   -7.032304420135915E-4   5.514475051313639E-4  
 2.534000000000000E10   -1.519152719993144E-4   5.503499414771795E-4  
 2.536000000000000E10    3.235465264879167E-4  -3.451174125075340E-4  
 2.538000000000000E10   -1.165542853414081E-4  -7.032538414932787E-4  
 2.540000000000000E10   -1.259246346307918E-4  -6.165804225020111E-4  
 2.542000000000000E10   -1.619370304979384E-3  -3.869078063871712E-4  
 2.544000000000000E10   -7.987939170561731E-4   9.038737625814974E-4  
 2.546000000000000E10    5.911243497394025E-4   1.347055891528726E-3  
 2.548000000000000E10    1.332520856522024E-3  -7.383376359939575E-4  
 2.550000000000000E10    1.562083634780720E-4  -1.000872929580510E-3  
 2.552000000000000E10   -1.624152646400034E-3  -2.277840831084177E-4  
 2.554000000000000E10   -1.153032993897796E-3   1.447354909032583E-3  
 2.556000000000000E10    6.734186899848282E-4   1.347675570286810E-3  
 2.558000000000000E10    1.114010345190764E-3   4.086497938260436E-6  
 2.560000000000000E10    2.323229273315519E-4  -7.922994554974139E-4  
 2.562000000000000E10   -3.272066824138165E-4  -1.647438621148467E-4  
 2.564000000000000E10   -1.353304134681821E-3   1.235384697793052E-4  
 2.566000000000000E10   -7.034996087895706E-5   7.212432101368904E-4  
 2.568000000000000E10    6.722105317749083E-4   1.014415873214603E-3  
 2.570000000000000E10    6.801525014452636E-4  -1.112373312935233E-3  
 2.572000000000000E10    4.542959504760802E-4  -9.152573766186833E-4  
 2.574000000000000E10   -1.039353432133794E-3  -2.871605975087732E-4  
 2.576000000000000E10    4.413556598592550E-5  -6.662594387307763E-5  
 2.578000000000000E10    1.229167915880680E-3   5.461748150992207E-5  
 2.580000000000000E10    5.419722219812684E-5   8.070455078268424E-5  
 2.582000000000000E10    2.007538569159806E-4  -2.992701774928719E-4  
 2.584000000000000E10    3.545173967722803E-4   1.822934427764267E-4  
 2.586000000000000E10   -5.338509799912572E-4  -3.244907711632550E-4  
 2.588000000000000E10   -3.200775536242873E-4  -1.126856659539044E-3  
 2.590000000000000E10   -1.052295207045972E-3  -1.981870009331033E-4  
 2.592000000000000E10   -4.419433826114982E-4  -4.798091831617057E-4  
 2.594000000000000E10    5.825762636959553E-4  -5.478232051245868E-4  
 2.596000000000000E10    6.305743008852005E-4  -6.626071990467608E-4  
 2.598000000000000E10    2.524519222788513E-4  -1.194918178953230E-3  
 2.600000000000000E10    2.642364997882396E-4  -4.758255963679403E-4  
 2.602000000000000E10   -1.043824828229845E-3   1.282157492823899E-3  
 2.604000000000000E10   -3.515848948154599E-4   9.221707005053759E-4  
 2.606000000000000E10    1.137141603976488E-3   7.119958754628897E-4  
 2.608000000000000E10   -1.982992835110053E-4  -2.356936893193051E-4  
 2.610000000000000E10   -4.507193225435913E-4  -1.390506746247411E-3  
 2.612000000000000E10   -1.331865903921425E-3   2.349651767872274E-4  
 2.614000000000000E10   -1.110339071601629E-3   4.096117045264691E-4  
 2.616000000000000E10    1.253435271792114E-3   1.903541415231302E-4  
 2.618000000000000E10    1.771977520547807E-3  -3.732090117409825E-4  
 2.620000000000000E10    6.429873756133020E-4  -1.193063217215240E-3  
 2.622000000000000E10    1.531528105260804E-4  -6.488195504061878E-4  
 2.624000000000000E10   -4.847231029998511E-4   1.540883095003665E-3  
 2.626000000000000E10   -6.889404612593353E-4   1.330268220044673E-3  
 2.628000000000000E10    1.220260397531092E-3   1.023600692860782E-3  
 2.630000000000000E10   -2.457833215885330E-5   6.151846264401684E-6  
 2.632000000000000E10   -6.497708964161575E-4  -1.312686712481082E-3  
 2.634000000000000E10   -6.020353175699711E-4  -1.576873619342223E-4  
 2.636000000000000E10   -4.497592162806541E-4   1.636887645872776E-5  
 2.638000000000000E10    5.856804273207672E-5   4.890972631983459E-4  
 2.640000000000000E10    1.340383663773537E-3   2.760444185696542E-4  
 2.642000000000000E10    7.884731749072671E-4   3.330150211695582E-4  
 2.644000000000000E10   -4.791876708623022E-4  -1.927939447341487E-4  
 2.646000000000000E10   -1.503974199295044E-4   4.207675519865006E-4  
 2.648000000000000E10   -8.088122704066336E-4   8.076687227003276E-4  
 2.650000000000000E10   -1.269096828764305E-4   5.948313046246767E-4  
 2.652000000000000E10    8.455269562546164E-5   3.868476487696171E-4  
 2.654000000000000E10    1.857481111073867E-4  -3.669113502837718E-4  
 2.656000000000000E10    1.451844582334161E-4  -3.887291532009840E-4  
 2.658000000000000E10   -4.524535324890167E-5  -4.534014733508229E-4  
 2.660000000000000E10    9.259755461243913E-5   1.994887861656025E-4  
 2.662000000000000E10    4.386871878523380E-4   6.327017908915877E-4  
 2.664000000000000E10    3.939855087082833E-4   6.092749536037445E-4  
 2.666000000000000E10    8.007938158698380E-4  -2.010838070418686E-4  
 2.668000000000000E10    3.520796599332243E-4   3.872808592859656E-4  
 2.670000000000000E10   -5.309467087499797E-4  -5.285507650114596E-4  
 2.672000000000000E10   -3.109231183771044E-4  -7.512066804338247E-5  
 2.674000000000000E10   -5.987704498693347E-4   5.803789244964719E-4  
 2.676000000000000E10    9.450379293411970E-4  -1.653709477977827E-4  
 2.678000000000000E10    1.150887343101203E-3  -4.211710183881223E-4  
 2.680000000000000E10   -1.356734719593078E-4  -7.337996503338218E-4  
 2.682000000000000E10   -4.525241674855351E-4  -6.085082422941923E-4  
 2.684000000000000E10   -6.911381497047842E-4  -2.398993092356250E-4  
 2.686000000000000E10   -8.201345917768776E-4   9.612995199859142E-4  
 2.688000000000000E10    1.955797051778063E-4  -2.380242221988738E-4  
 2.690000000000000E10    1.440836116671562E-3  -2.898590173572302E-4  
 2.692000000000000E10   -3.075459389947355E-4  -1.607770798727870E-3  
 2.694000000000000E10   -1.071238075383008E-3  -1.018502516672015E-3  
 2.696000000000000E10   -1.401707413606346E-3   7.868742686696351E-4  
 2.698000000000000E10    3.563949212548323E-5   1.140889129601419E-3  
 2.700000000000000E10    1.629740465432406E-3  -5.338835035217926E-5  
 2.702000000000000E10    1.166501169791445E-4  -8.833845495246351E-4  
 2.704000000000000E10   -1.135150901973248E-3  -1.330726547166705E-3  
 2.706000000000000E10   -8.748698164708912E-4  -5.320954005583189E-5  
 2.708000000000000E10   -7.467615650966764E-4   1.028770580887795E-3  
 2.710000000000000E10    9.351421031169593E-4   4.473953449632973E-4  
 2.712000000000000E10    1.581791671924293E-3   1.388577511534095E-4  
 2.714000000000000E10   -2.722291683312506E-4  -8.979486301541328E-4  
 2.716000000000000E10   -1.420734217390418E-3  -4.211638879496604E-4  
 2.718000000000000E10   -5.721970810554922E-4   1.658647786825895E-3  
 2.720000000000000E10    7.937044138088822E-4   7.413264247588813E-4  
 2.722000000000000E10    6.836255197413266E-4  -3.979105094913393E-4  
 2.724000000000000E10   -3.547151864040643E-4  -3.560661571100354E-4  
 2.726000000000000E10   -7.488279952667654E-4   1.110357061406830E-5  
 2.728000000000000E10    1.091570302378386E-4   5.706219235435128E-4  
 2.730000000000000E10    2.458946546539664E-4   1.241320569533855E-4  
 2.732000000000000E10   -2.065067092189565E-4  -3.439586143940687E-4  
 2.734000000000000E10    4.779221198987216E-4   2.645528875291348E-4  
 2.736000000000000E10   -7.099152571754530E-5   8.231243118643761E-4  
 2.738000000000000E10   -6.682809907943010E-5   1.119041626225226E-4  
 2.740000000000000E10    1.009648782201111E-3   4.425573861226440E-4  
 2.742000000000000E10   -1.184558350360021E-4  -3.299793752375990E-5  
 2.744000000000000E10   -8.602013112977147E-4  -9.251891169697046E-4  
 2.746000000000000E10   -4.151655884925276E-4   1.030343002639711E-3  
 2.748000000000000E10    7.598032825626433E-4   1.477935002185404E-3  
 2.750000000000000E10    1.413926598615944E-3  -1.329242601059377E-3  
 2.752000000000000E10   -9.366100130137056E-5  -1.523910788819194E-3  
 2.754000000000000E10   -2.133056055754423E-3   3.949588790419512E-5  
 2.756000000000000E10   -6.580594344995916E-4   7.792336400598288E-4  
