#  HZ   S   RI   R     50.00 
! Rohde & Schwarz ZVA40 4Ports - Version 3.90 - 1145.1110k42 SN: 100403
! Date: 2023-10-04 11:46:44
! Measurement: S12 
! 
 2.200000000000000E10    9.351469925604761E-4   3.845602332148701E-4  
 2.202000000000000E10   -1.408200569130713E-5  -9.806826710700989E-4  
 2.204000000000000E10   -7.174380589276552E-4  -7.841802434995771E-4  
 2.206000000000000E10   -1.691852114163339E-3   1.364378491416574E-3  
 2.208000000000000E10   -2.240146131953225E-4   8.911963668651879E-4  
 2.210000000000000E10    1.678157714195550E-3   7.208626484498382E-4  
 2.212000000000000E10    4.600475367624313E-4  -1.167439040727913E-3  
 2.214000000000000E10   -2.287813695147634E-4  -1.198690151795745E-3  
 2.216000000000000E10   -1.334317028522492E-3   7.371592218987644E-4  
 2.218000000000000E10   -7.199876708909869E-4   1.934529631398618E-3  
 2.220000000000000E10    1.877016155049205E-3   1.598891336470842E-3  
 2.222000000000000E10    2.511202590540052E-3  -4.423190257512033E-4  
 2.224000000000000E10   -1.195241813547909E-3  -3.034611465409398E-3  
 2.226000000000000E10   -1.929592108353972E-3   4.485259705688804E-4  
 2.228000000000000E10   -8.700141333974898E-4   2.856609877198935E-3  
 2.230000000000000E10    2.089800313115120E-3   5.210613599047065E-4  
 2.232000000000000E10    1.914041931740940E-3  -4.690461501013488E-4  
 2.234000000000000E10   -5.062873824499548E-4  -1.256502000615001E-3  
 2.236000000000000E10   -1.690313802100718E-3  -1.015199930407107E-3  
 2.238000000000000E10   -1.152036013081670E-3   1.152591779828072E-3  
 2.240000000000000E10   -5.104345618747175E-4   1.370580284856260E-3  
 2.242000000000000E10    1.993273617699742E-3  -5.052436026744545E-4  
 2.244000000000000E10    1.410712022334337E-3  -7.545406697317958E-4  
 2.246000000000000E10   -6.417250842787325E-4  -1.833954360336065E-3  
 2.248000000000000E10   -2.645222702994943E-4   7.399774040095508E-5  
 2.250000000000000E10   -1.711212244117633E-4   2.300693886354566E-3  
 2.252000000000000E10    1.282706856727600E-3   4.841128829866648E-4  
 2.254000000000000E10    3.672001475933939E-4   1.109299482777715E-4  
 2.256000000000000E10   -7.885822560638189E-4  -3.226007393095642E-4  
 2.258000000000000E10   -4.117537464480847E-4  -3.185931564075872E-5  
 2.260000000000000E10   -3.950857499148697E-4  -4.296327242627740E-4  
 2.262000000000000E10    1.844213984441012E-4  -2.489625767339021E-4  
 2.264000000000000E10    3.247406275477260E-4  -4.239965055603534E-4  
 2.266000000000000E10    5.561136640608311E-4   2.953393268398941E-4  
 2.268000000000000E10    1.022212323732674E-3  -1.366756041534245E-4  
 2.270000000000000E10    1.442787586711347E-3  -6.974153220653534E-4  
 2.272000000000000E10    2.969054039567709E-4  -9.447824413655326E-5  
 2.274000000000000E10   -5.010600943933241E-6  -2.996082475874573E-4  
 2.276000000000000E10   -7.794377597747371E-5   7.613649358972907E-4  
 2.278000000000000E10   -3.428402415011078E-4   1.067676348611713E-3  
 2.280000000000000E10    1.305661280639470E-3  -4.102997772861272E-4  
 2.282000000000000E10    1.904250471852720E-3  -6.281310197664425E-5  
 2.284000000000000E10   -1.425120513886213E-3  -2.103983890265226E-3  
 2.286000000000000E10   -1.394065213389695E-3  -3.614682937040925E-4  
 2.288000000000000E10   -4.828677920158953E-4   1.648984034545720E-3  
 2.290000000000000E10    1.311728148721159E-3   9.948881597665604E-6  
 2.292000000000000E10    1.349641941487789E-3  -1.583716366440058E-3  
 2.294000000000000E10    1.554590562591329E-4  -1.683994312770665E-3  
 2.296000000000000E10   -1.897907466627657E-3  -1.175428740680218E-3  
 2.298000000000000E10   -1.405701506882906E-3   8.770657586865127E-4  
 2.300000000000000E10    3.631406580097973E-4   2.786641707643867E-3  
 2.302000000000000E10    1.109750010073185E-3   3.994716971646994E-4  
 2.304000000000000E10    1.009753090329468E-3  -1.537229283712804E-3  
 2.306000000000000E10   -2.310091163963080E-3  -7.842514896765351E-4  
 2.308000000000000E10   -2.903602784499526E-3   2.870891185011715E-4  
 2.310000000000000E10   -3.028537030331790E-4   1.934389001689851E-3  
 2.312000000000000E10    1.183955580927432E-3   4.473168519325554E-4  
 2.314000000000000E10    1.008601160719991E-3  -1.584625337272883E-3  
 2.316000000000000E10    2.429521700832993E-4  -1.034989254549146E-3  
 2.318000000000000E10   -1.602129545062780E-3  -9.691325249150395E-5  
 2.320000000000000E10    1.506838598288596E-4   9.024823084473610E-4  
 2.322000000000000E10    3.825264866463840E-4   2.732291817665100E-3  
 2.324000000000000E10    6.158005562610924E-4   2.965130261145532E-4  
 2.326000000000000E10    7.357215508818626E-4  -2.221400936832652E-4  
 2.328000000000000E10   -1.507493085227907E-3   5.872069159522653E-4  
 2.330000000000000E10   -1.253395108506084E-3   1.395397412125021E-4  
 2.332000000000000E10   -2.210724633187056E-4   9.315720526501536E-4  
 2.334000000000000E10    2.334493328817189E-4   1.088990029529668E-4  
 2.336000000000000E10   -1.584361889399588E-4  -5.060621770098805E-4  
 2.338000000000000E10    1.112890779040754E-3   4.176480870228261E-4  
 2.340000000000000E10    5.699347238987684E-4   1.059874412021600E-4  
 2.342000000000000E10    1.183961052447557E-3  -1.254331553354859E-3  
 2.344000000000000E10    2.355024043936282E-4   4.602425324264914E-4  
 2.346000000000000E10   -1.071636797860265E-3   1.526798587292433E-3  
 2.348000000000000E10    8.796810870990157E-4   1.296929200179875E-3  
 2.350000000000000E10    1.433064695447683E-3   6.992230773903430E-4  
 2.352000000000000E10    2.690610708668828E-4  -1.505794702097774E-3  
 2.354000000000000E10   -2.110022032866254E-4  -2.074168995022774E-3  
 2.356000000000000E10   -1.548058586195111E-3   1.755653065629304E-4  
 2.358000000000000E10   -3.666455450002104E-4   6.033572717569768E-4  
 2.360000000000000E10    1.696786843240261E-3   7.572956965304911E-4  
 2.362000000000000E10    2.298688516020775E-3  -1.023626653477550E-3  
 2.364000000000000E10    3.908332728315145E-4  -2.991114743053913E-3  
 2.366000000000000E10   -2.085571642965078E-3  -1.159101375378668E-3  
 2.368000000000000E10   -2.320686588063836E-3   1.337863970547915E-3  
 2.370000000000000E10    1.163124688901007E-3   1.820999546907842E-3  
 2.372000000000000E10    2.217990113422275E-3  -5.985587486065924E-4  
 2.374000000000000E10   -4.264095041435212E-4  -2.311830874532461E-3  
 2.376000000000000E10   -1.921224873512983E-3  -1.285159494727850E-3  
 2.378000000000000E10   -1.997624523937702E-3   8.779500494711101E-4  
 2.380000000000000E10   -3.852235386148095E-4   4.990394227206707E-4  
 2.382000000000000E10    1.046489109285176E-3   1.702182780718431E-4  
 2.384000000000000E10    4.159926029387862E-4  -1.238804659806192E-3  
 2.386000000000000E10   -2.911109477281570E-4  -1.504071289673448E-3  
 2.388000000000000E10   -1.645846874453127E-3   3.720583918038756E-4  
 2.390000000000000E10   -1.101677422411740E-3   1.070396043360233E-3  
 2.392000000000000E10    3.442064917180687E-4   4.209863545838743E-4  
 2.394000000000000E10    3.927486250177026E-4   3.376104868948460E-4  
 2.396000000000000E10   -1.241730176843703E-3  -2.125714963767678E-4  
 2.398000000000000E10   -6.811587081756443E-5  -1.799917517928407E-4  
 2.400000000000000E10    5.739011103287339E-4   9.263055981136859E-4  
 2.402000000000000E10   -1.068580546416342E-3  -4.349877708591521E-4  
 2.404000000000000E10   -3.099231689702719E-4   5.398702924139798E-4  
 2.406000000000000E10    4.166857688687742E-4   2.570484299212694E-3  
 2.408000000000000E10    4.713598173111677E-4   3.935571294277906E-4  
 2.410000000000000E10    1.258979435078800E-3  -6.971023394726217E-4  
 2.412000000000000E10   -1.293425098992884E-3   8.113231160677970E-4  
 2.414000000000000E10   -1.747898524627090E-3   2.323381340829656E-4  
 2.416000000000000E10    8.985304884845391E-5   1.454909448511899E-3  
 2.418000000000000E10   -4.979065852239728E-4   1.226625405251980E-3  
 2.420000000000000E10    8.845017873682082E-4  -8.393370662815869E-4  
 2.422000000000000E10    1.573358778841794E-3  -1.138871302828193E-3  
 2.424000000000000E10   -9.397313697263598E-4  -1.250747242011130E-3  
 2.426000000000000E10   -1.099597546271980E-3   1.358096051262692E-4  
 2.428000000000000E10    1.061463030055165E-3   2.632977673783898E-3  
 2.430000000000000E10    2.021540421992540E-3   1.137765124440193E-3  
 2.432000000000000E10    1.793975709006190E-3  -2.074307994917035E-3  
 2.434000000000000E10   -5.001515382900834E-4  -8.498585666529834E-4  
 2.436000000000000E10   -1.553356996737421E-3   4.031500720884651E-4  
 2.438000000000000E10   -2.754310553427786E-4   5.993079394102097E-4  
 2.440000000000000E10    1.289556967094541E-4   7.282433944055811E-5  
 2.442000000000000E10    8.858186774887145E-4  -2.338271006010473E-4  
 2.444000000000000E10    1.267144107259810E-3  -1.299363560974598E-3  
 2.446000000000000E10   -2.705920196603984E-4  -1.721892971545458E-3  
 2.448000000000000E10   -9.506787755526602E-4  -7.342514581978321E-4  
 2.450000000000000E10   -2.172440872527659E-5   9.817583486437798E-4  
 2.452000000000000E10    1.147690811194480E-3   6.624396191909909E-4  
 2.454000000000000E10    1.335311564616859E-3  -8.204500772990286E-4  
 2.456000000000000E10   -2.484491851646453E-4  -7.329380605369806E-4  
 2.458000000000000E10   -4.472751170396805E-4  -7.001200574450195E-4  
 2.460000000000000E10   -1.769716909620911E-4  -2.426084538456053E-4  
 2.462000000000000E10   -1.396113308146596E-3  -1.537727657705545E-4  
 2.464000000000000E10   -3.233149182051420E-4  -7.171615379775176E-6  
 2.466000000000000E10    1.698934123851359E-3   3.467516798991710E-4  
 2.468000000000000E10    1.214399890159257E-4  -1.555019174702466E-3  
 2.470000000000000E10   -1.048102392815054E-3  -2.084565348923206E-3  
 2.472000000000000E10   -1.192176248878241E-3   5.436644423753023E-4  
 2.474000000000000E10   -6.370535702444613E-4   9.191879071295261E-4  
 2.476000000000000E10    1.146081835031509E-3   2.959015837404877E-4  
 2.478000000000000E10    5.305613158270717E-4  -1.924589741975069E-4  
 2.480000000000000E10   -8.761979406699538E-4  -1.408872922183946E-4  
 2.482000000000000E10   -5.671492544934154E-4  -6.157514872029424E-5  
 2.484000000000000E10   -1.356556545943022E-3   7.651653722859919E-4  
 2.486000000000000E10   -1.880865544080734E-3   1.004638150334358E-3  
 2.488000000000000E10    6.198890041559935E-4   5.757383769378066E-4  
 2.490000000000000E10    4.408057720866054E-4  -2.789594291243702E-4  
 2.492000000000000E10   -6.803969736211002E-4  -1.709709526039660E-3  
 2.494000000000000E10   -1.420983608113602E-4   3.080571768805385E-4  
 2.496000000000000E10    6.085688364692032E-4   6.654108292423189E-4  
 2.498000000000000E10    4.721914010588080E-4   2.242861810373142E-4  
 2.500000000000000E10    8.714375435374677E-4   1.425594906322658E-3  
 2.502000000000000E10    3.446736373007298E-4   1.210743677802384E-3  
 2.504000000000000E10    9.988584788516164E-4  -7.035144371911883E-4  
 2.506000000000000E10    1.147106813732535E-4   3.327633603475988E-4  
 2.508000000000000E10   -2.405710052698851E-3  -2.362911181990057E-4  
 2.510000000000000E10   -2.335185563424602E-4   7.675619563087821E-4  
 2.512000000000000E10    1.301595475524664E-3   9.200740605592728E-4  
 2.514000000000000E10    9.720118832774460E-4  -1.789901405572891E-3  
 2.516000000000000E10    4.876402963418514E-4  -9.424596792086959E-4  
 2.518000000000000E10   -2.324019587831572E-4  -3.591236891224980E-4  
 2.520000000000000E10   -1.174229964817641E-5   1.935403852257878E-4  
 2.522000000000000E10    3.630502324085683E-4   1.885719131678343E-3  
 2.524000000000000E10    1.028806553222239E-3   1.839691540226340E-3  
 2.526000000000000E10    1.431549666449428E-3  -1.348797581158578E-3  
 2.528000000000000E10   -6.757722585462034E-4  -7.905448437668383E-4  
 2.530000000000000E10   -3.074349602684379E-3  -2.590161748230457E-4  
 2.532000000000000E10   -7.693801890127361E-4   3.803129657171667E-4  
 2.534000000000000E10    8.173927781172097E-4   6.339437677524984E-4  
 2.536000000000000E10    1.146112917922437E-3  -1.524004735983908E-3  
 2.538000000000000E10    3.187085967510939E-4  -1.663620932959020E-3  
 2.540000000000000E10   -4.578206571750343E-4  -1.749233779264614E-4  
 2.542000000000000E10   -5.348184495232999E-4   1.073354142135941E-4  
 2.544000000000000E10    6.444701575674117E-4   4.441521596163511E-4  
 2.546000000000000E10    4.066464316565543E-4   1.310086692683399E-3  
 2.548000000000000E10    2.944601874332875E-4  -6.291371537372470E-4  
 2.550000000000000E10   -3.144815273117274E-4  -6.568634416908026E-4  
 2.552000000000000E10   -1.550358138047159E-3   1.016976384562440E-4  
 2.554000000000000E10   -9.846338798524812E-5  -3.129392280243337E-5  
 2.556000000000000E10   -1.558035583002493E-4  -4.021608619950712E-4  
 2.558000000000000E10   -3.510740934871137E-4  -5.888344603590667E-4  
 2.560000000000000E10    2.491389750503004E-4  -1.242877042386681E-4  
 2.562000000000000E10    9.194026933982968E-4   1.526587002445012E-4  
 2.564000000000000E10    1.690149219939485E-4  -3.970008692704141E-4  
 2.566000000000000E10   -1.440419437130913E-4  -5.602687597274780E-4  
 2.568000000000000E10   -7.296496187336743E-4   1.025954261422157E-3  
 2.570000000000000E10   -2.328534465050325E-4   1.122843590565026E-3  
 2.572000000000000E10    1.295155961997807E-3   7.739473221590743E-5  
 2.574000000000000E10    3.394319792278111E-4  -1.118851127102971E-3  
 2.576000000000000E10    1.446876412956044E-4  -1.194760552607477E-3  
 2.578000000000000E10   -1.179968821816146E-3  -2.355621836613864E-4  
 2.580000000000000E10   -3.476528218016028E-4   4.971139132976532E-4  
 2.582000000000000E10    6.108168745413423E-4   7.505921530537307E-4  
 2.584000000000000E10    1.936064451001585E-3  -5.937095847912133E-4  
 2.586000000000000E10    4.004977381555364E-5  -1.512403250671923E-3  
 2.588000000000000E10   -9.741965332068503E-4  -1.870584208518267E-3  
 2.590000000000000E10   -8.641508175060153E-4   4.540594818536192E-4  
 2.592000000000000E10    4.857773456024006E-5   5.862743710167706E-4  
 2.594000000000000E10    2.231403253972530E-3  -3.095407737419009E-4  
 2.596000000000000E10    7.127030985429883E-4  -1.547694671899080E-3  
 2.598000000000000E10   -2.431657630950213E-4  -1.408803043887019E-3  
 2.600000000000000E10   -8.490608888678253E-4   7.811171817593277E-4  
 2.602000000000000E10   -1.785204658517614E-4   6.310972967185080E-4  
 2.604000000000000E10    4.353161202743650E-4   3.147699171677232E-4  
 2.606000000000000E10    8.004038245417178E-4  -1.859643525676802E-4  
 2.608000000000000E10   -2.050297189271078E-4  -1.079401263268665E-4  
 2.610000000000000E10   -8.663348271511495E-4  -1.349059748463333E-3  
 2.612000000000000E10   -1.891174324555323E-4   6.078052683733404E-4  
 2.614000000000000E10   -4.883348010480404E-4   3.321154217701405E-4  
 2.616000000000000E10    1.706250826828182E-3  -2.890216419473290E-4  
 2.618000000000000E10    6.061561289243400E-4   1.742095337249339E-4  
 2.620000000000000E10   -2.092838112730533E-4  -4.609245806932449E-4  
 2.622000000000000E10    3.832426154986024E-4   6.266941200010479E-4  
 2.624000000000000E10    1.482886582380161E-4   7.112903986126185E-4  
 2.626000000000000E10   -1.144162029959261E-3  -1.950933510670438E-4  
 2.628000000000000E10   -5.332240834832192E-4   5.358588532544673E-4  
 2.630000000000000E10   -5.925937512074597E-5   1.000521820969880E-3  
 2.632000000000000E10    2.576607803348452E-4  -1.027336460538209E-3  
 2.634000000000000E10    9.920719312503934E-4  -4.250294005032629E-4  
 2.636000000000000E10   -9.515230776742101E-4  -1.301247248193249E-4  
 2.638000000000000E10   -2.213201514678076E-4  -1.200572733068839E-4  
 2.640000000000000E10    2.750180137809366E-4   1.570075633935630E-3  
 2.642000000000000E10    4.405548970680684E-4   1.014391891658306E-3  
 2.644000000000000E10    8.595329127274454E-4  -4.759582225233316E-5  
 2.646000000000000E10    3.266225394327194E-4  -4.731180961243808E-4  
 2.648000000000000E10   -1.624543569050729E-3  -2.510335179977119E-4  
 2.650000000000000E10   -1.365633565001190E-3   6.026570335961878E-4  
 2.652000000000000E10    5.063697462901473E-4   1.548688509501517E-3  
 2.654000000000000E10    1.296273781917989E-3  -8.267730008810759E-4  
 2.656000000000000E10    6.857954431325197E-4  -1.022701850160956E-3  
 2.658000000000000E10   -6.827014731243253E-4  -7.949723512865603E-4  
 2.660000000000000E10    1.315276895184070E-4   3.354242944624275E-4  
 2.662000000000000E10   -1.828802051022649E-4   1.133101526647806E-3  
 2.664000000000000E10    6.968107190914452E-4   1.192133640870452E-3  
 2.666000000000000E10    9.047716157510877E-4   1.283867750316858E-4  
 2.668000000000000E10    1.396851293975487E-4  -7.973264437168837E-4  
 2.670000000000000E10   -1.478757476434112E-3  -6.263966788537800E-4  
 2.672000000000000E10   -6.367451278492808E-4   2.646950597409159E-4  
 2.674000000000000E10    6.212305743247271E-4   1.158989267423749E-3  
 2.676000000000000E10    1.535765477456152E-3  -4.737153940368444E-4  
 2.678000000000000E10    1.036530709825456E-3  -8.521897834725678E-4  
 2.680000000000000E10   -6.746760336682200E-4  -3.526395012158901E-4  
 2.682000000000000E10    3.890548396157101E-5   1.381957990815863E-4  
 2.684000000000000E10    1.316056150244549E-4   4.865254450123757E-4  
 2.686000000000000E10   -4.325732588768005E-4   9.766904258867726E-5  
 2.688000000000000E10    4.212783533148468E-4  -3.946179349441081E-4  
 2.690000000000000E10    5.877586663700640E-4  -6.575151928700507E-4  
 2.692000000000000E10   -9.873308008536696E-4  -1.129355048760772E-3  
 2.694000000000000E10   -4.557523934636265E-4  -1.082820352166891E-3  
 2.696000000000000E10    1.957344211405143E-4   7.106570992618799E-4  
 2.698000000000000E10    1.659485678828787E-5  -7.604153361171484E-4  
 2.700000000000000E10    4.634316137526184E-4  -3.066446515731514E-4  
 2.702000000000000E10   -1.917992049129680E-4   6.068521179258823E-5  
 2.704000000000000E10    2.738802868407220E-4  -2.884631103370339E-4  
 2.706000000000000E10    3.105796713498421E-5  -9.934302943293005E-5  
 2.708000000000000E10   -8.659189334139228E-4  -9.557428711559624E-5  
 2.710000000000000E10   -1.217060955241323E-3   4.122273821849376E-4  
 2.712000000000000E10    4.258020780980587E-4   5.707658128812909E-4  
 2.714000000000000E10   -1.190885595860891E-4  -5.503539432538673E-5  
 2.716000000000000E10    4.762057869811542E-5  -1.216815202496946E-3  
 2.718000000000000E10   -5.635847628582269E-5  -2.109796041622758E-4  
 2.720000000000000E10   -1.498204073868692E-3   2.356584154767916E-4  
 2.722000000000000E10   -4.595716018229723E-4   6.500435993075371E-4  
 2.724000000000000E10    5.916458903811872E-4   1.541361212730408E-3  
 2.726000000000000E10    7.496613543480635E-4  -2.133861125912517E-4  
 2.728000000000000E10   -2.389948494965211E-4  -1.533397356979549E-3  
 2.730000000000000E10   -2.117681549862027E-3  -3.088876110268757E-5  
 2.732000000000000E10   -1.492495066486299E-3   1.275112619623542E-3  
 2.734000000000000E10    6.626161630265415E-4   1.201671781018376E-3  
 2.736000000000000E10    1.196937635540962E-3  -3.699967055581510E-5  
 2.738000000000000E10   -3.965686773881316E-4  -1.659575384110212E-3  
 2.740000000000000E10   -8.472524350509048E-4  -5.156230763532221E-4  
 2.742000000000000E10   -1.404636772349477E-3   6.252691964618862E-4  
 2.744000000000000E10    4.947296110913158E-4   1.101515139453113E-3  
 2.746000000000000E10    1.278231153264642E-3   9.511923999525607E-4  
 2.748000000000000E10    9.914442198351026E-4  -6.127816741354764E-4  
 2.750000000000000E10   -8.595451945438981E-4  -7.921735523268580E-4  
 2.752000000000000E10   -1.589075196534395E-3   7.550068548880518E-4  
 2.754000000000000E10   -4.762602329719812E-4   1.393119804561138E-3  
 2.756000000000000E10    1.266939565539360E-3   2.263965870952234E-4  
