#  HZ   S   RI   R     50.00 
! Rohde & Schwarz ZVA40 4Ports - Version 3.90 - 1145.1110k42 SN: 100403
! Date: 2023-10-04 11:46:20
! Measurement: S12 
! 
 2.200000000000000E10   -1.395764760673046E-3  -1.713930745609105E-3  
 2.202000000000000E10   -2.529536606743932E-3   5.751964636147022E-4  
 2.204000000000000E10   -4.025325470138341E-4   1.863978570327163E-3  
 2.206000000000000E10    1.268648658879101E-3   3.636004985310137E-4  
 2.208000000000000E10    1.817745738662779E-3  -2.113861497491598E-3  
 2.210000000000000E10   -2.335092722205445E-4  -1.788681256584823E-3  
 2.212000000000000E10   -2.174652181565762E-3  -5.998022970743477E-4  
 2.214000000000000E10   -3.431070072110742E-4   2.028351649641991E-3  
 2.216000000000000E10    9.026887710206211E-4   1.960541121661663E-3  
 2.218000000000000E10    1.576836337335408E-3  -2.806718694046140E-4  
 2.220000000000000E10    7.269207708304748E-5  -1.871376996859908E-3  
 2.222000000000000E10   -1.560668810270727E-3  -2.744498488027602E-4  
 2.224000000000000E10   -1.871222397312522E-3   1.276702852919698E-3  
 2.226000000000000E10    1.422779867425561E-3   3.398260450921953E-4  
 2.228000000000000E10    7.668848265893757E-4   8.613627869635820E-4  
 2.230000000000000E10   -2.417571959085763E-4  -1.209213049151003E-3  
 2.232000000000000E10    5.232381226960570E-6   4.973688191967085E-5  
 2.234000000000000E10   -7.924761157482863E-4   4.124709521420300E-4  
 2.236000000000000E10    4.870475386269391E-4   2.246413932880387E-4  
 2.238000000000000E10    7.315993425436318E-4  -2.391428279224783E-4  
 2.240000000000000E10   -4.818353627342731E-4   2.423526602797210E-4  
 2.242000000000000E10   -2.880384272430092E-5   7.378261070698500E-4  
 2.244000000000000E10    8.227496873587370E-4   6.791022024117410E-4  
 2.246000000000000E10    2.892793236242142E-5  -3.982092312071472E-4  
 2.248000000000000E10    8.002075628610328E-5  -1.836800365708768E-4  
 2.250000000000000E10   -1.079336274415255E-3   1.255465671420097E-3  
 2.252000000000000E10   -9.163916110992432E-4   9.918159339576960E-4  
 2.254000000000000E10    1.267128973267973E-3   1.122711924836040E-3  
 2.256000000000000E10    3.605806559789926E-4  -2.188617363572121E-4  
 2.258000000000000E10   -1.756975252646953E-4  -2.156935166567564E-3  
 2.260000000000000E10   -6.783892167732120E-4  -1.170368122984655E-4  
 2.262000000000000E10   -1.060393173247576E-3   1.308677368797362E-3  
 2.264000000000000E10    1.455756719224155E-3   1.185281667858362E-3  
 2.266000000000000E10    2.095353556796908E-3   1.723743625916541E-4  
 2.268000000000000E10    9.259901125915349E-4  -1.645804033614695E-3  
 2.270000000000000E10   -3.949168021790683E-4  -8.515047375112772E-4  
 2.272000000000000E10   -1.378139713779092E-3   1.339043723419309E-3  
 2.274000000000000E10    9.626473183743656E-5   1.525275642052293E-3  
 2.276000000000000E10    2.131209708750248E-3   1.814636198105291E-4  
 2.278000000000000E10    1.734870369546115E-3  -1.192992203868926E-3  
 2.280000000000000E10   -2.699888136703521E-4  -2.372415270656347E-3  
 2.282000000000000E10   -1.904510281747207E-4  -6.428305641748011E-4  
 2.284000000000000E10   -5.326148238964379E-4   1.131709199398756E-3  
 2.286000000000000E10    1.361074275337160E-3  -3.811175702139735E-4  
 2.288000000000000E10    1.716325641609728E-3   7.769986405037344E-4  
 2.290000000000000E10    4.410607216414064E-4  -1.399803441017866E-3  
 2.292000000000000E10   -3.908892977051437E-4  -1.632936066016555E-3  
 2.294000000000000E10   -1.281963195651770E-3   5.288984175422229E-5  
 2.296000000000000E10   -1.033828244544566E-3   9.411913342773914E-4  
 2.298000000000000E10    4.441470664460212E-4  -1.879540359368548E-4  
 2.300000000000000E10    6.021804874762893E-4  -4.225315060466528E-4  
 2.302000000000000E10   -1.000686897896230E-3  -1.688936026766896E-3  
 2.304000000000000E10   -3.504506894387305E-4  -7.867024396546185E-4  
 2.306000000000000E10   -8.830904262140393E-4   3.323124255985022E-4  
 2.308000000000000E10   -3.840903809759766E-4  -3.056885907426477E-4  
 2.310000000000000E10    9.543724590912461E-4   1.025502220727503E-3  
 2.312000000000000E10   -1.527803688077256E-4   9.558216552250087E-4  
 2.314000000000000E10   -1.619486720301211E-4  -3.394711820874363E-4  
 2.316000000000000E10   -1.313612679950893E-3  -7.193369674496353E-4  
 2.318000000000000E10   -1.664916286244988E-3   7.953256135806441E-4  
 2.320000000000000E10   -6.490640225820243E-4   5.634755943901837E-4  
 2.322000000000000E10    2.824193188644131E-6   3.748500021174550E-4  
 2.324000000000000E10   -2.617769641801715E-4   6.855046376585960E-5  
 2.326000000000000E10    7.093644817359746E-4  -7.490062271244824E-4  
 2.328000000000000E10   -4.963052924722433E-5  -3.490536182653159E-4  
 2.330000000000000E10   -1.225879881531000E-3  -4.931091098114848E-4  
 2.332000000000000E10    7.836778968339786E-5   1.311688567511737E-3  
 2.334000000000000E10    1.110584475100040E-3   1.934338710270822E-3  
 2.336000000000000E10    8.611654629930854E-4   1.970286393770948E-4  
 2.338000000000000E10    3.106296062469482E-4  -7.781069143675268E-4  
 2.340000000000000E10   -1.533743925392628E-3  -1.858844625530765E-4  
 2.342000000000000E10   -1.777688972651959E-3   8.475587237626314E-4  
 2.344000000000000E10   -7.307078922167420E-4   1.437258673831821E-3  
 2.346000000000000E10    4.612205375451595E-4   4.035244637634605E-4  
 2.348000000000000E10    1.474635791964829E-3  -1.002099248580635E-3  
 2.350000000000000E10    1.180339953862131E-3  -1.820575329475105E-3  
 2.352000000000000E10   -1.666880911216140E-3  -6.952916155569255E-4  
 2.354000000000000E10   -4.360615566838533E-4   1.511605922132731E-3  
 2.356000000000000E10    1.601210096850991E-3   2.357561839744449E-3  
 2.358000000000000E10    1.880055409856141E-3  -4.733977548312396E-4  
 2.360000000000000E10    2.651709364727140E-4  -4.852213314734399E-4  
 2.362000000000000E10   -1.568706007674336E-3  -9.670844156062231E-5  
 2.364000000000000E10   -1.219230121932924E-3   4.380193422548473E-4  
 2.366000000000000E10   -1.429813419235870E-4   8.078099344857037E-4  
 2.368000000000000E10    2.645291096996516E-4   5.860068267793395E-5  
 2.370000000000000E10    9.753875201568008E-4  -7.717130356468260E-4  
 2.372000000000000E10    8.088614558801055E-4  -1.269065076485276E-3  
 2.374000000000000E10   -5.351344007067382E-4  -1.225623185746372E-3  
 2.376000000000000E10   -5.217907018959522E-4   4.906808026134968E-4  
 2.378000000000000E10    6.361796404235065E-4   1.209494657814503E-3  
 2.380000000000000E10    9.437533444724977E-4  -4.577219369821250E-4  
 2.382000000000000E10    1.902952790260315E-4  -3.851319779641926E-4  
 2.384000000000000E10   -8.638635626994073E-4   7.246337918331847E-5  
 2.386000000000000E10   -3.713023616001010E-4  -9.175869054161012E-4  
 2.388000000000000E10   -4.612923075910658E-4  -1.145360060036182E-3  
 2.390000000000000E10   -8.827420533634722E-4   6.712015019729734E-4  
 2.392000000000000E10    7.602858240716159E-4  -5.445389615488239E-5  
 2.394000000000000E10    1.770792761817575E-3  -4.721958830486983E-4  
 2.396000000000000E10    3.013195055245888E-5  -1.312235835939646E-3  
 2.398000000000000E10   -3.892617824021727E-4  -3.172800352331251E-4  
 2.400000000000000E10   -8.513502543792129E-4   1.379731111228466E-3  
 2.402000000000000E10   -3.873733512591571E-4   8.919700048863888E-4  
 2.404000000000000E10    2.856709179468453E-4   4.944096435792744E-4  
 2.406000000000000E10    5.832753959111869E-4   3.546201041899622E-4  
 2.408000000000000E10   -9.266154374927282E-4  -1.169632887467742E-3  
 2.410000000000000E10   -1.426737173460424E-3  -1.096212537959218E-3  
 2.412000000000000E10   -1.591690466739237E-3   1.831265399232507E-3  
 2.414000000000000E10    1.000849588308483E-4   9.190324344672263E-4  
 2.416000000000000E10    2.362480852752924E-3  -1.582304539624602E-4  
 2.418000000000000E10   -2.571591758169234E-4  -9.020755533128977E-4  
 2.420000000000000E10   -7.503477972932160E-4  -5.838334909640253E-4  
 2.422000000000000E10   -2.436384675092995E-4   1.360901980660856E-3  
 2.424000000000000E10   -1.025915145874023E-3   9.861082071438432E-4  
 2.426000000000000E10   -2.651751856319606E-4   8.549944614060223E-4  
 2.428000000000000E10    1.030285842716694E-3   1.108614495024085E-3  
 2.430000000000000E10   -1.219820696860552E-4  -1.042067422531545E-3  
 2.432000000000000E10   -6.797148962505162E-4  -2.174364402890205E-3  
 2.434000000000000E10   -1.738900784403086E-3   9.660329087637365E-4  
 2.436000000000000E10   -4.152263281866908E-4   1.063129981048405E-3  
 2.438000000000000E10    2.360889455303550E-3  -8.202065509976819E-5  
 2.440000000000000E10    7.494270103052259E-4  -5.970642669126391E-4  
 2.442000000000000E10   -1.408822427038103E-4  -1.027365913614631E-3  
 2.444000000000000E10    8.633405668660998E-4  -2.015233912970871E-4  
 2.446000000000000E10   -5.651412648148835E-4   5.802492378279567E-4  
 2.448000000000000E10   -7.358893635682762E-4   5.136519903317094E-4  
 2.450000000000000E10    9.075354901142418E-4   1.651207450777292E-3  
 2.452000000000000E10    9.178985492326319E-4  -3.167006361763924E-4  
 2.454000000000000E10   -4.401177866384387E-4  -2.261963905766606E-3  
 2.456000000000000E10   -1.727891620248556E-3  -7.021104102022946E-4  
 2.458000000000000E10   -6.440836004912853E-4   6.739958771504462E-4  
 2.460000000000000E10    1.626650686375797E-3   3.014820103999227E-4  
 2.462000000000000E10    1.502332161180675E-3  -5.652784602716565E-4  
 2.464000000000000E10    3.380889829713851E-4  -3.742481931112707E-4  
 2.466000000000000E10    4.142999532632530E-4  -4.914912860840559E-4  
 2.468000000000000E10   -3.755408979486674E-4   1.140843160101213E-4  
 2.470000000000000E10   -1.251266570761800E-3   1.120861197705381E-4  
 2.472000000000000E10    5.049297760706395E-5   1.362565904855728E-3  
 2.474000000000000E10    6.426780018955469E-4  -8.966829045675695E-5  
 2.476000000000000E10    4.259897104930133E-4  -1.834062859416008E-3  
 2.478000000000000E10   -1.073072548024356E-3  -8.399827056564391E-4  
 2.480000000000000E10   -6.124690407887101E-4  -1.072478844434954E-4  
 2.482000000000000E10    1.819462922867388E-4   5.023858393542469E-4  
 2.484000000000000E10    1.606176920176949E-5   1.213941068272106E-4  
 2.486000000000000E10   -3.739056992344558E-4   4.551029705908150E-4  
 2.488000000000000E10    6.960441241972148E-4   2.722434001043439E-4  
 2.490000000000000E10   -5.507870810106397E-4   3.001907134603243E-5  
 2.492000000000000E10   -1.444274792447686E-3  -1.301126671023667E-3  
 2.494000000000000E10   -6.710966699756682E-4   9.034044342115521E-4  
 2.496000000000000E10   -7.542371167801321E-4   1.388570177368820E-3  
 2.498000000000000E10    1.070812693797052E-3  -4.590724129229784E-4  
 2.500000000000000E10    5.570314824581146E-4  -3.947248333133757E-4  
 2.502000000000000E10   -1.025364617817104E-3  -4.835605795960873E-4  
 2.504000000000000E10   -7.212263299152255E-4  -3.512101829983294E-4  
 2.506000000000000E10   -6.208222475834191E-4   1.241476042196155E-3  
 2.508000000000000E10   -4.045296518597752E-4   1.621239352971315E-3  
 2.510000000000000E10    2.183013828471303E-3  -3.013859968632460E-4  
 2.512000000000000E10    9.142677299678326E-4  -1.140603097155690E-3  
 2.514000000000000E10   -2.243630122393370E-3  -1.583966659381986E-3  
 2.516000000000000E10   -5.280033801682293E-4   8.286592783406377E-4  
 2.518000000000000E10    3.217685443814844E-4   2.718914300203323E-3  
 2.520000000000000E10    1.709806034341455E-3   2.647233777679503E-4  
 2.522000000000000E10    9.660415234975517E-4  -8.613125537522137E-4  
 2.524000000000000E10   -1.355595071800053E-3  -2.957730321213603E-4  
 2.526000000000000E10   -1.631251652725041E-3   1.138221268774942E-4  
 2.528000000000000E10    1.380304747726768E-4   1.200947677716613E-3  
 2.530000000000000E10   -3.721561224665493E-4   4.222629650030285E-4  
 2.532000000000000E10    1.313833519816399E-3  -1.188905327580869E-3  
 2.534000000000000E10    4.975294577889144E-4  -6.696818745695055E-4  
 2.536000000000000E10   -5.779023049399257E-4  -8.241995819844306E-4  
 2.538000000000000E10    5.907668382860720E-4   1.155545236542821E-3  
 2.540000000000000E10    1.243565464392304E-3   8.301250636577606E-4  
 2.542000000000000E10    7.157812942750752E-4   3.816412645392120E-4  
 2.544000000000000E10   -2.066133747575805E-4   1.941632508533076E-4  
 2.546000000000000E10   -2.983199956361204E-4   8.810775470919907E-4  
 2.548000000000000E10   -1.199656107928604E-4   4.960387377650477E-5  
 2.550000000000000E10    5.565888131968677E-4  -7.427205564454198E-4  
 2.552000000000000E10   -1.260016928426921E-3  -6.892359233461320E-4  
 2.554000000000000E10   -3.587142564356327E-4  -4.629534960258752E-4  
 2.556000000000000E10    1.390551915392280E-3   9.606641251593828E-4  
 2.558000000000000E10    1.348616322502494E-3  -6.063400651328266E-4  
 2.560000000000000E10    1.158385071903467E-3  -1.269970322027803E-3  
 2.562000000000000E10   -6.348853930830956E-4   2.645304193720222E-4  
 2.564000000000000E10   -9.492751560173929E-4   8.172565721906722E-4  
 2.566000000000000E10   -5.573197995545343E-6   1.375031424686313E-3  
 2.568000000000000E10    1.113973790779710E-3   9.330383618362248E-4  
 2.570000000000000E10    1.391154655721039E-4  -1.185107859782875E-3  
 2.572000000000000E10   -9.648139530327171E-5  -2.236066153272986E-3  
 2.574000000000000E10   -1.703600748442113E-3   7.952914456836879E-4  
 2.576000000000000E10   -6.182453362271190E-4   4.150942841079086E-4  
 2.578000000000000E10    2.446754602715373E-3   6.864600582048297E-4  
 2.580000000000000E10    1.624502358026803E-3  -1.122310874052346E-3  
 2.582000000000000E10    3.355380613356829E-4  -1.907730242237449E-3  
 2.584000000000000E10   -1.450535259209573E-3   1.347291690763086E-4  
 2.586000000000000E10   -1.238743279827759E-4   1.256612362340093E-3  
 2.588000000000000E10    1.389860524795950E-3   5.160858272574842E-4  
 2.590000000000000E10    8.826084085740149E-4  -4.313018289394677E-4  
 2.592000000000000E10   -8.807872654870153E-5  -9.828128386288881E-4  
 2.594000000000000E10   -4.118271172046661E-4  -1.583504956215620E-3  
 2.596000000000000E10   -6.653365562669933E-4   3.864519239868969E-4  
 2.598000000000000E10   -4.524909018073231E-4   9.757161751622334E-5  
 2.600000000000000E10    2.137300092726946E-3  -2.166994527215138E-4  
 2.602000000000000E10    2.893435303121805E-4  -4.000404151156545E-4  
 2.604000000000000E10   -2.133386442437768E-4  -1.251401379704475E-3  
 2.606000000000000E10   -4.691795620601624E-4   4.778254078701139E-4  
 2.608000000000000E10    3.494161355774850E-4   5.358053604140878E-4  
 2.610000000000000E10    3.919551381841302E-4  -7.803382468409836E-4  
 2.612000000000000E10   -4.745122569147497E-4   1.355609356323839E-6  
 2.614000000000000E10   -1.098722568713129E-3   1.403171452693641E-3  
 2.616000000000000E10    1.039298134855926E-3  -2.257450250908732E-4  
 2.618000000000000E10    8.970634080469608E-4  -4.038461192976683E-4  
 2.620000000000000E10   -1.508601941168308E-3  -7.744664326310158E-4  
 2.622000000000000E10   -2.940921112895012E-4   3.949816164094955E-4  
 2.624000000000000E10   -5.082458956167102E-4   1.311127794906497E-3  
 2.626000000000000E10   -2.014659112319350E-4   6.307262228801847E-4  
 2.628000000000000E10    1.022962271235883E-3   5.267178057692945E-4  
 2.630000000000000E10    4.524304531514645E-4  -5.021903780288994E-4  
 2.632000000000000E10   -1.557482872158289E-3  -8.855728083290160E-4  
 2.634000000000000E10   -1.612490275874734E-3   7.739025168120861E-4  
 2.636000000000000E10   -3.984913346357644E-4   2.346022287383676E-3  
 2.638000000000000E10    2.015810692682862E-3   2.164844918297604E-4  
 2.640000000000000E10    1.132267992943525E-3  -1.302943448536098E-3  
 2.642000000000000E10   -1.662808237597346E-3  -8.279461762867868E-4  
 2.644000000000000E10   -1.000436372123659E-3   1.367521123029292E-3  
 2.646000000000000E10    2.614057157188654E-4   1.584945945069194E-3  
 2.648000000000000E10    5.641769967041910E-4   4.080040962435305E-4  
 2.650000000000000E10    6.569323595613241E-4  -1.935792242875323E-4  
 2.652000000000000E10    5.476879305206239E-4  -5.471649346873164E-4  
 2.654000000000000E10   -1.423548441380262E-3  -5.550698260776699E-4  
 2.656000000000000E10   -7.879373733885586E-4   1.131364726461470E-3  
 2.658000000000000E10    5.888529703952372E-4   1.852817484177649E-3  
 2.660000000000000E10    1.878467621281743E-3  -1.030998653732240E-3  
 2.662000000000000E10    1.089558936655521E-4  -3.483403997961432E-4  
 2.664000000000000E10   -1.655465341173112E-3  -2.975236275233328E-4  
 2.666000000000000E10    6.939733866602182E-4   5.298060714267194E-4  
 2.668000000000000E10    3.449436335358769E-4   4.893367440672591E-5  
 2.670000000000000E10   -1.502943778177723E-4  -5.099713453091681E-4  
 2.672000000000000E10    2.651856630109251E-4   4.880666674580425E-4  
 2.674000000000000E10    9.336779476143420E-4   2.581211156211793E-4  
 2.676000000000000E10    7.206406735349447E-5  -1.220542239025235E-3  
 2.678000000000000E10   -1.631888007977977E-4  -6.855484680272639E-4  
 2.680000000000000E10   -2.470946346875280E-4   1.199875725433230E-3  
 2.682000000000000E10    3.734369238372892E-4  -4.934914759360254E-4  
 2.684000000000000E10    7.271093782037497E-4  -2.442748518660665E-4  
 2.686000000000000E10   -7.408835226669908E-4   3.595245943870395E-4  
 2.688000000000000E10    6.994188297539949E-4  -9.642561781220138E-4  
 2.690000000000000E10    1.353193074464798E-4  -9.905522456392646E-4  
 2.692000000000000E10   -7.657452952116728E-4  -4.820984031539410E-4  
 2.694000000000000E10   -6.740818207617849E-5   5.516675882972777E-4  
 2.696000000000000E10    1.398961758241057E-3   6.496796268038452E-4  
 2.698000000000000E10    9.068694198504090E-4  -7.632448105141521E-4  
 2.700000000000000E10    7.010228728177026E-5  -1.435903832316399E-3  
 2.702000000000000E10   -1.157293911091983E-3   1.055270782671869E-3  
 2.704000000000000E10   -6.050092051737011E-4   2.984828279295471E-5  
 2.706000000000000E10    5.767755210399628E-4   4.454254230950028E-4  
 2.708000000000000E10   -2.389629080425948E-4  -1.550429806229658E-5  
 2.710000000000000E10    8.459842065349221E-4  -1.311610103584826E-3  
 2.712000000000000E10    9.492762728768867E-6  -1.086029689759016E-3  
 2.714000000000000E10   -1.437740051187575E-3  -4.515818436630070E-4  
 2.716000000000000E10   -5.935137160122395E-4   8.201335440389812E-4  
 2.718000000000000E10    1.136443461291492E-3   8.379023638553917E-4  
 2.720000000000000E10    5.049264291301370E-4  -4.315238620620221E-4  
 2.722000000000000E10    6.705007399432361E-5  -1.243278151378036E-3  
 2.724000000000000E10   -1.307379454374313E-3   2.393382746959105E-4  
 2.726000000000000E10   -1.644615782424808E-3  -5.732208956032991E-5  
 2.728000000000000E10    4.332563257776201E-4   3.845917817670852E-4  
 2.730000000000000E10    2.829958393704146E-4   4.818089073523879E-4  
 2.732000000000000E10    7.373441476374865E-4  -1.134503516368568E-3  
 2.734000000000000E10   -4.394788993522525E-5  -1.274455920793116E-3  
 2.736000000000000E10   -1.272380002774298E-3   3.287824511062354E-4  
 2.738000000000000E10   -8.417969220317900E-4   1.087236450985074E-3  
 2.740000000000000E10    1.073907362297177E-3   6.394489901140332E-4  
 2.742000000000000E10    5.067956954007968E-5   4.299371794331819E-4  
 2.744000000000000E10   -1.108921016566455E-3  -1.077208435162902E-3  
 2.746000000000000E10   -1.067725825123489E-3   1.935858308570460E-4  
 2.748000000000000E10   -1.052987063303590E-3   1.808091328712180E-4  
 2.750000000000000E10   -1.363143528578803E-4  -3.586960665415973E-4  
 2.752000000000000E10    1.784242340363562E-4   5.050055551691912E-5  
 2.754000000000000E10   -4.888748517259955E-4  -1.765068591339514E-4  
 2.756000000000000E10   -7.490945426980034E-5  -4.852350975852460E-4  
