#  HZ   S   RI   R     50.00 
! Rohde & Schwarz ZVA40 4Ports - Version 3.90 - 1145.1110k42 SN: 100403
! Date: 2023-10-04 11:46:02
! Measurement: S12 
! 
 2.200000000000000E10   -1.476443954743445E-3   1.493809122621315E-5  
 2.202000000000000E10    2.838201180566102E-4   1.255065086297691E-3  
 2.204000000000000E10    1.078545115888119E-3  -3.562337660696358E-4  
 2.206000000000000E10   -2.081152051687241E-4  -1.000253017991781E-3  
 2.208000000000000E10   -1.341499155387282E-3   6.370530172716826E-5  
 2.210000000000000E10    9.893907699733973E-4   1.697534229606390E-3  
 2.212000000000000E10    9.248598944395781E-4  -2.047738234978169E-4  
 2.214000000000000E10    9.848664922174066E-5  -1.878135954029858E-3  
 2.216000000000000E10   -1.120250090025365E-3  -9.823052096180618E-5  
 2.218000000000000E10   -1.000160700641573E-3   9.679439244791865E-4  
 2.220000000000000E10    3.536522854119539E-4   5.156694096513093E-4  
 2.222000000000000E10    1.668523414991796E-3   5.955265369266272E-4  
 2.224000000000000E10    3.868753556162119E-4  -1.839076285250485E-3  
 2.226000000000000E10   -6.701535312458873E-4  -1.582778990268707E-3  
 2.228000000000000E10   -2.043524989858270E-3   1.061996910721064E-3  
 2.230000000000000E10   -7.277044351212680E-4   1.829676912166178E-3  
 2.232000000000000E10    2.845390699803829E-3   4.762657918035984E-4  
 2.234000000000000E10    1.049733837135136E-3  -1.442817156203091E-3  
 2.236000000000000E10   -1.249682041816413E-3  -1.948867808096111E-3  
 2.238000000000000E10   -1.171584939584136E-3   1.267913612537086E-3  
 2.240000000000000E10   -3.582591598387808E-4   1.660269801504910E-3  
 2.242000000000000E10    1.258967909961939E-3   7.496048783650622E-5  
 2.244000000000000E10    9.850036585703492E-4   3.480184886939242E-6  
 2.246000000000000E10   -2.143627061741427E-4  -1.663633272983134E-3  
 2.248000000000000E10   -5.508058238774538E-4  -6.415033712983131E-4  
 2.250000000000000E10   -1.531581743620336E-3   1.296582282520831E-3  
 2.252000000000000E10    6.453753449022770E-4   5.326183745637536E-4  
 2.254000000000000E10    1.241544960066676E-3   3.237368655391038E-4  
 2.256000000000000E10    1.160027459263802E-4  -8.449908345937729E-4  
 2.258000000000000E10   -2.873957855626941E-4  -1.794116105884314E-4  
 2.260000000000000E10   -1.486988330725581E-4   3.284676931798458E-4  
 2.262000000000000E10   -1.750391529640183E-4   6.236586486920714E-4  
 2.264000000000000E10    5.003291880711913E-4  -3.105642390437424E-4  
 2.266000000000000E10    1.330938248429447E-4   5.908791790716350E-4  
 2.268000000000000E10    5.577617775998078E-5   2.775648608803749E-4  
 2.270000000000000E10    1.078140921890736E-3  -3.410361532587558E-4  
 2.272000000000000E10   -7.904179510660470E-4  -5.976876709610224E-4  
 2.274000000000000E10   -1.297809649258852E-4  -1.606727455509827E-4  
 2.276000000000000E10    4.017943574581295E-4   9.989631362259388E-4  
 2.278000000000000E10    6.029768264852464E-4   4.795239656232297E-4  
 2.280000000000000E10    1.205333857797086E-3  -8.432990871369839E-4  
 2.282000000000000E10    1.112929079681635E-3   3.283445257693529E-4  
 2.284000000000000E10   -4.455406742636114E-4  -6.089924718253315E-4  
 2.286000000000000E10   -2.754421147983521E-4  -1.715998077997938E-4  
 2.288000000000000E10    4.601684631779790E-4   1.666672993451357E-3  
 2.290000000000000E10    5.862260586582124E-4   8.323434740304947E-4  
 2.292000000000000E10    1.570260734297335E-3  -1.082611037418246E-3  
 2.294000000000000E10   -4.741829761769623E-4  -1.374102430418134E-3  
 2.296000000000000E10   -1.494098338298500E-3  -4.626121080946177E-4  
 2.298000000000000E10   -2.540857531130314E-4   2.407886931905523E-4  
 2.300000000000000E10    1.044850912876427E-3   6.044931942597032E-4  
 2.302000000000000E10    5.465293070301414E-4  -5.785607500001788E-4  
 2.304000000000000E10    1.673344522714615E-3  -7.600345415994525E-4  
 2.306000000000000E10    1.045507378876209E-4  -6.736863870173693E-4  
 2.308000000000000E10   -1.638251356780529E-3  -9.390762425027788E-4  
 2.310000000000000E10   -7.918119663372636E-4   1.710602198727429E-3  
 2.312000000000000E10    5.656239227391779E-5   1.252279267646372E-3  
 2.314000000000000E10    1.009705010801554E-3  -1.323810080066323E-3  
 2.316000000000000E10    1.156540311058052E-4  -1.920447917655110E-3  
 2.318000000000000E10   -2.252809470519424E-3  -1.100699533708394E-3  
 2.320000000000000E10   -9.950690437108278E-4  -5.728874821215868E-4  
 2.322000000000000E10    3.427652118261904E-4   8.125340100377798E-4  
 2.324000000000000E10    1.666350872255862E-4   1.154725759988651E-4  
 2.326000000000000E10    1.627316465601325E-3  -8.003660477697849E-4  
 2.328000000000000E10    7.319725409615785E-5  -7.487591938115656E-4  
 2.330000000000000E10   -1.544487313367426E-3  -8.140244171954691E-4  
 2.332000000000000E10   -8.530979976058006E-4   1.579286064952612E-3  
 2.334000000000000E10   -9.656479232944548E-5   2.214526757597923E-3  
 2.336000000000000E10    7.471835706382990E-4  -5.268207169137895E-4  
 2.338000000000000E10   -2.668848319444805E-4  -9.323061094619334E-4  
 2.340000000000000E10   -1.617485540919006E-3  -4.840727488044649E-4  
 2.342000000000000E10   -1.334026921540499E-3  -7.672788924537599E-4  
 2.344000000000000E10   -4.374645359348506E-4  -1.206005908898078E-4  
 2.346000000000000E10    5.788658745586872E-4   1.068292185664177E-3  
 2.348000000000000E10    1.479965751059353E-3  -1.415476144757122E-4  
 2.350000000000000E10    1.265483209863305E-3   8.010434976313263E-5  
 2.352000000000000E10   -7.167676812969148E-4   5.336489266483113E-5  
 2.354000000000000E10   -8.465800201520324E-4   8.019855013117194E-4  
 2.356000000000000E10   -9.364035577164032E-6   2.027525799348950E-3  
 2.358000000000000E10   -1.149718809756450E-4   4.374715790618211E-4  
 2.360000000000000E10   -3.556291630957276E-4   4.233708896208555E-4  
 2.362000000000000E10   -2.953199727926403E-4  -6.604859663639218E-5  
 2.364000000000000E10    2.735854359343648E-4  -8.775136666372418E-4  
 2.366000000000000E10   -1.259570359252393E-3  -1.161871128715575E-3  
 2.368000000000000E10   -6.228264537639916E-4   3.852152440231293E-4  
 2.370000000000000E10    1.408764743246138E-3   1.317700371146202E-3  
 2.372000000000000E10    2.168725244700909E-3  -4.014359365100972E-5  
 2.374000000000000E10    6.157751195132732E-4  -1.205925829708576E-3  
 2.376000000000000E10   -4.477571637835354E-4  -3.552487760316581E-4  
 2.378000000000000E10   -9.552768897265196E-4   1.260052202269435E-3  
 2.380000000000000E10   -1.227682369062677E-4   7.462616777047515E-4  
 2.382000000000000E10    4.695321549661458E-4   9.382599964737892E-4  
 2.384000000000000E10    3.659127978608012E-4  -5.282178753986955E-4  
 2.386000000000000E10    1.069175661541522E-3  -1.808283966965973E-3  
 2.388000000000000E10   -9.661061922088265E-4  -9.102988406084478E-4  
 2.390000000000000E10   -1.365757663734257E-3   6.459160940721631E-4  
 2.392000000000000E10    1.074470463208854E-3   1.752355368807912E-3  
 2.394000000000000E10    2.288209740072489E-3   1.246616302523762E-4  
 2.396000000000000E10   -5.405326955951750E-4  -1.147432369180024E-3  
 2.398000000000000E10   -9.225233225151897E-4  -4.391641705296934E-4  
 2.400000000000000E10   -2.171701053157449E-4   4.412319394759834E-4  
 2.402000000000000E10   -1.411436242051423E-3   4.562627509585582E-5  
 2.404000000000000E10    6.176915485411882E-4   4.026364185847342E-4  
 2.406000000000000E10    1.016527065075934E-3   3.629950515460223E-4  
 2.408000000000000E10    3.650149737950414E-4  -2.068349160254002E-3  
 2.410000000000000E10   -7.396094588330016E-5  -1.495456672273576E-3  
 2.412000000000000E10   -1.391729922033846E-3   1.578879076987505E-3  
 2.414000000000000E10   -2.843741094693542E-4   1.055948669090867E-3  
 2.416000000000000E10    1.801087521016598E-3   6.275136256590486E-4  
 2.418000000000000E10   -6.973947747610509E-4  -2.318783808732405E-4  
 2.420000000000000E10   -8.438389049842954E-4  -9.200619533658028E-4  
 2.422000000000000E10   -1.841540797613561E-4   1.688497868599370E-4  
 2.424000000000000E10   -1.799375866539776E-3  -6.540025351569057E-4  
 2.426000000000000E10   -8.512206259183586E-4   1.070230500772595E-4  
 2.428000000000000E10    1.365032396279275E-3   1.251559006050229E-3  
 2.430000000000000E10    1.135126105509698E-3  -8.396257180720568E-4  
 2.432000000000000E10    3.759983519557864E-4  -1.886912970803678E-3  
 2.434000000000000E10   -1.221905229613185E-3   3.749261668417603E-4  
 2.436000000000000E10   -5.518688703887165E-4   1.186974230222404E-3  
 2.438000000000000E10    5.247375229373574E-4   5.777826299890876E-4  
 2.440000000000000E10   -3.094946150667965E-4   3.730867174454033E-4  
 2.442000000000000E10    6.906227790750563E-4  -1.882116048363969E-4  
 2.444000000000000E10    5.276731681078672E-4   5.178818901185878E-5  
 2.446000000000000E10   -8.458928787149489E-4  -7.549157598987222E-4  
 2.448000000000000E10   -1.123002613894641E-3   2.626447821967304E-4  
 2.450000000000000E10    9.530946408631280E-5   1.225664978846908E-3  
 2.452000000000000E10    1.056819921359420E-3   2.018743689404801E-4  
 2.454000000000000E10    1.016568625345826E-3  -1.670495839789510E-3  
 2.456000000000000E10   -3.448055358603597E-4  -7.126420387066901E-4  
 2.458000000000000E10   -3.316160000395030E-4  -1.790253445506096E-4  
 2.460000000000000E10    8.277496672235429E-4   7.614838250447065E-5  
 2.462000000000000E10   -6.830507772974670E-4   1.151175703853369E-3  
 2.464000000000000E10    8.933882345445454E-4   5.611033411696553E-4  
 2.466000000000000E10    1.704878755845130E-3   5.823391256853938E-5  
 2.468000000000000E10   -7.068123668432236E-4  -1.528894761577249E-3  
 2.470000000000000E10   -1.958868000656366E-3  -1.377172651700676E-3  
 2.472000000000000E10   -1.092370366677642E-3   1.605837023817003E-3  
 2.474000000000000E10    9.930073283612728E-4   9.134811116382480E-4  
 2.476000000000000E10    1.913837506435812E-3  -1.224888721480966E-3  
 2.478000000000000E10    1.522117672720924E-4  -1.614547218196094E-3  
 2.480000000000000E10   -8.857225766405463E-4  -6.441120640374720E-4  
 2.482000000000000E10   -2.433843037579209E-4   3.581276105251163E-4  
 2.484000000000000E10    2.427880281175021E-5   1.595112378709018E-3  
 2.486000000000000E10    1.529283617855981E-4   8.902731351554394E-4  
 2.488000000000000E10    1.179780461825430E-3  -3.797856625169516E-4  
 2.490000000000000E10   -6.785384030081332E-4  -1.368528348393738E-3  
 2.492000000000000E10   -2.555863931775093E-3  -1.397955114953220E-3  
 2.494000000000000E10   -5.374823231250048E-4   1.295777852647007E-3  
 2.496000000000000E10    9.087328799068928E-4   7.615003269165754E-4  
 2.498000000000000E10    1.210554270073772E-3  -1.604478457011282E-3  
 2.500000000000000E10    3.523722407408059E-4  -2.956671232823283E-4  
 2.502000000000000E10   -8.048627641983330E-4   2.192045794799924E-4  
 2.504000000000000E10    1.343622134299949E-4   1.248295448021963E-4  
 2.506000000000000E10    3.079992602579296E-4   8.977068355306983E-4  
 2.508000000000000E10   -1.361268456093967E-3   9.831996867433190E-4  
 2.510000000000000E10    5.065780133008957E-4  -5.534103838726878E-4  
 2.512000000000000E10    9.495089761912823E-5  -9.576456068316475E-5  
 2.514000000000000E10   -1.134307240135968E-3  -1.296546077355743E-3  
 2.516000000000000E10    4.752515524160117E-4  -4.644627551897429E-5  
 2.518000000000000E10   -2.764777163974941E-4   4.843491478823125E-4  
 2.520000000000000E10    7.762124732835218E-5  -5.535000818781555E-4  
 2.522000000000000E10    2.065472071990371E-4   1.042760559357703E-3  
 2.524000000000000E10    4.324952606111765E-4   4.545159172266722E-4  
 2.526000000000000E10    5.280679324641824E-4  -1.013536471873522E-3  
 2.528000000000000E10   -3.870461077895016E-4  -7.671693456359208E-4  
 2.530000000000000E10   -1.871838001534343E-3   7.288018241524696E-4  
 2.532000000000000E10   -2.307761606061831E-4   2.725159574765712E-4  
 2.534000000000000E10    2.176266163587570E-3   8.297172025777400E-4  
 2.536000000000000E10    4.797318542841822E-4  -1.401974121108651E-3  
 2.538000000000000E10    4.207005986245349E-5  -1.438382547348738E-3  
 2.540000000000000E10   -1.257870462723076E-3   1.295753871090710E-3  
 2.542000000000000E10   -8.037595544010401E-4   1.087403041310608E-3  
 2.544000000000000E10    7.130409358069301E-4   1.209616661071777E-3  
 2.546000000000000E10    9.660976938903332E-4  -2.175834233639762E-4  
 2.548000000000000E10    2.558562264312059E-4  -2.001104643568397E-3  
 2.550000000000000E10   -1.549822627566755E-3  -1.391912926919758E-3  
 2.552000000000000E10   -1.133187906816602E-3   1.062481896951795E-3  
 2.554000000000000E10    1.170981326140463E-3   9.653037996031344E-4  
 2.556000000000000E10    2.742857905104756E-3  -5.563854756474029E-6  
 2.558000000000000E10    3.064866759814322E-4  -7.509348215535283E-4  
 2.560000000000000E10   -4.255831590853632E-4  -5.797825288027525E-4  
 2.562000000000000E10   -9.532448602840304E-4   1.862633391283453E-3  
 2.564000000000000E10   -8.636824350105599E-5   1.373017439618707E-3  
 2.566000000000000E10    8.272041450254619E-4   2.326152462046593E-4  
 2.568000000000000E10   -6.525967619381845E-4  -4.911924479529262E-4  
 2.570000000000000E10   -1.183457134175114E-4  -5.802127416245639E-4  
 2.572000000000000E10   -2.558215346653014E-4   2.645690437930170E-5  
 2.574000000000000E10   -7.801943866070360E-6  -7.149096927605569E-5  
 2.576000000000000E10    6.704057450406253E-4   3.354158834554255E-4  
 2.578000000000000E10    1.202969229780138E-3  -2.188319340348244E-4  
 2.580000000000000E10   -2.272563579026610E-4   5.207798094488680E-4  
 2.582000000000000E10    1.944445830304176E-5   5.225367494858801E-4  
 2.584000000000000E10    1.112516038119793E-3   8.535733213648200E-4  
 2.586000000000000E10    5.007025174563751E-5  -3.964573843404651E-4  
 2.588000000000000E10   -2.463915152475238E-4  -1.728362403810024E-4  
 2.590000000000000E10   -8.581592701375485E-4   7.979451329447329E-4  
 2.592000000000000E10    5.859454977326095E-4   7.617894443683326E-4  
 2.594000000000000E10    1.956948777660728E-3  -5.518483812920749E-4  
 2.596000000000000E10    6.081875180825591E-4  -1.498198718763888E-3  
 2.598000000000000E10   -1.304724602960050E-3  -1.040688715875149E-3  
 2.600000000000000E10    1.016573951346800E-4   1.549706095829606E-3  
 2.602000000000000E10    5.940446862950921E-4   1.856830087490380E-3  
 2.604000000000000E10    1.117583131417632E-3  -7.955504697747529E-4  
 2.606000000000000E10    1.424259971827269E-3  -7.130498997867107E-4  
 2.608000000000000E10   -1.248198212124407E-3  -1.124755945056677E-3  
 2.610000000000000E10   -1.444468391127884E-3  -2.309364208485931E-4  
 2.612000000000000E10   -3.493856347631663E-4   2.002862747758627E-3  
 2.614000000000000E10    1.054942025803030E-3   6.547766388393939E-4  
 2.616000000000000E10    1.704116351902485E-3  -1.939006382599473E-3  
 2.618000000000000E10   -2.647240180522203E-4  -1.840532175265253E-3  
 2.620000000000000E10   -2.892535179853439E-3  -1.297275302931666E-4  
 2.622000000000000E10    2.575437538325787E-4   1.585759106092155E-3  
 2.624000000000000E10    1.317262416705489E-3   1.030223909765482E-3  
 2.626000000000000E10   -7.225169247249141E-5  -1.503148465417326E-3  
 2.628000000000000E10   -5.466087022796273E-4  -1.825123763410375E-4  
 2.630000000000000E10   -1.474576303735375E-3   4.316425474826247E-4  
 2.632000000000000E10   -6.933140102773905E-4  -3.949849924538285E-4  
 2.634000000000000E10   -2.442802069708705E-4   4.669397094403394E-5  
 2.636000000000000E10   -3.586623643059284E-4   6.418476696126163E-4  
 2.638000000000000E10    3.929996455553919E-5  -1.109037082642317E-3  
 2.640000000000000E10    4.080137296114117E-5   8.371250441996381E-5  
 2.642000000000000E10   -1.053837942890823E-3   6.408320041373372E-4  
 2.644000000000000E10    3.900545125361532E-4  -3.213976451661438E-4  
 2.646000000000000E10    1.898918417282403E-4   1.106547206290998E-4  
 2.648000000000000E10   -1.211619935929775E-3  -7.117549102986231E-5  
 2.650000000000000E10   -3.454917750786990E-4   1.121419714763761E-3  
 2.652000000000000E10    5.359305650927126E-4   8.429566514678299E-4  
 2.654000000000000E10    3.813479852396995E-4  -1.683337730355561E-3  
 2.656000000000000E10   -1.103239483200014E-3  -8.206542697735131E-4  
 2.658000000000000E10   -9.833690710365772E-4   1.067547244019806E-3  
 2.660000000000000E10    8.244441123679280E-4   8.112178184092045E-4  
 2.662000000000000E10    1.884184894151986E-3   5.295697701512836E-5  
 2.664000000000000E10    1.359605521429330E-4  -1.784530759323388E-4  
 2.666000000000000E10    3.824477316811681E-4  -7.826887886039913E-4  
 2.668000000000000E10   -8.691860130056739E-4   6.013714591972530E-4  
 2.670000000000000E10   -1.536312163807452E-3   9.367583552375436E-4  
 2.672000000000000E10    1.258080243133009E-3   1.320696785114706E-3  
 2.674000000000000E10    1.478624413721263E-3   1.553670517751016E-5  
 2.676000000000000E10    2.858898369595408E-4  -1.969891367480159E-3  
 2.678000000000000E10   -9.129601530730724E-4  -5.513609503395855E-4  
 2.680000000000000E10   -9.859640849754214E-4   1.707499846816063E-3  
 2.682000000000000E10    1.371945720165968E-3   9.289287845604122E-4  
 2.684000000000000E10    1.608506543561816E-3  -1.896298781502992E-4  
 2.686000000000000E10   -4.585611459333450E-4  -5.153067759238184E-4  
 2.688000000000000E10    9.284276893595234E-5  -5.107431788928807E-4  
 2.690000000000000E10   -6.465255864895880E-5   4.549049772322178E-4  
 2.692000000000000E10   -1.120681874454022E-3   4.865536084253108E-6  
 2.694000000000000E10    5.925280856899917E-4   5.127029726281762E-4  
 2.696000000000000E10    1.412602839991450E-3   4.351391398813576E-4  
 2.698000000000000E10    4.222397910780273E-5  -1.260169781744480E-3  
 2.700000000000000E10   -5.787392728962004E-4  -7.061464712023735E-4  
 2.702000000000000E10   -2.369881258346140E-4   9.571590926498175E-4  
 2.704000000000000E10   -4.563176480587572E-5   1.101566231227480E-4  
 2.706000000000000E10    1.006142934784293E-3  -2.163170720450580E-4  
 2.708000000000000E10   -1.757942663971335E-4   3.390267957001925E-4  
 2.710000000000000E10   -8.688815432833508E-5  -4.243347211740911E-4  
 2.712000000000000E10    5.248709348961711E-4  -2.970816858578473E-4  
 2.714000000000000E10   -1.081436988897622E-3  -3.743565757758915E-4  
 2.716000000000000E10   -5.458990344777703E-4   1.538296601211187E-5  
 2.718000000000000E10    1.098725479096174E-3   5.038286908529699E-4  
 2.720000000000000E10   -4.432096829987131E-5  -3.737556689884514E-4  
 2.722000000000000E10   -7.944263779791072E-5  -1.141898101195693E-3  
 2.724000000000000E10   -1.465255481889471E-4   2.020407737290952E-5  
 2.726000000000000E10   -8.332545985467732E-4  -4.660452541429550E-4  
 2.728000000000000E10    8.786954276729375E-5  -1.340725866612047E-4  
 2.730000000000000E10   -3.488914080662653E-5   9.558020392432809E-4  
 2.732000000000000E10    4.333725955802947E-4  -3.737095394171774E-4  
 2.734000000000000E10    4.459807532839477E-4  -8.929129689931870E-4  
 2.736000000000000E10   -7.826977525837719E-4  -2.340740320505574E-4  
 2.738000000000000E10   -1.111815683543682E-3   1.004068035399541E-4  
 2.740000000000000E10    2.128755659214221E-5   1.561804383527488E-4  
 2.742000000000000E10   -5.141234578331932E-5  -1.118205109378323E-4  
 2.744000000000000E10    4.669143527280539E-4  -1.121570938266814E-3  
 2.746000000000000E10    4.869280674029142E-4  -6.772389751859009E-4  
 2.748000000000000E10   -8.636428974568844E-4  -8.432652684859932E-4  
 2.750000000000000E10   -1.778740697773174E-4   2.382959501119331E-4  
 2.752000000000000E10   -4.011573619209230E-4   1.202907296828926E-3  
 2.754000000000000E10    4.738721181638539E-4  -2.192006286350079E-5  
 2.756000000000000E10    4.079406207893044E-4  -7.770103402435780E-4  
