#  HZ   S   RI   R     50.00 
! Rohde & Schwarz ZVA40 4Ports - Version 3.90 - 1145.1110k42 SN: 100403
! Date: 2023-10-04 11:45:25
! Measurement: S12 
! 
 2.200000000000000E10   -6.407215259969235E-4  -1.208071713335812E-3  
 2.202000000000000E10   -1.547952531836927E-3   1.473322336096317E-4  
 2.204000000000000E10   -3.280389937572181E-4   2.093406859785318E-3  
 2.206000000000000E10   -5.388284989749081E-5   1.677414169535041E-3  
 2.208000000000000E10    1.525013591162860E-3  -4.137390642426908E-4  
 2.210000000000000E10    4.480383358895779E-4  -9.159615729004145E-4  
 2.212000000000000E10   -1.905099139548838E-3  -1.907027908600867E-3  
 2.214000000000000E10   -1.003263518214226E-3   9.725686686579138E-5  
 2.216000000000000E10   -9.312605106970295E-5   2.201023977249861E-3  
 2.218000000000000E10    2.577316947281361E-3   3.065795172005892E-4  
 2.220000000000000E10    1.286998973228037E-3  -2.106712199747562E-3  
 2.222000000000000E10   -8.454445633105934E-4  -8.695434080436826E-4  
 2.224000000000000E10   -1.883475692011416E-3   1.248606364242733E-3  
 2.226000000000000E10    1.298157032579184E-3   1.158172730356455E-3  
 2.228000000000000E10    5.345961544662714E-4   8.130524074658752E-4  
 2.230000000000000E10    2.636488061398268E-4  -7.826469372957945E-4  
 2.232000000000000E10   -1.814270653994754E-4   1.618826354388148E-4  
 2.234000000000000E10   -1.276303781196475E-3  -2.663699888216797E-5  
 2.236000000000000E10   -9.972964180633426E-4  -5.943321157246828E-4  
 2.238000000000000E10    8.992830989882350E-4  -2.457416267134249E-4  
 2.240000000000000E10    1.798519660951570E-4  -7.559781661257148E-4  
 2.242000000000000E10    7.225664448924363E-4  -1.497077173553407E-3  
 2.244000000000000E10    5.354146705940366E-4   6.443567690439522E-4  
 2.246000000000000E10    9.132699924521148E-4  -3.761767002288252E-4  
 2.248000000000000E10    1.380539964884520E-3  -1.280074939131737E-4  
 2.250000000000000E10   -7.723660673946142E-4   5.170055665075779E-4  
 2.252000000000000E10   -7.430358091369271E-4   1.143251545727253E-3  
 2.254000000000000E10    1.036296715028584E-3   1.226004096679390E-3  
 2.256000000000000E10    7.795296842232347E-4  -9.407905745320022E-4  
 2.258000000000000E10   -1.381189445964992E-3  -1.892306841909885E-3  
 2.260000000000000E10   -8.291956619359553E-4  -6.026281625963748E-4  
 2.262000000000000E10    5.913495988352224E-5   8.619459113106132E-4  
 2.264000000000000E10    5.654412670992315E-4  -4.164193524047732E-5  
 2.266000000000000E10    1.659120316617191E-3   3.130595141556114E-4  
 2.268000000000000E10    9.584160870872438E-4  -1.113821286708117E-3  
 2.270000000000000E10   -7.271428330568597E-5  -5.764297093264759E-4  
 2.272000000000000E10   -2.050910610705614E-3   1.327240723185241E-3  
 2.274000000000000E10   -4.288345517124981E-4   1.746317022480071E-3  
 2.276000000000000E10    1.065114163793623E-3   1.152061857283115E-3  
 2.278000000000000E10    7.387436344288290E-4  -1.288839266635478E-3  
 2.280000000000000E10   -1.415814156644046E-3  -2.004259265959263E-3  
 2.282000000000000E10   -8.941473206505179E-4  -4.104164836462587E-4  
 2.284000000000000E10   -3.466286580078304E-4   7.128139841370285E-4  
 2.286000000000000E10    9.107748046517372E-4  -2.165337500628084E-4  
 2.288000000000000E10    9.162468486465514E-4   5.808753194287419E-4  
 2.290000000000000E10    6.063093314878643E-4   1.100785157177597E-4  
 2.292000000000000E10    2.959215780720115E-4  -9.122762712650001E-4  
 2.294000000000000E10   -1.284153317101300E-3   6.188474362716079E-4  
 2.296000000000000E10   -1.375089632347226E-3   1.485602697357535E-3  
 2.298000000000000E10    1.401418237946928E-3   8.390908478759229E-4  
 2.300000000000000E10    7.291442598216236E-4   5.988985649310052E-4  
 2.302000000000000E10   -5.307538085617125E-4  -1.089251833036542E-3  
 2.304000000000000E10   -2.507152094040066E-4  -2.120585413649678E-4  
 2.306000000000000E10   -7.889580447226763E-4   5.901874392293394E-4  
 2.308000000000000E10   -3.409061173442751E-4  -1.052593361237086E-4  
 2.310000000000000E10    7.361972238868475E-4   8.052364573813975E-4  
 2.312000000000000E10    1.734875957481563E-3   8.497163653373718E-4  
 2.314000000000000E10    6.381098646670580E-4  -1.360715832561255E-3  
 2.316000000000000E10   -1.171304960735142E-3  -1.023050281219184E-3  
 2.318000000000000E10   -1.738296821713448E-3   1.610271167010069E-3  
 2.320000000000000E10    6.881926092319191E-4   1.245644874870777E-3  
 2.322000000000000E10    1.119447289966047E-3  -3.975483123213053E-4  
 2.324000000000000E10   -1.620450784685090E-4  -7.717369589954615E-4  
 2.326000000000000E10   -1.206589004141279E-4  -4.357008729130030E-4  
 2.328000000000000E10   -2.928838075604290E-4  -5.590883083641529E-4  
 2.330000000000000E10   -1.036974252201617E-3   5.480382242240012E-4  
 2.332000000000000E10    3.846501567750238E-5   5.514070508070290E-4  
 2.334000000000000E10    1.473273965530098E-3   3.290591703262180E-4  
 2.336000000000000E10    4.219839465804398E-4  -1.282925950363278E-3  
 2.338000000000000E10   -5.442509427666664E-4  -6.238020723685622E-4  
 2.340000000000000E10   -1.218968885950744E-3   1.685359166003764E-4  
 2.342000000000000E10    9.801180567592382E-4   3.926620702259243E-4  
 2.344000000000000E10    8.257883018814027E-5   2.754986344370991E-4  
 2.346000000000000E10   -1.980780143640004E-5   1.527374988654628E-4  
 2.348000000000000E10    8.620052249170840E-4   4.525479162111878E-4  
 2.350000000000000E10    2.808746939990670E-4  -7.345948251895607E-4  
 2.352000000000000E10   -1.703263376839459E-3  -6.148371030576527E-4  
 2.354000000000000E10   -1.391434925608337E-3   1.416691346094012E-3  
 2.356000000000000E10    5.680435569956899E-4   1.095819985494018E-3  
 2.358000000000000E10    9.300267556682229E-4  -1.748788636177778E-3  
 2.360000000000000E10    2.813443716149777E-4  -8.437289507128298E-4  
 2.362000000000000E10   -1.090204226784408E-3  -4.744850157294422E-4  
 2.364000000000000E10   -6.374248187057674E-4  -2.652087423484772E-4  
 2.366000000000000E10   -4.272403602954000E-4   1.426644856110215E-3  
 2.368000000000000E10    6.909200455993414E-4   6.519350572489202E-4  
 2.370000000000000E10    1.376290107145906E-3   3.207347253919579E-5  
 2.372000000000000E10   -3.677643690025434E-5  -9.666070691309869E-4  
 2.374000000000000E10   -2.318861195817590E-3  -5.802918458357453E-4  
 2.376000000000000E10   -1.487712841480970E-3   1.679186476394534E-3  
 2.378000000000000E10    3.924304910469800E-4   1.798570505343378E-3  
 2.380000000000000E10    1.116796513088048E-3  -1.735373400151730E-3  
 2.382000000000000E10    4.105528059881181E-4  -1.086215488612652E-3  
 2.384000000000000E10   -9.559085592627525E-4  -2.830887387972325E-4  
 2.386000000000000E10   -1.765284978318960E-4  -2.983471495099366E-4  
 2.388000000000000E10   -3.038750583073124E-5   1.001000055111945E-3  
 2.390000000000000E10    9.974435670301318E-4   1.585537102073431E-3  
 2.392000000000000E10    1.395337749272585E-3   6.523039337480441E-5  
 2.394000000000000E10    1.168485614471138E-4  -5.077520618215203E-4  
 2.396000000000000E10   -1.528981723822653E-3  -4.443858924787492E-4  
 2.398000000000000E10   -8.008262957446277E-4   1.174013479612768E-3  
 2.400000000000000E10    4.400156030897051E-4   1.871513552032411E-3  
 2.402000000000000E10    1.398557942593470E-4  -9.015590185299516E-4  
 2.404000000000000E10    7.746659684926271E-5  -8.301559137180448E-4  
 2.406000000000000E10   -5.276355659589171E-4   4.461488570086658E-4  
 2.408000000000000E10   -9.641874203225598E-5  -1.124895061366260E-3  
 2.410000000000000E10   -1.361634786007926E-4   2.335572062293068E-4  
 2.412000000000000E10   -7.803759654052556E-4   1.701188972219825E-3  
 2.414000000000000E10    1.002312870696187E-3   8.770605927566066E-5  
 2.416000000000000E10    1.145727583207190E-3  -8.806246914900839E-4  
 2.418000000000000E10   -1.553995185531676E-3  -7.452991558238864E-4  
 2.420000000000000E10   -6.005558534525335E-4  -8.919234969653189E-4  
 2.422000000000000E10    4.646404413506389E-4   6.904025212861598E-4  
 2.424000000000000E10   -7.889575790613890E-4   1.501077640568838E-4  
 2.426000000000000E10    2.249605458928272E-4  -1.175357610918582E-4  
 2.428000000000000E10    1.154861878603697E-3   4.986133426427841E-4  
 2.430000000000000E10   -3.531467882567085E-5  -1.752799144014716E-3  
 2.432000000000000E10   -7.031894056126475E-4  -1.754192519001663E-3  
 2.434000000000000E10   -1.331130275502801E-3   1.875056535936892E-3  
 2.436000000000000E10    4.866031231358647E-4   9.216435719281435E-4  
 2.438000000000000E10    2.169944345951080E-3  -7.843503844924271E-4  
 2.440000000000000E10   -1.101934176404029E-4  -1.170899718999863E-3  
 2.442000000000000E10   -1.281788921914995E-3  -5.981921567581594E-4  
 2.444000000000000E10   -1.596489601070061E-4   2.458390372339636E-4  
 2.446000000000000E10   -3.743600391317159E-4   1.006747479550540E-3  
 2.448000000000000E10   -8.025320857996121E-5   8.503771969117224E-4  
 2.450000000000000E10    1.895070658065379E-3   3.177619946654886E-4  
 2.452000000000000E10    2.963309234473854E-4  -1.369501696899533E-3  
 2.454000000000000E10   -1.257550902664661E-3  -1.099830609746277E-3  
 2.456000000000000E10   -1.292701927013695E-3   1.069343416020274E-3  
 2.458000000000000E10    1.305679761571810E-4   1.716008991934359E-3  
 2.460000000000000E10    1.578800845891237E-3  -4.033697186969221E-4  
 2.462000000000000E10    7.893943111412227E-4  -1.076736603863537E-3  
 2.464000000000000E10   -8.040857501327992E-4  -4.090539587195963E-4  
 2.466000000000000E10   -6.243349052965641E-4   8.939555118558928E-5  
 2.468000000000000E10   -4.509411519393325E-4   4.866240487899631E-4  
 2.470000000000000E10    1.698681298876181E-4   5.973789957351983E-4  
 2.472000000000000E10    1.141928718425334E-3   7.034652517177165E-4  
 2.474000000000000E10    4.207905149087310E-4  -1.102912938222289E-3  
 2.476000000000000E10   -4.287528863642365E-4  -1.222718739882112E-3  
 2.478000000000000E10   -1.400132197886705E-3   7.116585038602352E-4  
 2.480000000000000E10    3.519995370879769E-4   8.037697989493609E-4  
 2.482000000000000E10    1.117717707529664E-3   1.718473213259131E-4  
 2.484000000000000E10    2.585019683465362E-4  -4.176249203737825E-4  
 2.486000000000000E10   -3.867469786200672E-4  -1.116242929128930E-4  
 2.488000000000000E10    2.641002065502107E-4  -4.688251283369027E-5  
 2.490000000000000E10   -3.263366234023124E-4   2.948730834759772E-4  
 2.492000000000000E10   -4.137124633416534E-4  -1.660323177929968E-4  
 2.494000000000000E10    8.371227304451168E-4   1.084989169612527E-3  
 2.496000000000000E10    3.462138702161610E-4   3.775941440835595E-4  
 2.498000000000000E10    8.903832058422267E-4  -1.793541014194489E-3  
 2.500000000000000E10    8.250195241998881E-5   1.775466225808486E-4  
 2.502000000000000E10   -7.563838735222817E-4   3.115156432613730E-4  
 2.504000000000000E10    8.825602708384395E-4   2.379380312049761E-4  
 2.506000000000000E10    2.015601203311235E-4   5.873221089132130E-4  
 2.508000000000000E10    4.863694775849581E-4   2.348718408029527E-4  
 2.510000000000000E10    1.279548392631114E-3  -4.079925129190087E-4  
 2.512000000000000E10   -4.727560008177534E-5  -5.794244352728128E-4  
 2.514000000000000E10   -1.794575946405530E-3  -3.731352044269443E-4  
 2.516000000000000E10   -1.596861256984994E-4   1.071148552000523E-3  
 2.518000000000000E10    1.072315033525229E-3   1.582934870384634E-3  
 2.520000000000000E10    1.264223479665816E-3  -1.694629085250199E-3  
 2.522000000000000E10    6.162207864690572E-5  -1.333759282715619E-3  
 2.524000000000000E10   -1.687930896878243E-3   5.954379594186321E-5  
 2.526000000000000E10   -5.109852645546198E-4   4.846567171625793E-4  
 2.528000000000000E10    8.760553319007158E-4   1.316020148806274E-3  
 2.530000000000000E10    8.503281278535724E-4  -4.509833815973252E-4  
 2.532000000000000E10    9.860220598056912E-4  -1.358708483166993E-3  
 2.534000000000000E10   -8.470836328342557E-4  -7.515472825616598E-4  
 2.536000000000000E10   -1.895171240903437E-3   1.692740479484201E-4  
 2.538000000000000E10    8.268416422652081E-5   1.167381647974253E-3  
 2.540000000000000E10    1.775670330971479E-3   7.302997983060777E-4  
 2.542000000000000E10    8.521465351805091E-4  -1.351084560155869E-3  
 2.544000000000000E10   -5.819326615892351E-4  -8.538965485058725E-4  
 2.546000000000000E10   -1.153658609837294E-3   7.996393833309412E-4  
 2.548000000000000E10    3.589406551327556E-4   6.380905979312956E-4  
 2.550000000000000E10    9.767627343535423E-4   4.385908541735262E-4  
 2.552000000000000E10   -4.643200736609288E-5  -1.390935649396852E-4  
 2.554000000000000E10   -3.809533882304095E-5  -8.435313066001982E-5  
 2.556000000000000E10    3.341449773870409E-4  -4.575779530568980E-5  
 2.558000000000000E10   -5.774391465820372E-4   2.074508229270577E-4  
 2.560000000000000E10   -1.396736770402640E-4   5.725938535761088E-5  
 2.562000000000000E10    7.989996229298413E-4   9.889912325888872E-4  
 2.564000000000000E10   -4.492595617193729E-4   2.021155087277293E-4  
 2.566000000000000E10    2.160685835406184E-4  -2.583949535619468E-4  
 2.568000000000000E10    1.314545952482149E-4   1.011663349345326E-3  
 2.570000000000000E10   -3.281810204498470E-4  -1.119019114412367E-3  
 2.572000000000000E10    2.177837159251794E-4  -8.140152203850448E-5  
 2.574000000000000E10   -1.143730478361249E-3   1.370554673485458E-3  
 2.576000000000000E10    4.799710586667061E-4   1.029854174703360E-3  
 2.578000000000000E10    1.517693395726383E-3   2.583150344435126E-4  
 2.580000000000000E10    3.092863335041329E-5  -1.492704148404300E-3  
 2.582000000000000E10   -1.140585634857416E-3  -9.117418085224927E-4  
 2.584000000000000E10   -8.522428106516600E-4   1.936496817506850E-3  
 2.586000000000000E10    5.435317871160805E-4   1.420784043148160E-3  
 2.588000000000000E10    1.960169058293104E-3  -1.199010512209497E-4  
 2.590000000000000E10   -2.395448791503441E-5  -5.899748648516834E-4  
 2.592000000000000E10   -8.948531467467547E-4  -1.149980816990137E-3  
 2.594000000000000E10   -1.108818920329213E-3   4.822875489480794E-4  
 2.596000000000000E10   -8.464579586870968E-4   1.648716744966805E-3  
 2.598000000000000E10    1.377466367557645E-3   6.659837090410292E-4  
 2.600000000000000E10    1.491982722654939E-3  -1.158522674813867E-3  
 2.602000000000000E10   -2.777217014227063E-4  -1.539429649710655E-3  
 2.604000000000000E10   -1.797934528440237E-3  -1.320585288340226E-4  
 2.606000000000000E10   -5.410769881564193E-5   1.862975652329624E-3  
 2.608000000000000E10    8.923935238271952E-4   1.064551761373878E-3  
 2.610000000000000E10    1.300684525631368E-3  -1.617963775061071E-3  
 2.612000000000000E10   -5.191108793951571E-4  -6.379130645655096E-4  
 2.614000000000000E10   -1.196398050524294E-3   3.726777213159949E-4  
 2.616000000000000E10    3.820445272140205E-4   2.911626652348787E-4  
 2.618000000000000E10    3.121711488347501E-4  -5.077473542769440E-5  
 2.620000000000000E10   -8.301459456561133E-5   1.047256882884540E-4  
 2.622000000000000E10    4.863939830102027E-4  -3.475637058727443E-4  
 2.624000000000000E10    1.595702779013664E-4   5.993573267915053E-6  
 2.626000000000000E10   -8.972706273198128E-4   5.974748273729347E-5  
 2.628000000000000E10    3.781658306252211E-4   2.335783938178793E-4  
 2.630000000000000E10   -2.515347150620073E-4   3.176245663780719E-4  
 2.632000000000000E10   -6.470415974035859E-4  -5.367968697100878E-4  
 2.634000000000000E10   -2.457593509461731E-4   6.889718351885676E-4  
 2.636000000000000E10    4.978235810995102E-4   4.155138449277729E-4  
 2.638000000000000E10    6.532412953674793E-4  -1.046883407980204E-3  
 2.640000000000000E10   -4.391988622955978E-4  -1.315695350058377E-3  
 2.642000000000000E10   -1.683473121374846E-3   6.650650175288320E-4  
 2.644000000000000E10    9.889806096907705E-5   1.476200995966792E-3  
 2.646000000000000E10    1.820957753807306E-3   9.722088725538924E-5  
 2.648000000000000E10    3.271036257501692E-4  -1.576547278091312E-3  
 2.650000000000000E10   -3.499391314107925E-4  -8.139638230204582E-4  
 2.652000000000000E10   -9.202496148645878E-4   6.087746587581933E-4  
 2.654000000000000E10   -2.822497044689953E-4   7.649761391803622E-4  
 2.656000000000000E10    5.123523878864944E-4   1.530925277620554E-3  
 2.658000000000000E10    1.329811988398433E-3  -4.208870232105255E-4  
 2.660000000000000E10    4.354379198048264E-4  -1.565163722261787E-3  
 2.662000000000000E10   -1.795829273760319E-3  -1.126386778196320E-4  
 2.664000000000000E10   -1.468056929297745E-3   1.223501865752041E-3  
 2.666000000000000E10    1.136854407377541E-3   1.016951864585280E-3  
 2.668000000000000E10    1.397921238094568E-3  -4.149862797930837E-4  
 2.670000000000000E10   -1.820137113099918E-4  -1.922184601426125E-3  
 2.672000000000000E10   -2.844121772795916E-4  -3.314479545224458E-5  
 2.674000000000000E10   -4.743860918097198E-4   1.351513434201479E-3  
 2.676000000000000E10    4.070883151143789E-4  -2.342521293030586E-5  
 2.678000000000000E10    5.093959043733776E-4   4.625405999831855E-4  
 2.680000000000000E10   -2.414570044493303E-4   5.987641634419560E-4  
 2.682000000000000E10    2.600657171569765E-4  -6.546166259795427E-4  
 2.684000000000000E10    5.901290569454432E-5  -4.384146886877716E-4  
 2.686000000000000E10   -1.264865393750370E-3   7.161940447986126E-4  
 2.688000000000000E10    1.423936046194285E-4  -7.432115671690553E-5  
 2.690000000000000E10    5.081759300082922E-4   1.478019548812881E-4  
 2.692000000000000E10   -4.595385980792344E-4  -1.125348862842657E-4  
 2.694000000000000E10    9.002303122542799E-4  -1.562714605825022E-4  
 2.696000000000000E10    3.287692379672080E-4  -2.942222054116428E-4  
 2.698000000000000E10   -5.848479340784252E-4  -7.898949552327395E-4  
 2.700000000000000E10   -2.649369416758418E-4   4.029003903269768E-4  
 2.702000000000000E10    1.130549353547394E-4   1.618838752619922E-3  
 2.704000000000000E10    6.589381955564022E-4  -3.767532689380460E-5  
 2.706000000000000E10    3.910879022441804E-4  -1.461923588067293E-3  
 2.708000000000000E10   -1.523374230600894E-3  -5.189305520616472E-4  
 2.710000000000000E10   -6.879199063405395E-4   2.002770488616079E-4  
 2.712000000000000E10    1.602180855115876E-4   9.226684342138469E-4  
 2.714000000000000E10    2.043448912445456E-4   1.097020503948443E-4  
 2.716000000000000E10    2.804074028972536E-4  -5.744722438976169E-4  
 2.718000000000000E10   -4.782943142345175E-5  -9.146516094915569E-4  
 2.720000000000000E10   -9.779095416888595E-4  -6.289634620770812E-4  
 2.722000000000000E10   -6.338604725897312E-4   5.431329482235014E-4  
 2.724000000000000E10    1.079740613931790E-4   1.250953762792051E-3  
 2.726000000000000E10    2.505047305021435E-4  -3.175668825861067E-4  
 2.728000000000000E10    4.812226106878370E-4  -1.079501700587571E-3  
 2.730000000000000E10   -9.501109598204494E-4  -3.957474837079644E-4  
 2.732000000000000E10   -6.499533774331212E-4  -4.047846014145762E-4  
 2.734000000000000E10    1.621803676243872E-4   1.943061070051044E-4  
 2.736000000000000E10    2.837817010004073E-4   7.349692168645561E-4  
 2.738000000000000E10    4.459713236428797E-4  -5.138358683325350E-4  
 2.740000000000000E10    1.234191935509443E-3  -2.990594948641956E-4  
 2.742000000000000E10   -6.797226378694177E-4   2.834405167959631E-4  
 2.744000000000000E10   -7.816310389898717E-4   8.818893547868356E-5  
 2.746000000000000E10    7.176434883149341E-5   1.118785585276783E-3  
 2.748000000000000E10   -5.560141289606690E-4   1.136844730353914E-4  
 2.750000000000000E10    4.982702666893601E-4  -5.100593552924693E-4  
 2.752000000000000E10    5.210082745179534E-4  -1.719193533062935E-4  
 2.754000000000000E10   -6.208906997926533E-4  -8.782266522757709E-4  
 2.756000000000000E10   -2.701198682188988E-4  -2.469427126925439E-4  
