#  HZ   S   RI   R     50.00 
! Rohde & Schwarz ZVA40 4Ports - Version 3.90 - 1145.1110k42 SN: 100403
! Date: 2023-10-04 11:45:02
! Measurement: S12 
! 
 2.200000000000000E10   -2.081051701679826E-3   1.128133226302452E-4  
 2.202000000000000E10   -5.394404870457947E-4   1.785327680408955E-3  
 2.204000000000000E10    1.228192239068449E-3  -4.452452121768147E-4  
 2.206000000000000E10   -1.066555123543367E-4  -9.397140238434076E-4  
 2.208000000000000E10   -1.106538460589945E-3  -6.600741762667894E-4  
 2.210000000000000E10    6.926783826202154E-4   3.536317672114819E-4  
 2.212000000000000E10    1.190986135043204E-3  -1.210472546517849E-3  
 2.214000000000000E10    5.621836171485484E-4  -9.517223807051778E-4  
 2.216000000000000E10    2.233077539131045E-4   8.588340715505183E-4  
 2.218000000000000E10    5.685492942575365E-5   1.105087110772729E-3  
 2.220000000000000E10    6.832145736552775E-4   6.646118126809597E-4  
 2.222000000000000E10    2.842228277586401E-4   1.220958307385445E-3  
 2.224000000000000E10   -7.692319341003895E-4  -4.164586134720594E-4  
 2.226000000000000E10   -7.381229079328477E-4  -7.839502650313079E-4  
 2.228000000000000E10   -2.416952745988965E-3   8.202706812880933E-4  
 2.230000000000000E10   -3.814117808360606E-4   9.787016315385699E-4  
 2.232000000000000E10    1.876131049357355E-3   2.321825886610895E-4  
 2.234000000000000E10    7.071779691614211E-4  -2.514551160857081E-3  
 2.236000000000000E10   -8.390037110075355E-4  -1.559758326038718E-3  
 2.238000000000000E10   -8.742423960939050E-4   1.303958590142429E-3  
 2.240000000000000E10    1.188093214295805E-3   2.688816050067544E-3  
 2.242000000000000E10    1.493403804488480E-3  -7.309071224881336E-5  
 2.244000000000000E10    1.015624380670488E-3   2.179339353460819E-4  
 2.246000000000000E10   -1.341168768703938E-3  -3.140543121844530E-4  
 2.248000000000000E10   -6.720107048749924E-4   5.145709728822112E-4  
 2.250000000000000E10   -2.251183846965432E-3   1.271622953936458E-3  
 2.252000000000000E10    1.015288988128305E-3   2.104092527588364E-5  
 2.254000000000000E10    9.321153629571199E-4   1.755034900270402E-4  
 2.256000000000000E10   -2.392006281297654E-4  -2.100907266139984E-3  
 2.258000000000000E10   -3.957483859267086E-4  -9.650016436353326E-4  
 2.260000000000000E10    4.461742719286121E-5   1.099335378967226E-3  
 2.262000000000000E10    5.427093128673732E-4   7.212063646875322E-4  
 2.264000000000000E10    1.389835029840469E-3  -3.534330753609538E-4  
 2.266000000000000E10   -6.483957986347377E-5   1.077277935110033E-3  
 2.268000000000000E10    2.288198593305424E-4   3.358826797921211E-4  
 2.270000000000000E10    3.776982484851033E-4   2.419696247670800E-4  
 2.272000000000000E10   -1.905557001009584E-3   6.412186485249549E-5  
 2.274000000000000E10   -9.862186852842569E-4   2.744923112913966E-4  
 2.276000000000000E10    1.288479543291032E-3   1.112272962927818E-3  
 2.278000000000000E10    3.705491544678807E-4  -7.344363257288933E-4  
 2.280000000000000E10   -3.561004705261439E-4  -1.385761075653136E-3  
 2.282000000000000E10    2.417360519757494E-4   1.735423866193742E-4  
 2.284000000000000E10   -1.261986617464572E-4   8.494676876580343E-5  
 2.286000000000000E10    4.464904777705669E-4   1.220600024680607E-4  
 2.288000000000000E10    7.233193027786911E-4   2.082405844703317E-3  
 2.290000000000000E10    9.990782709792256E-4   5.912105916650035E-5  
 2.292000000000000E10    2.755718014668673E-4  -7.004246581345797E-4  
 2.294000000000000E10   -2.126846229657531E-3  -5.994585226289928E-4  
 2.296000000000000E10   -1.731504453346133E-3   1.139250583946705E-3  
 2.298000000000000E10    6.951498799026012E-4   6.568800308741629E-4  
 2.300000000000000E10    1.536841155029833E-3  -4.930690629407764E-4  
 2.302000000000000E10   -7.664723088964820E-4  -2.309039933606982E-3  
 2.304000000000000E10    2.117367257596925E-4  -9.754735219758004E-5  
 2.306000000000000E10    1.005946687655523E-4  -9.969714301405475E-5  
 2.308000000000000E10   -1.768788497429341E-4   2.463592973072082E-4  
 2.310000000000000E10    2.074615913443267E-4   1.360744819976389E-3  
 2.312000000000000E10    6.739601376466453E-4   9.977150475606322E-4  
 2.314000000000000E10   -5.644669872708619E-4  -1.720423926599324E-3  
 2.316000000000000E10   -6.955249118618667E-4  -8.099787519313395E-4  
 2.318000000000000E10   -2.314753131940961E-3   4.708552733063698E-4  
 2.320000000000000E10    4.004032816737890E-4  -4.729917782242410E-5  
 2.322000000000000E10    4.172066983301193E-4  -7.856985030230135E-5  
 2.324000000000000E10    1.181607003672980E-4  -1.237209537066519E-3  
 2.326000000000000E10    6.496030837297440E-4   5.419267108663917E-4  
 2.328000000000000E10   -5.630282685160637E-4  -7.365542696788907E-4  
 2.330000000000000E10   -1.040134462527931E-3  -1.732543605612591E-4  
 2.332000000000000E10   -1.195380464196205E-3   1.992209814488888E-3  
 2.334000000000000E10    1.192355644889176E-3   1.572441309690476E-3  
 2.336000000000000E10    6.667491979897022E-4  -1.380569301545620E-3  
 2.338000000000000E10   -9.550827671773732E-4  -1.646088319830596E-3  
 2.340000000000000E10   -2.080642618238926E-3   5.819556536152959E-4  
 2.342000000000000E10   -2.991151704918593E-4  -1.129481315729208E-4  
 2.344000000000000E10    4.523331008385867E-4   1.018403214402497E-3  
 2.346000000000000E10    7.013761787675321E-4  -2.742604410741478E-4  
 2.348000000000000E10    1.343176583759487E-3  -6.914071273058653E-4  
 2.350000000000000E10   -8.652706164866686E-4  -4.083295934833586E-4  
 2.352000000000000E10   -1.614068751223385E-3   5.580373690463603E-4  
 2.354000000000000E10   -2.428569423500449E-4   1.963093178346753E-3  
 2.356000000000000E10    1.801813254132867E-3   1.020391588099301E-3  
 2.358000000000000E10    1.015805872157216E-3  -2.035902813076973E-3  
 2.360000000000000E10   -1.205118256621063E-3  -1.073693623766303E-3  
 2.362000000000000E10   -9.795768419280648E-4   2.779627102427185E-4  
 2.364000000000000E10    1.298393122851849E-3   4.283321322873235E-4  
 2.366000000000000E10    1.879069168353453E-4  -3.683350087158033E-6  
 2.368000000000000E10    5.062168565928005E-5  -4.540121665286279E-7  
 2.370000000000000E10    1.212777802720666E-3  -1.554200280224904E-4  
 2.372000000000000E10   -3.624471137300134E-4  -6.315693608485162E-4  
 2.374000000000000E10   -1.410071970894933E-3  -7.603470003232360E-4  
 2.376000000000000E10   -2.854634949471802E-4   7.758445572108030E-4  
 2.378000000000000E10   -2.482068084646016E-4   3.754089702852070E-4  
 2.380000000000000E10    5.529350019060075E-4  -1.281058765016496E-3  
 2.382000000000000E10    1.199296602862887E-4  -3.305528371129185E-4  
 2.384000000000000E10   -6.136824376881123E-4  -7.688712794333696E-4  
 2.386000000000000E10    8.717752643860877E-4  -8.216684800572693E-4  
 2.388000000000000E10   -5.003440310247243E-4   4.532644234132022E-4  
 2.390000000000000E10   -8.670133538544178E-4   1.257271040230990E-3  
 2.392000000000000E10    1.426512957550585E-3   9.233017917722464E-4  
 2.394000000000000E10    7.753353565931320E-4  -1.216603443026543E-3  
 2.396000000000000E10   -2.207899233326316E-3  -1.428803778253496E-3  
 2.398000000000000E10   -1.352351042442024E-3   4.624786015483551E-5  
 2.400000000000000E10   -4.824615098186769E-5   1.185730914585292E-3  
 2.402000000000000E10   -5.416189378593117E-5  -4.931963048875332E-4  
 2.404000000000000E10    1.066890545189381E-3  -8.785274694673717E-4  
 2.406000000000000E10    1.035972600220703E-4  -7.348076323978603E-4  
 2.408000000000000E10   -1.217139302752912E-3  -1.300007919780910E-3  
 2.410000000000000E10   -6.533532869070768E-4   9.364697616547346E-4  
 2.412000000000000E10   -4.959792713634670E-4   2.499883994460106E-3  
 2.414000000000000E10    1.440709456801415E-3   6.479816511273384E-4  
 2.416000000000000E10    1.194171723909676E-3  -1.155206584371626E-3  
 2.418000000000000E10   -2.399797551333904E-3  -7.675036322325468E-4  
 2.420000000000000E10   -1.565930084325373E-3   3.637166519183666E-4  
 2.422000000000000E10    1.154488199972548E-4   1.283889287151396E-3  
 2.424000000000000E10    7.562759856227785E-5  -1.421934721292928E-4  
 2.426000000000000E10    1.012507244013250E-3  -5.849107401445508E-4  
 2.428000000000000E10    1.043810974806547E-3  -4.559855733532459E-4  
 2.430000000000000E10   -5.493163480423391E-4  -1.464180881157517E-3  
 2.432000000000000E10   -5.435720668174326E-4   5.916930604144000E-5  
 2.434000000000000E10    3.687661956064403E-5   2.069311449304223E-3  
 2.436000000000000E10    1.914825756102800E-3   6.134505383670330E-4  
 2.438000000000000E10    9.938736911863089E-4  -1.035623834468424E-3  
 2.440000000000000E10   -1.182332634925842E-3  -7.142793620005250E-4  
 2.442000000000000E10   -8.820460643619299E-4   6.508249789476395E-4  
 2.444000000000000E10    3.959706809837371E-4   6.911699892953038E-4  
 2.446000000000000E10   -2.319609920959920E-4   1.007908649626188E-4  
 2.448000000000000E10    2.456534639350139E-5  -2.888923336286098E-4  
 2.450000000000000E10    1.037506386637688E-3   4.699382989201695E-4  
 2.452000000000000E10    3.645851102191955E-4  -1.084007206372917E-3  
 2.454000000000000E10   -1.495126489317045E-4  -1.137493061833084E-3  
 2.456000000000000E10   -8.169039501808584E-4   1.253215828910470E-3  
 2.458000000000000E10    8.931669290177524E-4   8.590014767833054E-4  
 2.460000000000000E10    1.408713636919856E-3   4.251724749337882E-4  
 2.462000000000000E10   -4.361439787317067E-4   7.917118637124077E-5  
 2.464000000000000E10   -2.005285787163302E-4  -5.198970320634544E-4  
 2.466000000000000E10    1.407481613568962E-5  -2.096819516737014E-4  
 2.468000000000000E10   -1.401058631017804E-3   1.877425820566714E-4  
 2.470000000000000E10   -3.422729205340147E-4   1.326264318777248E-4  
 2.472000000000000E10    1.297797658480704E-3   8.753663278184831E-4  
 2.474000000000000E10    1.246540923602879E-3  -1.324443379417062E-3  
 2.476000000000000E10    1.014452645904385E-4  -1.395121100358665E-3  
 2.478000000000000E10   -1.293125911615789E-3   7.190275355242193E-4  
 2.480000000000000E10   -1.578491064719856E-4   1.151314121671021E-3  
 2.482000000000000E10    1.060393522493541E-3   7.856591255404055E-4  
 2.484000000000000E10    5.850101588293910E-4  -2.360408252570778E-4  
 2.486000000000000E10   -1.286330370930955E-4  -9.434255771338940E-4  
 2.488000000000000E10   -6.940400926396251E-4  -8.937928942032158E-4  
 2.490000000000000E10   -1.383134047500789E-3   2.712203713599592E-4  
 2.492000000000000E10   -6.883055903017521E-4   5.420989473350346E-4  
 2.494000000000000E10    1.718955463729799E-3   5.697114393115044E-4  
 2.496000000000000E10    1.146932248957455E-3  -9.291171445511282E-4  
 2.498000000000000E10   -2.278253232361749E-4  -1.966708805412054E-3  
 2.500000000000000E10   -8.340716012753546E-4   7.551055750809610E-4  
 2.502000000000000E10   -1.225012470968068E-3   1.506089814938605E-3  
 2.504000000000000E10    1.637673936784267E-3   4.987129359506071E-4  
 2.506000000000000E10    4.527062410488725E-4   2.821572707034648E-4  
 2.508000000000000E10   -8.683168562129140E-4  -1.046372228302062E-3  
 2.510000000000000E10   -2.426119463052601E-4  -7.756979903206229E-4  
 2.512000000000000E10   -1.077594002708793E-3   1.603624114068225E-4  
 2.514000000000000E10   -5.683699855580926E-4  -3.791742301473278E-6  
 2.516000000000000E10    1.092087011784315E-3   5.795633187517524E-4  
 2.518000000000000E10    9.320171084254980E-4  -1.860255433712155E-4  
 2.520000000000000E10   -3.010359650943428E-4  -1.444836263544858E-3  
 2.522000000000000E10   -6.060188170522451E-4   2.648329827934504E-4  
 2.524000000000000E10   -7.831641123630106E-4   1.110734883695841E-3  
 2.526000000000000E10    5.760709755122662E-4  -3.221468796255067E-5  
 2.528000000000000E10    3.961063048336655E-4   3.743086708709598E-4  
 2.530000000000000E10   -1.080688205547631E-3   1.322867319686338E-4  
 2.532000000000000E10    3.842996957246214E-4  -4.078598867636174E-4  
 2.534000000000000E10   -2.219126909039915E-4  -1.650050544412807E-4  
 2.536000000000000E10   -5.162737215869129E-4  -6.062692264094949E-4  
 2.538000000000000E10    3.588036997825839E-5   1.098891953006387E-3  
 2.540000000000000E10    3.185414534527808E-4   7.599552627652884E-4  
 2.542000000000000E10    8.027048315852881E-4  -1.864910009317100E-4  
 2.544000000000000E10   -3.574296351871453E-5  -3.238917270209640E-4  
 2.546000000000000E10   -6.813906948082149E-4   1.851424349297304E-5  
 2.548000000000000E10   -3.216109762433916E-4  -2.722964200074785E-5  
 2.550000000000000E10   -2.193509717471898E-4   7.676976965740323E-4  
 2.552000000000000E10    2.856968203559518E-4   6.561221671290696E-4  
 2.554000000000000E10    1.581799006089568E-3  -3.118215245194733E-4  
 2.556000000000000E10    3.823931820079451E-6  -1.004726043902338E-3  
 2.558000000000000E10   -1.777843106538057E-3  -5.356970941647887E-4  
 2.560000000000000E10   -6.838826229795814E-4   1.772938529029489E-3  
 2.562000000000000E10    6.220953655429184E-4   1.395066850818694E-3  
 2.564000000000000E10    1.170199713669717E-3  -6.798183894716203E-4  
 2.566000000000000E10   -1.447686081519350E-4  -1.740073435939848E-3  
 2.568000000000000E10   -9.358424576930702E-4  -2.139839489245787E-4  
 2.570000000000000E10   -1.272744382731617E-3   6.778056267648935E-4  
 2.572000000000000E10    8.156678522937000E-4   5.313886213116348E-4  
 2.574000000000000E10    4.018205509055406E-4   6.556446314789355E-4  
 2.576000000000000E10    1.263033016584814E-3  -1.254359609447420E-3  
 2.578000000000000E10   -1.855815498856828E-4  -7.251597708091140E-4  
 2.580000000000000E10   -1.904024276882410E-3  -4.467417602427304E-5  
 2.582000000000000E10   -5.869971355423331E-4   1.317669870331883E-3  
 2.584000000000000E10    1.116215367801487E-3   7.556764176115394E-4  
 2.586000000000000E10    6.242154049687088E-4  -7.987559074535966E-4  
 2.588000000000000E10   -1.271503162570298E-3  -1.442626002244651E-3  
 2.590000000000000E10   -9.903740137815476E-4   3.317468217574060E-4  
 2.592000000000000E10    6.128787845227635E-6   1.567216095281765E-4  
 2.594000000000000E10    2.745156816672534E-4  -9.721249807626009E-4  
 2.596000000000000E10   -2.853753976523876E-4  -1.953790633706376E-4  
 2.598000000000000E10    3.403373120818287E-4  -7.016805466264486E-5  
 2.600000000000000E10    5.923478747718036E-4   2.553843369241804E-4  
 2.602000000000000E10    8.087828609859571E-5  -5.127955228090286E-4  
 2.604000000000000E10   -4.382381448522210E-4   1.845200749812648E-4  
 2.606000000000000E10   -3.491142124403268E-4   6.335899815894663E-4  
 2.608000000000000E10   -8.273630555777345E-6   8.539451519027352E-4  
 2.610000000000000E10   -1.263037847820669E-4  -4.774479893967509E-4  
 2.612000000000000E10    1.855973678175360E-4   2.831120800692588E-4  
 2.614000000000000E10    1.690399076323956E-4  -6.784096476621926E-4  
 2.616000000000000E10   -2.779707428999245E-4  -1.073304913006723E-3  
 2.618000000000000E10   -1.250696834176779E-3   6.695584743283689E-4  
 2.620000000000000E10    3.732711484190077E-4   1.283384044654667E-3  
 2.622000000000000E10    2.402968006208539E-3   5.044952849857509E-4  
 2.624000000000000E10    2.032498741755262E-4  -1.197644392959774E-3  
 2.626000000000000E10   -1.463207066990435E-3  -1.156496000476182E-3  
 2.628000000000000E10   -9.209632407873869E-4   1.584207173436880E-3  
 2.630000000000000E10   -5.922982236370444E-4   1.392681384459138E-3  
 2.632000000000000E10    1.421620021574199E-3  -8.304226794280112E-4  
 2.634000000000000E10    6.638879422098398E-4  -5.423618131317198E-4  
 2.636000000000000E10   -6.717516807839274E-4  -1.577846123836935E-3  
 2.638000000000000E10   -2.064993459498510E-4  -2.031453623203561E-4  
 2.640000000000000E10   -8.355919853784144E-4   1.446661655791104E-3  
 2.642000000000000E10    9.024713654071093E-4   1.292978879064322E-3  
 2.644000000000000E10    1.582358032464981E-3  -4.065732355229557E-4  
 2.646000000000000E10    1.557048017275520E-5  -1.176372636109591E-3  
 2.648000000000000E10   -1.721849897876382E-3   3.282712423242629E-4  
 2.650000000000000E10   -4.422407946549356E-4   5.443708505481482E-4  
 2.652000000000000E10    1.007777755148709E-3   5.872253095731139E-4  
 2.654000000000000E10   -2.953922194137704E-5  -9.950561216101050E-4  
 2.656000000000000E10    2.205350319854915E-4  -5.710453260689974E-4  
 2.658000000000000E10   -2.864429843612015E-4   3.841065699816681E-5  
 2.660000000000000E10    2.631353563629091E-4  -4.296606057323515E-4  
 2.662000000000000E10    1.247163454536349E-4   2.485108561813831E-4  
 2.664000000000000E10   -7.907440303824842E-4   3.983435162808746E-4  
 2.666000000000000E10    4.575288912747055E-4   4.388554079923779E-4  
 2.668000000000000E10    2.447627484798431E-4   4.654595104511827E-4  
 2.670000000000000E10   -7.967430865392089E-4  -5.234502023085952E-4  
 2.672000000000000E10   -4.201525298412889E-4  -6.407419568859041E-4  
 2.674000000000000E10   -7.793313707225025E-4  -2.704867220018059E-4  
 2.676000000000000E10   -1.013152184896171E-3   1.921212387969717E-4  
 2.678000000000000E10    6.784214638173580E-4   9.314607013948262E-4  
 2.680000000000000E10    6.246422417461872E-4   9.587378735886887E-5  
 2.682000000000000E10    4.617979866452515E-4  -1.510964473709464E-3  
 2.684000000000000E10   -1.100559602491558E-3  -3.503760672174394E-4  
 2.686000000000000E10   -1.749657909385860E-3   7.841292535886169E-4  
 2.688000000000000E10    5.579036078415811E-4   9.733462939038873E-4  
 2.690000000000000E10    9.507104405201972E-4   4.059594648424536E-4  
 2.692000000000000E10   -1.850966218626127E-4  -1.539467368274927E-3  
 2.694000000000000E10   -1.035259570926428E-3  -8.510655025020242E-4  
 2.696000000000000E10   -8.206397760659456E-4   4.723734164144844E-4  
 2.698000000000000E10   -2.749874256551266E-4   7.869306136853993E-4  
 2.700000000000000E10    7.782445754855871E-4   2.609483490232378E-4  
 2.702000000000000E10    8.927487651817501E-4   8.912224984669592E-6  
 2.704000000000000E10   -4.585208662319928E-4  -1.195773016661406E-3  
 2.706000000000000E10   -3.615122695919126E-4  -1.394756982335821E-4  
 2.708000000000000E10   -6.759237730875611E-4   1.265735831111670E-3  
 2.710000000000000E10    2.047020971076563E-4   4.504086100496352E-4  
 2.712000000000000E10    4.512036393862218E-4   4.131152236368507E-4  
 2.714000000000000E10   -3.522486367728561E-4  -6.939466693438590E-4  
 2.716000000000000E10    1.701422734186053E-4  -7.575159543193877E-4  
 2.718000000000000E10   -1.810809771995992E-4   9.176138178190740E-7  
 2.720000000000000E10   -2.238457236671820E-4   5.550132118514739E-5  
 2.722000000000000E10    4.425808147061616E-4  -1.932794839376584E-4  
 2.724000000000000E10    6.771305925212801E-4   1.150372845586389E-4  
 2.726000000000000E10    2.254042628919706E-4  -2.703178615774959E-4  
 2.728000000000000E10    7.469838019460440E-4  -7.817957084625959E-4  
 2.730000000000000E10   -2.470057515893132E-4   2.167731145163998E-5  
 2.732000000000000E10   -6.134569994173944E-4  -5.478177990880795E-5  
 2.734000000000000E10    2.063165011350066E-4   7.136156782507896E-4  
 2.736000000000000E10    6.377124809660018E-4   2.089349436573684E-4  
 2.738000000000000E10    3.874065878335387E-4  -7.681030547246337E-4  
 2.740000000000000E10   -5.719052278436720E-4  -9.729843004606664E-4  
 2.742000000000000E10   -9.822178399190307E-4  -2.294023288413882E-4  
 2.744000000000000E10    5.651625178870745E-5   2.595152764115483E-4  
 2.746000000000000E10    9.330415050499141E-4   2.033071505138651E-4  
 2.748000000000000E10    5.985816824249923E-4  -3.116862790193409E-4  
 2.750000000000000E10    3.143411013297737E-4  -5.142681184224784E-4  
 2.752000000000000E10   -3.964638162869960E-4  -3.681320522446185E-4  
 2.754000000000000E10   -1.217124983668327E-3   4.062406660523266E-4  
 2.756000000000000E10    1.829794346122071E-4   8.483044221065939E-4  
