#  HZ   S   RI   R     50.00 
! Rohde & Schwarz ZVA40 4Ports - Version 3.90 - 1145.1110k42 SN: 100403
! Date: 2023-10-04 11:43:20
! Measurement: S12 
! 
 2.200000000000000E10   -1.490809372626245E-3  -1.335219945758581E-3  
 2.202000000000000E10   -5.464996793307364E-4  -3.925516211893410E-4  
 2.204000000000000E10   -7.839183126634453E-6   4.784958146046847E-4  
 2.206000000000000E10    6.498797447420657E-4  -1.282067969441414E-4  
 2.208000000000000E10    2.530693775042892E-3  -1.352301100268960E-3  
 2.210000000000000E10    1.008605933748186E-3  -4.430978151503950E-4  
 2.212000000000000E10   -8.515016525052488E-4  -1.176189747639000E-3  
 2.214000000000000E10    3.053651307709515E-4   2.092081820592284E-3  
 2.216000000000000E10    8.510302868671715E-4   1.927656936459243E-3  
 2.218000000000000E10    2.170404419302940E-3  -2.036058285739273E-4  
 2.220000000000000E10   -7.990389131009579E-4  -1.842165016569197E-3  
 2.222000000000000E10   -1.696992432698607E-3  -6.651973817497492E-4  
 2.224000000000000E10   -1.133188605308533E-3   4.831975966226310E-4  
 2.226000000000000E10    1.681463676504791E-3  -2.565282047726214E-4  
 2.228000000000000E10    1.326003693975508E-3  -2.137268602382392E-4  
 2.230000000000000E10    1.395669882185757E-3  -1.854574657045305E-3  
 2.232000000000000E10    5.504714790731669E-4  -1.263073208974674E-4  
 2.234000000000000E10   -1.309972140006721E-3   6.465698243118823E-4  
 2.236000000000000E10    7.535947224823758E-5   1.035716850310564E-3  
 2.238000000000000E10    9.692151797935367E-4   8.827375713735819E-4  
 2.240000000000000E10    2.164316683774814E-4  -1.225465210154653E-3  
 2.242000000000000E10   -9.875145042315126E-4  -1.186755602248013E-3  
 2.244000000000000E10   -6.951573886908591E-4   3.365685988683254E-4  
 2.246000000000000E10   -6.834344821982086E-4  -9.081365424208343E-4  
 2.248000000000000E10    1.075357897207141E-3  -8.826547418721020E-4  
 2.250000000000000E10   -6.301680114120245E-4   5.461970577016473E-4  
 2.252000000000000E10    3.091428661718965E-4  -2.508530451450497E-4  
 2.254000000000000E10    8.639360312372446E-4   4.195001674816012E-4  
 2.256000000000000E10   -7.782197790220380E-4  -7.747880299575627E-4  
 2.258000000000000E10   -1.485394663177431E-3  -4.860643093707040E-5  
 2.260000000000000E10   -8.374396129511297E-4   9.277838398702443E-4  
 2.262000000000000E10   -2.556503750383854E-4   5.329970736056566E-4  
 2.264000000000000E10    1.692779478617013E-4  -5.652318941429257E-4  
 2.266000000000000E10   -1.526590931462124E-4   3.921525785699487E-4  
 2.268000000000000E10   -6.582392379641533E-4  -1.018405426293612E-3  
 2.270000000000000E10   -7.606145227327943E-4   4.182185803074390E-4  
 2.272000000000000E10   -1.061285962350667E-3   1.024237019009888E-3  
 2.274000000000000E10    6.494549452327192E-4   1.573323621414602E-3  
 2.276000000000000E10    1.121437409892678E-3   2.170279913116247E-4  
 2.278000000000000E10   -5.629824590869248E-4  -1.658973633311689E-3  
 2.280000000000000E10   -1.967034302651882E-3  -5.888600717298687E-4  
 2.282000000000000E10   -1.729300245642662E-3   1.257476746104658E-3  
 2.284000000000000E10    3.419813583604991E-4   6.758358795195818E-4  
 2.286000000000000E10    1.212805043905973E-3  -1.069503603503108E-3  
 2.288000000000000E10   -9.493023972027004E-4   3.116935477009974E-5  
 2.290000000000000E10   -2.429911983199418E-4  -2.790592552628368E-4  
 2.292000000000000E10    1.695381943136454E-4   3.761766492971219E-5  
 2.294000000000000E10   -1.171913347207010E-3   1.015048357658088E-3  
 2.296000000000000E10    4.924507811665535E-4   1.712830271571875E-3  
 2.298000000000000E10    1.897796639241278E-3  -1.523721002740786E-4  
 2.300000000000000E10    1.322878815699369E-4  -3.568278334569186E-4  
 2.302000000000000E10   -1.986511982977390E-3  -2.548199554439634E-4  
 2.304000000000000E10    7.998478831723332E-4   1.458679558709264E-3  
 2.306000000000000E10   -2.272261626785621E-4   9.113060077652335E-4  
 2.308000000000000E10    8.521163254044950E-4  -6.120018078945577E-4  
 2.310000000000000E10    4.254785017110407E-4   4.317902494221926E-4  
 2.312000000000000E10    1.043213414959610E-3  -3.604502999223769E-4  
 2.314000000000000E10   -2.451294567435980E-4  -3.980279725510627E-4  
 2.316000000000000E10   -1.223774394020438E-3   9.272659372072667E-5  
 2.318000000000000E10   -3.347034216858447E-4   2.475724555552006E-3  
 2.320000000000000E10    2.396100433543325E-3  -2.878558007068932E-4  
 2.322000000000000E10    1.019965857267380E-3  -1.731369411572814E-3  
 2.324000000000000E10   -1.480187173001468E-3  -1.386680989526212E-3  
 2.326000000000000E10    1.999189262278378E-4   9.397797985002399E-4  
 2.328000000000000E10    7.164326962083578E-4   2.832492173183709E-4  
 2.330000000000000E10    6.567246164195240E-4  -2.990821085404605E-4  
 2.332000000000000E10    1.027980819344521E-3  -1.316631532972679E-4  
 2.334000000000000E10    6.972908740863204E-4  -1.026555430144072E-3  
 2.336000000000000E10   -3.989041433669627E-4  -1.310886815190315E-3  
 2.338000000000000E10   -9.687105775810778E-4   6.535131251439452E-4  
 2.340000000000000E10   -4.061694489791989E-4   8.089506300166249E-4  
 2.342000000000000E10    1.935439766384661E-3  -3.520982863847166E-4  
 2.344000000000000E10    1.027242178679444E-4  -8.471542969346046E-4  
 2.346000000000000E10   -1.623557764105499E-3  -9.367368766106665E-4  
 2.348000000000000E10   -4.683618317358196E-4   1.005342230200768E-3  
 2.350000000000000E10    1.524643012089655E-4   2.126295730704442E-4  
 2.352000000000000E10   -3.082505718339235E-4  -5.519355181604624E-4  
 2.354000000000000E10    4.218895628582686E-5   7.256590761244297E-4  
 2.356000000000000E10    3.120175970252603E-4  -1.275144895771518E-4  
 2.358000000000000E10   -2.035673969658092E-4  -1.902992604300380E-3  
 2.360000000000000E10   -3.417369734961540E-4   2.464156132191420E-4  
 2.362000000000000E10   -8.453038753941655E-4   1.038841903209686E-3  
 2.364000000000000E10    8.746859384700656E-4   2.290872507728636E-4  
 2.366000000000000E10    2.014201745623723E-4   2.157683047698811E-4  
 2.368000000000000E10   -6.812896026531234E-5  -5.511017516255379E-4  
 2.370000000000000E10   -3.578981268219650E-4  -3.916608693543822E-4  
 2.372000000000000E10   -9.396945824846625E-4  -9.627218241803348E-5  
 2.374000000000000E10   -1.438533421605825E-3   6.540963659062982E-4  
 2.376000000000000E10    1.097714295610786E-3   9.061311720870435E-4  
 2.378000000000000E10    1.578857540152967E-3  -6.121058686403558E-5  
 2.380000000000000E10    5.431445315480232E-4  -2.803844166919589E-3  
 2.382000000000000E10   -9.322908590547741E-4   1.048334233928472E-4  
 2.384000000000000E10   -9.807699825614691E-4   1.816983800381422E-3  
 2.386000000000000E10    1.054265419952571E-3   1.428400282748044E-3  
 2.388000000000000E10    6.555542931891978E-4   4.665467131417245E-4  
 2.390000000000000E10    4.857348176301457E-5  -7.983618997968733E-4  
 2.392000000000000E10   -8.041810360737145E-4  -1.214305520989001E-3  
 2.394000000000000E10   -1.491936505772173E-3  -2.193536965933163E-5  
 2.396000000000000E10   -8.336084429174662E-4   5.677576991729438E-4  
 2.398000000000000E10    1.599218463525176E-3   4.157704242970794E-4  
 2.400000000000000E10    1.592783955857158E-3  -6.030069198459387E-4  
 2.402000000000000E10    1.565496859257110E-5  -2.155405469238758E-3  
 2.404000000000000E10   -1.179871964268386E-3   4.155295391683467E-5  
 2.406000000000000E10   -4.473008739296347E-4   1.888115657493472E-3  
 2.408000000000000E10    6.655271281488240E-4   6.819683476351202E-4  
 2.410000000000000E10    4.035070014651865E-4  -4.076026380062103E-4  
 2.412000000000000E10   -1.036545378156006E-3   4.489402635954320E-4  
 2.414000000000000E10   -5.796100012958050E-4  -1.186069450341165E-3  
 2.416000000000000E10   -4.599598178174347E-4  -5.523888394236565E-4  
 2.418000000000000E10   -1.389971235767007E-3   1.493459276389331E-4  
 2.420000000000000E10    1.315946690738201E-3   5.104242154629901E-5  
 2.422000000000000E10    1.433673081919551E-3   5.307830870151520E-4  
 2.424000000000000E10    4.420548793859780E-4  -7.793536060489714E-4  
 2.426000000000000E10    1.266446452063974E-5   4.358463920652866E-4  
 2.428000000000000E10   -3.275132330600172E-4   1.150447642430663E-3  
 2.430000000000000E10   -7.311053341254592E-4   4.903437220491469E-4  
 2.432000000000000E10    2.487473830115050E-4   5.742080393247306E-4  
 2.434000000000000E10    1.992381585296243E-4   1.093099010176957E-3  
 2.436000000000000E10    4.410794936120510E-4  -1.364147639833391E-3  
 2.438000000000000E10    4.656636156141758E-4  -1.550260931253433E-3  
 2.440000000000000E10   -1.437734579667449E-3  -3.916830464731902E-4  
 2.442000000000000E10    3.405052120797336E-4   9.706894052214921E-4  
 2.444000000000000E10    1.613213797099888E-3   9.936741553246975E-4  
 2.446000000000000E10    5.158106214366853E-4  -4.073263844475150E-4  
 2.448000000000000E10   -2.038302773144096E-4  -3.872020752169192E-4  
 2.450000000000000E10   -3.564418002497405E-4  -8.986782631836832E-5  
 2.452000000000000E10   -1.081220456399024E-3   1.646602177061141E-4  
 2.454000000000000E10   -5.593467503786087E-4   4.454437003005296E-4  
 2.456000000000000E10    1.950984587892890E-4   1.013576518744230E-3  
 2.458000000000000E10    8.551908540539444E-4  -8.354804595001042E-4  
 2.460000000000000E10   -2.126843901351094E-4  -1.920176902785897E-3  
 2.462000000000000E10   -1.701921457424760E-3  -2.292343997396529E-4  
 2.464000000000000E10   -5.724634393118322E-4   1.128559000790119E-3  
 2.466000000000000E10    1.140001229941845E-3   1.309975283220410E-3  
 2.468000000000000E10    9.513361146673560E-4  -2.908077731262893E-4  
 2.470000000000000E10    4.573767655529082E-4  -9.301741956733167E-4  
 2.472000000000000E10   -1.135377213358879E-3   3.089561650995165E-4  
 2.474000000000000E10   -1.236275886185467E-3   1.883188670035452E-4  
 2.476000000000000E10   -5.835372721776366E-4   1.016778522171080E-3  
 2.478000000000000E10    1.743300526868552E-4   1.306366058997810E-3  
 2.480000000000000E10    9.574568830430508E-4  -6.271019810810685E-4  
 2.482000000000000E10    4.168447412666865E-5  -1.200635684654117E-3  
 2.484000000000000E10   -1.235306146554649E-3  -2.743528166320175E-4  
 2.486000000000000E10   -1.929074351210147E-4   9.297812939621508E-4  
 2.488000000000000E10    1.536875730380416E-3   8.967625908553600E-4  
 2.490000000000000E10    8.709588437341154E-4   9.106778452405706E-5  
 2.492000000000000E10    8.655296987853944E-4  -5.407483549788594E-4  
 2.494000000000000E10    3.164876834489405E-4   7.727580377832055E-4  
 2.496000000000000E10   -8.724332437850535E-4   3.329216560814530E-4  
 2.498000000000000E10   -1.530903391540051E-4   4.149133164901286E-4  
 2.500000000000000E10    4.835481013287790E-5   5.543882725760341E-4  
 2.502000000000000E10    4.962171078659594E-4  -7.879259646870196E-5  
 2.504000000000000E10    9.252732270397246E-4  -1.544816885143518E-3  
 2.506000000000000E10    3.966684016631916E-5  -6.973553099669516E-4  
 2.508000000000000E10   -4.248996265232563E-4  -4.538513021543622E-4  
 2.510000000000000E10    1.247128355316818E-3   4.335374978836626E-4  
 2.512000000000000E10    4.094075120519847E-4   1.282111508771777E-3  
 2.514000000000000E10    4.215397348161787E-4  -4.506492114160210E-4  
 2.516000000000000E10    7.763579487800598E-4   9.544128988636658E-5  
 2.518000000000000E10   -8.885992574505508E-4  -3.893286630045623E-4  
 2.520000000000000E10   -1.031025662086904E-3  -7.033417350612581E-4  
 2.522000000000000E10   -7.304798346012831E-4   5.271882400847971E-4  
 2.524000000000000E10    4.880884953308851E-4   3.441409789957106E-4  
 2.526000000000000E10    1.440222258679569E-3  -9.514037519693375E-4  
 2.528000000000000E10    3.587786050047725E-4  -1.530173933133483E-3  
 2.530000000000000E10   -1.091506564989686E-3  -5.563054583035410E-4  
 2.532000000000000E10   -4.226776218274608E-5   1.638318935874850E-4  
 2.534000000000000E10    7.777250721119344E-4   1.616128953173757E-3  
 2.536000000000000E10    7.578049553558230E-5  -1.528370048617944E-4  
 2.538000000000000E10    8.703413768671453E-4  -1.479082948208088E-5  
 2.540000000000000E10   -4.261585127096623E-4  -2.055736840702593E-4  
 2.542000000000000E10   -6.308282027021051E-4  -9.208897245116532E-4  
 2.544000000000000E10   -9.878493146970868E-4   1.368512981571257E-3  
 2.546000000000000E10    2.728180552367121E-4   1.286697690375149E-3  
 2.548000000000000E10    1.670912024565041E-3  -3.692648024298251E-4  
 2.550000000000000E10    3.763010026887059E-4  -7.152681355364621E-4  
 2.552000000000000E10   -1.498178928159177E-3   2.653950359672308E-4  
 2.554000000000000E10   -3.105532086919993E-4   3.122901252936572E-4  
 2.556000000000000E10    7.733776583336294E-4   1.209133770316839E-3  
 2.558000000000000E10   -1.150928146671504E-4   1.153757184511051E-4  
 2.560000000000000E10    1.219145837239921E-3  -6.784062716178596E-4  
 2.562000000000000E10    1.264423772227019E-4  -2.134719397872686E-4  
 2.564000000000000E10   -6.990166730247438E-4  -7.378557347692549E-4  
 2.566000000000000E10   -2.664638450369239E-4   1.289142295718193E-3  
 2.568000000000000E10    4.676512617152184E-4   9.489461081102490E-4  
 2.570000000000000E10    1.354989944957197E-3  -8.964832522906363E-4  
 2.572000000000000E10    3.229587746318430E-4  -1.001815078780055E-3  
 2.574000000000000E10   -1.110411249101162E-3   2.524523879401386E-4  
 2.576000000000000E10   -2.799034409690648E-4   1.664120354689658E-4  
 2.578000000000000E10    1.036447007209063E-3   1.200168262585066E-4  
 2.580000000000000E10   -4.043590743094683E-4  -4.334486729931086E-4  
 2.582000000000000E10    4.102032398805022E-4   7.405126234516501E-5  
 2.584000000000000E10    3.241835511289537E-4  -4.841703048441559E-4  
 2.586000000000000E10    1.721521257422864E-4  -1.371528953313828E-3  
 2.588000000000000E10   -5.517120007425547E-4  -3.700381785165519E-4  
 2.590000000000000E10   -5.307652754709125E-4   3.922810137737542E-4  
 2.592000000000000E10    5.431859754025936E-4  -5.289176988299005E-5  
 2.594000000000000E10    4.291922086849809E-4  -5.502112326212227E-4  
 2.596000000000000E10   -5.257895682007074E-4  -2.101859718095511E-4  
 2.598000000000000E10   -3.152916033286601E-4  -5.453662597574294E-4  
 2.600000000000000E10   -3.069460508413613E-4   3.372402034074185E-6  
 2.602000000000000E10   -1.349116908386350E-3   4.741672892123461E-4  
 2.604000000000000E10    1.980372326215729E-4   1.569204498082399E-3  
 2.606000000000000E10    1.128896139562130E-3   2.751922293100506E-4  
 2.608000000000000E10   -2.853332262020558E-5  -1.798833603970707E-3  
 2.610000000000000E10   -1.532337628304958E-3  -1.280174823477864E-3  
 2.612000000000000E10   -1.387381809763610E-3   1.822117948904634E-3  
 2.614000000000000E10    6.111318361945450E-4   7.620934629812837E-4  
 2.616000000000000E10    2.032001037150621E-3  -3.232535091228783E-4  
 2.618000000000000E10   -1.856662856880575E-4  -5.722083151340485E-4  
 2.620000000000000E10   -3.420766734052450E-4  -6.849578930996358E-4  
 2.622000000000000E10   -1.523033570265397E-4   1.007464830763638E-3  
 2.624000000000000E10   -9.230233845300973E-4   8.885231218300760E-4  
 2.626000000000000E10    2.845138369593769E-4   8.754269802011550E-4  
 2.628000000000000E10    1.226034597493708E-3   1.396181614836678E-4  
 2.630000000000000E10   -7.259013364091516E-5  -1.073596300557256E-3  
 2.632000000000000E10   -1.423892797902226E-3  -4.595018399413675E-4  
 2.634000000000000E10   -8.354270539712161E-5   1.577712013386190E-3  
 2.636000000000000E10    5.078628310002387E-4  -4.640365204977570E-6  
 2.638000000000000E10    1.029998064041138E-3  -1.122696441598237E-3  
 2.640000000000000E10   -3.433702804613859E-4   3.531068214215338E-4  
 2.642000000000000E10    1.615171931916848E-4   2.914109245466534E-5  
 2.644000000000000E10    8.718633907847107E-4  -3.536238800734282E-4  
 2.646000000000000E10   -4.921678337268531E-4  -4.067753325216472E-4  
 2.648000000000000E10   -2.737569739110768E-4   2.843235270120204E-4  
 2.650000000000000E10    7.348564104177058E-4   6.856761174276471E-4  
 2.652000000000000E10    9.333992493338883E-4  -2.785321521514561E-5  
 2.654000000000000E10   -1.134596732299542E-5  -5.778485792689025E-4  
 2.656000000000000E10   -5.575853283517063E-4   4.063034139107913E-4  
 2.658000000000000E10   -4.377730947453529E-4   4.304993126424961E-5  
 2.660000000000000E10   -9.650107676861808E-5   1.024801313178614E-4  
 2.662000000000000E10    1.618816895643249E-4   9.865927277132869E-4  
 2.664000000000000E10    5.506544257514179E-4  -4.254918021615595E-4  
 2.666000000000000E10    4.303004825487733E-4  -1.791811315342784E-3  
 2.668000000000000E10   -1.465858542360365E-3  -4.791975952684879E-4  
 2.670000000000000E10   -5.484898574650288E-4   1.001019729301333E-3  
 2.672000000000000E10    2.054602839052677E-3   1.104363356716931E-3  
 2.674000000000000E10    1.110094483010471E-3  -6.918227300047875E-4  
 2.676000000000000E10   -4.593073681462556E-4  -1.519867335446179E-3  
 2.678000000000000E10   -5.282472120597959E-4   1.300246003665961E-5  
 2.680000000000000E10   -1.150766271166503E-3   4.064173845108599E-4  
 2.682000000000000E10    4.632497148122639E-4   6.342672713799402E-5  
 2.684000000000000E10    1.201499952003360E-3   1.091403319151141E-4  
 2.686000000000000E10   -4.993886705051409E-6  -6.648708367720246E-4  
 2.688000000000000E10   -2.042107662418857E-4  -1.547728781588376E-3  
 2.690000000000000E10   -8.137700497172773E-4  -2.288561954628676E-4  
 2.692000000000000E10   -5.923781427554786E-4   4.230398917570710E-4  
 2.694000000000000E10    1.174733741208911E-3   3.623194352257997E-4  
 2.696000000000000E10    2.178799913963303E-4  -9.152199490927160E-4  
 2.698000000000000E10   -2.485407167114317E-4  -9.435763931833208E-4  
 2.700000000000000E10    1.463568478357047E-4   2.009478921536356E-4  
 2.702000000000000E10   -6.598662730539218E-5  -1.987093419302255E-4  
 2.704000000000000E10   -2.389669243711978E-4  -2.965709718409926E-4  
 2.706000000000000E10    1.863732177298516E-4   3.039018483832479E-4  
 2.708000000000000E10    3.183069638907909E-4  -8.243652700912207E-5  
 2.710000000000000E10    3.436858823988587E-4  -8.892748155631125E-4  
 2.712000000000000E10   -4.060699939145707E-5  -3.346639859955758E-4  
 2.714000000000000E10   -7.148184231482446E-4  -2.645851054694504E-4  
 2.716000000000000E10   -2.885981521103531E-4   2.177024289267138E-4  
 2.718000000000000E10    4.754233232233673E-4   2.576801343820989E-4  
 2.720000000000000E10    8.387266425415874E-4  -1.424777146894485E-4  
 2.722000000000000E10    1.049145706929267E-3  -6.749715539626777E-4  
 2.724000000000000E10   -7.677827961742878E-4  -3.444828616920859E-4  
 2.726000000000000E10   -1.529413391835988E-3   1.900353963719681E-4  
 2.728000000000000E10    5.009077140130103E-4   1.665071002207696E-3  
 2.730000000000000E10    6.924066692590714E-4   6.252638413570821E-4  
 2.732000000000000E10    5.944538279436529E-4  -1.874723937362433E-3  
 2.734000000000000E10   -4.395398718770593E-4  -6.615715101361275E-4  
 2.736000000000000E10   -8.580815047025681E-4   3.530704125296325E-4  
 2.738000000000000E10    4.698752309195697E-4   5.513114156201482E-4  
 2.740000000000000E10    1.010825159028173E-3   1.069750520400703E-3  
 2.742000000000000E10    7.621305994689465E-4   5.661320756189525E-4  
 2.744000000000000E10    3.368485777173191E-4  -7.464871159754694E-4  
 2.746000000000000E10   -1.248215208761394E-3   4.295796679798514E-4  
 2.748000000000000E10   -1.341577968560159E-3   5.502513959072530E-4  
 2.750000000000000E10    5.700705805793405E-4   4.327072529122233E-4  
 2.752000000000000E10    6.514199194498360E-4  -1.953813043655828E-4  
 2.754000000000000E10   -1.826165535021573E-4  -1.509091584011912E-3  
 2.756000000000000E10   -3.196064208168536E-4  -3.928088990505785E-4  
