#  HZ   S   RI   R     50.00 
! Rohde & Schwarz ZVA40 4Ports - Version 3.90 - 1145.1110k42 SN: 100403
! Date: 2023-10-04 11:42:59
! Measurement: S12 
! 
 2.200000000000000E10   -1.304203295148909E-3   8.343279478140175E-4  
 2.202000000000000E10    8.400835213251412E-4   7.740090368315578E-4  
 2.204000000000000E10    8.523942669853568E-4  -5.631385138258338E-4  
 2.206000000000000E10    2.479262475389987E-4  -1.872381399152800E-4  
 2.208000000000000E10   -4.807345976587385E-4  -2.523048606235534E-4  
 2.210000000000000E10    1.726868504192680E-5   1.144701382145286E-3  
 2.212000000000000E10   -8.814303437247872E-4   1.249795430339873E-3  
 2.214000000000000E10    9.028947679325938E-4   1.077822875231504E-3  
 2.216000000000000E10   -3.985870571341366E-4   6.306995783234015E-5  
 2.218000000000000E10   -6.711236783303320E-4  -6.587264942936599E-4  
 2.220000000000000E10   -1.049326616339386E-3   9.941537864506245E-4  
 2.222000000000000E10    2.901011030189693E-4   5.953341606073082E-4  
 2.224000000000000E10    5.670172395184636E-4   9.302703983848915E-5  
 2.226000000000000E10    3.429516509640962E-4  -3.331509360577911E-4  
 2.228000000000000E10   -4.973702016286552E-4   1.795102260075510E-3  
 2.230000000000000E10    8.810589788481593E-4   9.021508740261197E-4  
 2.232000000000000E10    8.403902756981552E-4  -1.519309262221213E-5  
 2.234000000000000E10   -1.060905051417649E-3  -1.163896056823432E-3  
 2.236000000000000E10   -3.888691717293114E-4   1.291529042646289E-3  
 2.238000000000000E10    8.202436729334295E-4   1.530542387627065E-3  
 2.240000000000000E10    1.860913122072816E-3  -1.836662704590708E-4  
 2.242000000000000E10    4.629731120076031E-4  -1.151936012320221E-3  
 2.244000000000000E10    8.250905921158847E-6   3.348938480485231E-5  
 2.246000000000000E10   -2.427557919872925E-4   4.278265114407986E-4  
 2.248000000000000E10    4.728802887257189E-4   7.124905823729932E-4  
 2.250000000000000E10   -4.633298158296384E-5   1.222399296239018E-3  
 2.252000000000000E10    1.528390333987773E-3  -1.193895004689694E-3  
 2.254000000000000E10    2.009502204600722E-4  -1.375044113956392E-3  
 2.256000000000000E10   -2.100885612890124E-3  -1.502830069512129E-3  
 2.258000000000000E10   -6.071733077988029E-4   1.267551910132170E-3  
 2.260000000000000E10    1.425728201866150E-3   1.203247811645269E-3  
 2.262000000000000E10    1.002033008262515E-3  -1.484923064708710E-3  
 2.264000000000000E10   -1.717177656246349E-4  -2.102386904880405E-3  
 2.266000000000000E10   -1.073819817975164E-3   1.033011591061950E-3  
 2.268000000000000E10   -6.927305366843939E-4  -5.252491682767868E-4  
 2.270000000000000E10    3.221332153771073E-4   7.548736757598817E-4  
 2.272000000000000E10   -1.236986019648612E-3  -4.845116345677525E-4  
 2.274000000000000E10    9.608519030734897E-4  -1.024312456138432E-3  
 2.276000000000000E10   -1.478058838983998E-4  -9.431225480511785E-4  
 2.278000000000000E10   -9.547444642521441E-4  -1.381283975206316E-3  
 2.280000000000000E10   -1.091886428184807E-3   3.200928622391075E-4  
 2.282000000000000E10    3.587551473174244E-4   9.566934895701706E-4  
 2.284000000000000E10    6.464359466917813E-5  -2.900535473600030E-4  
 2.286000000000000E10    7.638756869710051E-6  -1.208456000313163E-3  
 2.288000000000000E10   -1.172165386378765E-3   1.014827517792583E-3  
 2.290000000000000E10   -1.261820900253952E-3  -6.467234925366938E-4  
 2.292000000000000E10   -6.382773863151670E-4   1.092188103939407E-4  
 2.294000000000000E10   -1.595234498381615E-3   2.171105006709695E-4  
 2.296000000000000E10    1.664149604039267E-4   1.157665465143509E-4  
 2.298000000000000E10    4.217597597744316E-4  -1.023928401991725E-3  
 2.300000000000000E10   -1.666985335759819E-4  -1.335656503215432E-3  
 2.302000000000000E10   -1.899864408187568E-3   4.482772419578396E-5  
 2.304000000000000E10    8.065284782787785E-5   1.729332259856165E-3  
 2.306000000000000E10    9.973496198654175E-4   1.528114196844399E-3  
 2.308000000000000E10    3.233847965020686E-4  -5.338242626748979E-4  
 2.310000000000000E10   -1.288921339437366E-3   9.307407890446484E-4  
 2.312000000000000E10   -1.483643893152475E-3   8.183814497897402E-5  
 2.314000000000000E10   -6.302779656834900E-4   2.628011861816049E-4  
 2.316000000000000E10   -1.080904505215585E-3   6.904240581206977E-4  
 2.318000000000000E10    1.386060648655985E-5   7.210135809145868E-4  
 2.320000000000000E10    1.415430218912661E-3  -1.065293559804559E-3  
 2.322000000000000E10    5.093079380458221E-5  -6.226846016943455E-4  
 2.324000000000000E10   -1.365774776786566E-3   4.661169077735394E-4  
 2.326000000000000E10    6.414502277038992E-4   2.385969040915370E-3  
 2.328000000000000E10    9.125511860474944E-4   1.104591181501746E-3  
 2.330000000000000E10    1.061135553754866E-3  -2.454002969898284E-4  
 2.332000000000000E10   -4.728439089376479E-4   7.642901036888361E-4  
 2.334000000000000E10   -6.156124873086810E-4   4.796428838744760E-4  
 2.336000000000000E10   -6.040112111804774E-6  -4.876640450675041E-4  
 2.338000000000000E10   -1.050810795277357E-3   7.117167697288096E-4  
 2.340000000000000E10   -2.649253292474896E-4   1.209084177389741E-3  
 2.342000000000000E10    2.256306819617748E-3  -7.246741442941129E-4  
 2.344000000000000E10    6.972984992899001E-4  -1.784485415555537E-3  
 2.346000000000000E10   -9.528450900688767E-4  -4.458884650375694E-4  
 2.348000000000000E10    1.666959142312408E-4   9.631366119720042E-4  
 2.350000000000000E10    8.298030588775873E-4   1.418343861587346E-3  
 2.352000000000000E10    5.550447967834771E-4   2.417582290945575E-4  
 2.354000000000000E10    9.458860149607062E-4  -5.247266963124275E-4  
 2.356000000000000E10   -5.252166884019971E-4  -6.478397408500314E-4  
 2.358000000000000E10   -1.325301942415535E-3  -1.054612919688225E-3  
 2.360000000000000E10   -1.088057295419276E-3   1.047395984642208E-3  
 2.362000000000000E10    3.776589874178171E-4   8.385638357140124E-4  
 2.364000000000000E10    2.321952721104026E-3  -8.748868713155389E-4  
 2.366000000000000E10   -7.223617867566645E-4  -2.027522539719939E-3  
 2.368000000000000E10   -1.158111495897174E-3  -9.779890533536673E-4  
 2.370000000000000E10   -4.913707380183041E-4   1.417898456566036E-3  
 2.372000000000000E10    6.108784582465887E-4  -7.303702204808360E-6  
 2.374000000000000E10    6.410708301700652E-4  -1.091491649276577E-4  
 2.376000000000000E10    4.038837214466184E-4  -4.830742254853249E-4  
 2.378000000000000E10   -4.585094757203478E-6  -5.878300871700048E-4  
 2.380000000000000E10   -7.643320132046938E-4  -7.919269264675677E-4  
 2.382000000000000E10   -8.247189107351005E-4   1.184508320875466E-3  
 2.384000000000000E10   -9.714999760035425E-5   2.584629692137241E-4  
 2.386000000000000E10    1.374293584376574E-3  -6.768322782590985E-4  
 2.388000000000000E10   -6.299383239820600E-4  -2.642190956976265E-4  
 2.390000000000000E10   -1.010485808365047E-3  -1.052936306223273E-3  
 2.392000000000000E10    3.156982129439712E-4   8.425587293459103E-5  
 2.394000000000000E10    5.906391015741974E-5   5.047848098911345E-4  
 2.396000000000000E10    9.917275019688532E-5   4.382327460916713E-5  
 2.398000000000000E10    9.692636085674167E-4   4.732921370305121E-4  
 2.400000000000000E10    3.563646168913692E-4   2.166192862205207E-4  
 2.402000000000000E10   -4.635978548321873E-4  -1.082838163711131E-3  
 2.404000000000000E10   -9.617054020054638E-4   7.842288468964398E-4  
 2.406000000000000E10   -4.878407926298678E-4   1.381616108119488E-3  
 2.408000000000000E10    8.769756532274187E-4  -1.035830355249345E-4  
 2.410000000000000E10    8.590930374339223E-4  -4.713636008091271E-4  
 2.412000000000000E10   -6.640543579123914E-4  -4.807329678442329E-4  
 2.414000000000000E10   -9.135020081885159E-5  -1.165959984064102E-3  
 2.416000000000000E10   -1.757041027303785E-4   5.244796629995108E-4  
 2.418000000000000E10   -6.112129776738584E-4   1.246751518920064E-3  
 2.420000000000000E10    1.687724608927965E-3   4.360281454864889E-4  
 2.422000000000000E10    8.555983076803386E-4  -1.226718595717102E-4  
 2.424000000000000E10   -9.881046134978533E-4  -1.837421441450715E-3  
 2.426000000000000E10   -1.387350959703326E-3  -4.009041003882885E-4  
 2.428000000000000E10   -5.644952179864049E-4   1.528080436401069E-3  
 2.430000000000000E10    7.619051611982286E-4   2.684455539565533E-4  
 2.432000000000000E10    1.521462691016495E-3  -7.810734095983207E-4  
 2.434000000000000E10   -1.775990385795012E-4  -3.375189844518900E-4  
 2.436000000000000E10   -8.957036770880222E-4  -7.711509824730456E-4  
 2.438000000000000E10   -6.080847233533859E-4   1.198000158183277E-3  
 2.440000000000000E10   -6.469358922913671E-4   1.476067001931369E-3  
 2.442000000000000E10    9.598858887329698E-4   6.834233645349741E-4  
 2.444000000000000E10    6.277777138166130E-4  -7.144818082451820E-4  
 2.446000000000000E10   -1.290111220441759E-3  -1.469226786866784E-3  
 2.448000000000000E10   -1.365155796520412E-3   4.840831097681075E-4  
 2.450000000000000E10    1.653433282626793E-4   1.213029143400490E-3  
 2.452000000000000E10    8.896042709238827E-4  -1.648678589845076E-4  
 2.454000000000000E10    9.505372145213187E-4  -2.692771522561088E-5  
 2.456000000000000E10    3.119552857242525E-4  -1.137156577897258E-4  
 2.458000000000000E10    9.313892951468006E-5  -3.313547349534929E-4  
 2.460000000000000E10   -6.557432934641838E-4  -5.676208820659667E-5  
 2.462000000000000E10   -6.960068130865693E-4   5.555535899475217E-4  
 2.464000000000000E10    5.348412087187171E-4   4.706857143901289E-4  
 2.466000000000000E10    1.386027317494154E-3  -3.203662345185876E-4  
 2.468000000000000E10   -4.167259030509740E-4  -1.452111406251788E-3  
 2.470000000000000E10   -3.777918755076826E-4  -1.089847180992365E-3  
 2.472000000000000E10   -2.832895843312144E-4   3.958811284974217E-4  
 2.474000000000000E10   -1.023893200908788E-4  -3.946534416172653E-4  
 2.476000000000000E10    9.608315303921700E-4  -1.568065345054492E-4  
 2.478000000000000E10    4.686355823650956E-4   2.745850179053377E-5  
 2.480000000000000E10   -5.062284253654070E-5  -1.130963908508420E-3  
 2.482000000000000E10   -6.915039266459644E-4  -6.643361994065344E-4  
 2.484000000000000E10   -1.164024462923408E-3   6.067219655960798E-4  
 2.486000000000000E10    1.836556066336925E-6   1.109152333810926E-3  
 2.488000000000000E10    1.214643940329552E-3   4.139181692153215E-4  
 2.490000000000000E10   -1.892211148515344E-4  -5.688237142749131E-4  
 2.492000000000000E10   -1.247801585122943E-3  -1.359725487418473E-3  
 2.494000000000000E10   -7.449805852957070E-4   7.018068572506309E-4  
 2.496000000000000E10   -6.667496054433286E-4   1.055499189533293E-3  
 2.498000000000000E10    7.108205463737249E-4   3.061658935621381E-4  
 2.500000000000000E10    8.297829772345722E-4   6.225851830095053E-4  
 2.502000000000000E10   -1.634739055589307E-5  -4.830873513128609E-4  
 2.504000000000000E10   -3.585394879337400E-4  -7.016839226707816E-4  
 2.506000000000000E10   -1.087091397494078E-3   1.101972768083215E-3  
 2.508000000000000E10   -6.370228948071599E-4   1.444264431484044E-3  
 2.510000000000000E10    1.337364432401955E-3   4.225468146614730E-4  
 2.512000000000000E10    6.161593482829630E-4  -2.348537673242390E-4  
 2.514000000000000E10   -8.028001175262034E-4  -1.139393891207874E-3  
 2.516000000000000E10   -4.049587005283684E-5  -3.762071428354830E-4  
 2.518000000000000E10   -4.937699995934963E-4   1.149807241745293E-3  
 2.520000000000000E10    5.046169972047210E-4   7.541177910752595E-5  
 2.522000000000000E10    1.295842230319977E-3   3.229425929021090E-4  
 2.524000000000000E10    6.213285960257053E-4  -2.926168381236494E-4  
 2.526000000000000E10    2.154854591935873E-4  -4.332299577072263E-4  
 2.528000000000000E10   -1.220665173605084E-3   3.439938591327518E-4  
 2.530000000000000E10   -7.077732589095831E-4   1.080837217159569E-3  
 2.532000000000000E10    5.538667901419103E-4   4.114496114198118E-4  
 2.534000000000000E10    6.619371706619859E-4  -7.243972504511476E-4  
 2.536000000000000E10   -8.454680792056024E-4  -1.351381302811205E-3  
 2.538000000000000E10   -6.237869965843856E-4  -6.523677147924900E-4  
 2.540000000000000E10   -4.839187895413488E-4   7.029386470094323E-4  
 2.542000000000000E10    2.072963688988239E-4   5.322127617546357E-5  
 2.544000000000000E10    7.153279730118811E-4   4.472024447750300E-4  
 2.546000000000000E10    3.170681884512305E-5  -1.910147839225829E-4  
 2.548000000000000E10    1.642436814108805E-6  -5.121004069224000E-4  
 2.550000000000000E10   -1.343813026323915E-3  -3.548270615283400E-4  
 2.552000000000000E10   -9.284297120757401E-4   6.587409297935665E-4  
 2.554000000000000E10    2.808704739436507E-4   6.948114023543894E-4  
 2.556000000000000E10    8.442287798970938E-4  -5.574568058364093E-4  
 2.558000000000000E10   -8.163428865373135E-4  -7.204481516964734E-4  
 2.560000000000000E10   -2.875730569940060E-4  -1.648442848818377E-4  
 2.562000000000000E10   -8.976714889286086E-5   6.739297532476485E-4  
 2.564000000000000E10   -5.623516044579446E-4  -2.528202603571117E-4  
 2.566000000000000E10    1.439792540622875E-4   9.552196133881807E-4  
 2.568000000000000E10    2.117870899382979E-4   8.654022240079939E-4  
 2.570000000000000E10    2.328768605366349E-4  -8.343434892594814E-4  
 2.572000000000000E10   -6.792731583118439E-4  -8.103731088340282E-4  
 2.574000000000000E10   -7.019587210379541E-4   5.586115876212716E-4  
 2.576000000000000E10    4.775618799612857E-5   8.780776406638324E-4  
 2.578000000000000E10    1.234279247000814E-3   5.775712779723108E-4  
 2.580000000000000E10   -3.590685446397401E-5  -7.100967341102660E-4  
 2.582000000000000E10    1.622585696168244E-4  -4.825561190955341E-4  
 2.584000000000000E10    1.739754807204008E-4   5.088313482701778E-4  
 2.586000000000000E10   -2.663182676769793E-4  -4.902940127067268E-4  
 2.588000000000000E10   -1.492873998358846E-4   6.292895413935185E-4  
 2.590000000000000E10    1.010993379168212E-3   8.625328191556037E-4  
 2.592000000000000E10    1.650542602874339E-3  -1.177220721729100E-3  
 2.594000000000000E10   -2.666954533196986E-4  -1.847775420174003E-3  
 2.596000000000000E10   -9.851279901340604E-4   4.400069592520595E-4  
 2.598000000000000E10    2.337855403311551E-4   1.065340358763933E-3  
 2.600000000000000E10    1.880515133962035E-3   4.189528990536928E-4  
 2.602000000000000E10    2.322592263226397E-5  -1.274098409339786E-3  
 2.604000000000000E10    1.235739327967167E-4  -1.174787408672273E-3  
 2.606000000000000E10   -1.772921532392502E-4   8.789616549620405E-5  
 2.608000000000000E10   -2.748690021689981E-4  -5.682216142304242E-4  
 2.610000000000000E10    1.656841923249885E-4   1.212798088090494E-4  
 2.612000000000000E10    5.302043864503503E-4   1.994069461943582E-4  
 2.614000000000000E10    1.010464387945831E-3  -8.437599753960967E-4  
 2.616000000000000E10   -8.928117313189432E-5  -1.213459647260606E-3  
 2.618000000000000E10   -1.601769356057048E-3   4.109734800294973E-5  
 2.620000000000000E10   -6.488737999461591E-4   8.546894532628357E-4  
 2.622000000000000E10    8.685383945703507E-4  -1.512713497504592E-4  
 2.624000000000000E10   -1.120473840273917E-3  -1.009074505418539E-3  
 2.626000000000000E10   -5.183409084565938E-4  -4.144202102907002E-4  
 2.628000000000000E10    6.679032958345488E-5   6.317259976640344E-5  
 2.630000000000000E10   -6.862874142825604E-4  -1.199489808641374E-3  
 2.632000000000000E10   -7.839410682208836E-4  -3.600399359129369E-4  
 2.634000000000000E10   -1.036181056406349E-4   1.397476065903902E-3  
 2.636000000000000E10    9.596779709681869E-4   2.820548543240875E-4  
 2.638000000000000E10    6.172144785523415E-4  -2.370388829149306E-4  
 2.640000000000000E10   -1.266697188839316E-3  -3.932021791115403E-4  
 2.642000000000000E10   -1.205778098665178E-3   3.814712690655142E-4  
 2.644000000000000E10    1.292890956392512E-4   4.483039665501565E-4  
 2.646000000000000E10   -1.354203413939104E-4   2.403695398243144E-4  
 2.648000000000000E10    2.398782817181200E-4  -2.553504600655288E-4  
 2.650000000000000E10    7.445946685038507E-4  -6.870676297694445E-4  
 2.652000000000000E10   -9.908038191497326E-4  -1.095787738449872E-3  
 2.654000000000000E10   -1.421946799382567E-3   1.805959909688681E-4  
 2.656000000000000E10    3.713198821060360E-4   1.621434115804732E-3  
 2.658000000000000E10    1.319503877311945E-3  -4.466949394554831E-5  
 2.660000000000000E10    7.231351337395608E-4  -1.590012689121068E-3  
 2.662000000000000E10   -1.097477739676833E-3  -3.948279481846839E-4  
 2.664000000000000E10   -9.335150825791061E-4   8.050287142395973E-4  
 2.666000000000000E10    5.107701872475445E-4   4.525056865531951E-4  
 2.668000000000000E10    3.045879711862654E-4   6.815895321778953E-4  
 2.670000000000000E10   -1.511314039817080E-4  -3.961503389291465E-4  
 2.672000000000000E10    4.974778858013451E-4  -8.634233381599188E-4  
 2.674000000000000E10   -5.262503982521594E-4  -5.207212961977348E-5  
 2.676000000000000E10   -7.736296975053847E-4   2.703350446608965E-6  
 2.678000000000000E10    7.586110732518137E-4   1.007307320833206E-3  
 2.680000000000000E10    4.656441742554307E-4   3.908895596396178E-4  
 2.682000000000000E10    2.277134335599840E-4  -3.361631825100631E-4  
 2.684000000000000E10    3.366222081240267E-4   3.102082991972566E-4  
 2.686000000000000E10    2.326228714082390E-4   6.567359087057412E-4  
 2.688000000000000E10    3.250701120123267E-4   5.153964593773708E-5  
 2.690000000000000E10   -3.329189785290510E-4   1.018868060782552E-3  
 2.692000000000000E10    4.423124119057320E-5   6.832109647803009E-4  
 2.694000000000000E10    1.701027620583773E-3  -3.039788680325728E-5  
 2.696000000000000E10    4.240541311446577E-4  -7.065774989314377E-4  
 2.698000000000000E10   -6.354951183311641E-4  -3.626591933425516E-4  
 2.700000000000000E10    3.817119795712642E-5   9.519268642179668E-4  
 2.702000000000000E10    9.596000891178846E-4   1.147152041085064E-3  
 2.704000000000000E10    1.082434435375035E-3  -3.801948332693428E-5  
 2.706000000000000E10    6.965214852243662E-4  -5.424142000265420E-4  
 2.708000000000000E10   -5.164921749383211E-4  -3.032750391867012E-4  
 2.710000000000000E10   -6.289397133514285E-4  -1.110981465899386E-4  
 2.712000000000000E10   -2.761588257271797E-4   1.327610923908651E-3  
 2.714000000000000E10    1.269922591745853E-3   5.026364233344793E-4  
 2.716000000000000E10    1.565951388329268E-3  -7.273463415913284E-4  
 2.718000000000000E10   -5.391135346144438E-4  -1.009817584417760E-3  
 2.720000000000000E10   -9.176959865726531E-4   1.780731981853023E-4  
 2.722000000000000E10    3.169221163261682E-4   1.010370324365795E-3  
 2.724000000000000E10    6.759927491657436E-4   2.590328222140670E-4  
 2.726000000000000E10    2.209389349445701E-4  -6.800873088650405E-4  
 2.728000000000000E10    4.369758826214820E-4  -6.827179458923638E-4  
 2.730000000000000E10   -3.236691118218005E-4  -3.591411223169416E-4  
 2.732000000000000E10   -4.248452896717936E-4  -6.617931649088860E-4  
 2.734000000000000E10    4.181915428489447E-4   2.928925387095660E-4  
 2.736000000000000E10    5.058461683802307E-4   3.160023188684136E-4  
 2.738000000000000E10    2.088316432491411E-5  -9.377541719004512E-4  
 2.740000000000000E10    3.721842222148553E-5  -7.251068600453436E-4  
 2.742000000000000E10   -6.608916446566582E-4   1.168305025203154E-4  
 2.744000000000000E10   -2.127128573192749E-5  -2.784615790005773E-4  
 2.746000000000000E10   -2.175945846829563E-4  -2.692521666176617E-4  
 2.748000000000000E10   -9.101209579966962E-4  -2.294841833645478E-4  
 2.750000000000000E10    3.657215565908700E-4   5.552239017561078E-4  
 2.752000000000000E10    4.546900163404644E-4  -5.009270971640945E-4  
 2.754000000000000E10   -9.245630935765803E-4  -1.484759850427508E-3  
 2.756000000000000E10   -9.522415930405259E-4   9.364859579363838E-5  
