#  HZ   S   RI   R     50.00 
! Rohde & Schwarz ZVA40 4Ports - Version 3.90 - 1145.1110k42 SN: 100403
! Date: 2023-10-04 11:42:42
! Measurement: S12 
! 
 2.200000000000000E10    1.768258662195876E-4  -4.245390882715583E-4  
 2.202000000000000E10    1.495050382800400E-3  -8.102940046228468E-4  
 2.204000000000000E10   -7.470965501852334E-4  -6.615508464165032E-4  
 2.206000000000000E10   -6.842786388006061E-5   1.605615601874888E-3  
 2.208000000000000E10    2.202332485467196E-3   3.952987317461520E-4  
 2.210000000000000E10   -7.372674735961482E-5  -1.575898029841483E-3  
 2.212000000000000E10   -2.452922984957695E-3  -8.090281044133008E-4  
 2.214000000000000E10   -7.221676642075181E-4   1.625928096473217E-3  
 2.216000000000000E10    2.647149958647788E-4   1.039463677443564E-3  
 2.218000000000000E10    8.484947029501200E-4  -1.557893818244338E-3  
 2.220000000000000E10   -1.420768443495035E-3  -1.184876426123083E-3  
 2.222000000000000E10   -1.791528658941388E-3  -9.878431592369452E-5  
 2.224000000000000E10   -9.502292959950864E-4   6.013492820784450E-4  
 2.226000000000000E10   -3.525183419696987E-4   3.108665114268661E-4  
 2.228000000000000E10   -1.615492656128481E-4   1.061365706846118E-3  
 2.230000000000000E10    6.810394115746021E-4  -1.672220882028341E-3  
 2.232000000000000E10   -4.107474815100431E-4  -1.943987153936178E-4  
 2.234000000000000E10   -2.938891062512994E-3   5.333730950951576E-4  
 2.236000000000000E10   -1.552874309709296E-4   2.458502771332860E-3  
 2.238000000000000E10    1.146260765381157E-3   1.108169788494706E-3  
 2.240000000000000E10    6.191070860950276E-5  -1.428792951628566E-3  
 2.242000000000000E10   -1.710610580630601E-3  -5.226610810495913E-4  
 2.244000000000000E10   -9.027764317579567E-4   1.803938183002174E-3  
 2.246000000000000E10   -6.935961573617533E-5   3.485409833956510E-4  
 2.248000000000000E10    9.099279413931072E-4   1.039987328113057E-4  
 2.250000000000000E10   -6.051038508303464E-4   5.731236888095737E-4  
 2.252000000000000E10    9.249479044228792E-4   1.397438318235800E-4  
 2.254000000000000E10    2.849974844139069E-4   4.199380055069923E-4  
 2.256000000000000E10   -4.660662962123752E-4  -3.271754540037364E-4  
 2.258000000000000E10   -5.868037696927786E-4   1.467266236431897E-3  
 2.260000000000000E10    8.504448342137039E-4   1.191157265566289E-3  
 2.262000000000000E10    7.175297359935939E-4   4.993602124159224E-5  
 2.264000000000000E10   -3.098843735642731E-4  -7.158825173974037E-4  
 2.266000000000000E10    8.685914508532733E-5   1.168174319900572E-3  
 2.268000000000000E10    2.121010911650956E-4  -7.578434888273478E-4  
 2.270000000000000E10    5.250365938991308E-4  -2.531487261876464E-4  
 2.272000000000000E10   -9.901027660816908E-4   7.783559849485755E-4  
 2.274000000000000E10    2.256110310554504E-3   1.233454560860992E-3  
 2.276000000000000E10    1.359008601866663E-3  -2.537777472753078E-4  
 2.278000000000000E10   -3.911862731911242E-4  -2.463020849972963E-3  
 2.280000000000000E10   -1.035985536873341E-3   1.283730962313712E-3  
 2.282000000000000E10   -2.608819049783051E-4   1.387412194162607E-3  
 2.284000000000000E10    1.408311887644231E-3  -3.727524890564382E-4  
 2.286000000000000E10    1.100523979403079E-3  -1.763488864526153E-3  
 2.288000000000000E10   -4.631788469851017E-4   3.746057700482197E-5  
 2.290000000000000E10    1.139035666710697E-4  -1.421737833879888E-3  
 2.292000000000000E10    4.791108949575573E-4   2.859884989447892E-4  
 2.294000000000000E10   -5.784670356661081E-4   8.474705391563475E-4  
 2.296000000000000E10    2.093671122565866E-3   7.234711083583534E-4  
 2.298000000000000E10    1.047721714712679E-3  -1.086034113541246E-3  
 2.300000000000000E10   -9.370553307235241E-4  -1.389681012369692E-3  
 2.302000000000000E10   -1.702164532616735E-3   5.246153887128457E-5  
 2.304000000000000E10    5.776573671028018E-4   9.105616481974721E-4  
 2.306000000000000E10    2.133915259037167E-4  -6.538442685268819E-4  
 2.308000000000000E10    2.750924322754145E-4  -2.353579970076680E-3  
 2.310000000000000E10   -2.260745532112196E-4  -1.053828280419111E-3  
 2.312000000000000E10   -3.719239321071655E-4  -9.240541257895529E-4  
 2.314000000000000E10    3.712846955750138E-4  -2.191829407820478E-4  
 2.316000000000000E10    9.625133543522679E-7   2.613016695249826E-4  
 2.318000000000000E10    7.332897075684741E-5   6.381164421327412E-4  
 2.320000000000000E10    5.652143154293299E-4  -5.050175241194665E-4  
 2.322000000000000E10   -7.185082649812102E-4  -7.721332949586213E-4  
 2.324000000000000E10   -2.539723645895720E-3  -6.501269526779652E-4  
 2.326000000000000E10   -9.728945442475379E-4   1.277497853152454E-3  
 2.328000000000000E10   -1.529434957774356E-4   2.993918024003506E-4  
 2.330000000000000E10    3.316199945402332E-5  -9.857924887910485E-4  
 2.332000000000000E10   -8.108439506031573E-4  -1.279767486266792E-3  
 2.334000000000000E10   -4.145172424614430E-4  -7.608418818563223E-4  
 2.336000000000000E10   -7.496938924305141E-4  -4.400685138534755E-4  
 2.338000000000000E10   -6.602355861105025E-4   5.883931880816817E-4  
 2.340000000000000E10    3.230338625144213E-4   6.859104032628238E-4  
 2.342000000000000E10    1.731039141304791E-3  -3.754913632292301E-4  
 2.344000000000000E10   -8.966948371380568E-4  -2.076663076877594E-4  
 2.346000000000000E10   -2.185007324442267E-3  -7.678436668356881E-5  
 2.348000000000000E10   -5.953116342425346E-4   1.839853124693036E-3  
 2.350000000000000E10    2.969434717670083E-4   5.365666584111750E-4  
 2.352000000000000E10    6.584136281162500E-4  -3.335507644806057E-4  
 2.354000000000000E10   -1.594817440491170E-4  -5.419080480351113E-5  
 2.356000000000000E10   -1.172822958324105E-4  -5.533388048206689E-6  
 2.358000000000000E10   -1.875550224212930E-4  -1.820991165004671E-4  
 2.360000000000000E10   -2.451200562063605E-4   1.072455313988030E-3  
 2.362000000000000E10   -3.557974123395979E-4   1.160767278634012E-3  
 2.364000000000000E10    2.470342209562659E-3  -9.031016816152260E-5  
 2.366000000000000E10    1.531386951683089E-4  -4.685086896643043E-4  
 2.368000000000000E10   -1.024592202156782E-3  -7.354623521678150E-4  
 2.370000000000000E10    6.109013338573277E-4   8.415938937105238E-4  
 2.372000000000000E10   -1.326336350757629E-4   1.962550013558939E-4  
 2.374000000000000E10    1.086981385014951E-3   2.033458586083725E-4  
 2.376000000000000E10    1.324601471424103E-3  -1.374626444885507E-4  
 2.378000000000000E10    1.400143810315058E-4  -9.477246203459799E-4  
 2.380000000000000E10   -3.543391358107328E-4  -7.915745954960585E-4  
 2.382000000000000E10   -7.409273530356586E-4   9.546398068778217E-4  
 2.384000000000000E10   -2.898186503443867E-4   8.904009009711444E-4  
 2.386000000000000E10    1.861628727056086E-3   6.469216896221042E-5  
 2.388000000000000E10    7.297424017451704E-4  -1.264194143004715E-3  
 2.390000000000000E10   -6.578152533620596E-4  -1.753172255121172E-3  
 2.392000000000000E10   -5.687340744771063E-4   4.304818285163492E-4  
 2.394000000000000E10    6.352933123707771E-4   8.551748469471932E-4  
 2.396000000000000E10    1.362990704365075E-3   2.712845162022859E-4  
 2.398000000000000E10    1.202996121719480E-3  -3.127548843622208E-4  
 2.400000000000000E10    1.639271504245699E-4  -5.633019027300179E-4  
 2.402000000000000E10   -1.423892914317548E-3  -6.079078302718699E-4  
 2.404000000000000E10   -9.325204300694168E-4   1.271136221475899E-3  
 2.406000000000000E10    3.633956657722592E-4   1.306363032199442E-3  
 2.408000000000000E10    1.100978115573525E-3  -5.874813650734723E-4  
 2.410000000000000E10    3.091248509008437E-4  -1.154548488557339E-3  
 2.412000000000000E10   -1.242034020833671E-3  -9.826925816014409E-4  
 2.414000000000000E10   -3.316720540169627E-4  -1.666534517426044E-4  
 2.416000000000000E10    5.618633585982025E-4   1.243379432708025E-3  
 2.418000000000000E10    2.532514736230951E-5  -4.553934923023917E-5  
 2.420000000000000E10    1.313352840952575E-3  -6.964736385270953E-4  
 2.422000000000000E10    4.289972275728360E-5  -6.686495908070356E-5  
 2.424000000000000E10   -9.807056048884988E-4  -7.793148397468031E-4  
 2.426000000000000E10    1.253540449397406E-5   5.750028067268431E-4  
 2.428000000000000E10    1.031810388667509E-4   1.264110323973000E-3  
 2.430000000000000E10    8.667858783155680E-4  -6.437893607653678E-4  
 2.432000000000000E10    6.729653105139732E-4  -2.957271353807300E-4  
 2.434000000000000E10   -7.019306067377329E-4  -2.421664103167132E-4  
 2.436000000000000E10    3.995910446974449E-5  -8.024583803489804E-4  
 2.438000000000000E10    2.170884181396104E-5   4.608526360243559E-4  
 2.440000000000000E10   -1.997743383981288E-4   5.763345398008823E-4  
 2.442000000000000E10    1.091930083930492E-3   2.767373225651681E-4  
 2.444000000000000E10    9.849304333329201E-4   5.071904161013663E-5  
 2.446000000000000E10   -4.488133999984711E-4  -7.291956571862102E-4  
 2.448000000000000E10   -9.549989481456578E-4  -4.201986594125629E-4  
 2.450000000000000E10   -8.043337147682905E-4   1.395123545080423E-3  
 2.452000000000000E10    6.229815189726651E-4   1.088508171960712E-3  
 2.454000000000000E10    7.753103272989392E-4  -8.520388655597344E-5  
 2.456000000000000E10   -1.590473111718893E-4  -5.306669627316296E-4  
 2.458000000000000E10   -2.305244997842237E-4  -7.609524764120579E-4  
 2.460000000000000E10   -6.822141585871577E-4   2.096678144880571E-5  
 2.462000000000000E10   -3.986753290519118E-4   1.278670271858573E-3  
 2.464000000000000E10    1.241227495484054E-3   1.089316094294190E-3  
 2.466000000000000E10    1.424894318915904E-3  -2.606036723591387E-4  
 2.468000000000000E10   -2.653668925631791E-4  -1.193575444631279E-3  
 2.470000000000000E10   -7.458002655766904E-4   2.739891060627997E-4  
 2.472000000000000E10   -6.846033502370119E-4   1.655482104979456E-3  
 2.474000000000000E10    8.712838753126562E-4   2.542284200899303E-4  
 2.476000000000000E10    1.367263845168054E-3  -1.997051585931331E-4  
 2.478000000000000E10    3.366903692949563E-4  -1.052023028023541E-3  
 2.480000000000000E10   -4.713156959041953E-4  -1.022599870339036E-3  
 2.482000000000000E10   -2.158790011890233E-4   1.367892109556124E-4  
 2.484000000000000E10   -4.592299228534102E-5   9.014366078190506E-4  
 2.486000000000000E10    8.367431582883000E-4   3.287302970420569E-4  
 2.488000000000000E10    1.575587783008814E-3  -4.996627685613930E-4  
 2.490000000000000E10   -2.703652717173100E-4  -1.139416592195630E-3  
 2.492000000000000E10   -1.153094461187720E-3  -4.637634265236557E-4  
 2.494000000000000E10   -5.087162717245519E-4   8.721092017367482E-4  
 2.496000000000000E10   -4.682923099608161E-5   4.794233245775104E-5  
 2.498000000000000E10    4.977018106728792E-4  -7.110160076990724E-4  
 2.500000000000000E10    4.898151382803917E-4   1.107769458030816E-5  
 2.502000000000000E10   -3.989036486018449E-4  -5.699930479750037E-4  
 2.504000000000000E10   -4.626223817467690E-4  -5.037576192989945E-4  
 2.506000000000000E10   -7.899798220023513E-4   5.564750754274428E-4  
 2.508000000000000E10   -3.367770696058869E-4   5.853785551153123E-4  
 2.510000000000000E10    3.296016657259315E-4   4.850937693845481E-4  
 2.512000000000000E10    2.883208508137614E-4  -7.291544461622834E-4  
 2.514000000000000E10   -9.251229930669069E-4  -1.235219184309244E-3  
 2.516000000000000E10   -1.320783398114145E-3   2.999703865498304E-4  
 2.518000000000000E10   -1.792273396858946E-4   9.810744086280465E-4  
 2.520000000000000E10    6.390153430402279E-4   7.686054595978931E-5  
 2.522000000000000E10    2.621922758407891E-4   2.016254002228379E-4  
 2.524000000000000E10   -5.880958051420748E-4  -5.256447475403547E-4  
 2.526000000000000E10   -4.837162850890309E-4  -5.803436506539583E-4  
 2.528000000000000E10   -1.395299332216382E-3   8.732339483685792E-4  
 2.530000000000000E10    3.116190782748163E-4   6.796222878620029E-4  
 2.532000000000000E10    1.085203024558723E-3   5.982662551105022E-4  
 2.534000000000000E10    1.818861346691847E-4  -6.883846945129335E-4  
 2.536000000000000E10   -3.244238323532045E-4  -8.512490312568843E-4  
 2.538000000000000E10   -5.016698851250112E-4   3.983959031756967E-4  
 2.540000000000000E10   -1.663997536525130E-4   1.008735736832023E-3  
 2.542000000000000E10    9.081425378099084E-4   5.651178071275353E-5  
 2.544000000000000E10    4.691052017733455E-4   3.526775108184665E-4  
 2.546000000000000E10    1.261043598788092E-5  -5.538294208236039E-4  
 2.548000000000000E10    7.133022299967706E-4  -4.543995892163366E-4  
 2.550000000000000E10   -8.379122591577470E-4   4.780396120622754E-4  
 2.552000000000000E10   -5.351468571461737E-4   6.285515264607966E-4  
 2.554000000000000E10    1.426609465852380E-3   5.246691871434450E-4  
 2.556000000000000E10    9.870642097666860E-4  -4.485944518819451E-4  
 2.558000000000000E10   -2.904323337133974E-4  -1.091608428396285E-3  
 2.560000000000000E10   -1.327011559624225E-4  -8.539055124856532E-5  
 2.562000000000000E10   -4.282266891095787E-4   9.893012465909123E-4  
 2.564000000000000E10   -9.794424840947613E-5   8.871473983163014E-5  
 2.566000000000000E10    5.776199395768344E-4  -2.028502349276096E-4  
 2.568000000000000E10    4.305885813664645E-4  -2.028678427450359E-4  
 2.570000000000000E10   -1.707705996523146E-5  -1.043460797518492E-3  
 2.572000000000000E10   -6.896211416460574E-4  -2.248027885798365E-4  
 2.574000000000000E10   -9.952209657058120E-4   1.519854296930134E-3  
 2.576000000000000E10    4.581713001243770E-4   7.795539568178356E-4  
 2.578000000000000E10    1.547560212202370E-3  -5.821687518619001E-4  
 2.580000000000000E10   -9.287882712669671E-4  -9.529482922516763E-4  
 2.582000000000000E10   -9.519678424112499E-4   1.729410905682016E-5  
 2.584000000000000E10   -1.351189803244779E-5   9.649227722547948E-4  
 2.586000000000000E10    4.818161542061716E-4   5.193946417421103E-4  
 2.588000000000000E10    5.956422537565231E-4   3.511106770019978E-4  
 2.590000000000000E10    8.426328422501683E-4   1.167193913715892E-4  
 2.592000000000000E10    2.225801435997710E-4   1.016016030916944E-4  
 2.594000000000000E10   -5.330145941115916E-4   1.589694147696719E-4  
 2.596000000000000E10   -7.141100941225886E-4   9.624056983739138E-4  
 2.598000000000000E10    3.348364843986929E-4   4.057445621583611E-4  
 2.600000000000000E10    1.448116148822010E-3   9.902292367769405E-5  
 2.602000000000000E10   -1.325002813246101E-4  -7.276126998476684E-4  
 2.604000000000000E10   -1.260135904885829E-4  -1.426251837983728E-4  
 2.606000000000000E10    3.244141698814929E-4   9.062419994734228E-4  
 2.608000000000000E10    6.140429177321494E-4   1.507817796664313E-5  
 2.610000000000000E10    2.407141000730917E-4   4.535229527391493E-4  
 2.612000000000000E10    5.362665979191661E-4   1.197532983496785E-3  
 2.614000000000000E10    6.938453880138695E-4  -5.665158387273550E-4  
 2.616000000000000E10    1.816982985474169E-4  -1.063631149008870E-3  
 2.618000000000000E10   -1.112802419811487E-3   2.394433395238593E-4  
 2.620000000000000E10    2.530266647227109E-4   1.098922453820705E-3  
 2.622000000000000E10    1.487422967329621E-3   5.082344287075102E-4  
 2.624000000000000E10    7.490401621907949E-4  -9.261747472919524E-4  
 2.626000000000000E10    1.661678834352642E-4  -4.240054404363036E-4  
 2.628000000000000E10    5.821558806928806E-5   4.351660609245300E-4  
 2.630000000000000E10    9.940785821527243E-5   1.137760991696268E-4  
 2.632000000000000E10   -5.045993475505384E-6   2.428915177006275E-4  
 2.634000000000000E10    1.211073598824441E-3   1.058785011991859E-3  
 2.636000000000000E10    7.671735365875065E-4  -1.010227133519948E-3  
 2.638000000000000E10   -1.775217097019777E-4  -1.662933034822345E-3  
 2.640000000000000E10   -1.294549671001732E-3   1.247095497092232E-4  
 2.642000000000000E10    1.739731960697100E-4   1.226980821229518E-3  
 2.644000000000000E10    1.476062461733818E-3  -6.760438554920256E-5  
 2.646000000000000E10    5.978405824862421E-4  -1.025863341055811E-3  
 2.648000000000000E10   -3.404429880902171E-4  -5.327227991074324E-4  
 2.650000000000000E10   -1.893547159852460E-4  -2.290960837854073E-4  
 2.652000000000000E10   -6.020846776664257E-4  -1.334506087005138E-4  
 2.654000000000000E10   -1.749586808728054E-4  -1.239244556927588E-5  
 2.656000000000000E10    1.607130689080805E-4   5.911061816732399E-5  
 2.658000000000000E10    2.493778010830283E-4  -7.973407045938075E-4  
 2.660000000000000E10    1.078930799849331E-4  -1.175203244201839E-3  
 2.662000000000000E10   -1.536463270895183E-3  -4.231047059874982E-4  
 2.664000000000000E10   -2.825972624123097E-4   4.170042811892927E-4  
 2.666000000000000E10    5.673560081049800E-4   1.259284817933803E-5  
 2.668000000000000E10   -1.194048236357048E-4  -1.500135404057801E-4  
 2.670000000000000E10   -1.489581336500123E-4   2.626229979796335E-5  
 2.672000000000000E10   -9.258020145352930E-5  -9.839758422458544E-5  
 2.674000000000000E10   -1.250409288331866E-3  -4.683194856625050E-5  
 2.676000000000000E10   -1.230333233252168E-3   2.215536369476467E-4  
 2.678000000000000E10    2.610246010590345E-4   1.061541610397399E-3  
 2.680000000000000E10    5.460932152345777E-4  -1.160702522611246E-4  
 2.682000000000000E10    1.857986499089748E-4  -1.477590180002153E-3  
 2.684000000000000E10   -1.214577932842076E-3  -1.165065768873319E-4  
 2.686000000000000E10   -1.262876903638244E-3   8.857227512635291E-4  
 2.688000000000000E10    1.107644711737521E-4   9.496262064203620E-4  
 2.690000000000000E10    6.566593074239790E-4   9.854938834905624E-4  
 2.692000000000000E10    1.812731497921050E-4  -4.328940995037556E-4  
 2.694000000000000E10   -5.236017168499529E-4  -4.097374621778727E-4  
 2.696000000000000E10   -1.140072476118803E-3   6.130803958512843E-4  
 2.698000000000000E10   -7.828301750123501E-4   1.081033027730882E-3  
 2.700000000000000E10    7.496012840420008E-4   1.239369623363018E-3  
 2.702000000000000E10    9.674852481111884E-4   1.138032312155701E-4  
 2.704000000000000E10   -1.606557052582502E-4  -1.072341226972640E-3  
 2.706000000000000E10   -7.434410508722067E-4   6.090999231673777E-4  
 2.708000000000000E10   -2.777535992208868E-4   9.406633325852454E-4  
 2.710000000000000E10    6.340041873045266E-4   5.312668508850038E-4  
 2.712000000000000E10   -8.220173185691237E-5   1.277737086638808E-3  
 2.714000000000000E10   -6.087049041525461E-5   1.000754928099923E-4  
 2.716000000000000E10   -3.138211322948337E-4   3.445469774305821E-4  
 2.718000000000000E10   -5.271807895042002E-4   4.282979643903673E-4  
 2.720000000000000E10   -2.539017586968839E-4   2.728339750319719E-4  
 2.722000000000000E10    1.499795180279762E-4   4.630235489457846E-4  
 2.724000000000000E10    7.946443511173129E-4   3.237176570110023E-4  
 2.726000000000000E10    3.614025481510907E-4  -3.660792717710137E-4  
 2.728000000000000E10    6.022396264597774E-4   4.249244811944664E-4  
 2.730000000000000E10    1.132095712819137E-4  -7.757203093206044E-6  
 2.732000000000000E10    2.360730832151603E-5   1.348218938801438E-4  
 2.734000000000000E10   -9.639219206292182E-5   1.440758467651904E-3  
 2.736000000000000E10    1.457984675653279E-3   5.472291377373040E-4  
 2.738000000000000E10    1.093481783755124E-3  -8.489378378726542E-4  
 2.740000000000000E10   -3.644967218860984E-4  -9.080969612114132E-4  
 2.742000000000000E10   -5.984791787341237E-4   4.512126906774938E-4  
 2.744000000000000E10    5.639154114760459E-4   6.490171072073281E-4  
 2.746000000000000E10    1.653082086704671E-3   4.681538848672062E-4  
 2.748000000000000E10    4.769681254401803E-4  -6.631636060774326E-4  
 2.750000000000000E10    4.919540369883180E-4  -1.030986546538770E-3  
 2.752000000000000E10   -3.967352095060051E-4  -2.018314844463021E-4  
 2.754000000000000E10   -8.740020566619933E-4   1.998211955651641E-4  
 2.756000000000000E10    6.468333886004984E-4   5.005032289773226E-4  
