#  HZ   S   RI   R     50.00 
! Rohde & Schwarz ZVA40 4Ports - Version 3.90 - 1145.1110k42 SN: 100403
! Date: 2023-10-04 11:42:25
! Measurement: S12 
! 
 2.200000000000000E10   -2.065934968413785E-4   2.217485569417477E-3  
 2.202000000000000E10    2.257240703329444E-3   1.138853607699275E-3  
 2.204000000000000E10    1.868682593340054E-4  -3.998186730314046E-4  
 2.206000000000000E10   -9.778678650036454E-4   4.019186308141798E-4  
 2.208000000000000E10   -6.197962793521583E-4   3.524822532199323E-4  
 2.210000000000000E10   -3.748043964151293E-4  -2.626685309223831E-4  
 2.212000000000000E10   -9.205751121044159E-4  -3.670416481327266E-4  
 2.214000000000000E10    1.185753149911761E-3   1.165595254860818E-3  
 2.216000000000000E10    2.149818930774927E-3  -1.593744498677552E-3  
 2.218000000000000E10    5.152452504262328E-4  -2.318019047379494E-3  
 2.220000000000000E10   -1.210801303386688E-3   8.726445375941694E-4  
 2.222000000000000E10    1.884019467979670E-3   1.810621353797615E-3  
 2.224000000000000E10    1.984498463571072E-3  -6.093289121054113E-4  
 2.226000000000000E10   -9.630916174501181E-4  -1.579771400429308E-3  
 2.228000000000000E10   -1.526153180748224E-3   1.794625073671341E-3  
 2.230000000000000E10    5.808501155115664E-4  -6.236509216250852E-5  
 2.232000000000000E10    3.050727900699712E-5  -1.848135609179735E-3  
 2.234000000000000E10   -2.609751885756850E-3  -2.202163916081190E-3  
 2.236000000000000E10   -4.557429347187281E-4   8.750014821998775E-4  
 2.238000000000000E10    1.070925965905190E-3  -5.360408104024828E-4  
 2.240000000000000E10    1.235597883351147E-3  -1.443669316358864E-3  
 2.242000000000000E10   -1.420200685970485E-3  -1.279467483982444E-3  
 2.244000000000000E10   -8.655370766064152E-5   5.375423352234066E-4  
 2.246000000000000E10   -3.133928985334933E-4   3.099420573562384E-4  
 2.248000000000000E10   -7.949787541292608E-4  -2.447879523970187E-4  
 2.250000000000000E10   -1.563095021992922E-3   1.414012396708131E-3  
 2.252000000000000E10    1.279455143958330E-3  -5.477365339174867E-4  
 2.254000000000000E10   -1.443274319171906E-3  -1.747335190884769E-3  
 2.256000000000000E10   -3.419359447434545E-3  -1.655525993555784E-3  
 2.258000000000000E10   -3.440830332692713E-4   2.879009349271655E-3  
 2.260000000000000E10    1.239396049641073E-3   9.612740541342646E-5  
 2.262000000000000E10    7.738105487078428E-4  -2.166633261367679E-3  
 2.264000000000000E10   -1.533173257485032E-3  -8.598816348239780E-4  
 2.266000000000000E10   -1.020392170175910E-3   1.466531888581812E-3  
 2.268000000000000E10   -1.229371846420690E-4   1.368735567666590E-3  
 2.270000000000000E10    4.582145193126053E-4   1.144660753197968E-3  
 2.272000000000000E10   -9.430347126908600E-4   4.850012192036957E-4  
 2.274000000000000E10    2.150344953406602E-4   6.750407192157581E-5  
 2.276000000000000E10   -9.334838250651956E-4   1.187962084259198E-6  
 2.278000000000000E10   -1.807650201953948E-3  -2.470088656991720E-4  
 2.280000000000000E10   -1.932708109961823E-4   1.619467395357788E-3  
 2.282000000000000E10    4.857005551457405E-4   1.371084828861058E-3  
 2.284000000000000E10    9.230309515260160E-4  -1.049922429956496E-3  
 2.286000000000000E10   -3.424506285227835E-4  -2.878885425161570E-4  
 2.288000000000000E10   -8.300328627228737E-4   2.422989811748266E-3  
 2.290000000000000E10    6.773907225579023E-4   8.043762063607574E-4  
 2.292000000000000E10    1.114945989684202E-4   8.029141463339329E-4  
 2.294000000000000E10   -1.505238004028797E-3   6.273787585087121E-4  
 2.296000000000000E10    1.048111240379512E-3   7.849700632505119E-4  
 2.298000000000000E10    2.470512699801475E-4  -6.356143858283758E-4  
 2.300000000000000E10   -6.359774852171540E-4  -6.502477917820215E-4  
 2.302000000000000E10   -7.160444511100650E-4   1.182714011520147E-3  
 2.304000000000000E10    1.984602771699429E-3   1.399468746967614E-3  
 2.306000000000000E10    1.672191079705954E-3  -1.577086513862014E-4  
 2.308000000000000E10    7.620374090038240E-4  -3.311124455649406E-4  
 2.310000000000000E10   -3.638303605839610E-4   1.454498269595206E-3  
 2.312000000000000E10   -4.213926513330080E-5   4.500716167967767E-4  
 2.314000000000000E10    4.315124533604831E-4   7.345642079599202E-4  
 2.316000000000000E10    1.751134404912591E-4   6.073291879147291E-4  
 2.318000000000000E10    1.448509050533176E-3  -2.235726133221760E-4  
 2.320000000000000E10    1.039025839418173E-3  -2.066695364192128E-3  
 2.322000000000000E10   -6.333688506856561E-4  -9.584809304215014E-4  
 2.324000000000000E10   -2.685729996301234E-4   4.130545712541789E-4  
 2.326000000000000E10    2.150154206901789E-3   9.483720059506595E-4  
 2.328000000000000E10    1.594593166373670E-3  -7.909090491011739E-4  
 2.330000000000000E10    6.859101704321802E-4  -9.670486324466765E-4  
 2.332000000000000E10   -7.556260679848492E-4  -4.286382682039402E-5  
 2.334000000000000E10    2.909281101892702E-5  -2.982534933835268E-4  
 2.336000000000000E10    2.097367769238190E-6   2.078602556139231E-4  
 2.338000000000000E10    3.463710891082883E-4   2.099007106153294E-4  
 2.340000000000000E10    4.741027369163930E-4  -5.201578605920076E-4  
 2.342000000000000E10    8.045249269343913E-4  -2.048332942649722E-3  
 2.344000000000000E10   -7.745610782876611E-4  -1.148799201473594E-3  
 2.346000000000000E10   -8.592859376221895E-4  -3.493510012049228E-4  
 2.348000000000000E10    1.230424270033836E-3   1.298912451602519E-3  
 2.350000000000000E10    1.198258949443698E-3  -4.030514683108777E-4  
 2.352000000000000E10    7.651314081158489E-5  -9.834464872255921E-4  
 2.354000000000000E10   -1.050625694915652E-3  -2.455864741932601E-4  
 2.356000000000000E10   -9.276852943003178E-4  -8.269492354884278E-6  
 2.358000000000000E10   -8.778189076110721E-4   1.316497218795121E-4  
 2.360000000000000E10    3.869828651659191E-5   6.071563984733075E-5  
 2.362000000000000E10    4.847914678975940E-4  -6.083906046114862E-4  
 2.364000000000000E10    2.653723349794745E-4  -1.375028048641980E-3  
 2.366000000000000E10   -1.258868491277099E-3  -7.916840841062367E-4  
 2.368000000000000E10   -1.262912293896079E-3   5.711432822863571E-5  
 2.370000000000000E10    5.983492883387953E-5   2.030790550634265E-3  
 2.372000000000000E10    5.503194406628609E-4   3.580955672077835E-4  
 2.374000000000000E10    2.676183648873121E-4  -2.697427698876709E-4  
 2.376000000000000E10   -1.334050088189542E-3  -2.121582074323669E-4  
 2.378000000000000E10   -1.675392384640873E-3   7.085066754370928E-4  
 2.380000000000000E10   -1.018400653265417E-3   8.358124177902937E-4  
 2.382000000000000E10   -5.960205817245878E-5   1.024357625283301E-3  
 2.384000000000000E10    4.280286084394902E-4  -2.574227401055396E-4  
 2.386000000000000E10    3.928432706743479E-4  -5.537161487154663E-4  
 2.388000000000000E10   -1.117393374443054E-3   9.661812509875745E-5  
 2.390000000000000E10   -7.743513560853899E-4   3.376913373358548E-4  
 2.392000000000000E10    2.627515059430152E-4   1.349405618384481E-3  
 2.394000000000000E10    2.177040878450498E-4   1.209500012919307E-3  
 2.396000000000000E10    5.593770765699446E-4  -1.248176558874548E-4  
 2.398000000000000E10   -6.319221574813128E-4  -2.971990033984184E-4  
 2.400000000000000E10   -1.020669238641858E-3   3.475664416328073E-4  
 2.402000000000000E10    4.082626765011810E-5   6.013053352944553E-4  
 2.404000000000000E10    2.515587839297950E-4   3.865117905661464E-4  
 2.406000000000000E10    2.741531934589148E-4   2.000901731662452E-4  
 2.408000000000000E10    6.713633192703128E-4  -4.541718226391822E-4  
 2.410000000000000E10    3.542839549481869E-4  -4.928414127789438E-4  
 2.412000000000000E10   -8.047352312132716E-4   4.480869683902711E-4  
 2.414000000000000E10    7.548771918663988E-6   5.381623050197959E-4  
 2.416000000000000E10    9.662950760684907E-4   1.121810520999134E-3  
 2.418000000000000E10    4.453940491657704E-4  -1.991343742702156E-4  
 2.420000000000000E10    5.378497298806906E-4  -1.140874344855547E-3  
 2.422000000000000E10   -1.199295511469245E-3  -8.464659331366420E-4  
 2.424000000000000E10   -8.251233957707882E-4  -2.974036324303597E-4  
 2.426000000000000E10    3.061913012061268E-4   1.140477485023439E-3  
 2.428000000000000E10    1.049242564477027E-3   1.668092736508697E-4  
 2.430000000000000E10    1.119329594075680E-3  -1.330590457655489E-3  
 2.432000000000000E10    3.348368627484888E-4  -1.326822908595204E-3  
 2.434000000000000E10   -1.123319845646620E-3  -2.939502010121942E-4  
 2.436000000000000E10   -8.448387961834669E-4   1.058433554135263E-3  
 2.438000000000000E10    8.482068078592420E-4   1.586696598678827E-3  
 2.440000000000000E10    8.334626327268779E-4  -7.403061608783901E-4  
 2.442000000000000E10   -1.458574843127281E-4  -1.208853209391236E-3  
 2.444000000000000E10   -1.373686129227281E-3  -6.749263848178089E-4  
 2.446000000000000E10   -1.175133627839387E-3   3.560433106031269E-5  
 2.448000000000000E10    1.359450834570453E-4   7.299273856915534E-4  
 2.450000000000000E10    8.044309797696769E-4   5.049137689638883E-5  
 2.452000000000000E10    4.617193480953574E-4  -8.784417877905071E-4  
 2.454000000000000E10   -5.514145013876259E-4  -6.648490088991821E-4  
 2.456000000000000E10   -7.667665486223996E-4   3.537932061590254E-4  
 2.458000000000000E10   -5.394215113483369E-4   1.250340719707310E-3  
 2.460000000000000E10   -1.472307194489986E-4   1.578077091835439E-3  
 2.462000000000000E10    4.403656930662692E-5   2.727426472119987E-4  
 2.464000000000000E10   -2.241822512587532E-4  -2.723390934988856E-4  
 2.466000000000000E10   -1.220001955516636E-3  -3.194011806044728E-4  
 2.468000000000000E10   -9.593772701919079E-4  -1.258694101125002E-4  
 2.470000000000000E10   -1.716239930829033E-4   2.127302723238245E-4  
 2.472000000000000E10    2.329761191504076E-4   1.282803248614073E-3  
 2.474000000000000E10    1.788329100236297E-3   8.163337952282745E-6  
 2.476000000000000E10    7.603794801980257E-4  -3.252302121836692E-4  
 2.478000000000000E10   -9.405835880897939E-4   3.052939136978239E-4  
 2.480000000000000E10   -3.559217439033091E-4   8.945034933276475E-4  
 2.482000000000000E10   -1.121941022574902E-4   1.167776295915246E-3  
 2.484000000000000E10    3.359441179782152E-4   7.813691045157611E-4  
 2.486000000000000E10    7.252863142639399E-4  -6.370648043230176E-4  
 2.488000000000000E10    3.561542253009975E-4  -9.789821924641728E-4  
 2.490000000000000E10   -6.645508692599833E-4  -5.090427584946156E-4  
 2.492000000000000E10   -2.714599249884486E-4   1.051256986102089E-4  
 2.494000000000000E10    1.025837962515652E-3   9.260722436010838E-4  
 2.496000000000000E10    1.379439490847290E-3   1.622621784918010E-4  
 2.498000000000000E10    7.343909819610417E-4  -1.296786707825959E-3  
 2.500000000000000E10   -6.739281234331429E-4  -3.753350174520165E-4  
 2.502000000000000E10   -1.371548860333860E-3   6.029254291206598E-4  
 2.504000000000000E10    5.676809814758599E-4   8.497749804519117E-4  
 2.506000000000000E10    1.902851945487782E-4  -2.122063015121967E-4  
 2.508000000000000E10    3.618658811319619E-4  -1.090181409381330E-3  
 2.510000000000000E10    5.645762430503964E-4  -1.311579369939864E-3  
 2.512000000000000E10   -5.618270952254534E-4  -1.201387378387153E-3  
 2.514000000000000E10   -4.198774695396423E-4   2.286315284436569E-4  
 2.516000000000000E10    8.975384989753366E-4   1.160664483904839E-3  
 2.518000000000000E10    1.049737795256078E-3  -1.108385476982221E-4  
 2.520000000000000E10   -3.306305734440684E-5  -8.896421059034765E-4  
 2.522000000000000E10   -3.921345050912350E-4  -6.882101297378540E-4  
 2.524000000000000E10   -1.183275948278606E-3   1.284750178456307E-4  
 2.526000000000000E10   -2.351419680053368E-4   4.064072272740305E-4  
 2.528000000000000E10    8.984126907307655E-5   4.170148458797485E-4  
 2.530000000000000E10    2.841662535502110E-5  -7.326339255087078E-4  
 2.532000000000000E10    3.642258525360376E-4  -5.769031704403460E-4  
 2.534000000000000E10   -2.362178202020004E-4  -1.104673836380243E-3  
 2.536000000000000E10   -7.619871757924557E-4  -7.945676043163985E-5  
 2.538000000000000E10    1.629009348107502E-4   8.334338781423867E-4  
 2.540000000000000E10    7.548549911007285E-4   1.746346970321611E-4  
 2.542000000000000E10    4.351579409558326E-4  -7.698370027355850E-4  
 2.544000000000000E10   -2.512194332666695E-4   1.021755306283012E-4  
 2.546000000000000E10   -5.903007113374770E-4   5.333151057129726E-5  
 2.548000000000000E10   -5.965752643533051E-4   7.188287563621998E-4  
 2.550000000000000E10   -4.629410977941006E-4   1.410522614605725E-3  
 2.552000000000000E10    1.654272346058860E-4   2.800617658067495E-4  
 2.554000000000000E10    4.235235974192619E-4  -1.178835169412196E-3  
 2.556000000000000E10   -1.210846472531557E-3  -9.213864686898887E-4  
 2.558000000000000E10   -1.414037658832967E-3  -2.175072586396709E-4  
 2.560000000000000E10    4.078104393556714E-4   8.967749308794737E-4  
 2.562000000000000E10    1.244261045940220E-3   5.312209395924583E-5  
 2.564000000000000E10    1.065686461515725E-3  -9.015518007799983E-4  
 2.566000000000000E10   -1.117829451686703E-4  -4.312145174480975E-4  
 2.568000000000000E10   -7.628820021636784E-4   8.048671297729015E-4  
 2.570000000000000E10   -3.241608210373670E-4   7.542755338363349E-4  
 2.572000000000000E10   -1.559118245495483E-4   5.913527566008270E-4  
 2.574000000000000E10    1.211354319821112E-4   3.399393463041633E-4  
 2.576000000000000E10    1.311708183493465E-4  -7.083395612426102E-4  
 2.578000000000000E10   -6.065645138733089E-4  -9.513266850262880E-4  
 2.580000000000000E10   -9.986927034333348E-4   1.698813684924971E-5  
 2.582000000000000E10    3.337792004458606E-4   6.919397856108844E-4  
 2.584000000000000E10    4.524614196270704E-4  -1.030488328979118E-5  
 2.586000000000000E10    2.037427184404805E-4  -3.281436802353710E-4  
 2.588000000000000E10   -5.982354050502181E-4   3.040262963622809E-4  
 2.590000000000000E10   -8.831369341351092E-4   1.418239571648883E-5  
 2.592000000000000E10   -7.507205591537058E-4  -3.769483009818941E-4  
 2.594000000000000E10   -8.144408930093050E-4   2.740119525697082E-4  
 2.596000000000000E10   -3.688421857077628E-4   6.727093132212758E-4  
 2.598000000000000E10    9.667709819041193E-4  -5.534104420803487E-4  
 2.600000000000000E10    5.459566018544138E-4  -1.253290334716439E-3  
 2.602000000000000E10   -8.192236418835819E-4  -4.458896000869572E-5  
 2.604000000000000E10   -3.436715633142740E-4   1.260662800632417E-3  
 2.606000000000000E10    3.571598208509386E-4   9.758372907526791E-4  
 2.608000000000000E10    2.271179255330935E-4   7.109065190888941E-4  
 2.610000000000000E10    1.823503844207153E-4  -2.340413047932088E-4  
 2.612000000000000E10   -8.245427161455154E-4  -2.126859035342932E-4  
 2.614000000000000E10   -1.625952660106123E-3  -4.705368191935122E-4  
 2.616000000000000E10   -1.500279468018562E-4   7.653657812625170E-4  
 2.618000000000000E10    3.090879472438246E-4   3.747812879737467E-4  
 2.620000000000000E10    9.886377956718206E-4  -3.510547976475209E-4  
 2.622000000000000E10    3.428270283620805E-4  -8.047635783441365E-4  
 2.624000000000000E10   -9.078511502593756E-4  -1.637507666600868E-4  
 2.626000000000000E10   -8.637564023956657E-4   1.280468888580799E-3  
 2.628000000000000E10    8.298237808048725E-4   7.848168606869876E-4  
 2.630000000000000E10    4.036380269099027E-4  -1.050388382282108E-4  
 2.632000000000000E10   -2.405842387815937E-4  -7.189366733655334E-4  
 2.634000000000000E10   -4.934936077916063E-5   1.319858129136264E-4  
 2.636000000000000E10   -5.140803987160325E-4  -7.070854189805687E-4  
 2.638000000000000E10   -1.784571577445604E-5   4.153083718847483E-4  
 2.640000000000000E10   -2.332754229428247E-4   5.612430977635086E-4  
 2.642000000000000E10    1.208235276862979E-3  -6.911484524607658E-5  
 2.644000000000000E10    5.338464980013669E-4  -2.019876701524481E-4  
 2.646000000000000E10    2.173024695366621E-4  -7.412526756525040E-4  
 2.648000000000000E10   -4.211167688481510E-4   3.372268693055958E-4  
 2.650000000000000E10    3.560549230314791E-4   8.912355988286436E-4  
 2.652000000000000E10    1.065702759660780E-3   6.246191333048046E-4  
 2.654000000000000E10    8.439132361672819E-4  -3.286450810264796E-4  
 2.656000000000000E10    2.156714035663754E-4  -1.280532014789060E-4  
 2.658000000000000E10   -5.708958487957716E-4  -4.280712455511093E-4  
 2.660000000000000E10   -2.793472667690367E-4   3.113017010036856E-4  
 2.662000000000000E10   -2.230653262813576E-5   1.008131424896419E-3  
 2.664000000000000E10    1.233565271832049E-3  -2.299155894434080E-4  
 2.666000000000000E10    9.295786148868501E-4  -1.243529957719147E-3  
 2.668000000000000E10   -5.406810669228435E-4  -1.091152429580689E-3  
 2.670000000000000E10   -4.491046129260212E-4  -9.736502397572622E-5  
 2.672000000000000E10    2.584236499387771E-4   6.358919199556112E-4  
 2.674000000000000E10    5.879544769413769E-4   5.487753660418093E-4  
 2.676000000000000E10    6.929833325557411E-4  -8.026438881643117E-4  
 2.678000000000000E10    4.651522613130510E-5  -6.952969124540687E-4  
 2.680000000000000E10   -1.024464843794704E-3  -3.844806342385709E-4  
 2.682000000000000E10   -5.483227432705462E-4  -5.766871036030352E-4  
 2.684000000000000E10    3.028064384125173E-5  -4.415931925905170E-6  
 2.686000000000000E10    1.998309307964519E-4  -3.952594415750355E-4  
 2.688000000000000E10    6.227783742360771E-4  -1.231598784215748E-3  
 2.690000000000000E10   -3.626485995482653E-4  -8.364742971025407E-4  
 2.692000000000000E10   -7.670252234674990E-4  -3.034327528439462E-4  
 2.694000000000000E10   -4.435609444044530E-4   3.327390295453370E-4  
 2.696000000000000E10   -1.948306307895109E-4  -2.136832627002150E-4  
 2.698000000000000E10    1.363166211376665E-5  -1.052702864399180E-4  
 2.700000000000000E10    1.527271379018202E-4  -9.455328690819442E-4  
 2.702000000000000E10   -4.509914724621922E-4  -5.818287027068436E-4  
 2.704000000000000E10   -1.096449210308492E-3  -3.966509830206633E-4  
 2.706000000000000E10   -1.747895003063604E-4   7.415962754748762E-4  
 2.708000000000000E10   -3.228902351111174E-4   4.418306052684784E-4  
 2.710000000000000E10    3.420423017814755E-4  -8.149454952217639E-4  
 2.712000000000000E10   -5.043164710514247E-4  -1.379742207063828E-5  
 2.714000000000000E10   -1.129624317400158E-3  -8.133257506415248E-4  
 2.716000000000000E10   -8.277500746771693E-4   3.558768366929144E-4  
 2.718000000000000E10   -7.000818150117993E-4   4.307208873797208E-4  
 2.720000000000000E10    1.104711671359837E-3   3.540493198670447E-4  
 2.722000000000000E10    5.199151346459985E-4  -8.946416783146560E-4  
 2.724000000000000E10   -6.493587861768901E-4  -6.501782918348908E-4  
 2.726000000000000E10   -1.498929923400283E-3   2.591615775600076E-4  
 2.728000000000000E10    1.070041107595898E-4   1.285365782678127E-3  
 2.730000000000000E10    2.991835390275810E-5   5.891248001717031E-4  
 2.732000000000000E10    3.820401616394520E-4  -6.748308660462499E-4  
 2.734000000000000E10   -1.195948862005025E-4  -3.783796564675868E-4  
 2.736000000000000E10   -1.077597495168448E-3  -4.721339500974864E-4  
 2.738000000000000E10   -6.806155433878303E-4   4.676790849771351E-4  
 2.740000000000000E10    5.001402314519510E-5   9.335486683994532E-4  
 2.742000000000000E10    7.931730942800641E-4   9.065123740583658E-4  
 2.744000000000000E10    9.932787361321971E-5  -2.120131975971162E-4  
 2.746000000000000E10   -6.909070652909577E-4   7.084203843987780E-6  
 2.748000000000000E10   -1.655066967941821E-3   1.129191601648927E-3  
 2.750000000000000E10   -1.247944164788351E-4   9.904733160510659E-4  
 2.752000000000000E10    6.711965543217957E-4   3.454343241173774E-4  
 2.754000000000000E10   -3.023937460966408E-4  -7.563558756373823E-4  
 2.756000000000000E10   -7.578035729238764E-5   4.724258033093065E-4  
