#  HZ   S   RI   R     50.00 
! Rohde & Schwarz ZVA40 4Ports - Version 3.90 - 1145.1110k42 SN: 100403
! Date: 2023-10-04 11:40:04
! Measurement: S12 
! 
 2.200000000000000E10   -3.676404012367129E-4   6.092506810091436E-4  
 2.202000000000000E10    9.517961880192161E-4  -8.482220582664013E-4  
 2.204000000000000E10   -2.404189901426435E-3  -2.004263922572136E-3  
 2.206000000000000E10   -6.095464923419058E-4   1.343489158898592E-3  
 2.208000000000000E10    2.154191024601460E-3  -2.264296381326858E-5  
 2.210000000000000E10    1.112437341362238E-3  -2.293516648933291E-3  
 2.212000000000000E10   -2.113277325406671E-3   8.801226795185357E-5  
 2.214000000000000E10    9.091682732105255E-4   3.542002290487289E-3  
 2.216000000000000E10    2.448081271722913E-3   1.134048332460225E-3  
 2.218000000000000E10    9.426577016711235E-4  -1.967355376109481E-3  
 2.220000000000000E10   -2.887290669605136E-3   1.050238643074408E-4  
 2.222000000000000E10   -9.600247722119093E-4   1.623575808480382E-3  
 2.224000000000000E10    1.330270082689822E-3   4.282637382857502E-4  
 2.226000000000000E10    7.771992241032422E-4  -1.716058119200170E-3  
 2.228000000000000E10   -2.762649965006858E-4  -4.807146033272147E-4  
 2.230000000000000E10    1.211849972605705E-3  -1.089773490093648E-3  
 2.232000000000000E10    1.431911252439022E-3  -4.531650338321924E-4  
 2.234000000000000E10   -1.324155484326184E-3   6.023973110131919E-4  
 2.236000000000000E10    1.506330678239465E-3   2.468023914843798E-3  
 2.238000000000000E10    2.272770041599870E-3  -3.331236075609922E-5  
 2.240000000000000E10   -1.190262337331660E-4  -2.937148557975888E-3  
 2.242000000000000E10   -3.503930987790227E-3   1.130143209593371E-4  
 2.244000000000000E10    4.765179255628027E-5   1.767682260833681E-3  
 2.246000000000000E10    2.146628918126226E-3  -9.148964891210198E-4  
 2.248000000000000E10    5.852635949850082E-4  -2.810143399983645E-3  
 2.250000000000000E10   -1.329555874690414E-3  -5.432529724203050E-4  
 2.252000000000000E10    1.089486409910023E-3   9.646525722928345E-5  
 2.254000000000000E10    1.169267692603171E-3  -4.424875660333782E-4  
 2.256000000000000E10   -5.355406901799142E-4  -8.666828507557511E-4  
 2.258000000000000E10    4.854699000134133E-5   1.421035616658628E-3  
 2.260000000000000E10    1.123956171795726E-3   1.107366642827401E-5  
 2.262000000000000E10   -3.583866346161813E-4  -1.508706947788596E-3  
 2.264000000000000E10   -1.834341674111784E-3  -7.502696826122701E-4  
 2.266000000000000E10   -7.723226008238271E-5   8.231132524088025E-4  
 2.268000000000000E10    8.406240376643837E-4  -1.143036060966551E-3  
 2.270000000000000E10   -1.929958380060270E-4  -1.383963506668806E-3  
 2.272000000000000E10   -1.044354401528835E-3   2.030677569564432E-4  
 2.274000000000000E10    2.038068370893598E-3   7.376083522103727E-4  
 2.276000000000000E10    2.729024563450366E-4  -1.646595657803118E-3  
 2.278000000000000E10   -1.174630713649094E-3  -1.343449577689171E-3  
 2.280000000000000E10   -5.262310151010752E-4   2.133220434188843E-3  
 2.282000000000000E10    6.156887975521386E-4   1.413236954249442E-3  
 2.284000000000000E10    1.030150451697409E-3  -1.504917861893773E-3  
 2.286000000000000E10   -1.669676741585136E-3  -1.599188195541501E-3  
 2.288000000000000E10   -1.898553338833153E-3   6.566442898474634E-4  
 2.290000000000000E10   -3.156145976390690E-5  -1.418343745172024E-4  
 2.292000000000000E10    4.353814874775708E-4  -5.071763880550861E-4  
 2.294000000000000E10   -9.262731764465570E-4  -6.186828250065446E-4  
 2.296000000000000E10    8.086087182164192E-4  -6.616439786739647E-4  
 2.298000000000000E10   -6.197778857313097E-4  -7.177070365287364E-4  
 2.300000000000000E10   -2.141280332580209E-3  -1.996497157961130E-4  
 2.302000000000000E10   -1.003399607725442E-3   1.857529859989882E-3  
 2.304000000000000E10    1.691313693299890E-3   9.578634635545313E-4  
 2.306000000000000E10   -5.163627211004496E-4  -1.923970063216984E-3  
 2.308000000000000E10   -1.565356156788766E-3  -1.193352742120624E-3  
 2.310000000000000E10   -1.639727852307260E-3   1.683955546468496E-3  
 2.312000000000000E10    3.110292018391192E-4   5.904627032577992E-4  
 2.314000000000000E10    3.818679833784699E-4   3.916343266610056E-4  
 2.316000000000000E10   -3.198774065822363E-4  -3.059119335375726E-4  
 2.318000000000000E10    1.719459396554157E-5  -1.920390350278467E-4  
 2.320000000000000E10   -1.148266746895388E-4  -4.715062677860260E-4  
 2.322000000000000E10   -9.895849507302046E-4   9.253854514099658E-4  
 2.324000000000000E10   -7.909611449576914E-4   1.191947492770851E-3  
 2.326000000000000E10    1.708799507468939E-3   1.243876526132226E-3  
 2.328000000000000E10    4.161297401878983E-4  -3.579433541744947E-4  
 2.330000000000000E10   -2.642690378706902E-4  -9.954371489584446E-4  
 2.332000000000000E10   -1.077183755114675E-3   1.320450683124363E-3  
 2.334000000000000E10    4.950023721903563E-4   1.052820007316768E-3  
 2.336000000000000E10    8.795479661785066E-4   5.289127002470195E-4  
 2.338000000000000E10    7.206444861367345E-4   3.781192644964904E-4  
 2.340000000000000E10    1.087181968614459E-3   4.094278265256435E-4  
 2.342000000000000E10    5.053664790466428E-4  -1.171584153780714E-4  
 2.344000000000000E10   -3.906304482370615E-4   9.363424615003169E-4  
 2.346000000000000E10   -9.461232548346743E-5   1.318884547799826E-3  
 2.348000000000000E10    1.634541782550514E-3   1.209064270369709E-3  
 2.350000000000000E10    9.206065442413092E-4  -2.931382623501122E-4  
 2.352000000000000E10    2.547089243307710E-4  -1.286402461118996E-3  
 2.354000000000000E10   -7.701523136347532E-4  -5.174536272534169E-5  
 2.356000000000000E10    3.886946433340199E-5   4.493088054005057E-4  
 2.358000000000000E10    1.464227447286248E-3   2.303726214449853E-4  
 2.360000000000000E10    9.467191994190216E-4  -4.861816123593599E-4  
 2.362000000000000E10    6.897175917401910E-4  -1.281961333006620E-3  
 2.364000000000000E10    7.260938873514533E-4  -7.167494040913880E-4  
 2.366000000000000E10   -8.585066534578800E-4  -3.661380324047059E-4  
 2.368000000000000E10    7.000985351623967E-5   1.250301866093651E-4  
 2.370000000000000E10    8.775349124334753E-4   7.965462282299995E-4  
 2.372000000000000E10    5.653143743984401E-4  -1.014535897411406E-3  
 2.374000000000000E10    7.979266956681386E-5  -1.447071204893291E-3  
 2.376000000000000E10   -8.421488455496728E-4  -5.446563591249287E-4  
 2.378000000000000E10   -8.727205567993224E-4  -5.554649978876114E-4  
 2.380000000000000E10    3.117473679594696E-4   1.107797579606995E-4  
 2.382000000000000E10    5.880654207430780E-4  -2.584562389529310E-5  
 2.384000000000000E10    1.962408277904615E-4  -1.459895516745746E-3  
 2.386000000000000E10   -6.131745758466423E-4  -1.287089777179062E-3  
 2.388000000000000E10   -1.126823946833611E-3   1.132756588049233E-4  
 2.390000000000000E10   -9.768310701474547E-4   8.074227662291378E-5  
 2.392000000000000E10    1.495373580837622E-4   4.018852487206459E-4  
 2.394000000000000E10    4.954291507601738E-4  -6.455342372646555E-5  
 2.396000000000000E10   -1.007958489935845E-4  -1.665577758103609E-3  
 2.398000000000000E10   -1.529080211184919E-3  -2.888069720938802E-4  
 2.400000000000000E10   -1.400143373757601E-3   7.656827219761908E-4  
 2.402000000000000E10    2.249698300147429E-4   7.566724671050906E-4  
 2.404000000000000E10    7.291564834304154E-4   3.164158551953733E-4  
 2.406000000000000E10   -3.542900667525828E-4  -9.443056769669056E-4  
 2.408000000000000E10   -1.005438040010631E-3  -1.275097718462348E-3  
 2.410000000000000E10   -9.281760430894792E-4   4.930234863422811E-4  
 2.412000000000000E10   -5.074694054201245E-4   6.862971349619329E-4  
 2.414000000000000E10    1.045063720084727E-3   4.044251982122660E-4  
 2.416000000000000E10    9.104883065447211E-4   3.109501849394292E-4  
 2.418000000000000E10    6.132237613201141E-4  -1.239476492628455E-3  
 2.420000000000000E10    6.082615527702728E-6  -2.435513015370816E-4  
 2.422000000000000E10   -1.012956025078893E-3   1.403233269229531E-3  
 2.424000000000000E10    2.223027258878574E-4   1.613940345123410E-3  
 2.426000000000000E10    7.318434654735029E-4   1.165461217169650E-4  
 2.428000000000000E10    1.970959710888565E-4  -5.515216034837067E-4  
 2.430000000000000E10   -5.174942780286074E-4  -6.584704387933016E-4  
 2.432000000000000E10   -4.013471188955009E-4   7.933138113003224E-5  
 2.434000000000000E10   -2.253065176773816E-4   7.053168956190348E-4  
 2.436000000000000E10    7.173108169808984E-4   9.626935934647918E-5  
 2.438000000000000E10    1.211914466693997E-3   4.444714577402920E-4  
 2.440000000000000E10    9.141829650616273E-5  -7.384424097836018E-4  
 2.442000000000000E10   -3.203771775588393E-4  -7.961352821439505E-4  
 2.444000000000000E10   -6.792558124288917E-4   4.096250340808183E-4  
 2.446000000000000E10   -9.204657544614747E-5   5.154697573743761E-4  
 2.448000000000000E10    9.276787168346345E-4  -1.330613158643246E-4  
 2.450000000000000E10    9.148218086920679E-4  -4.229391342960298E-4  
 2.452000000000000E10    6.251716695260257E-5  -9.621658246032894E-4  
 2.454000000000000E10   -4.308260104153305E-4  -4.959992947988212E-4  
 2.456000000000000E10   -5.736065213568509E-4  -1.640533300815150E-4  
 2.458000000000000E10   -2.905959263443947E-4   9.161248453892767E-4  
 2.460000000000000E10    1.085204887203872E-3   7.402951450785622E-5  
 2.462000000000000E10    4.318604769650847E-4  -1.435321057215333E-3  
 2.464000000000000E10   -7.128599681891501E-4  -1.406664261594415E-3  
 2.466000000000000E10   -9.572669514454901E-4  -5.120128043927252E-4  
 2.468000000000000E10   -6.302314577624202E-4   6.395487580448389E-4  
 2.470000000000000E10    9.220737847499549E-4   7.565018604509533E-4  
 2.472000000000000E10    6.388654583133757E-4  -4.634383658412844E-4  
 2.474000000000000E10   -1.903308730106801E-4  -1.157933962531388E-3  
 2.476000000000000E10   -1.097544212825596E-3   2.892944903578609E-4  
 2.478000000000000E10   -1.534140668809414E-3   4.666046588681638E-4  
 2.480000000000000E10   -2.684057981241494E-4   1.032176194712520E-3  
 2.482000000000000E10    5.429626326076686E-4   3.114425053354353E-4  
 2.484000000000000E10    2.721574564930052E-4  -1.187067828141153E-3  
 2.486000000000000E10   -4.601469263434410E-4  -9.202761575579643E-4  
 2.488000000000000E10   -2.303591318195686E-4   9.490057127550244E-4  
 2.490000000000000E10   -1.347018114756793E-4   1.375675085000694E-3  
 2.492000000000000E10    6.783865974284709E-4   4.534348845481873E-4  
 2.494000000000000E10    5.536845419555903E-4   5.448025185614824E-4  
 2.496000000000000E10   -5.614219699054956E-4  -4.790139792021364E-4  
 2.498000000000000E10   -9.007780463434756E-4  -4.305868351366371E-4  
 2.500000000000000E10   -5.562276346608996E-4   6.333789206109941E-4  
 2.502000000000000E10   -1.438558683730662E-4   6.349637988023460E-4  
 2.504000000000000E10    9.195388993248344E-4  -1.921383955050260E-4  
 2.506000000000000E10    1.039213850162923E-3   1.664683441049419E-5  
 2.508000000000000E10    2.297784812981263E-4  -2.886150614358485E-4  
 2.510000000000000E10    3.787597961490974E-5   2.727476239670068E-4  
 2.512000000000000E10   -2.549189375713468E-4   1.209702459163964E-3  
 2.514000000000000E10    6.648152066190960E-6   6.972263217903674E-4  
 2.516000000000000E10    6.152646383270621E-4   3.032375825569034E-4  
 2.518000000000000E10    5.438788211904466E-4  -7.713861996307969E-4  
 2.520000000000000E10    3.339998329465743E-6  -1.459022751078010E-3  
 2.522000000000000E10   -6.898089195601642E-4  -2.383989485679194E-4  
 2.524000000000000E10    8.347174734808505E-4   7.335460977628827E-4  
 2.526000000000000E10    1.931040198542178E-3   4.754817637149245E-4  
 2.528000000000000E10    1.237787771970034E-3  -3.702447429532185E-5  
 2.530000000000000E10    5.066866287961602E-4  -1.583238336024806E-4  
 2.532000000000000E10   -4.799685266334564E-4   3.550503461156040E-4  
 2.534000000000000E10   -9.163591312244535E-4   6.304376875050366E-4  
 2.536000000000000E10   -1.359169691568241E-4   1.195750781334937E-3  
 2.538000000000000E10    8.261236944235861E-4   2.704076759982854E-4  
 2.540000000000000E10    7.289400673471391E-4  -1.337637775577605E-3  
 2.542000000000000E10   -1.488466223236173E-4  -1.069180434569717E-3  
 2.544000000000000E10   -7.118400535546243E-4   4.192346823401749E-4  
 2.546000000000000E10    6.067945505492389E-4   5.684080533683300E-4  
 2.548000000000000E10    1.238348428159952E-3   7.574433693662286E-4  
 2.550000000000000E10    4.095857148058713E-4  -7.064098026603460E-4  
 2.552000000000000E10   -5.117651380714960E-5  -2.885478315874934E-4  
 2.554000000000000E10   -3.310837200842798E-4   1.203604479087517E-4  
 2.556000000000000E10   -6.048454670235515E-4  -3.100504982285202E-4  
 2.558000000000000E10   -3.744858840946108E-4   2.662370097823441E-4  
 2.560000000000000E10    1.241776393726468E-3   5.947583122178912E-4  
 2.562000000000000E10    5.382769159041345E-4  -1.016065478324890E-3  
 2.564000000000000E10   -7.851364207454026E-4  -1.064983080141246E-3  
 2.566000000000000E10   -6.699383375234902E-4   4.329742514528334E-4  
 2.568000000000000E10   -1.556266215629876E-5   2.791855949908495E-4  
 2.570000000000000E10   -2.137326737283729E-5  -5.099436966702342E-4  
 2.572000000000000E10    3.239558427594602E-4  -6.328195468086051E-6  
 2.574000000000000E10    4.864915972575545E-4  -6.160355405882001E-4  
 2.576000000000000E10    4.107349086552858E-4  -9.731272002682090E-4  
 2.578000000000000E10   -8.806005935184658E-4  -8.905963477445766E-5  
 2.580000000000000E10   -3.651113947853446E-4   3.396084066480398E-4  
 2.582000000000000E10    8.898692904040217E-4   9.324118727818131E-4  
 2.584000000000000E10    9.607168030925095E-4  -5.667269579134882E-4  
 2.586000000000000E10   -4.981360980309546E-4  -1.249225111678243E-3  
 2.588000000000000E10   -1.369608216919005E-3  -1.134036283474416E-4  
 2.590000000000000E10    3.173235381837003E-5   5.554371164180338E-4  
 2.592000000000000E10    6.577131571248174E-4  -2.714160946197808E-4  
 2.594000000000000E10    4.621501138899475E-4  -6.348892347887158E-4  
 2.596000000000000E10    5.688643432222307E-4  -4.013262223452330E-4  
 2.598000000000000E10    5.125046591274440E-4  -7.195752696134150E-4  
 2.600000000000000E10   -1.077728229574859E-3   3.356992674525827E-4  
 2.602000000000000E10   -7.403674535453320E-4   1.487468951381743E-3  
 2.604000000000000E10    6.578259053640068E-4   6.531443214043975E-4  
 2.606000000000000E10    5.277345771901310E-4  -7.565913256257772E-4  
 2.608000000000000E10   -6.919755833223462E-4  -8.576485561206937E-4  
 2.610000000000000E10   -1.002017874270678E-3  -2.969747874885798E-4  
 2.612000000000000E10    4.310831354814582E-5   7.877942989580333E-4  
 2.614000000000000E10    8.018304943107069E-4   1.545940758660436E-4  
 2.616000000000000E10    1.036794506944716E-3   4.241425485815853E-4  
 2.618000000000000E10    2.359486679779366E-4   7.642250275239348E-4  
 2.620000000000000E10    3.213572490494698E-4  -1.447267277399078E-4  
 2.622000000000000E10   -8.419826044701040E-4  -3.802847277256660E-5  
 2.624000000000000E10   -1.109266537241638E-3   8.691853145137429E-4  
 2.626000000000000E10    2.907771850004792E-4   6.946175708435476E-4  
 2.628000000000000E10    3.983662754762918E-4  -8.776041213423014E-4  
 2.630000000000000E10    1.845425285864621E-4  -1.178329926915467E-3  
 2.632000000000000E10   -3.933625994250178E-4  -7.371644605882466E-4  
 2.634000000000000E10    1.066982949851081E-4  -2.279049112985376E-5  
 2.636000000000000E10    3.619653289206326E-4   4.793787666130811E-4  
 2.638000000000000E10    8.015059283934534E-4   9.003711747936904E-4  
 2.640000000000000E10    5.270879482850432E-4   3.758808015845716E-4  
 2.642000000000000E10   -1.081606023944914E-4  -3.755921206902713E-4  
 2.644000000000000E10   -1.310950145125389E-3  -9.731505269883201E-5  
 2.646000000000000E10   -1.130191376432777E-3   1.086506876163185E-3  
 2.648000000000000E10   -1.425319787813351E-4   9.458658169023693E-4  
 2.650000000000000E10    3.077476285398006E-4  -1.967604184756056E-4  
 2.652000000000000E10   -2.680570469237864E-4  -8.043212583288550E-4  
 2.654000000000000E10   -4.258875269442797E-4  -2.985414175782353E-4  
 2.656000000000000E10   -6.428186316043139E-4   4.716290568467230E-4  
 2.658000000000000E10   -2.930960617959499E-4   7.589520537294447E-4  
 2.660000000000000E10    5.873593618161976E-4   8.959022816270590E-4  
 2.662000000000000E10    8.033248595893383E-4   3.698788059409708E-4  
 2.664000000000000E10   -6.926192145328969E-5  -1.919913484016433E-4  
 2.666000000000000E10   -3.422351728659123E-4   2.506992605049163E-4  
 2.668000000000000E10   -6.107497611083090E-4   1.170307863503695E-3  
 2.670000000000000E10   -5.566321124206297E-5   5.544475861825049E-4  
 2.672000000000000E10    8.180054137483239E-4   4.718517884612083E-4  
 2.674000000000000E10   -8.718131721252576E-5  -7.248138426803052E-4  
 2.676000000000000E10    1.455314632039517E-4  -6.172683788463473E-4  
 2.678000000000000E10    2.789213567666593E-6   1.858095201896504E-4  
 2.680000000000000E10   -9.448514902032912E-5   4.316166450735182E-4  
 2.682000000000000E10    5.098212859593332E-4   9.271851740777493E-4  
 2.684000000000000E10    1.317036687396467E-3   3.558961616363376E-4  
 2.686000000000000E10    4.559030057862401E-4  -7.383916527032852E-4  
 2.688000000000000E10   -5.784977111034095E-4   3.540446778060868E-5  
 2.690000000000000E10   -9.773444617167115E-4   7.938191411085427E-4  
 2.692000000000000E10    2.796885091811419E-4  -3.256117051932961E-4  
 2.694000000000000E10    9.196907049044967E-4   4.325530026108027E-4  
 2.696000000000000E10    8.164618047885597E-4  -8.816928020678461E-4  
 2.698000000000000E10    5.494783399626613E-4  -1.027959282509983E-3  
 2.700000000000000E10   -7.434059516526759E-4  -4.113950708415359E-4  
 2.702000000000000E10   -1.843630016082898E-4   1.156157697550952E-3  
 2.704000000000000E10    6.489728111773729E-4   9.728368022479117E-4  
 2.706000000000000E10    1.176150515675545E-3  -1.311684609390795E-4  
 2.708000000000000E10   -1.952639140654355E-4  -9.756461367942393E-4  
 2.710000000000000E10   -9.231999865733087E-4  -7.364083430729806E-4  
 2.712000000000000E10   -7.521696970798075E-4   3.420959983486682E-4  
 2.714000000000000E10    5.271200789138675E-4  -2.330434363102540E-4  
 2.716000000000000E10    1.292704604566097E-3  -5.992015940137208E-4  
 2.718000000000000E10    5.476913065649569E-4  -8.173856767825782E-4  
 2.720000000000000E10    4.451106942724437E-4   1.716426413622685E-5  
 2.722000000000000E10    2.657635195646435E-5   1.375812098558527E-5  
 2.724000000000000E10   -4.532944585662335E-4   6.818622932769358E-4  
 2.726000000000000E10   -2.883870038203895E-4   1.926149998325855E-4  
 2.728000000000000E10    4.825862124562264E-4  -1.125585840782151E-4  
 2.730000000000000E10   -4.900153144262731E-4  -8.849448640830815E-4  
 2.732000000000000E10   -6.319935200735927E-4  -1.219972735270858E-3  
 2.734000000000000E10   -2.512501378078014E-4  -1.781883329385892E-4  
 2.736000000000000E10    4.199402173981071E-4  -6.244701944524422E-5  
 2.738000000000000E10    5.350355058908463E-4  -5.854701157659292E-5  
 2.740000000000000E10   -1.829035318223760E-5   6.788870086893439E-5  
 2.742000000000000E10    3.526671789586544E-4   7.072497101034969E-5  
 2.744000000000000E10   -2.240027097286657E-4  -3.734209167305380E-4  
 2.746000000000000E10   -1.332912710495293E-3  -1.748423528624699E-4  
 2.748000000000000E10   -9.260486112907529E-4   6.954331183806062E-4  
 2.750000000000000E10    6.714171613566577E-4   4.082463783561252E-5  
 2.752000000000000E10    4.918453632853925E-4  -1.279001822695136E-3  
 2.754000000000000E10   -7.613825728185475E-4  -1.608689199201763E-3  
 2.756000000000000E10   -2.959395642392337E-4   1.102912428905256E-4  
