#  HZ   S   RI   R     50.00 
! Rohde & Schwarz ZVA40 4Ports - Version 3.90 - 1145.1110k42 SN: 100403
! Date: 2023-10-04 11:39:36
! Measurement: S12 
! 
 2.200000000000000E10   -4.179808893240988E-4   1.062799710780382E-3  
 2.202000000000000E10    1.986634917557240E-3  -6.346358713926747E-5  
 2.204000000000000E10    6.653183372691274E-4  -2.564311027526856E-3  
 2.206000000000000E10   -1.009889878332615E-3   5.844772094860673E-4  
 2.208000000000000E10    8.358019404113293E-4   7.166168070398271E-4  
 2.210000000000000E10    5.766518879681826E-4  -2.358664060011506E-4  
 2.212000000000000E10   -1.783073181286454E-3   1.836873707361519E-4  
 2.214000000000000E10   -5.951127386651933E-4   2.421583281829953E-3  
 2.216000000000000E10    1.172658172436059E-3  -5.632371176034212E-4  
 2.218000000000000E10   -8.048623567447066E-5  -2.653353149071336E-3  
 2.220000000000000E10   -2.940818434581161E-3   2.457900845911354E-4  
 2.222000000000000E10    1.084533636458218E-3   1.335185719653964E-3  
 2.224000000000000E10    2.035115379840136E-3  -6.295467610470951E-4  
 2.226000000000000E10    1.980972228921019E-5  -2.027674578130245E-3  
 2.228000000000000E10   -9.971247054636478E-4   2.861449727788568E-3  
 2.230000000000000E10    1.941310707479715E-3   1.629843143746257E-3  
 2.232000000000000E10    1.271159853786230E-3  -3.652711457107216E-4  
 2.234000000000000E10   -2.285617170855403E-3  -1.221707439981401E-3  
 2.236000000000000E10   -1.315491623245180E-3   2.098632277920842E-3  
 2.238000000000000E10    4.748116480186582E-4   1.117065781727433E-3  
 2.240000000000000E10    1.779859769158065E-3  -1.672876649536192E-3  
 2.242000000000000E10   -3.584567457437515E-4  -9.388929465785623E-4  
 2.244000000000000E10    4.884316585958004E-4   6.136337178759277E-4  
 2.246000000000000E10    1.684943330474198E-3  -1.042450749082491E-4  
 2.248000000000000E10   -5.315560702001676E-5   1.347564102616161E-4  
 2.250000000000000E10   -3.360796254128218E-4   2.245573792606592E-3  
 2.252000000000000E10    3.136397572234273E-3   1.059090485796332E-3  
 2.254000000000000E10    3.219801583327353E-4  -1.756139798089862E-3  
 2.256000000000000E10   -2.582782413810492E-3  -1.496377284638584E-3  
 2.258000000000000E10   -9.787036105990410E-4   2.731167012825608E-3  
 2.260000000000000E10    1.924390555359423E-3   1.159177161753178E-3  
 2.262000000000000E10    1.613815082237124E-3  -2.561427652835846E-3  
 2.264000000000000E10   -5.594450049102306E-4  -2.019051462411881E-3  
 2.266000000000000E10   -3.960678586736321E-4   1.199305173940957E-3  
 2.268000000000000E10    1.238029566593468E-3  -4.776111381943338E-5  
 2.270000000000000E10    6.398069090209901E-4   1.712854718789458E-4  
 2.272000000000000E10   -9.117891895584762E-4   2.464324061293155E-4  
 2.274000000000000E10    1.674080267548561E-3   4.973367904312909E-4  
 2.276000000000000E10    1.781292521627620E-4  -1.041017239913344E-3  
 2.278000000000000E10   -8.202859899029136E-4  -1.436541671864688E-3  
 2.280000000000000E10   -7.262474973686039E-4   2.000744221732020E-3  
 2.282000000000000E10    1.253911643289030E-3   1.554135349579155E-3  
 2.284000000000000E10    9.542347397655249E-4  -1.732064061798155E-3  
 2.286000000000000E10   -7.941340445540845E-4  -1.113512786105275E-3  
 2.288000000000000E10   -3.816256139543839E-5   8.615112164989114E-4  
 2.290000000000000E10    9.383290307596326E-4  -9.681756491772831E-4  
 2.292000000000000E10   -8.168946078512818E-5  -9.248825954273343E-4  
 2.294000000000000E10   -8.986857137642801E-4   1.960295485332608E-4  
 2.296000000000000E10    1.023598131723702E-3   3.313849447295070E-4  
 2.298000000000000E10    1.445657107979059E-3  -1.494826865382493E-3  
 2.300000000000000E10   -9.587132371962071E-4  -1.587878214195371E-3  
 2.302000000000000E10   -1.492493553087115E-3  -1.685447205090895E-4  
 2.304000000000000E10    1.103121903724968E-3   1.271084300242364E-3  
 2.306000000000000E10    1.140504959039390E-3  -9.019223507493734E-4  
 2.308000000000000E10    3.366925520822406E-4  -8.514063083566725E-4  
 2.310000000000000E10   -1.373649574816227E-3   4.036043246742338E-4  
 2.312000000000000E10   -2.737490867730230E-4  -8.926917798817158E-4  
 2.314000000000000E10   -9.794789366424084E-4   2.923698339145631E-4  
 2.316000000000000E10   -8.689551032148302E-4   4.225188458804041E-4  
 2.318000000000000E10    1.185962115414441E-3   7.693435691180639E-6  
 2.320000000000000E10    7.985667907632887E-4  -2.095114439725876E-3  
 2.322000000000000E10   -1.170644187368453E-3  -7.305047474801540E-4  
 2.324000000000000E10   -1.540723023936153E-3   3.481430758256465E-4  
 2.326000000000000E10    1.116934814490378E-3   1.711242832243443E-3  
 2.328000000000000E10    6.038304418325424E-4  -4.422125857672654E-5  
 2.330000000000000E10    4.390705435071141E-4  -1.098336302675307E-3  
 2.332000000000000E10   -1.420554239302874E-3   6.018063868395984E-4  
 2.334000000000000E10   -6.306762807071209E-4   5.648654769174755E-5  
 2.336000000000000E10   -1.805429928936064E-4   7.571576279588044E-4  
 2.338000000000000E10   -4.227461467962712E-4   5.841098027303815E-4  
 2.340000000000000E10    5.212029209360480E-4   2.812711172737181E-4  
 2.342000000000000E10    4.515005857683718E-4  -1.159026520326734E-3  
 2.344000000000000E10   -1.110279466956854E-3  -4.495950706768781E-4  
 2.346000000000000E10   -1.245191670022905E-3   9.043109603226185E-4  
 2.348000000000000E10    8.518846007063985E-4   1.489228103309870E-3  
 2.350000000000000E10    2.913395874202251E-4   3.538981254678220E-4  
 2.352000000000000E10   -9.239723112841602E-6  -3.359229594934732E-4  
 2.354000000000000E10   -2.133065863745287E-4   2.704029611777514E-4  
 2.356000000000000E10   -6.042467430233955E-4   4.637502715922892E-4  
 2.358000000000000E10   -4.670234047807753E-4   1.043182448484004E-3  
 2.360000000000000E10    2.055506774922833E-4   6.560425972566009E-4  
 2.362000000000000E10    1.309425570070744E-3   4.366723005659878E-4  
 2.364000000000000E10    2.890813339035958E-4  -3.153373254463077E-4  
 2.366000000000000E10   -2.356952463742346E-4  -7.823478663340211E-4  
 2.368000000000000E10   -6.207750993780792E-4   6.856627296656370E-4  
 2.370000000000000E10    2.669149253051728E-4   1.180403516627848E-3  
 2.372000000000000E10    1.307965605519712E-3   2.923980064224452E-4  
 2.374000000000000E10    1.023022690787911E-3  -9.909011423587799E-4  
 2.376000000000000E10    3.470077936071903E-4  -5.561350262723863E-4  
 2.378000000000000E10   -2.572284720372409E-4  -9.550348477205262E-5  
 2.380000000000000E10    4.386964428704232E-4   8.523059659637511E-4  
 2.382000000000000E10    4.631545161828399E-4   6.619142950512469E-4  
 2.384000000000000E10    1.552009955048561E-3  -8.925569709390402E-4  
 2.386000000000000E10    6.545027717947960E-4  -3.510373935569078E-4  
 2.388000000000000E10   -6.084326887503266E-4  -4.474273882806301E-4  
 2.390000000000000E10   -1.529561122879386E-4  -3.038966970052570E-4  
 2.392000000000000E10    1.545156992506236E-4   7.382064359262586E-4  
 2.394000000000000E10    9.381154086440802E-4   2.268835669383407E-4  
 2.396000000000000E10    1.348057761788368E-3  -9.442640002816916E-4  
 2.398000000000000E10   -1.196741504827514E-4  -1.331338076852262E-3  
 2.400000000000000E10   -9.452535305172205E-4  -1.424815418431535E-4  
 2.402000000000000E10    6.657750873273471E-6   4.285074246581644E-4  
 2.404000000000000E10    8.489016327075660E-4   3.570815897546709E-4  
 2.406000000000000E10    7.692956132814288E-4  -4.151583998464048E-4  
 2.408000000000000E10    5.295322043821216E-4  -1.352817052975297E-3  
 2.410000000000000E10   -2.876319049391896E-4  -3.435726684983820E-4  
 2.412000000000000E10   -1.118890941143036E-3   1.678118132986128E-4  
 2.414000000000000E10   -2.017105771301431E-6   5.290656117722392E-4  
 2.416000000000000E10    4.975599586032331E-4   1.042924937792122E-3  
 2.418000000000000E10    5.163988098502159E-4  -4.381482722237706E-4  
 2.420000000000000E10   -3.274673872510903E-5  -1.016044174320996E-3  
 2.422000000000000E10   -1.823766622692347E-3  -7.584252161905170E-4  
 2.424000000000000E10   -1.044198870658875E-3   4.924833192490041E-4  
 2.426000000000000E10    9.245457476936281E-4   6.055001867935062E-4  
 2.428000000000000E10    3.700598026625812E-4  -5.342558724805713E-4  
 2.430000000000000E10    7.931471918709576E-5  -8.421412785537541E-4  
 2.432000000000000E10    9.994889842346311E-5   3.496554854791611E-4  
 2.434000000000000E10   -1.377534121274948E-3   1.344323391094804E-4  
 2.436000000000000E10   -8.203460602089763E-4   1.383480965159833E-3  
 2.438000000000000E10    1.252063229912892E-4   1.459306920878589E-3  
 2.440000000000000E10    5.941531853750348E-4  -6.986039807088673E-4  
 2.442000000000000E10   -6.929560913704336E-4  -1.450955867767334E-3  
 2.444000000000000E10   -1.552256639115512E-3  -3.095602733083069E-4  
 2.446000000000000E10   -5.032915505580604E-4   6.207755068317056E-4  
 2.448000000000000E10    1.099703717045486E-3   4.930538707412779E-4  
 2.450000000000000E10    1.134520513005555E-3   5.088495090603828E-4  
 2.452000000000000E10    5.127702606841922E-4  -5.046507576480508E-4  
 2.454000000000000E10    2.351643925067037E-4  -2.773000451270491E-4  
 2.456000000000000E10   -8.755144081078470E-4   2.634522679727525E-4  
 2.458000000000000E10   -1.992335455724970E-4   7.041322533041239E-4  
 2.460000000000000E10    4.052900767419487E-4   5.660800961777568E-4  
 2.462000000000000E10    1.257705735042691E-3  -7.242419524118304E-4  
 2.464000000000000E10    2.737044706009328E-4  -1.392776845023036E-3  
 2.466000000000000E10   -2.551247016526759E-4  -5.497954552993178E-4  
 2.468000000000000E10    6.178797775646672E-5   1.203878491651267E-4  
 2.470000000000000E10    7.098861387930811E-4   5.228838417679071E-4  
 2.472000000000000E10    9.694688487797976E-4   5.715218139812350E-4  
 2.474000000000000E10    7.626941660419107E-4  -5.092503270134330E-4  
 2.476000000000000E10   -2.755119348876178E-4  -7.015722803771496E-4  
 2.478000000000000E10   -1.455617719329894E-3  -4.851417033933103E-4  
 2.480000000000000E10   -7.039678166620433E-4   2.706296218093485E-4  
 2.482000000000000E10    4.703823942691088E-4   4.986822605133057E-4  
 2.484000000000000E10    8.374965400435031E-4  -5.682858754880726E-4  
 2.486000000000000E10    1.198833342641592E-4  -1.440742285922170E-3  
 2.488000000000000E10   -5.462562548927963E-4  -4.295101098250598E-4  
 2.490000000000000E10   -1.169716590084136E-3   3.606759419199079E-4  
 2.492000000000000E10   -1.004051009658724E-4   3.170469426549971E-4  
 2.494000000000000E10    4.965902771800757E-4   8.260037866421044E-4  
 2.496000000000000E10    2.791582955978811E-4  -8.267204975709319E-4  
 2.498000000000000E10   -1.608545717317611E-4  -1.817254233174026E-3  
 2.500000000000000E10   -1.584037207067013E-3  -8.095160592347384E-5  
 2.502000000000000E10   -7.241149432957172E-4   9.213815210387111E-4  
 2.504000000000000E10    9.165969677269459E-4   8.968223701231182E-4  
 2.506000000000000E10    2.959606354124844E-4  -3.180094063282013E-5  
 2.508000000000000E10   -3.871159278787673E-4  -7.098624482750893E-4  
 2.510000000000000E10   -1.013914588838816E-3  -2.710814296733588E-4  
 2.512000000000000E10   -1.157334656454623E-3   8.084316505119205E-5  
 2.514000000000000E10   -1.551847672089934E-4   5.898519884794951E-4  
 2.516000000000000E10    7.449185941368341E-4  -1.225769374286756E-4  
 2.518000000000000E10    1.175516634248197E-3  -6.263949908316135E-4  
 2.520000000000000E10    6.949115777388215E-5  -7.067410042509437E-4  
 2.522000000000000E10   -8.846172131597996E-4   6.071828538551927E-4  
 2.524000000000000E10   -1.477261539548636E-4   1.459689345210791E-3  
 2.526000000000000E10    3.768599417526275E-4   1.370783080346882E-3  
 2.528000000000000E10   -3.498763544484973E-4   4.559678200166673E-4  
 2.530000000000000E10   -4.398180462885648E-4   1.213067080243491E-4  
 2.532000000000000E10   -3.720258828252554E-4  -2.455661597196013E-4  
 2.534000000000000E10   -7.881873752921820E-4  -1.850537664722651E-4  
 2.536000000000000E10   -3.171302669215947E-4   3.091361140832305E-4  
 2.538000000000000E10    6.697242497466505E-4   1.022860873490572E-3  
 2.540000000000000E10    1.368920318782330E-3   1.861667988123372E-4  
 2.542000000000000E10    5.267625674605370E-4  -3.538518212735653E-4  
 2.544000000000000E10   -8.648289949633181E-4   2.780076465569437E-4  
 2.546000000000000E10   -1.884916564449668E-4   1.291604712605476E-3  
 2.548000000000000E10    1.791895920177922E-4   6.734736962243915E-4  
 2.550000000000000E10    5.739337211707607E-5   5.002484249416739E-5  
 2.552000000000000E10    5.586657789535821E-4  -5.491202464327216E-4  
 2.554000000000000E10    1.608868915354833E-4  -1.236937008798122E-3  
 2.556000000000000E10   -7.753325044177473E-4  -7.336559938266873E-4  
 2.558000000000000E10    1.642794522922486E-4   8.800607756711543E-4  
 2.560000000000000E10    1.314421417191625E-3   1.177169266156852E-3  
 2.562000000000000E10    1.541787991300225E-3  -7.991102174855769E-4  
 2.564000000000000E10   -1.117446881835349E-4  -1.072885468602181E-3  
 2.566000000000000E10   -1.674586092121899E-3   6.298449443420395E-5  
 2.568000000000000E10   -6.632290751440451E-5   8.007530122995377E-4  
 2.570000000000000E10    5.453354096971452E-4  -6.438238051487133E-5  
 2.572000000000000E10    2.548767370171845E-4  -3.209749411325902E-4  
 2.574000000000000E10    3.329100727569312E-4  -1.902629883261398E-4  
 2.576000000000000E10    4.970054724253714E-4  -5.581516888923943E-4  
 2.578000000000000E10   -5.594476824626327E-4  -1.767017092788592E-4  
 2.580000000000000E10   -1.784476189641282E-4   8.198032155632973E-4  
 2.582000000000000E10    1.109965844079852E-3   8.044543792493641E-4  
 2.584000000000000E10    1.027517020702362E-3  -6.203634548000991E-4  
 2.586000000000000E10   -4.652176285162568E-4  -8.839159272611141E-5  
 2.588000000000000E10   -3.227497509215027E-4  -2.962222242786083E-5  
 2.590000000000000E10    4.871278651989996E-4   2.005347341764718E-4  
 2.592000000000000E10    6.537269800901413E-4  -1.207660898217000E-4  
 2.594000000000000E10    5.186902126297355E-4   2.236286381958053E-4  
 2.596000000000000E10    4.474240122362971E-4   2.688814129214734E-4  
 2.598000000000000E10    6.695603951811791E-4  -8.249629172496498E-4  
 2.600000000000000E10   -9.697470231913030E-4  -8.882425026968122E-4  
 2.602000000000000E10   -8.669813396409154E-4   2.768587437458336E-4  
 2.604000000000000E10    6.856387481093407E-4   7.122684037312865E-4  
 2.606000000000000E10    1.238240976817906E-3  -8.134673698805273E-4  
 2.608000000000000E10    9.396929090144113E-5  -9.598404867574573E-4  
 2.610000000000000E10   -4.741626617033035E-4  -8.496799273416400E-5  
 2.612000000000000E10   -2.933904179371893E-4   4.150806926190853E-4  
 2.614000000000000E10   -4.328191862441599E-4   4.272126243449748E-4  
 2.616000000000000E10    1.050218197633512E-4   9.460657020099461E-4  
 2.618000000000000E10   -7.313417154364288E-5   6.741789547959343E-5  
 2.620000000000000E10   -9.317912372353021E-6  -1.263249549083412E-3  
 2.622000000000000E10   -1.333750551566482E-3  -8.586112526245415E-4  
 2.624000000000000E10   -1.100142719224095E-3   7.943978562252596E-5  
 2.626000000000000E10    7.543422980234027E-4   7.377833244390786E-4  
 2.628000000000000E10    1.360716181807220E-3  -2.507872413843870E-4  
 2.630000000000000E10    2.413252368569374E-4  -1.093202503398061E-3  
 2.632000000000000E10   -5.360533832572401E-4   1.046099787345156E-4  
 2.634000000000000E10   -4.155714705120772E-4   1.096633146516979E-3  
 2.636000000000000E10   -5.534772644750774E-4   5.171825760044158E-4  
 2.638000000000000E10   -9.156611631624401E-4   6.928994553163648E-4  
 2.640000000000000E10    4.599920066539198E-4   1.382832415401936E-4  
 2.642000000000000E10    8.059173705987632E-5  -1.119194785133004E-3  
 2.644000000000000E10   -1.253554481081665E-3  -1.016412163153291E-3  
 2.646000000000000E10   -7.240631966851652E-4   5.060152616351843E-4  
 2.648000000000000E10    6.119356257840991E-4   5.548869958147407E-4  
 2.650000000000000E10    8.363762754015625E-4  -1.417343301000074E-4  
 2.652000000000000E10    1.371114340145141E-4  -7.348963408730924E-4  
 2.654000000000000E10    7.245468441396952E-5  -3.844121529255062E-4  
 2.656000000000000E10   -1.155656413175166E-3   3.016561968252063E-4  
 2.658000000000000E10   -4.138358344789594E-4   1.106700365198776E-4  
 2.660000000000000E10    2.550069766584784E-4   5.028944578953087E-4  
 2.662000000000000E10    5.338187911547720E-4  -7.143543189158663E-5  
 2.664000000000000E10   -2.845428389264271E-5  -1.195985008962452E-3  
 2.666000000000000E10   -6.286318530328572E-4  -7.648988976143301E-4  
 2.668000000000000E10   -7.370447274297476E-4   5.817298660986126E-4  
 2.670000000000000E10    5.401127273216844E-4   4.863817302975804E-4  
 2.672000000000000E10    7.926521939225495E-4   5.412508035078645E-4  
 2.674000000000000E10   -3.085426869802177E-4  -6.717395153827965E-4  
 2.676000000000000E10    8.952835923992097E-5  -2.215990025433712E-5  
 2.678000000000000E10   -9.741208632476628E-4   1.675830717431381E-4  
 2.680000000000000E10   -6.098509184084833E-4   4.914819146506488E-4  
 2.682000000000000E10   -2.113379159709439E-4   8.780344505794346E-4  
 2.684000000000000E10    1.146118622273207E-3   1.225406304001808E-4  
 2.686000000000000E10   -2.678865857888013E-4  -8.180313161574304E-4  
 2.688000000000000E10   -9.010813082568348E-4  -6.330035394057632E-4  
 2.690000000000000E10   -3.247217391617596E-4   7.622017874382436E-4  
 2.692000000000000E10    5.170168005861342E-4   6.447497871704400E-4  
 2.694000000000000E10    7.694256491959095E-4   5.306582897901535E-4  
 2.696000000000000E10    1.365672942483798E-4  -1.957675704034045E-4  
 2.698000000000000E10    3.752912452910096E-4   1.233327348018065E-4  
 2.700000000000000E10   -4.154980706516653E-4  -9.547103400109336E-5  
 2.702000000000000E10   -1.023471239022911E-3  -2.092413160426077E-5  
 2.704000000000000E10    3.153197758365423E-5   8.691456168889999E-4  
 2.706000000000000E10    7.435737061314285E-4   6.252226398828498E-7  
 2.708000000000000E10    4.777507274411619E-4  -1.646346645429730E-3  
 2.710000000000000E10    2.739637238846626E-5  -6.055940175428987E-4  
 2.712000000000000E10   -2.021277468884364E-4   6.753205670975149E-4  
 2.714000000000000E10    8.144495077431202E-4   4.758276336360723E-4  
 2.716000000000000E10    6.288450094871223E-4   1.066076918505132E-3  
 2.718000000000000E10    3.646300174295902E-4   2.746354730334133E-4  
 2.720000000000000E10    2.600166189949960E-4  -2.116670657414943E-5  
 2.722000000000000E10   -8.127911132760346E-4  -2.304293157067150E-4  
 2.724000000000000E10   -1.071813050657511E-3  -4.399914178065956E-5  
 2.726000000000000E10    3.963967319577932E-4   3.746595175471157E-4  
 2.728000000000000E10    1.772954245097935E-3   9.618425247026607E-5  
 2.730000000000000E10    6.381832063198090E-4  -1.538587384857237E-3  
 2.732000000000000E10    5.529742338694632E-4  -6.777158123441041E-4  
 2.734000000000000E10   -3.008460917044431E-4   1.179329352453351E-3  
 2.736000000000000E10    4.409699467942119E-4   1.026945072226226E-3  
 2.738000000000000E10    1.064548385329545E-3   2.440276002744213E-4  
 2.740000000000000E10   -2.022299668169580E-5   8.968722977442667E-5  
 2.742000000000000E10   -2.771696308627725E-4  -4.715111863333732E-4  
 2.744000000000000E10   -5.522396531887353E-4  -5.690691177733243E-4  
 2.746000000000000E10   -5.510919145308435E-4  -2.123677404597402E-4  
 2.748000000000000E10   -3.480640225461684E-5   8.809209248283878E-5  
 2.750000000000000E10    1.327598583884537E-3  -3.828695043921471E-4  
 2.752000000000000E10    1.315892091952264E-3  -8.472793851979077E-4  
 2.754000000000000E10   -3.106191870756447E-4  -3.475095436442643E-4  
 2.756000000000000E10   -4.058268386870623E-4   1.026357756927609E-3  
