#  HZ   S   RI   R     50.00 
! Rohde & Schwarz ZVA40 4Ports - Version 3.90 - 1145.1110k42 SN: 100403
! Date: 2023-10-04 11:39:19
! Measurement: S12 
! 
 2.200000000000000E10    2.317747857887298E-4  -1.025260862661526E-4  
 2.202000000000000E10    1.855247886851430E-3   6.432873778976500E-4  
 2.204000000000000E10   -8.447230211459100E-4  -7.286407635547221E-4  
 2.206000000000000E10   -5.545950843952596E-4   1.772136660292745E-3  
 2.208000000000000E10    1.435585087165237E-3   5.014327471144497E-4  
 2.210000000000000E10    2.249392709927633E-4  -1.841361052356660E-3  
 2.212000000000000E10   -2.981052966788411E-3  -1.067942590452731E-3  
 2.214000000000000E10   -3.654496977105737E-4   2.678085351362824E-3  
 2.216000000000000E10    2.461016643792391E-3   8.722551283426583E-4  
 2.218000000000000E10    1.152572222054005E-3  -3.142672358080745E-3  
 2.220000000000000E10   -2.255219267681241E-3  -6.197024486027658E-4  
 2.222000000000000E10   -1.289562555029988E-3   1.228596898727119E-3  
 2.224000000000000E10    1.390314893797040E-3   1.187127665616572E-3  
 2.226000000000000E10    3.912867105100304E-4  -7.459115004166961E-4  
 2.228000000000000E10   -1.183139043860138E-3  -3.953469276893884E-4  
 2.230000000000000E10    3.246123378630728E-4  -3.754960198421031E-4  
 2.232000000000000E10   -2.496932866051793E-4  -4.678403493016958E-4  
 2.234000000000000E10   -2.075184835121036E-3  -2.551611396484077E-4  
 2.236000000000000E10   -2.610191586427391E-5   2.238885965198278E-3  
 2.238000000000000E10    2.056005876511335E-3   2.615147968754172E-4  
 2.240000000000000E10   -6.030352597008459E-5  -2.339896280318499E-3  
 2.242000000000000E10   -2.959994133561850E-3   3.427334886509925E-4  
 2.244000000000000E10   -8.957793470472097E-4   3.194692078977823E-3  
 2.246000000000000E10    1.771066454239190E-3   1.635630469536409E-4  
 2.248000000000000E10    3.950408427044749E-4  -9.961086325347424E-4  
 2.250000000000000E10   -2.159265801310539E-3   5.412097671069205E-4  
 2.252000000000000E10    8.210368687286973E-4   1.062990399077535E-3  
 2.254000000000000E10    7.385413045994937E-4  -4.199250179226510E-5  
 2.256000000000000E10   -9.710931917652488E-4  -3.231861337553710E-4  
 2.258000000000000E10   -6.621398497372866E-4   1.521214377135038E-3  
 2.260000000000000E10    9.639078634791076E-4   1.110408222302795E-3  
 2.262000000000000E10    8.228741935454309E-4  -1.132644028984942E-4  
 2.264000000000000E10   -1.120965462177992E-3  -4.079383215866983E-4  
 2.266000000000000E10   -5.642816540785134E-4   1.304275705479085E-3  
 2.268000000000000E10    1.125300303101540E-3   1.787278015399352E-4  
 2.270000000000000E10   -1.272051740670577E-4  -7.959202048368752E-4  
 2.272000000000000E10   -6.085733548388816E-5   1.409360440447927E-3  
 2.274000000000000E10    1.431553042493761E-3   1.063462113961577E-3  
 2.276000000000000E10    1.004740945063531E-3  -1.701992936432362E-3  
 2.278000000000000E10   -1.491403556428850E-3  -4.650493210647255E-4  
 2.280000000000000E10   -1.078796107321978E-3   2.181769348680973E-3  
 2.282000000000000E10    5.939786205999553E-4   2.299556974321604E-3  
 2.284000000000000E10    1.340498798526824E-3  -1.569421612657607E-3  
 2.286000000000000E10   -6.806789897382259E-4  -1.753724412992597E-3  
 2.288000000000000E10   -1.657841145060957E-3   4.208818427287042E-4  
 2.290000000000000E10    1.336502493359149E-3   5.164642934687436E-4  
 2.292000000000000E10    8.717271848581731E-4   5.458337254822254E-4  
 2.294000000000000E10    1.850889821071178E-4  -8.425095002166927E-4  
 2.296000000000000E10    6.942268810234964E-4   8.520137052983046E-4  
 2.298000000000000E10   -2.299018378835172E-4  -8.042873814702034E-4  
 2.300000000000000E10   -1.398194697685540E-3   2.643841144163162E-4  
 2.302000000000000E10   -1.064331736415625E-3   1.552425208501518E-3  
 2.304000000000000E10    1.945463009178639E-3   7.329143700189889E-4  
 2.306000000000000E10    5.979803972877562E-6  -1.925668097101152E-3  
 2.308000000000000E10   -1.294662128202617E-3  -2.029824303463101E-3  
 2.310000000000000E10   -6.753105553798378E-4   1.169213675893843E-3  
 2.312000000000000E10    1.086602453142405E-3  -6.510000093840063E-5  
 2.314000000000000E10    1.426320057362318E-3   7.245433516800404E-5  
 2.316000000000000E10   -2.770672435872257E-4  -2.717970346566290E-4  
 2.318000000000000E10    9.366905433125794E-4  -6.026690243743360E-5  
 2.320000000000000E10   -3.594934241846204E-4  -8.548385085305199E-5  
 2.322000000000000E10   -7.776512647978962E-4  -2.892292395699769E-4  
 2.324000000000000E10   -6.093403790146112E-4   5.984269664622843E-4  
 2.326000000000000E10    3.827633627224714E-4   3.214970347471535E-4  
 2.328000000000000E10    8.835098124109209E-4  -1.099905697628856E-3  
 2.330000000000000E10   -6.719195516780019E-4  -1.820510835386813E-3  
 2.332000000000000E10   -6.720885285176337E-4   2.654264390002936E-4  
 2.334000000000000E10    3.865971229970455E-4   7.571006426587701E-5  
 2.336000000000000E10    6.150851841084659E-4  -3.084581112489104E-5  
 2.338000000000000E10    2.554191160015762E-4   2.055377844953910E-4  
 2.340000000000000E10    7.688307086937130E-4  -6.434406968764961E-4  
 2.342000000000000E10   -3.734536294359714E-4  -5.782392108812928E-4  
 2.344000000000000E10   -1.498518628068268E-3  -3.146552189718932E-4  
 2.346000000000000E10   -5.143680027686060E-4   5.082432180643082E-4  
 2.348000000000000E10    7.182467379607260E-4  -6.162910722196102E-5  
 2.350000000000000E10    6.894196849316359E-4  -1.199580263346434E-3  
 2.352000000000000E10   -2.426848222967237E-4  -1.677783671766520E-3  
 2.354000000000000E10   -8.765662205405533E-4  -6.982805643929169E-5  
 2.356000000000000E10   -4.021251515951008E-4   9.907291969284415E-4  
 2.358000000000000E10    1.343791838735342E-3   6.227512494660914E-4  
 2.360000000000000E10    9.355969814350829E-5  -2.272374404128641E-4  
 2.362000000000000E10   -4.626544832717627E-4  -6.903568864800036E-4  
 2.364000000000000E10   -9.188499534502626E-4   3.614334855228663E-4  
 2.366000000000000E10   -1.539039192721248E-3  -2.767527184914798E-4  
 2.368000000000000E10   -3.685811534523964E-4   7.241543498821557E-4  
 2.370000000000000E10    3.940088208764792E-4   4.828011442441493E-4  
 2.372000000000000E10    9.295368217863143E-4  -1.107298769056797E-3  
 2.374000000000000E10   -3.074743435718119E-4  -6.170836859382689E-4  
 2.376000000000000E10   -5.773194134235382E-4   3.449343494139612E-4  
 2.378000000000000E10   -6.938949809409678E-4   1.180777209810913E-3  
 2.380000000000000E10    7.190389442257583E-4   1.081314752809703E-3  
 2.382000000000000E10    4.036502505186945E-4   2.555663231760263E-4  
 2.384000000000000E10    9.464320100960322E-6  -1.187024288810790E-3  
 2.386000000000000E10   -8.974194061011076E-4  -2.420051750959829E-4  
 2.388000000000000E10   -6.970384856685996E-4   4.257502150721848E-4  
 2.390000000000000E10   -2.324408269487321E-4   5.696660373359919E-4  
 2.392000000000000E10    7.140860543586314E-4   3.928956284653395E-4  
 2.394000000000000E10    7.473989389836788E-4  -1.024369266815484E-4  
 2.396000000000000E10   -2.922914572991431E-4  -4.998596850782633E-4  
 2.398000000000000E10   -7.156250649131835E-4   6.062717875465751E-4  
 2.400000000000000E10   -8.791926084086299E-4   9.639874915592372E-4  
 2.402000000000000E10    6.299885571934283E-4   1.144848181866109E-3  
 2.404000000000000E10    4.242883878760040E-4   1.813146373024210E-4  
 2.406000000000000E10   -5.081814742879942E-5  -9.452328085899353E-4  
 2.408000000000000E10   -6.577717722393572E-4  -1.480388746131212E-4  
 2.410000000000000E10   -4.982589161954820E-4   8.960111881606281E-4  
 2.412000000000000E10    1.777830912033096E-4   8.573514642193914E-4  
 2.414000000000000E10    1.324525568634272E-3   1.082528178812936E-4  
 2.416000000000000E10    2.683279126358684E-5   1.752919956743426E-6  
 2.418000000000000E10    8.993699157144874E-5  -1.222968334332109E-3  
 2.420000000000000E10   -4.357565485406667E-4   2.993624366354197E-4  
 2.422000000000000E10   -1.153483521193266E-3   7.065293611958623E-4  
 2.424000000000000E10    1.128033385612071E-3   4.960501100867987E-4  
 2.426000000000000E10    1.320467679761350E-3  -2.050277107628062E-4  
 2.428000000000000E10    4.525409603957087E-4  -8.415640913881362E-4  
 2.430000000000000E10   -6.506031495518982E-4  -9.412536746822298E-4  
 2.432000000000000E10   -1.369616948068142E-4   6.056214333511889E-4  
 2.434000000000000E10    3.293434701845399E-6   4.002421337645501E-4  
 2.436000000000000E10    1.286159502342343E-3  -2.434504422126338E-4  
 2.438000000000000E10    6.534170825034380E-4  -2.755364112090319E-4  
 2.440000000000000E10    2.267741219839081E-4  -1.402721856720746E-3  
 2.442000000000000E10   -2.364543179282919E-4  -4.578118969220668E-4  
 2.444000000000000E10   -8.884097333066165E-4   7.360192830674350E-4  
 2.446000000000000E10    2.616596175357699E-4   7.161918329074979E-4  
 2.448000000000000E10    1.009950763545930E-3  -1.839050819398835E-4  
 2.450000000000000E10    3.973248385591433E-5  -9.702878305688500E-4  
 2.452000000000000E10   -1.420179614797235E-3  -6.116773583926261E-4  
 2.454000000000000E10   -6.916110869497061E-4  -1.125029812101275E-4  
 2.456000000000000E10   -1.193795033032075E-4   3.410116187296808E-4  
 2.458000000000000E10    6.428571650758386E-4   4.815197899006307E-4  
 2.460000000000000E10    9.659631759859622E-4  -3.669909492600709E-4  
 2.462000000000000E10    3.511100367177278E-4  -6.203396478667855E-4  
 2.464000000000000E10   -9.241367224603891E-4   2.119028504239395E-4  
 2.466000000000000E10   -5.374375614337623E-4   1.211906201206148E-3  
 2.468000000000000E10    4.314865800552070E-4   1.669605146162212E-3  
 2.470000000000000E10    1.069176942110062E-3   1.173104028566741E-4  
 2.472000000000000E10    9.096615394810215E-5  -7.919055642560124E-4  
 2.474000000000000E10   -4.781251773238182E-4  -1.017892267554998E-3  
 2.476000000000000E10   -4.418320604600012E-4   5.409864243119955E-4  
 2.478000000000000E10    3.043312462978065E-4   6.657702615484595E-4  
 2.480000000000000E10    1.649831188842654E-3   6.388629553839564E-4  
 2.482000000000000E10    1.409648102708161E-3  -8.752445137361065E-5  
 2.484000000000000E10    6.331952317850664E-5  -7.107651908881962E-4  
 2.486000000000000E10   -6.163055077195168E-4   2.907115558627993E-4  
 2.488000000000000E10   -2.784271600830834E-5   1.398669672198594E-3  
 2.490000000000000E10    3.433301462791860E-4   4.738770367112011E-4  
 2.492000000000000E10    9.188692201860249E-4  -6.222609081305563E-4  
 2.494000000000000E10    2.318637561984360E-4  -6.301200482994318E-4  
 2.496000000000000E10   -3.882744931615889E-4  -9.767232695594430E-4  
 2.498000000000000E10    2.469047321937978E-4  -2.173872344428673E-4  
 2.500000000000000E10   -3.119390748906881E-4   1.208168920129538E-3  
 2.502000000000000E10    1.027627149596810E-3   4.558821674436331E-4  
 2.504000000000000E10    1.119731226935983E-3  -1.988712319871411E-4  
 2.506000000000000E10   -5.889254389330745E-4  -6.192545406520367E-4  
 2.508000000000000E10   -1.379742869175971E-3  -5.206718342378736E-4  
 2.510000000000000E10   -3.941334143746644E-4   4.290490178391337E-4  
 2.512000000000000E10   -5.015388887841255E-5   3.414534730836749E-4  
 2.514000000000000E10   -5.751539902121294E-6  -3.573378198780119E-4  
 2.516000000000000E10    6.298152147792280E-4  -4.314949328545481E-4  
 2.518000000000000E10   -1.592536136740819E-5  -6.611298304051161E-4  
 2.520000000000000E10   -7.963128155097365E-4  -6.741536781191826E-4  
 2.522000000000000E10   -7.913577137514949E-4   8.626127964816988E-4  
 2.524000000000000E10    7.047049002721906E-4   4.681522841565311E-4  
 2.526000000000000E10    9.243040112778544E-4  -4.811252001672983E-4  
 2.528000000000000E10   -4.827582160942257E-4  -1.304970006458461E-3  
 2.530000000000000E10   -9.124577045440674E-4  -1.364265481242910E-4  
 2.532000000000000E10   -7.673295913264155E-4   1.122082117944956E-3  
 2.534000000000000E10    5.475596990436316E-4   5.625432822853327E-4  
 2.536000000000000E10    3.645401448011398E-4  -1.168356611742638E-4  
 2.538000000000000E10   -1.582458389748354E-5  -3.517995064612478E-4  
 2.540000000000000E10    2.635295968502760E-4  -8.206003694795072E-4  
 2.542000000000000E10   -1.398756168782711E-3  -6.402348517440260E-4  
 2.544000000000000E10   -5.043212440796197E-4   6.959406891837716E-4  
 2.546000000000000E10    1.526725827716291E-3   8.294782601296902E-4  
 2.548000000000000E10    1.211195951327682E-3  -7.696960819885135E-4  
 2.550000000000000E10   -2.780062495730817E-4  -8.749094558879733E-4  
 2.552000000000000E10   -5.656723515130580E-4   6.041500600986183E-4  
 2.554000000000000E10   -7.089952123351395E-5   1.328660291619599E-3  
 2.556000000000000E10   -3.519837046042085E-4   4.172929620835930E-4  
 2.558000000000000E10   -2.317902690265328E-4  -2.610706178529654E-5  
 2.560000000000000E10    2.816258165694308E-5   2.642278268467635E-4  
 2.562000000000000E10   -4.787844954989851E-4  -1.041643437929452E-3  
 2.564000000000000E10   -5.731558776460588E-4  -1.274873968213797E-3  
 2.566000000000000E10   -7.896158058429137E-5   5.804403335787356E-4  
 2.568000000000000E10    1.247096690349281E-3   6.248203571885824E-4  
 2.570000000000000E10    1.310853054746985E-3  -8.883789414539933E-4  
 2.572000000000000E10   -2.373292518313974E-4  -9.631668945075944E-5  
 2.574000000000000E10   -1.028722734190524E-3   7.510628784075379E-4  
 2.576000000000000E10    5.281468111206777E-5   9.419632260687649E-4  
 2.578000000000000E10   -1.038116868585348E-3   5.414624465629458E-4  
 2.580000000000000E10   -5.071546183899045E-4   4.228306715958752E-5  
 2.582000000000000E10    1.548494037706405E-4   1.560161181259900E-4  
 2.584000000000000E10   -1.425561786163598E-4  -1.461166772060096E-3  
 2.586000000000000E10   -9.602923528291285E-4  -7.210164330899715E-4  
 2.588000000000000E10   -6.444020546041429E-4   1.011945307254791E-3  
 2.590000000000000E10    1.177838072180748E-3   1.585129648447037E-3  
 2.592000000000000E10    1.225459389388561E-3  -2.774499007500708E-4  
 2.594000000000000E10   -5.397693021222949E-4  -4.527192504610866E-4  
 2.596000000000000E10   -1.589079969562590E-3   4.109492874704301E-4  
 2.598000000000000E10   -3.302975674159825E-4   6.010311190038919E-4  
 2.600000000000000E10   -6.831228965893388E-4   3.014576395798940E-5  
 2.602000000000000E10   -4.456965689314529E-5   1.192970375996083E-4  
 2.604000000000000E10    9.930477244779468E-4  -2.854214981198311E-4  
 2.606000000000000E10    1.897739130072296E-4  -1.366645679809153E-3  
 2.608000000000000E10   -9.192691068165004E-4   4.435284063220024E-5  
 2.610000000000000E10   -3.131230187136680E-4   1.606867415830493E-3  
 2.612000000000000E10    1.049974234774709E-3   1.205324311740696E-3  
 2.614000000000000E10    7.906802929937840E-4  -5.618308205157518E-4  
 2.616000000000000E10   -5.441762041300535E-4  -1.829845277825370E-4  
 2.618000000000000E10   -1.001630909740925E-3   1.931358019646723E-5  
 2.620000000000000E10    7.692897270317189E-7   5.758634652011097E-4  
 2.622000000000000E10    1.244607847183943E-4   6.722832767991349E-5  
 2.624000000000000E10    8.449385641142726E-4   9.487551869824529E-5  
 2.626000000000000E10    7.147256983444095E-4   1.584034034749493E-4  
 2.628000000000000E10    7.307753548957408E-4  -6.372990319505334E-4  
 2.630000000000000E10   -5.754278972744942E-4  -4.687845066655427E-4  
 2.632000000000000E10   -3.172910073772073E-4   9.647635743021965E-4  
 2.634000000000000E10    8.119352860376239E-4   1.092296792194247E-3  
 2.636000000000000E10    1.211832277476788E-3  -6.793948705308139E-4  
 2.638000000000000E10   -3.353344482093235E-6  -3.262648824602366E-4  
 2.640000000000000E10   -5.449649761430919E-4  -1.607928716111928E-4  
 2.642000000000000E10   -1.009730622172356E-4   8.096852980088443E-5  
 2.644000000000000E10   -3.076916327700019E-4  -7.181914952525403E-6  
 2.646000000000000E10    5.851805326528847E-4   2.797164197545499E-4  
 2.648000000000000E10    1.119236811064184E-3  -4.543577088043094E-4  
 2.650000000000000E10    3.565326624084264E-4  -1.114976592361927E-3  
 2.652000000000000E10   -8.136887918226421E-4  -5.706716910935938E-4  
 2.654000000000000E10   -3.563957216101699E-5   8.859128574840725E-4  
 2.656000000000000E10    2.749542181845754E-4   9.630064596422017E-4  
 2.658000000000000E10    1.182125648483634E-3  -1.175285506178625E-4  
 2.660000000000000E10    1.283017481910065E-4  -5.468326271511614E-4  
 2.662000000000000E10   -5.372191080823541E-4  -4.599597305059433E-4  
 2.664000000000000E10   -5.073696374893189E-4   4.182431730441749E-4  
 2.666000000000000E10   -1.881829084595665E-4  -6.053190008969978E-5  
 2.668000000000000E10    4.478610571823083E-5   3.253065806347877E-4  
 2.670000000000000E10    6.365066510625184E-4  -7.189695606939495E-4  
 2.672000000000000E10    2.903332351706922E-4  -1.210098154842854E-3  
 2.674000000000000E10   -1.028385246172547E-3  -7.429695688188076E-4  
 2.676000000000000E10    3.294518683105707E-4   8.400396327488124E-4  
 2.678000000000000E10    5.909859319217503E-4   8.626763592474163E-4  
 2.680000000000000E10    3.466602356638759E-4  -1.411256671417505E-4  
 2.682000000000000E10   -4.260362766217440E-5  -1.462401414755732E-4  
 2.684000000000000E10   -5.112328217364848E-4  -5.114740342833102E-4  
 2.686000000000000E10   -7.889310945756733E-4  -4.244587034918368E-4  
 2.688000000000000E10   -4.687697801273316E-4   2.532454382162541E-4  
 2.690000000000000E10    4.837168962694705E-4   8.219557639677078E-5  
 2.692000000000000E10    1.116541330702603E-3  -4.469096602406353E-4  
 2.694000000000000E10   -2.804144169203937E-4  -9.615717572160065E-4  
 2.696000000000000E10   -8.755276794545353E-4  -6.792053463868797E-4  
 2.698000000000000E10   -8.922209963202477E-4   1.183927175588906E-3  
 2.700000000000000E10    3.943690389860421E-4   4.154316848143935E-4  
 2.702000000000000E10    1.098970067687333E-3  -3.577950701583177E-5  
 2.704000000000000E10   -2.456147340126336E-4  -9.671140578575432E-4  
 2.706000000000000E10   -4.335422127041966E-4  -1.667039614403620E-4  
 2.708000000000000E10   -1.087230280973017E-3   3.678647408378311E-5  
 2.710000000000000E10   -1.064693933585659E-4   4.847116942983121E-4  
 2.712000000000000E10   -1.408272328262683E-5   5.550685455091298E-4  
 2.714000000000000E10    7.592294714413583E-4  -7.971067680045962E-4  
 2.716000000000000E10   -4.092800081707537E-4  -8.032736368477345E-4  
 2.718000000000000E10   -1.469496986828744E-3  -5.192379467189312E-4  
 2.720000000000000E10   -3.565576917026192E-4   8.928502211347222E-4  
 2.722000000000000E10    1.418007159372792E-4   4.246920871082693E-4  
 2.724000000000000E10    2.083348226733506E-4  -2.965148596558720E-4  
 2.726000000000000E10   -2.653920091688633E-4  -1.663331058807671E-4  
 2.728000000000000E10   -6.911896052770317E-4   2.513034560251981E-4  
 2.730000000000000E10   -7.974266773089767E-4  -4.469164650799939E-6  
 2.732000000000000E10   -4.424480430316180E-4   5.547860637307167E-4  
 2.734000000000000E10   -5.034175701439381E-4   8.576112450100482E-4  
 2.736000000000000E10    4.382319748401642E-4  -2.031016047112644E-4  
 2.738000000000000E10   -9.080289601115510E-5  -9.501320892013609E-4  
 2.740000000000000E10   -9.643956436775625E-4  -5.176863633096218E-4  
 2.742000000000000E10   -3.886308331857435E-5   7.082434021867812E-4  
 2.744000000000000E10    5.954485386610031E-4   3.883581084664911E-4  
 2.746000000000000E10    7.427645614370704E-4   8.789089770289138E-5  
 2.748000000000000E10    3.923726399079897E-5   2.667859371285886E-4  
 2.750000000000000E10   -5.946158489678055E-5   2.166986523661763E-4  
 2.752000000000000E10   -4.552934842649847E-4  -1.852752320701256E-4  
 2.754000000000000E10   -4.769586666952819E-4   5.917968810535967E-4  
 2.756000000000000E10    1.118423751904629E-4   9.077444556169212E-4  
