#  HZ   S   RI   R     50.00 
! Rohde & Schwarz ZVA40 4Ports - Version 3.90 - 1145.1110k42 SN: 100403
! Date: 2023-10-04 11:39:03
! Measurement: S12 
! 
 2.200000000000000E10    8.126315078698099E-4   1.504447427578270E-3  
 2.202000000000000E10    2.782548544928432E-3   1.491497037932277E-3  
 2.204000000000000E10   -3.613132575992495E-4  -1.393623766489327E-3  
 2.206000000000000E10   -8.427525754086673E-4   8.614511461928487E-4  
 2.208000000000000E10   -4.945744876749814E-4   8.494320209138095E-4  
 2.210000000000000E10    3.081558388657868E-4  -2.266097435494885E-4  
 2.212000000000000E10   -1.468368922360241E-3  -1.106912386603653E-3  
 2.214000000000000E10   -1.535280025564134E-4   5.408318247646093E-4  
 2.216000000000000E10    5.926245357841253E-4  -1.803819468477741E-4  
 2.218000000000000E10    6.422499427571893E-4  -2.153491834178567E-3  
 2.220000000000000E10   -4.318311694078147E-4  -1.542807003716007E-4  
 2.222000000000000E10    4.974052426405251E-4   8.702579070813954E-4  
 2.224000000000000E10    2.088473644107580E-3  -6.884182221256197E-4  
 2.226000000000000E10   -1.076312255463563E-4  -1.166707021184266E-3  
 2.228000000000000E10   -1.394725171849132E-3   1.050182268954814E-3  
 2.230000000000000E10    1.314499648287892E-3   5.748419789597392E-4  
 2.232000000000000E10    7.374804699793458E-4  -1.858661998994649E-3  
 2.234000000000000E10   -2.289312193170190E-3  -2.086977241560817E-3  
 2.236000000000000E10   -5.485917208716273E-4   1.268453313969076E-3  
 2.238000000000000E10    1.029721111990511E-3   7.405597716569901E-4  
 2.240000000000000E10    9.908752981573343E-4  -2.154364716261625E-3  
 2.242000000000000E10   -1.282199868001044E-3  -1.614298787899315E-3  
 2.244000000000000E10   -1.748812152072787E-3  -4.205986988381483E-5  
 2.246000000000000E10    1.076491316780448E-4   7.146525895223022E-4  
 2.248000000000000E10   -1.520509831607342E-4  -1.987038558581844E-4  
 2.250000000000000E10   -7.015941664576531E-4  -5.164374597370625E-4  
 2.252000000000000E10    3.411000361666083E-4  -4.321032902225852E-4  
 2.254000000000000E10   -9.991212282329798E-4  -1.279262476600707E-3  
 2.256000000000000E10   -2.344932407140732E-3  -4.641851701308042E-4  
 2.258000000000000E10   -7.777521968819201E-4   2.298909937962890E-3  
 2.260000000000000E10    1.583039644174278E-3   6.584624061360955E-4  
 2.262000000000000E10    3.564473881851882E-4  -2.514777705073357E-3  
 2.264000000000000E10   -1.969315810129046E-3  -7.871675188653171E-4  
 2.266000000000000E10   -1.498313387855887E-3   2.076346892863512E-3  
 2.268000000000000E10    1.213386072777212E-3   1.000462216325104E-3  
 2.270000000000000E10    2.535157254897058E-4   8.396346674999222E-5  
 2.272000000000000E10   -3.686000709421933E-4  -1.954073668457568E-4  
 2.274000000000000E10   -5.965753807686269E-4   6.691512535326183E-4  
 2.276000000000000E10   -3.213746240362525E-4   2.112288202624768E-4  
 2.278000000000000E10   -6.231948500499129E-4   1.485180255258456E-4  
 2.280000000000000E10   -5.780382198281586E-4   6.385772721841931E-4  
 2.282000000000000E10    5.100858397781849E-4   1.416597049683332E-3  
 2.284000000000000E10    8.967485046014190E-4  -9.540557512082160E-4  
 2.286000000000000E10   -3.690721641760320E-4  -6.409258930943906E-4  
 2.288000000000000E10   -1.090731937438250E-3   1.909934566356242E-3  
 2.290000000000000E10    1.053127925843000E-3   2.399662189418450E-4  
 2.292000000000000E10    2.992746012751013E-4   3.240578807890415E-4  
 2.294000000000000E10   -1.172743272036314E-3   2.272596611874178E-4  
 2.296000000000000E10    8.625647751614451E-4   3.495992277748883E-4  
 2.298000000000000E10    2.089528570650145E-4  -6.176786846481264E-4  
 2.300000000000000E10   -8.806581608951092E-4  -4.247068427503109E-4  
 2.302000000000000E10   -3.484149929136038E-4   9.380441042594612E-4  
 2.304000000000000E10    1.850332133471966E-3   1.088724005967379E-3  
 2.306000000000000E10    1.455056248232722E-3  -1.845732913352549E-5  
 2.308000000000000E10   -4.724061000160873E-4  -7.008705870248377E-4  
 2.310000000000000E10   -9.789143223315477E-4   8.802870870567858E-4  
 2.312000000000000E10   -3.766426525544375E-4   1.304311794228852E-3  
 2.314000000000000E10    8.166633197106421E-4   9.284215047955513E-5  
 2.316000000000000E10    3.804965526796877E-4  -3.221096994820982E-4  
 2.318000000000000E10    3.473302058409900E-4  -9.116810979321599E-4  
 2.320000000000000E10    1.685623719822615E-4  -9.079964947886765E-4  
 2.322000000000000E10   -7.429178804159164E-4  -5.130259669385850E-4  
 2.324000000000000E10    2.723108045756817E-4   1.118578133173287E-3  
 2.326000000000000E10    1.730734365992248E-3   4.598681698553264E-4  
 2.328000000000000E10    1.316243666224182E-3  -1.341917202807963E-3  
 2.330000000000000E10   -1.125645940192044E-3  -4.686978063546121E-4  
 2.332000000000000E10   -8.893627673387528E-4   8.565815514884889E-4  
 2.334000000000000E10    1.219928526552394E-5   7.723332964815199E-4  
 2.336000000000000E10    6.717324140481651E-4   6.252325692912564E-5  
 2.338000000000000E10   -5.749677075073123E-5  -7.951384759508073E-4  
 2.340000000000000E10   -5.153011297807097E-4  -1.098187174648047E-3  
 2.342000000000000E10   -3.381841524969786E-4  -4.676257958635688E-4  
 2.344000000000000E10   -1.910115970531479E-4  -4.251485806889832E-4  
 2.346000000000000E10    2.302889479324222E-4   6.048263167031109E-4  
 2.348000000000000E10    1.038014772348106E-3   5.688529927283526E-4  
 2.350000000000000E10    1.022850046865642E-3  -5.785550456494093E-4  
 2.352000000000000E10   -5.708466633222997E-4  -1.053443993441761E-3  
 2.354000000000000E10   -7.237680838443339E-4   9.039565338753164E-4  
 2.356000000000000E10   -7.416382431983948E-4   1.119557651691139E-3  
 2.358000000000000E10    1.016806694678962E-3   1.550978340674192E-4  
 2.360000000000000E10   -2.065457192657050E-5  -2.753075386863202E-5  
 2.362000000000000E10   -1.230864927492803E-5  -1.561422017402947E-3  
 2.364000000000000E10   -4.417315940372646E-4  -3.097790759056807E-4  
 2.366000000000000E10   -4.172840854153037E-4  -1.111962410504930E-4  
 2.368000000000000E10    1.089828787371516E-3   6.484328769147396E-4  
 2.370000000000000E10    6.681528757326305E-4   3.402354195713997E-4  
 2.372000000000000E10    9.157560416497290E-4  -4.904508241452277E-4  
 2.374000000000000E10   -2.328200062038377E-4  -6.860338617116213E-4  
 2.376000000000000E10   -1.468313159421086E-3   3.488545771688223E-4  
 2.378000000000000E10   -8.884342969395220E-4   1.305447542108595E-3  
 2.380000000000000E10    9.448798373341560E-4   3.299422096461058E-4  
 2.382000000000000E10    1.993983314605430E-4  -6.935773999430239E-4  
 2.384000000000000E10    1.585475110914558E-4  -1.053202897310257E-3  
 2.386000000000000E10   -9.641106007620692E-4  -3.069941012654454E-4  
 2.388000000000000E10   -4.250664787832648E-4   8.363027882296592E-5  
 2.390000000000000E10    4.983560065738857E-4   7.980585214681923E-4  
 2.392000000000000E10    1.024987781420350E-3  -2.585198089946061E-4  
 2.394000000000000E10    7.588379958178848E-5  -9.191917488351464E-4  
 2.396000000000000E10   -6.328568561002612E-4  -1.116638886742294E-3  
 2.398000000000000E10   -6.743608973920345E-4   4.562500689644367E-4  
 2.400000000000000E10   -1.024082157528028E-4   3.113803395535797E-4  
 2.402000000000000E10    1.593457884155214E-3  -7.592081237817183E-5  
 2.404000000000000E10    7.961941882967949E-4  -8.738610777072609E-4  
 2.406000000000000E10   -6.799363181926310E-4  -1.179351122118533E-3  
 2.408000000000000E10   -8.815206238068640E-4   1.489408459747210E-4  
 2.410000000000000E10   -5.187114002183080E-4   5.789656424894929E-4  
 2.412000000000000E10   -3.507154469843954E-4   2.337799669476226E-4  
 2.414000000000000E10    1.147477421909571E-3  -5.677820881828666E-4  
 2.416000000000000E10   -2.544710878282785E-4  -7.582991966046393E-4  
 2.418000000000000E10   -3.649420104920864E-4  -1.684011658653617E-3  
 2.420000000000000E10   -7.269150810316205E-4   6.551681872224435E-5  
 2.422000000000000E10   -4.438194155227393E-4   1.307918137172237E-4  
 2.424000000000000E10    1.303271041251719E-3   9.805114241316915E-4  
 2.426000000000000E10    4.091028822585940E-4  -4.494739405345172E-4  
 2.428000000000000E10   -1.643808936933056E-4  -8.093788055703044E-4  
 2.430000000000000E10   -1.402666675858200E-3   4.188095626886934E-4  
 2.432000000000000E10   -3.970010438933969E-4   1.374498358927667E-3  
 2.434000000000000E10   -1.035112800309435E-4   9.266475099138916E-4  
 2.436000000000000E10    5.118967383168638E-4   7.656472007511184E-5  
 2.438000000000000E10    6.645143730565906E-5  -3.017820417881012E-4  
 2.440000000000000E10   -2.077199023915455E-4  -9.317591902799904E-4  
 2.442000000000000E10   -6.988330860622227E-4   7.726441835984588E-4  
 2.444000000000000E10    6.315246719168499E-5   1.358348177745938E-3  
 2.446000000000000E10    1.157309277914465E-3   6.862534210085869E-4  
 2.448000000000000E10    6.777686066925526E-4  -4.587162111420184E-4  
 2.450000000000000E10   -2.146438200725243E-4  -8.296287269331515E-4  
 2.452000000000000E10   -6.491721724160016E-4   1.407398667652160E-4  
 2.454000000000000E10   -2.901053630921524E-5   8.353024604730308E-4  
 2.456000000000000E10    3.503184052533470E-5   1.002810895442963E-3  
 2.458000000000000E10    1.084992079995573E-3  -5.720195258618332E-5  
 2.460000000000000E10    4.844748036703095E-5  -9.201280190609396E-4  
 2.462000000000000E10   -7.364419288933277E-4  -8.707473753020167E-4  
 2.464000000000000E10   -1.194222480989993E-3   2.443734847474843E-4  
 2.466000000000000E10   -8.217977592721582E-4   6.813060026615858E-4  
 2.468000000000000E10    5.220726598054171E-4   1.091790472855791E-4  
 2.470000000000000E10    5.306483944877982E-4  -4.517436027526856E-4  
 2.472000000000000E10   -7.448507822118700E-4  -6.620202329941094E-4  
 2.474000000000000E10   -6.751996697857976E-4  -3.431138757150620E-4  
 2.476000000000000E10   -7.458762265741825E-4   1.103740301914513E-3  
 2.478000000000000E10   -9.479020809521899E-5   1.123744877986610E-3  
 2.480000000000000E10    4.384617786854506E-4  -3.538643068168312E-5  
 2.482000000000000E10   -1.860085467342287E-4  -6.409065681509674E-4  
 2.484000000000000E10   -1.221850747242570E-3  -4.505971737671644E-4  
 2.486000000000000E10   -1.173848868347704E-3   6.167930550873280E-4  
 2.488000000000000E10    3.042877651751041E-4   1.196736004203558E-3  
 2.490000000000000E10    8.809487335383892E-4  -2.645785752974916E-5  
 2.492000000000000E10    8.766466635279357E-4  -3.694253973662853E-4  
 2.494000000000000E10   -1.344284246442840E-4   2.102655271301046E-4  
 2.496000000000000E10   -3.638593771029264E-4  -2.714566944632679E-4  
 2.498000000000000E10   -3.987677628174424E-4   6.637506885454059E-4  
 2.500000000000000E10   -4.156386421527714E-4   1.273771165870130E-3  
 2.502000000000000E10    7.969205616973341E-4   4.972729220753536E-5  
 2.504000000000000E10    5.109577323310077E-4  -1.012260559946299E-3  
 2.506000000000000E10   -5.281343474052846E-4  -1.205159467644990E-3  
 2.508000000000000E10   -4.346981586422771E-4   1.762100509949960E-5  
 2.510000000000000E10    6.338894017972052E-4   1.040175324305892E-3  
 2.512000000000000E10    1.281747710891068E-3   5.122906295582652E-4  
 2.514000000000000E10    6.762594566680491E-4  -3.744130954146385E-4  
 2.516000000000000E10   -3.332544874865562E-4   1.035022651194595E-4  
 2.518000000000000E10   -6.188070983625948E-4   5.212162504903972E-4  
 2.520000000000000E10   -5.509240436367691E-4   7.665659650228918E-4  
 2.522000000000000E10    2.522704562579747E-5   9.035188122652471E-4  
 2.524000000000000E10    8.429932058788836E-4  -1.191785031551262E-5  
 2.526000000000000E10    1.018941751681268E-3  -1.479028491303325E-3  
 2.528000000000000E10   -9.194032172672451E-4  -1.325668185018003E-3  
 2.530000000000000E10   -3.480200248304755E-4   8.092319476418197E-4  
 2.532000000000000E10    1.119958469644189E-3   1.170212286524475E-3  
 2.534000000000000E10    6.959895254112780E-4  -6.008335913065821E-5  
 2.536000000000000E10    4.004561342298985E-4  -4.889828851446509E-4  
 2.538000000000000E10   -7.321233715629205E-5  -4.446907551027834E-4  
 2.540000000000000E10   -3.496133722364903E-4  -4.727140476461500E-4  
 2.542000000000000E10   -2.967783366329968E-4   1.352495019091293E-4  
 2.544000000000000E10   -3.121617482975125E-4   1.504688843851909E-4  
 2.546000000000000E10    7.722094887867570E-4   4.225560114718974E-4  
 2.548000000000000E10    6.550226826220751E-4  -3.836716350633651E-4  
 2.550000000000000E10   -6.079567247070372E-4  -1.372175989672542E-3  
 2.552000000000000E10   -1.283911406062543E-3   3.590820706449449E-4  
 2.554000000000000E10    4.335977428127080E-4   1.081986818462610E-3  
 2.556000000000000E10    7.007177919149399E-4  -3.355440858285874E-4  
 2.558000000000000E10    4.790582897840068E-5  -6.979863974265754E-4  
 2.560000000000000E10    1.408331008860841E-4   4.335570338298567E-5  
 2.562000000000000E10   -1.481525687268004E-4  -4.457984687178396E-5  
 2.564000000000000E10   -7.792605319991708E-4   4.630321927834302E-4  
 2.566000000000000E10    1.167170266853645E-4   1.132012112066150E-3  
 2.568000000000000E10    1.084297313354909E-3   6.929544615559280E-4  
 2.570000000000000E10    5.676863293047063E-5  -1.021694275550544E-3  
 2.572000000000000E10   -1.186242327094078E-3  -7.904974045231938E-4  
 2.574000000000000E10   -1.125173177570105E-3   6.766089936718345E-4  
 2.576000000000000E10    5.525890737771988E-4   8.830286096781492E-4  
 2.578000000000000E10    8.796838228590787E-4  -3.366868477314711E-4  
 2.580000000000000E10    2.661079342942685E-4  -9.039370925165713E-4  
 2.582000000000000E10   -8.425315172644332E-5   4.267725162208080E-4  
 2.584000000000000E10   -6.842949460406089E-6   2.375236654188484E-4  
 2.586000000000000E10   -2.509494661353529E-4   3.530679096002132E-4  
 2.588000000000000E10   -1.406056398991495E-4   3.659239155240357E-4  
 2.590000000000000E10    1.106375944800675E-3   4.914826131425798E-4  
 2.592000000000000E10    3.113475759164430E-5  -1.293162349611521E-3  
 2.594000000000000E10   -8.322555804625154E-4  -1.487496774643660E-3  
 2.596000000000000E10   -2.566553303040564E-4   2.177178248530254E-4  
 2.598000000000000E10    1.215661643072963E-3   2.828927244991064E-4  
 2.600000000000000E10    9.534138953313232E-4  -7.532822783105075E-4  
 2.602000000000000E10    6.340832915157080E-4  -1.230529014719650E-4  
 2.604000000000000E10    2.072074130410329E-4  -1.010959167615511E-4  
 2.606000000000000E10   -2.518766850698739E-4  -3.617969923652709E-4  
 2.608000000000000E10   -9.654674213379622E-4   6.036817649146542E-5  
 2.610000000000000E10   -3.288464795332402E-4   2.458787057548761E-4  
 2.612000000000000E10    5.014849011786282E-4  -6.478408613475040E-5  
 2.614000000000000E10    7.072465377859771E-4  -1.427812967449427E-3  
 2.616000000000000E10   -7.323169265873730E-4  -1.166834961622953E-3  
 2.618000000000000E10   -7.166043506003916E-4   1.749114744598046E-4  
 2.620000000000000E10    8.620189619250596E-4   1.317492336966097E-3  
 2.622000000000000E10    2.157758135581389E-4  -3.578270261641592E-4  
 2.624000000000000E10    4.108976572751999E-4  -1.329841470578685E-4  
 2.626000000000000E10   -9.272496681660414E-4   2.187008940381929E-4  
 2.628000000000000E10   -4.966123960912228E-4  -8.205911726690829E-4  
 2.630000000000000E10   -9.839180856943131E-4   3.289396117907018E-4  
 2.632000000000000E10   -4.014242440462112E-4   8.151618530973792E-4  
 2.634000000000000E10    7.439237087965012E-4   2.548153861425817E-4  
 2.636000000000000E10    7.935892790555954E-4  -1.361057395115495E-3  
 2.638000000000000E10   -5.560952122323215E-4  -3.053485706914216E-4  
 2.640000000000000E10   -8.849676814861596E-4   2.552693767938763E-4  
 2.642000000000000E10    5.923068965785205E-4   1.630776212550700E-3  
 2.644000000000000E10    3.992819983977824E-4   8.759077172726393E-4  
 2.646000000000000E10    4.196865484118462E-4  -1.409867545589805E-4  
 2.648000000000000E10   -4.725095641333610E-4   2.649913949426264E-4  
 2.650000000000000E10   -6.268648430705071E-4   4.945300315739587E-5  
 2.652000000000000E10   -9.106526267714799E-4   4.815025313291699E-4  
 2.654000000000000E10   -1.924479693116155E-5   1.103451591916382E-3  
 2.656000000000000E10    5.323913064785302E-4   2.981594298034906E-4  
 2.658000000000000E10    1.743797183735296E-4  -9.144859504885972E-4  
 2.660000000000000E10   -4.669916233979166E-4   1.684321468928829E-4  
 2.662000000000000E10   -1.075352192856371E-3   8.542123250663281E-4  
 2.664000000000000E10    4.081067745573819E-4   1.140677486546338E-3  
 2.666000000000000E10    7.969083380885422E-4   5.093722720630467E-4  
 2.668000000000000E10    4.731622757390142E-4  -5.911195330554619E-6  
 2.670000000000000E10   -4.073317977599800E-4  -2.094176597893238E-4  
 2.672000000000000E10   -6.452715606428683E-4   1.143199915532023E-4  
 2.674000000000000E10   -4.725351755041629E-4   8.004339179024100E-4  
 2.676000000000000E10    1.844956277636811E-4   5.200476152822375E-4  
 2.678000000000000E10    9.436496184207499E-4  -6.441918230848387E-5  
 2.680000000000000E10    6.328225135803223E-4  -4.828353703487665E-4  
 2.682000000000000E10    6.480421143351123E-5  -8.646663627587259E-4  
 2.684000000000000E10   -2.312130964128301E-4   6.621026550419629E-4  
 2.686000000000000E10    7.199217798188329E-4   1.086404430679977E-3  
 2.688000000000000E10    1.263540238142014E-3   4.069134010933340E-4  
 2.690000000000000E10    5.062159034423530E-4   9.095432324102148E-5  
 2.692000000000000E10    5.669841193594039E-4  -5.582090816460550E-4  
 2.694000000000000E10   -4.485253302846104E-4  -1.949148281710222E-4  
 2.696000000000000E10    1.825118488341104E-5   2.774290624074638E-4  
 2.698000000000000E10    8.077402017079294E-4   9.137854212895036E-4  
 2.700000000000000E10    1.120959874242544E-3  -5.309712723828852E-4  
 2.702000000000000E10    1.109433011151850E-3  -6.622948567382991E-4  
 2.704000000000000E10   -2.171132946386933E-4  -1.846896484494209E-4  
 2.706000000000000E10   -1.596618130861316E-5   3.279401862528175E-4  
 2.708000000000000E10    3.858550044242293E-4   7.224398432299495E-4  
 2.710000000000000E10    7.410406833514571E-4   4.297466948628426E-4  
 2.712000000000000E10    3.205547400284559E-4  -6.866788025945425E-4  
 2.714000000000000E10   -2.517486791475676E-5  -6.575816078111529E-4  
 2.716000000000000E10   -3.405599272809923E-4  -5.813064053654671E-4  
 2.718000000000000E10   -5.095392407383770E-5  -2.048504829872400E-4  
 2.720000000000000E10    2.557926927693188E-4   5.796432378701866E-4  
 2.722000000000000E10    1.197915873490274E-3  -1.242178550455719E-4  
 2.724000000000000E10    9.740178356878460E-4  -9.698595968075097E-4  
 2.726000000000000E10   -2.999973075930029E-4  -7.619516691192985E-4  
 2.728000000000000E10   -5.355864996090531E-4   5.401263479143381E-4  
 2.730000000000000E10   -4.278987762518227E-5   2.125928876921535E-4  
 2.732000000000000E10    8.713701972737908E-4  -7.672891661059111E-5  
 2.734000000000000E10    2.761608629953116E-4  -1.133727491833270E-3  
 2.736000000000000E10    2.673616691026837E-4  -1.290681073442102E-3  
 2.738000000000000E10   -5.892445915378630E-4  -3.653209132608026E-4  
 2.740000000000000E10   -4.145969869568944E-4  -1.796385477064177E-4  
 2.742000000000000E10    4.053948505315930E-4   8.617289131507278E-4  
 2.744000000000000E10    6.868970231153071E-4   9.951466199709103E-5  
 2.746000000000000E10    1.951039303094149E-4  -1.264231279492378E-3  
 2.748000000000000E10   -1.277507166378200E-3  -6.472506211139262E-4  
 2.750000000000000E10   -9.365038131363690E-4   7.539623766206205E-4  
 2.752000000000000E10    5.677905865013599E-4   6.332339835353196E-4  
 2.754000000000000E10    3.712907782755792E-4  -8.420968079008162E-4  
 2.756000000000000E10   -2.472832566127181E-4  -5.065347650088370E-4  
