#  HZ   S   RI   R     50.00 
! Rohde & Schwarz ZVA40 4Ports - Version 3.90 - 1145.1110k42 SN: 100403
! Date: 2023-10-04 11:38:45
! Measurement: S12 
! 
 2.200000000000000E10   -1.271286280825734E-3   5.816676421090961E-4  
 2.202000000000000E10    3.621955111157149E-4   5.339111667126417E-4  
 2.204000000000000E10   -4.913784796372056E-4  -1.114455866627395E-3  
 2.206000000000000E10   -4.924827371723950E-4  -1.044149510562420E-3  
 2.208000000000000E10   -4.463283112272620E-4   2.247989177703857E-4  
 2.210000000000000E10   -2.769910788629204E-4   1.741452615533490E-5  
 2.212000000000000E10    1.030131679726765E-4   4.885048256255686E-4  
 2.214000000000000E10    2.589365176390857E-4   1.674328232184053E-3  
 2.216000000000000E10    1.083567971363664E-3  -1.678042754065245E-4  
 2.218000000000000E10   -1.135750208050013E-3  -6.394071388058364E-4  
 2.220000000000000E10   -2.506415359675884E-3   5.340990028344095E-4  
 2.222000000000000E10    2.517047687433660E-4   2.353659830987454E-3  
 2.224000000000000E10    1.580695738084614E-3  -2.299072366440669E-4  
 2.226000000000000E10    4.528124118223786E-4  -1.724900212138891E-3  
 2.228000000000000E10   -1.070544589310885E-3  -2.000755630433559E-4  
 2.230000000000000E10    3.034622059203684E-4   1.513077644631267E-3  
 2.232000000000000E10    9.289784939028323E-4   1.807033782824874E-3  
 2.234000000000000E10    5.675110733136535E-4   5.218868609517813E-4  
 2.236000000000000E10    3.100689809798496E-6   8.674207492731512E-4  
 2.238000000000000E10   -1.038753034663387E-4   2.964462619274855E-4  
 2.240000000000000E10   -1.526062405901030E-4   1.402980415150523E-4  
 2.242000000000000E10   -8.013902115635574E-4   1.073979190550745E-3  
 2.244000000000000E10    1.091738464310765E-3   7.638606475666165E-4  
 2.246000000000000E10    2.622827654704452E-3  -1.557983923703432E-4  
 2.248000000000000E10    1.297574490308762E-4  -7.530200527980924E-4  
 2.250000000000000E10    1.533883914817125E-4   1.404603390255943E-4  
 2.252000000000000E10    1.524455263279378E-3   1.671391306445003E-3  
 2.254000000000000E10    1.162078347988427E-3  -7.966395933181047E-4  
 2.256000000000000E10    5.382098024711013E-4  -1.158160303020850E-4  
 2.258000000000000E10    1.706542389001697E-4   3.878092684317380E-4  
 2.260000000000000E10    1.265693455934525E-3  -1.043439988279715E-4  
 2.262000000000000E10    3.638760244939476E-4  -1.050157472491264E-3  
 2.264000000000000E10    5.737700848840177E-4  -6.816202658228576E-4  
 2.266000000000000E10   -4.283211601432413E-4   3.452053351793438E-4  
 2.268000000000000E10    1.669290941208601E-3  -5.960633861832321E-4  
 2.270000000000000E10    1.070171128958464E-3  -6.168487016111612E-4  
 2.272000000000000E10   -3.075068234466016E-4  -1.837959629483521E-3  
 2.274000000000000E10    6.138433236628771E-4   3.242808743380010E-4  
 2.276000000000000E10    4.408505628816783E-4  -2.714655129238963E-4  
 2.278000000000000E10    6.784148863516748E-4  -6.380769627867267E-5  
 2.280000000000000E10    5.576895782724023E-4   4.295012913644314E-4  
 2.282000000000000E10    1.264928607270122E-3   3.283114153873612E-7  
 2.284000000000000E10   -6.413265946321189E-4  -1.490175724029541E-3  
 2.286000000000000E10   -1.509563066065311E-3  -3.385924210306257E-4  
 2.288000000000000E10    2.260734800074715E-5   1.135875354520977E-3  
 2.290000000000000E10    7.694053347222507E-4  -2.216256980318576E-4  
 2.292000000000000E10    3.656439657788724E-4  -1.700086868368089E-3  
 2.294000000000000E10   -1.114637940190733E-3  -1.413864782080054E-3  
 2.296000000000000E10   -1.120380708016455E-3   6.929523078724742E-5  
 2.298000000000000E10    2.715134469326586E-4   6.274842889979482E-4  
 2.300000000000000E10    5.210261442698538E-4  -3.085864009335637E-4  
 2.302000000000000E10    3.312828193884343E-4  -9.447263437323272E-4  
 2.304000000000000E10   -3.231205919291824E-4  -2.635246783029288E-4  
 2.306000000000000E10   -7.250180351547897E-4  -5.373320891521871E-4  
 2.308000000000000E10   -1.052916399203241E-3   7.706643082201481E-4  
 2.310000000000000E10   -1.036834291880950E-4   8.203479810617864E-4  
 2.312000000000000E10    7.798614678904414E-4   8.182951569324359E-5  
 2.314000000000000E10   -3.488860966172069E-4  -1.046933466568589E-3  
 2.316000000000000E10   -1.491929520852864E-3  -4.226489108987153E-4  
 2.318000000000000E10   -8.667302317917347E-4   2.664504863787442E-4  
 2.320000000000000E10    1.907953264890239E-4   5.738615873269737E-4  
 2.322000000000000E10    1.828750973800197E-4  -7.126697164494544E-5  
 2.324000000000000E10    5.656158900819719E-4  -5.934959626756609E-4  
 2.326000000000000E10   -5.816147895529866E-4  -6.555119180120528E-4  
 2.328000000000000E10    5.721378329326399E-5   1.289227220695466E-4  
 2.330000000000000E10   -5.822827806696296E-4   1.048138365149498E-3  
 2.332000000000000E10   -3.754615609068424E-4   7.894684094935656E-4  
 2.334000000000000E10    6.758876261301339E-4   1.010751118883491E-3  
 2.336000000000000E10    4.574533377308399E-4  -3.509245289023966E-4  
 2.338000000000000E10   -8.632144308649004E-4  -6.665078690275550E-4  
 2.340000000000000E10   -9.195096790790558E-4   7.127409335225821E-4  
 2.342000000000000E10    2.300004998687655E-4   1.332971383817494E-3  
 2.344000000000000E10    7.252246723510325E-4  -5.913048153161071E-5  
 2.346000000000000E10    4.533840401563793E-4  -5.388848367147148E-4  
 2.348000000000000E10    7.344572804868221E-5  -5.737092578783631E-4  
 2.350000000000000E10   -1.162642292911187E-4  -1.276682160096243E-4  
 2.352000000000000E10   -2.595672558527440E-4   8.324316004291177E-4  
 2.354000000000000E10    1.125809154473245E-3   9.601328638382256E-4  
 2.356000000000000E10    6.129741086624563E-4   7.529038703069091E-5  
 2.358000000000000E10    3.964526404161006E-4  -6.927773938514292E-4  
 2.360000000000000E10   -7.869689143262804E-4  -3.907653153873980E-4  
 2.362000000000000E10   -7.240723934955895E-4   2.790792204905301E-4  
 2.364000000000000E10    5.038608796894550E-4   1.752950018271804E-3  
 2.366000000000000E10    1.178881735540927E-3  -5.293510039336979E-4  
 2.368000000000000E10    4.961796803399921E-4  -7.536297780461609E-4  
 2.370000000000000E10   -9.547587251290679E-4  -2.483153366483748E-4  
 2.372000000000000E10   -1.735680270940065E-4   7.961876690387726E-5  
 2.374000000000000E10   -1.728718343656510E-4   3.119029279332608E-4  
 2.376000000000000E10    8.774879388511181E-4   4.670584457926452E-4  
 2.378000000000000E10    8.617144194431603E-4  -3.784711007028818E-4  
 2.380000000000000E10    1.256008545169607E-4  -6.089307717047632E-4  
 2.382000000000000E10   -1.117443898692727E-3  -2.013789344346151E-4  
 2.384000000000000E10    2.633600961416960E-4   6.165606318973005E-4  
 2.386000000000000E10   -2.423772821202874E-4   1.000281074084342E-3  
 2.388000000000000E10    9.922794997692108E-4   1.492584706284106E-4  
 2.390000000000000E10    5.496291560120881E-4  -1.646552409511060E-4  
 2.392000000000000E10   -1.062944880686700E-3  -8.079685503616929E-4  
 2.394000000000000E10   -8.983478765003383E-4   7.472990546375513E-4  
 2.396000000000000E10   -3.168830298818648E-4   6.558655295521021E-4  
 2.398000000000000E10    3.061347233597189E-4   5.271810223348439E-4  
 2.400000000000000E10    3.216845216229558E-4  -1.751470263116062E-4  
 2.402000000000000E10    1.769560331013054E-4  -6.448801141232252E-4  
 2.404000000000000E10   -1.256739487871528E-3  -3.154240548610687E-4  
 2.406000000000000E10    1.146398335549748E-5   9.413409861736000E-4  
 2.408000000000000E10    4.283645248506218E-4   1.191962976008654E-3  
 2.410000000000000E10    1.147000701166689E-3  -1.254919043276459E-4  
 2.412000000000000E10    1.360172464046627E-4  -2.248849050374702E-4  
 2.414000000000000E10   -2.886212314479053E-4  -3.906845231540501E-4  
 2.416000000000000E10   -7.256873650476337E-4   9.860543068498373E-4  
 2.418000000000000E10    2.188696453231387E-5   9.530932293273509E-4  
 2.420000000000000E10    7.876885938458145E-4   6.832544459030032E-4  
 2.422000000000000E10    1.359773013973609E-4  -1.212979084812105E-3  
 2.424000000000000E10    2.182761381845921E-4  -7.779130828566849E-4  
 2.426000000000000E10   -8.975333184935153E-4  -4.600527754519135E-4  
 2.428000000000000E10   -1.064567477442324E-4   2.671376569196582E-4  
 2.430000000000000E10    6.984169594943523E-4   1.326051307842135E-3  
 2.432000000000000E10    1.496912562288344E-3  -3.599167685024440E-4  
 2.434000000000000E10    1.442017237422988E-4  -1.038658898323774E-3  
 2.436000000000000E10   -6.216801120899618E-4  -3.761172993108630E-4  
 2.438000000000000E10   -9.532184922136366E-4   4.871026903856546E-4  
 2.440000000000000E10   -8.544191950932145E-5   5.474186618812382E-4  
 2.442000000000000E10    2.248408272862434E-4   1.390441957482835E-5  
 2.444000000000000E10    4.040980129502714E-4  -1.286806655116379E-3  
 2.446000000000000E10   -9.845762542681769E-5  -1.376495929434896E-3  
 2.448000000000000E10   -9.596153395250440E-4  -1.165503126685508E-4  
 2.450000000000000E10   -1.234855590155348E-4   8.430846501141787E-4  
 2.452000000000000E10    1.011247630231082E-3   6.753216730430722E-4  
 2.454000000000000E10    6.400825222954154E-4   3.921508687199093E-5  
 2.456000000000000E10   -3.971139085479081E-4  -7.047266117297113E-4  
 2.458000000000000E10   -6.660373765043914E-4   9.876200783764944E-5  
 2.460000000000000E10   -1.031958498060703E-3   5.169545183889568E-4  
 2.462000000000000E10   -2.731600252445787E-4   4.431394918356091E-4  
 2.464000000000000E10    7.335231057368219E-4   2.152216766262427E-4  
 2.466000000000000E10    8.227392681874335E-4  -6.472326349467039E-4  
 2.468000000000000E10    6.157847383292392E-5  -1.415536622516811E-3  
 2.470000000000000E10   -5.769557319581509E-4   3.699136505019851E-5  
 2.472000000000000E10   -2.735609996307176E-5   1.169823110103607E-3  
 2.474000000000000E10    1.372428727336228E-3   5.012971814721823E-4  
 2.476000000000000E10    6.948037189431489E-4  -3.466506605036557E-4  
 2.478000000000000E10   -3.380073467269540E-4  -7.887657266110182E-4  
 2.480000000000000E10   -5.308060281095095E-5  -2.351329458178952E-4  
 2.482000000000000E10    6.928950369911036E-6  -3.249395813327283E-4  
 2.484000000000000E10   -1.421826455043629E-4   3.458172723185271E-4  
 2.486000000000000E10    5.265694344416261E-4   1.592290791450068E-4  
 2.488000000000000E10    1.150243217125535E-3  -9.833257645368576E-4  
 2.490000000000000E10   -7.053755107335746E-4  -1.129176351241767E-3  
 2.492000000000000E10   -1.227233326062560E-3  -3.740722895599902E-4  
 2.494000000000000E10    1.877266004157718E-5   7.814817945472896E-4  
 2.496000000000000E10    9.936937130987644E-4   4.737955168820918E-4  
 2.498000000000000E10    6.727712461724877E-4  -8.664559572935104E-4  
 2.500000000000000E10   -3.608294355217367E-4  -8.966305176727474E-4  
 2.502000000000000E10   -6.443514721468091E-4   1.117584761232138E-4  
 2.504000000000000E10   -6.543255876749754E-4   4.579804663080722E-4  
 2.506000000000000E10   -4.852064012084156E-5   5.416857311502099E-4  
 2.508000000000000E10    6.328064046101645E-5   6.015789113007486E-4  
 2.510000000000000E10    1.287300547119230E-4  -8.500017574988306E-4  
 2.512000000000000E10   -9.280095109716058E-4  -1.652862760238349E-3  
 2.514000000000000E10   -1.550919259898365E-3  -3.687010321300477E-4  
 2.516000000000000E10   -6.150371627882123E-4   9.849884081631899E-4  
 2.518000000000000E10    8.595663821324706E-4   1.133593032136560E-4  
 2.520000000000000E10    4.508902202360332E-4  -7.782912580296397E-4  
 2.522000000000000E10   -7.793444092385471E-4   7.490038115065545E-5  
 2.524000000000000E10   -7.602727855555713E-4   5.976589163765311E-4  
 2.526000000000000E10   -7.684481679461896E-4   1.423956942744553E-3  
 2.528000000000000E10   -7.816050783731043E-4   5.447458825074136E-4  
 2.530000000000000E10   -2.941029379144311E-4   5.210775416344404E-4  
 2.532000000000000E10   -1.879590272437781E-4  -5.253453855402768E-4  
 2.534000000000000E10   -3.824178420472890E-4  -9.632994770072401E-4  
 2.536000000000000E10   -1.128630829043686E-3   9.767285519046709E-5  
 2.538000000000000E10   -1.398823369527236E-4   1.456480589695275E-3  
 2.540000000000000E10    1.363700721412897E-3   9.573310962878168E-4  
 2.542000000000000E10    5.338673363439739E-4  -4.693305527325720E-4  
 2.544000000000000E10   -8.920097025111318E-4  -3.106732910964638E-4  
 2.546000000000000E10   -5.306326784193516E-4   1.000638352707028E-3  
 2.548000000000000E10   -8.534939843229950E-5   2.086645254166797E-4  
 2.550000000000000E10   -7.633212226210162E-5   4.033082514069974E-4  
 2.552000000000000E10    4.262255679350346E-4   6.852918886579573E-4  
 2.554000000000000E10    1.206366461701691E-3  -3.637463087216020E-4  
 2.556000000000000E10   -1.699888525763527E-5  -9.113677078858018E-4  
 2.558000000000000E10   -8.561484864912927E-4   1.388695236528292E-4  
 2.560000000000000E10    2.133558446075767E-4   1.138274208642542E-3  
 2.562000000000000E10    1.439379644580185E-3   3.788493922911584E-4  
 2.564000000000000E10    4.717455303762108E-4  -7.455686572939158E-4  
 2.566000000000000E10   -6.321871769614518E-4  -1.035351073369384E-3  
 2.568000000000000E10   -7.140758098103106E-4   2.234710118500516E-4  
 2.570000000000000E10   -2.668195884325542E-5   2.379133002250455E-5  
 2.572000000000000E10    6.239440990611911E-4  -2.517739194445312E-4  
 2.574000000000000E10    3.848280175589025E-4  -6.572555139428005E-5  
 2.576000000000000E10    6.704181432723999E-4  -5.649316008202732E-4  
 2.578000000000000E10   -3.842484147753567E-4  -6.712236208841205E-4  
 2.580000000000000E10   -8.050960022956133E-4   1.455700839869678E-4  
 2.582000000000000E10   -3.540945763234049E-4   1.395700499415398E-3  
 2.584000000000000E10    1.167114125564694E-3  -2.155476395273581E-4  
 2.586000000000000E10   -1.238121330970898E-4  -1.017897855490446E-3  
 2.588000000000000E10   -7.445379160344601E-4  -8.809707942418754E-4  
 2.590000000000000E10   -4.559854858143808E-7   6.008599884808064E-4  
 2.592000000000000E10   -6.153908907435834E-5  -9.839569975156337E-5  
 2.594000000000000E10    3.048402722924948E-4   5.168276256881654E-4  
 2.596000000000000E10    3.276638744864613E-5   2.384624967817217E-4  
 2.598000000000000E10    2.018618688452989E-4  -3.225727996323258E-4  
 2.600000000000000E10   -6.697784410789609E-4  -7.458157488144934E-4  
 2.602000000000000E10   -7.912795990705490E-4   1.619626564206556E-4  
 2.604000000000000E10   -6.307847797870636E-4   1.466619200073183E-3  
 2.606000000000000E10    1.072937739081681E-3   3.520326863508672E-4  
 2.608000000000000E10    5.105016171000898E-4  -2.933802315965295E-4  
 2.610000000000000E10   -7.473506266251206E-4  -7.609775639139116E-4  
 2.612000000000000E10   -5.885339924134314E-4   1.291166990995407E-3  
 2.614000000000000E10   -3.366386808920652E-4   8.542291470803320E-4  
 2.616000000000000E10    6.800657956773648E-6   7.980164955370128E-4  
 2.618000000000000E10    4.876762977801263E-5   4.313169483793899E-5  
 2.620000000000000E10    2.154789253836498E-4  -9.864330058917403E-5  
 2.622000000000000E10   -7.147720898501575E-4  -8.553688530810177E-4  
 2.624000000000000E10   -1.763976179063320E-4   2.260416804347187E-4  
 2.626000000000000E10   -3.890670632245019E-5   9.382017888128758E-4  
 2.628000000000000E10    1.610365579836071E-3   1.668199984123930E-4  
 2.630000000000000E10    9.711468010209501E-4  -2.833467733580619E-4  
 2.632000000000000E10   -6.440168363042176E-4  -8.408791618421674E-4  
 2.634000000000000E10   -7.873111753724515E-4   6.892915698699653E-4  
 2.636000000000000E10    1.328329090029001E-4   7.074603927321732E-4  
 2.638000000000000E10    3.109553363174200E-4   1.337023513769964E-5  
 2.640000000000000E10    2.734099980443716E-4  -1.004739431664348E-3  
 2.642000000000000E10    5.727238021790981E-4  -5.351966829039156E-4  
 2.644000000000000E10   -5.961576825939119E-4  -1.096753985621035E-3  
 2.646000000000000E10   -8.553482621209696E-5  -9.154999133897945E-5  
 2.648000000000000E10    1.300774747505784E-4   8.364691748283804E-4  
 2.650000000000000E10    1.107259187847376E-3   3.267450301791541E-5  
 2.652000000000000E10    9.165338124148548E-4  -5.923496210016310E-4  
 2.654000000000000E10   -6.457805866375566E-4  -9.583493811078370E-4  
 2.656000000000000E10   -9.299663943238556E-4  -1.937211054610089E-4  
 2.658000000000000E10    7.071487925713882E-5   1.205858934554271E-4  
 2.660000000000000E10    8.698508609086275E-4  -3.017108538188040E-4  
 2.662000000000000E10    2.965073508676142E-5  -1.071805250830948E-3  
 2.664000000000000E10    1.477572222938761E-4  -8.913224446587265E-4  
 2.666000000000000E10    1.487824483774602E-4  -3.834931412711740E-4  
 2.668000000000000E10   -6.440639263018966E-4  -7.826842920621857E-5  
 2.670000000000000E10    2.185086777899414E-4   3.929367521777749E-4  
 2.672000000000000E10    9.819671977311373E-4   7.008421816863120E-4  
 2.674000000000000E10    1.722596207400784E-4  -1.018465845845640E-3  
 2.676000000000000E10   -9.051009546965361E-4  -7.295454270206392E-4  
 2.678000000000000E10   -1.205634907819331E-3   2.112157962983474E-4  
 2.680000000000000E10   -4.271313082426786E-4   1.523712126072496E-4  
 2.682000000000000E10    3.134365251753479E-4  -8.123739098664373E-5  
 2.684000000000000E10    9.727706492412835E-5  -1.133067533373833E-3  
 2.686000000000000E10   -2.348984999116510E-4  -1.398802618496120E-3  
 2.688000000000000E10   -3.444113244768232E-4  -6.399082485586405E-4  
 2.690000000000000E10   -9.319735108874738E-4   2.489702310413122E-4  
 2.692000000000000E10   -2.518443216104060E-4   8.065276779234409E-4  
 2.694000000000000E10    3.669447323773056E-4   4.729453648906201E-4  
 2.696000000000000E10    2.122967453033198E-5  -5.221379688009620E-4  
 2.698000000000000E10   -1.428873278200626E-3  -8.000592933967710E-4  
 2.700000000000000E10   -1.772654708474875E-3   5.755437086918391E-5  
 2.702000000000000E10   -4.692413785960525E-4   9.288986329920590E-4  
 2.704000000000000E10   -6.300631866906770E-6  -5.865137791261077E-4  
 2.706000000000000E10   -8.092639473034069E-5  -8.829074213281274E-4  
 2.708000000000000E10   -3.667540440801531E-4  -6.804785807617009E-4  
 2.710000000000000E10   -5.871992325410247E-4   1.278480067412602E-5  
 2.712000000000000E10   -6.360621191561222E-4   8.604585891589522E-4  
 2.714000000000000E10   -6.699403456877917E-5   1.092312042601407E-3  
 2.716000000000000E10    5.020303651690483E-4   6.724789272993803E-4  
 2.718000000000000E10   -4.899511113762856E-4  -7.131780148483813E-4  
 2.720000000000000E10   -1.428462099283934E-3  -7.327618368435651E-5  
 2.722000000000000E10   -1.102116424590349E-3   2.216705906903371E-4  
 2.724000000000000E10   -1.186559870802739E-6   9.970752289518714E-4  
 2.726000000000000E10    5.050927866250277E-4  -1.553663169033825E-4  
 2.728000000000000E10    6.256690248847008E-4  -4.527304263319820E-4  
 2.730000000000000E10    5.810525544802658E-5   4.699621058534831E-4  
 2.732000000000000E10   -5.766715621575713E-4   4.403561761137098E-4  
 2.734000000000000E10   -4.415158182382584E-4   1.049504731781781E-3  
 2.736000000000000E10    1.807435473892838E-4   1.235982286743820E-3  
 2.738000000000000E10    7.283018203452230E-4   4.423803766258061E-4  
 2.740000000000000E10   -1.862412609625608E-4  -4.574345366563648E-4  
 2.742000000000000E10   -7.530216244049370E-4  -1.184903885587119E-5  
 2.744000000000000E10   -2.187228528782725E-4   7.130177109502256E-4  
 2.746000000000000E10    7.838351884856820E-4   3.156293241772801E-4  
 2.748000000000000E10    1.007364480756223E-3   2.294985170010477E-4  
 2.750000000000000E10    7.555467309430242E-4   1.872547909442801E-5  
 2.752000000000000E10    7.587432628497481E-4   1.214654766954482E-4  
 2.754000000000000E10   -2.386102569289506E-4  -6.526886409119470E-6  
 2.756000000000000E10    2.352902265556622E-5   5.750078707933426E-4  
