#  HZ   S   RI   R     50.00 
! Rohde & Schwarz ZVA40 4Ports - Version 3.90 - 1145.1110k42 SN: 100403
! Date: 2023-10-04 11:38:19
! Measurement: S12 
! 
 2.200000000000000E10    9.964763885363936E-4  -1.049335478455760E-4  
 2.202000000000000E10    1.266717561520636E-3  -1.151278731413186E-3  
 2.204000000000000E10    1.865593221737072E-4  -1.293473062105477E-3  
 2.206000000000000E10   -2.040791005128995E-4   2.971486828755587E-4  
 2.208000000000000E10    8.745588129386306E-4   1.255369861610234E-4  
 2.210000000000000E10   -9.876977856038138E-5  -6.858556880615652E-4  
 2.212000000000000E10   -6.066641071811318E-4  -1.726127520669252E-4  
 2.214000000000000E10   -4.712118243332952E-4   1.892528816824779E-4  
 2.216000000000000E10   -2.377683704253286E-4  -6.964885978959501E-4  
 2.218000000000000E10    8.205296471714973E-4  -8.896136423572898E-4  
 2.220000000000000E10   -3.064472111873329E-4  -1.579837989993393E-3  
 2.222000000000000E10   -2.957965079986025E-6  -5.924007273279131E-4  
 2.224000000000000E10    2.393357717664912E-4   1.279264397453517E-4  
 2.226000000000000E10    3.179808263666928E-4   6.115181604400277E-4  
 2.228000000000000E10    6.143221980892122E-5   8.758766343817115E-4  
 2.230000000000000E10   -4.068872949574143E-4  -5.777936312370002E-4  
 2.232000000000000E10   -1.760758692398667E-3  -1.172310090623796E-3  
 2.234000000000000E10   -1.949980854988098E-3   6.008351338095963E-4  
 2.236000000000000E10   -7.470034761354327E-4   7.283783634193242E-4  
 2.238000000000000E10    8.709742105565965E-4  -7.395518478006125E-4  
 2.240000000000000E10   -7.387444202322513E-5  -1.035180408507586E-3  
 2.242000000000000E10   -1.219475409016013E-3  -3.815575619228184E-4  
 2.244000000000000E10   -1.261602272279561E-3   1.046076882630587E-3  
 2.246000000000000E10    3.212422016076744E-4   1.834515249356628E-3  
 2.248000000000000E10   -1.458684855606407E-4   1.015289337374270E-3  
 2.250000000000000E10   -3.402337315492332E-4  -4.024207883048803E-4  
 2.252000000000000E10   -1.437102095223963E-3   8.355993777513504E-4  
 2.254000000000000E10   -1.425832509994507E-3   1.362578768748790E-4  
 2.256000000000000E10   -4.576040955726057E-4   1.145495451055467E-3  
 2.258000000000000E10   -2.735456509981304E-4   9.815051453188062E-4  
 2.260000000000000E10    1.166136935353279E-3   4.294963218853809E-6  
 2.262000000000000E10   -1.866210222942755E-4  -3.760521358344704E-4  
 2.264000000000000E10   -6.931516109034419E-4   8.853887557052076E-4  
 2.266000000000000E10   -5.136672407388687E-4   1.688573742285371E-3  
 2.268000000000000E10    5.784523091278970E-4   3.336184017825872E-4  
 2.270000000000000E10    1.804942876333371E-4   7.689712801948190E-4  
 2.272000000000000E10    2.192146057495847E-4   1.835561852203682E-4  
 2.274000000000000E10    8.783161320025101E-6   4.216524830553681E-4  
 2.276000000000000E10   -3.490061208140105E-4   1.013348810374737E-3  
 2.278000000000000E10    1.395026629325002E-4   9.211915312334895E-4  
 2.280000000000000E10    6.916185957379639E-4   7.555126212537289E-4  
 2.282000000000000E10    2.337218465982005E-4   9.646507096476853E-4  
 2.284000000000000E10    1.057743094861507E-3  -1.182772539323196E-4  
 2.286000000000000E10    2.472773485351354E-5   2.839278895407915E-4  
 2.288000000000000E10   -5.848854780197144E-4  -2.979719283757731E-6  
 2.290000000000000E10    7.070659194141626E-4   1.140459440648556E-3  
 2.292000000000000E10    3.305748396087438E-4  -2.582201268523932E-4  
 2.294000000000000E10    1.360641326755285E-3  -4.066033870913088E-4  
 2.296000000000000E10    4.327170317992568E-4  -4.147628205828369E-4  
 2.298000000000000E10    1.457658509025350E-4  -7.056653848849237E-4  
 2.300000000000000E10   -1.639205729588866E-4   8.533970103599131E-4  
 2.302000000000000E10    1.632524887099862E-3   3.882730088662356E-4  
 2.304000000000000E10    1.063444418832660E-3   5.015035276301205E-4  
 2.306000000000000E10    2.265900984639302E-4  -8.334471494890750E-4  
 2.308000000000000E10   -1.685640381765552E-5  -5.248754750937223E-4  
 2.310000000000000E10   -7.861376507207751E-4  -4.773133332491852E-5  
 2.312000000000000E10    6.331594777293503E-4   6.365929730236530E-4  
 2.314000000000000E10    1.323111588135362E-3  -2.793794847093523E-4  
 2.316000000000000E10    1.148850889876485E-3  -1.355340238660574E-3  
 2.318000000000000E10   -4.042515938635916E-4  -1.143738860264421E-3  
 2.320000000000000E10   -5.284697399474680E-4   5.488556344062090E-4  
 2.322000000000000E10    4.264116287231445E-4   6.587930838577449E-4  
 2.324000000000000E10    5.956070963293314E-4  -8.521127165295184E-5  
 2.326000000000000E10    5.198782309889793E-4  -3.295550413895398E-4  
 2.328000000000000E10   -2.239347813883796E-4  -1.187254441902041E-3  
 2.330000000000000E10   -1.344293472357094E-3  -7.529745926149190E-4  
 2.332000000000000E10   -3.831417125184089E-4  -9.952254913514480E-5  
 2.334000000000000E10    3.209130954928696E-5   2.164860343327746E-4  
 2.336000000000000E10    5.891527398489416E-4  -5.977030377835035E-4  
 2.338000000000000E10    3.063894109800458E-4  -1.132368342950940E-3  
 2.340000000000000E10   -6.475578993558884E-4  -6.499383016489446E-4  
 2.342000000000000E10   -1.227644970640540E-3   8.183424943126738E-4  
 2.344000000000000E10    1.711818622425199E-4   7.747396593913436E-4  
 2.346000000000000E10    4.455915186554194E-4   3.796342352870852E-4  
 2.348000000000000E10   -5.991085781715810E-4  -7.518967031501234E-4  
 2.350000000000000E10   -5.619372823275626E-4   1.540593075333163E-4  
 2.352000000000000E10   -1.066490542143583E-3  -7.093306048773229E-4  
 2.354000000000000E10   -8.354034507647157E-4   1.712687662802637E-4  
 2.356000000000000E10   -4.534898034762591E-4   1.160935033112764E-3  
 2.358000000000000E10    1.033154549077153E-3  -8.220288145821542E-5  
 2.360000000000000E10   -4.128321888856590E-4  -6.052358658052981E-4  
 2.362000000000000E10   -8.078543469309807E-4  -4.746487829834223E-4  
 2.364000000000000E10   -9.715839405544102E-4   1.484337029978633E-3  
 2.366000000000000E10    1.716026599751785E-5   1.095368759706616E-3  
 2.368000000000000E10    1.766132627381012E-4   6.743995472788811E-4  
 2.370000000000000E10   -8.934463403420523E-5  -1.150285825133324E-3  
 2.372000000000000E10   -3.084998461417854E-4  -2.150009677279741E-4  
 2.374000000000000E10   -9.552066330797970E-4   1.568165025673807E-4  
 2.376000000000000E10   -9.776631486602128E-6   9.507819777354598E-4  
 2.378000000000000E10    3.439752908889204E-4   1.086811767891049E-3  
 2.380000000000000E10    1.858290983363986E-3  -4.526849079411477E-4  
 2.382000000000000E10   -1.905927929328755E-4  -8.453394402749836E-4  
 2.384000000000000E10   -1.165432273410261E-3  -1.123554029618390E-4  
 2.386000000000000E10   -7.743277237750590E-4   1.069688121788204E-3  
 2.388000000000000E10    1.006511040031910E-3   3.945917997043580E-4  
 2.390000000000000E10    2.729995467234403E-4   2.248712407890707E-4  
 2.392000000000000E10   -1.851629349403083E-4  -1.146929804235697E-3  
 2.394000000000000E10   -1.657405955484137E-4  -7.511320291087031E-4  
 2.396000000000000E10   -8.890618919394910E-4   2.544810704421252E-4  
 2.398000000000000E10    6.026306800777093E-5   8.476632065139711E-4  
 2.400000000000000E10    8.607779745943844E-4   4.011841519968584E-5  
 2.402000000000000E10    3.313713241368532E-4  -3.652549348771572E-4  
 2.404000000000000E10   -8.230169187299907E-4  -8.171800873242319E-4  
 2.406000000000000E10   -8.171998197212815E-4  -5.617855094897095E-6  
 2.408000000000000E10   -1.007749116979539E-3   1.050761318765581E-3  
 2.410000000000000E10    5.016681971028447E-4   2.271878620376810E-4  
 2.412000000000000E10    3.202540974598378E-4  -2.776274923235178E-4  
 2.414000000000000E10   -6.227223202586174E-4  -1.242595142684877E-3  
 2.416000000000000E10   -9.878750424832106E-4  -3.986787342000753E-4  
 2.418000000000000E10   -8.589192875660956E-4   1.452875148970634E-4  
 2.420000000000000E10   -4.427020612638444E-4   3.241796803195030E-4  
 2.422000000000000E10    1.074524014256895E-3   2.903050335589796E-4  
 2.424000000000000E10    8.557990659028292E-4  -6.144880317151547E-4  
 2.426000000000000E10   -6.265935371629894E-4  -1.020864816382527E-3  
 2.428000000000000E10   -8.216806454584003E-4   6.590806297026575E-4  
 2.430000000000000E10   -6.730362074449658E-4   1.173658296465874E-3  
 2.432000000000000E10    4.140673263464123E-4   8.489599567838013E-4  
 2.434000000000000E10    4.380687896627933E-4  -6.358994141919538E-5  
 2.436000000000000E10    9.490868978900835E-5  -9.766143048182130E-4  
 2.438000000000000E10   -6.231052102521062E-4  -6.016647093929350E-4  
 2.440000000000000E10   -3.728305091499351E-5   8.044647984206677E-5  
 2.442000000000000E10    1.716787955956534E-4   8.600372821092606E-4  
 2.444000000000000E10    1.747853821143508E-3   8.284374780487269E-5  
 2.446000000000000E10    1.003910787403584E-3  -2.534684026613832E-4  
 2.448000000000000E10   -7.731851073913276E-4  -9.154390427283943E-4  
 2.450000000000000E10   -1.021830947138369E-3   5.786648835055530E-4  
 2.452000000000000E10   -1.402918423991650E-4   1.432750141248107E-3  
 2.454000000000000E10    6.606407114304602E-4  -4.280358261894435E-4  
 2.456000000000000E10    3.920309536624700E-4  -9.013225208036602E-4  
 2.458000000000000E10    2.033592609222978E-4  -6.976732984185219E-4  
 2.460000000000000E10   -1.742665917845443E-4  -1.188646187074482E-3  
 2.462000000000000E10   -5.075245280750096E-4   3.841510915663093E-4  
 2.464000000000000E10    6.431021756725386E-5   1.451732590794563E-3  
 2.466000000000000E10    1.605673460289836E-3   3.277692594565451E-4  
 2.468000000000000E10    8.662111940793693E-4  -7.631090120412409E-4  
 2.470000000000000E10   -1.459817052818835E-3  -7.973070023581386E-4  
 2.472000000000000E10   -1.284834230318666E-3   7.435482111759484E-4  
 2.474000000000000E10    2.741084026638418E-4   8.052985067479312E-4  
 2.476000000000000E10    6.715332856401801E-4  -2.012227923842147E-4  
 2.478000000000000E10    7.222287822514772E-4  -6.549328099936247E-4  
 2.480000000000000E10   -6.482934259111062E-5  -3.944527707062662E-4  
 2.482000000000000E10   -1.891708961920813E-5   4.333271645009518E-4  
 2.484000000000000E10   -2.724281803239137E-4   8.507638121955097E-4  
 2.486000000000000E10    5.018625597585924E-5   1.275433227419853E-3  
 2.488000000000000E10    1.376905362121761E-3   9.659949864726514E-5  
 2.490000000000000E10    1.638176036067307E-4  -1.250102650374174E-3  
 2.492000000000000E10   -1.235419069416821E-3  -1.890562707558274E-4  
 2.494000000000000E10   -4.629104223567992E-4   1.000082120299339E-3  
 2.496000000000000E10    8.965369197539985E-4   6.393304793164134E-4  
 2.498000000000000E10    7.608258165419102E-4  -4.256004758644849E-4  
 2.500000000000000E10    4.793065891135484E-4  -2.292386488988996E-4  
 2.502000000000000E10    3.029531508218497E-4  -2.544701565057039E-4  
 2.504000000000000E10   -6.021079752827063E-5  -4.143856640439481E-4  
 2.506000000000000E10   -3.269977169111371E-4  -1.738572027534246E-4  
 2.508000000000000E10    3.077825240325183E-4   5.483068525791168E-4  
 2.510000000000000E10    1.488978741690517E-3  -2.620133745949715E-4  
 2.512000000000000E10    1.027960679493845E-3  -1.296444796025753E-3  
 2.514000000000000E10   -4.745098412968218E-4  -8.886244613677263E-4  
 2.516000000000000E10   -3.244135587010533E-4   4.974359762854874E-4  
 2.518000000000000E10    7.846477674320340E-4   7.733833626843989E-4  
 2.520000000000000E10    8.257077424786985E-4  -5.368940182961524E-4  
 2.522000000000000E10   -5.162813977221958E-5  -1.030087121762335E-3  
 2.524000000000000E10   -3.670306759886444E-4  -9.573530405759811E-4  
 2.526000000000000E10   -2.662873012013733E-4  -1.279569813050330E-3  
 2.528000000000000E10   -3.403293958399445E-4  -6.073434487916529E-4  
 2.530000000000000E10    8.878955268301070E-4   3.626095422077924E-4  
 2.532000000000000E10    1.552849425934255E-3  -7.227579480968416E-4  
 2.534000000000000E10    2.796156331896782E-4  -1.503586769104004E-3  
 2.536000000000000E10   -1.208027009852231E-3  -3.983935166615993E-4  
 2.538000000000000E10   -1.311306026764214E-3   1.055544125847518E-3  
 2.540000000000000E10   -2.792454906739295E-4   4.089415015187115E-4  
 2.542000000000000E10    2.114170492859557E-4  -7.958215428516269E-4  
 2.544000000000000E10   -6.896661943756044E-4  -1.448086579330266E-3  
 2.546000000000000E10   -8.371716248802841E-4  -7.695417734794319E-4  
 2.548000000000000E10   -6.452251109294593E-4  -3.079921007156372E-4  
 2.550000000000000E10    5.566392792388797E-5  -6.694946932839230E-6  
 2.552000000000000E10    9.143470379058272E-5   4.066522524226457E-4  
 2.554000000000000E10    6.123837083578110E-4   5.364564131014049E-4  
 2.556000000000000E10   -1.862179924501106E-4  -3.392120124772191E-4  
 2.558000000000000E10   -1.495587755925953E-3   3.324862700537778E-5  
 2.560000000000000E10   -1.118155079893768E-3   1.814151415601373E-3  
 2.562000000000000E10    1.349634112557396E-4   6.897056009620428E-4  
 2.564000000000000E10    4.056702891830355E-4  -2.781191724352539E-4  
 2.566000000000000E10   -2.646118809934706E-5  -7.534930482506752E-4  
 2.568000000000000E10   -2.485697623342276E-4   4.596069265971892E-5  
 2.570000000000000E10   -7.080903742462397E-5   2.724151418078691E-4  
 2.572000000000000E10    4.740392032545060E-4   1.006569131277502E-3  
 2.574000000000000E10    2.654986164998263E-4   1.187255955301225E-3  
 2.576000000000000E10    8.167846244759858E-4   7.619482348673046E-4  
 2.578000000000000E10   -4.181809199508280E-4  -2.177026181016117E-4  
 2.580000000000000E10   -7.516062469221652E-4  -9.165148367173970E-5  
 2.582000000000000E10   -9.714671759866178E-4   1.154894242063165E-3  
 2.584000000000000E10    9.666745900176466E-4   6.660912767983973E-4  
 2.586000000000000E10    1.322754309512675E-3  -1.938499917741865E-4  
 2.588000000000000E10    1.192279523820616E-4  -9.341455297544599E-4  
 2.590000000000000E10   -3.795075754169375E-4   9.766794973984361E-4  
 2.592000000000000E10   -2.397697244305164E-4   9.100283496081829E-4  
 2.594000000000000E10    7.349549559876323E-4   5.554793751798570E-4  
 2.596000000000000E10    2.728144318098202E-5   3.399928682483733E-4  
 2.598000000000000E10    5.046213627792895E-4  -2.677490992937237E-4  
 2.600000000000000E10   -1.768117945175618E-4  -8.812744054012001E-4  
 2.602000000000000E10   -7.653828361071646E-4  -4.257179098203778E-4  
 2.604000000000000E10   -6.475961999967694E-4   2.496133674867451E-4  
 2.606000000000000E10    1.099286950193346E-3   3.077508008573204E-4  
 2.608000000000000E10    6.450273212976754E-4  -6.258305074879900E-5  
 2.610000000000000E10    3.502464460325427E-5  -1.392702804878354E-3  
 2.612000000000000E10   -9.328263695351780E-4  -1.080214424291626E-4  
 2.614000000000000E10   -6.545164505951107E-4   4.236194654367864E-4  
 2.616000000000000E10    3.914615954272449E-4   9.741090616444126E-5  
 2.618000000000000E10   -1.145257556345314E-4  -8.521897834725678E-4  
 2.620000000000000E10    1.247565669473261E-4  -4.436997405719012E-4  
 2.622000000000000E10   -6.737495277775452E-5  -9.324213024228811E-4  
 2.624000000000000E10   -4.884860827587545E-4  -3.416602849029005E-4  
 2.626000000000000E10   -1.297138049267232E-3   6.106939981691539E-4  
 2.628000000000000E10    6.995687144808471E-4   5.869462038390338E-4  
 2.630000000000000E10    4.211346968077123E-4  -9.943358236341737E-6  
 2.632000000000000E10   -4.829202662222087E-4  -1.476646051742137E-3  
 2.634000000000000E10   -9.326504077762365E-4   3.087095392402262E-4  
 2.636000000000000E10   -8.173387614078820E-4   5.374269676394761E-4  
 2.638000000000000E10    3.354692016728222E-4   6.147684762254357E-4  
 2.640000000000000E10    8.671990508446470E-5  -2.192589454352856E-5  
 2.642000000000000E10    1.215168667840771E-4  -9.949412196874619E-5  
 2.644000000000000E10   -5.176959093660116E-4  -2.518694382160902E-4  
 2.646000000000000E10   -2.884203568100929E-4  -5.539826233871281E-4  
 2.648000000000000E10   -9.180791093967855E-4   8.277915767394006E-4  
 2.650000000000000E10    2.868480223696679E-4   7.677705143578351E-4  
 2.652000000000000E10    1.521318336017430E-3  -8.587464253650978E-5  
 2.654000000000000E10   -3.148789110127837E-4  -1.005172496661544E-3  
 2.656000000000000E10   -1.119024003855884E-3  -1.431438577128574E-4  
 2.658000000000000E10   -2.390726440353319E-4   1.732295728288591E-3  
 2.660000000000000E10    7.345247431658208E-4   6.051816744729877E-4  
 2.662000000000000E10    7.654767250642180E-4  -3.354522050358355E-4  
 2.664000000000000E10   -5.793111631646752E-5   1.289269421249628E-4  
 2.666000000000000E10   -2.775297325570136E-4  -2.574000427557621E-5  
 2.668000000000000E10   -5.073673091828823E-4   5.837087883264758E-5  
 2.670000000000000E10   -1.098931024898775E-4   8.743858779780567E-4  
 2.672000000000000E10    8.299332112073898E-4   9.859851561486721E-4  
 2.674000000000000E10    1.228094799444079E-3  -8.768525440245867E-4  
 2.676000000000000E10    1.019955816445872E-4  -1.057163812220097E-3  
 2.678000000000000E10   -1.045400858856738E-3   2.808576682582498E-4  
 2.680000000000000E10   -1.292927190661430E-4   1.029880368150771E-3  
 2.682000000000000E10    1.049872371368110E-3   3.970897814724594E-4  
 2.684000000000000E10    6.260385853238404E-4  -3.710715100169182E-4  
 2.686000000000000E10    1.278390845982358E-4  -2.036870428128168E-4  
 2.688000000000000E10    1.993424084503204E-4  -1.614232169231400E-4  
 2.690000000000000E10   -4.234397783875465E-4  -3.666148404590786E-4  
 2.692000000000000E10   -1.983602123800665E-4   2.148642961401492E-4  
 2.694000000000000E10    8.600311120972037E-4   9.543601772747934E-4  
 2.696000000000000E10    7.697386899963021E-4  -8.610140066593885E-4  
 2.698000000000000E10    3.183623484801501E-4  -1.390254823490977E-3  
 2.700000000000000E10   -8.485019789077342E-4  -1.900840288726613E-4  
 2.702000000000000E10    2.978239208459854E-4   6.266823620535433E-4  
 2.704000000000000E10    1.481877290643752E-3  -1.197047822643071E-4  
 2.706000000000000E10    8.443346596322954E-4  -6.822146242484450E-4  
 2.708000000000000E10    6.248868885450065E-5  -9.250373113900423E-4  
 2.710000000000000E10    4.011629425804131E-5  -2.907032612711191E-4  
 2.712000000000000E10   -2.067202585749328E-4  -8.838092617224902E-5  
 2.714000000000000E10    2.132642839569598E-4  -3.311298132757656E-5  
 2.716000000000000E10    8.699113386683166E-4  -3.542194463079795E-5  
 2.718000000000000E10    7.376373396255076E-4  -9.007286280393601E-4  
 2.720000000000000E10    3.126970259472728E-4  -1.409870223142207E-3  
 2.722000000000000E10   -8.775076130405068E-4  -4.185400903224945E-4  
 2.724000000000000E10   -3.922170726582408E-4   8.029298041947186E-4  
 2.726000000000000E10    6.028610514476895E-4   2.785356773529202E-4  
 2.728000000000000E10    1.161678228527308E-4  -7.696846732869744E-4  
 2.730000000000000E10   -6.519136368297041E-4  -9.412954677827656E-4  
 2.732000000000000E10   -1.008589519187808E-3  -9.212154545821250E-4  
 2.734000000000000E10   -7.506614783778787E-4  -1.283027959289029E-4  
 2.736000000000000E10   -5.107944598421454E-4   6.429327186197043E-5  
 2.738000000000000E10    8.313793223351240E-4  -3.528161905705929E-4  
 2.740000000000000E10    5.259086610749364E-4  -9.208500850945711E-4  
 2.742000000000000E10   -5.974530358798802E-4  -9.248069254681468E-4  
 2.744000000000000E10   -8.816983900032938E-4   5.868949228897691E-4  
 2.746000000000000E10   -4.399864410515875E-4   1.214259653352201E-3  
 2.748000000000000E10   -1.334507833234966E-4   1.721798325888813E-4  
 2.750000000000000E10   -2.894669014494866E-4  -6.211684667505324E-4  
 2.752000000000000E10   -1.032139873132110E-3  -4.452731518540531E-4  
 2.754000000000000E10   -1.116370665840805E-3  -3.624727542046458E-4  
 2.756000000000000E10   -6.147552048787475E-4   2.529282064642757E-4  
