#  HZ   S   RI   R     50.00 
! Rohde & Schwarz ZVA40 4Ports - Version 3.90 - 1145.1110k42 SN: 100403
! Date: 2023-10-04 11:38:02
! Measurement: S12 
! 
 2.200000000000000E10    2.768141275737435E-4   8.853764156810939E-4  
 2.202000000000000E10   -1.294965040870011E-4   2.531206700950861E-4  
 2.204000000000000E10    9.640589705668390E-4   2.608518698252738E-4  
 2.206000000000000E10   -1.553795445943251E-4  -1.035416280501522E-4  
 2.208000000000000E10   -5.951384082436562E-4  -1.975793711608276E-4  
 2.210000000000000E10   -6.121605983935297E-4   4.211198538541794E-4  
 2.212000000000000E10   -7.611598994117230E-5   9.684796095825732E-4  
 2.214000000000000E10    9.271255694329739E-4   7.165372371673584E-4  
 2.216000000000000E10    7.776618585921824E-4  -5.334184388630092E-4  
 2.218000000000000E10   -1.117566484026611E-3  -4.163677804172039E-4  
 2.220000000000000E10   -8.945643203333020E-4   7.941189105622470E-4  
 2.222000000000000E10    9.586223168298602E-4   1.662087510339916E-3  
 2.224000000000000E10    6.739686359651387E-4  -4.208347818348557E-4  
 2.226000000000000E10    2.833296894095838E-4  -7.174909696914256E-4  
 2.228000000000000E10    3.697104111779481E-4   3.781477862503380E-4  
 2.230000000000000E10    7.319901487790048E-4  -5.690900070476346E-5  
 2.232000000000000E10    7.567674620077014E-4   4.133070615353063E-5  
 2.234000000000000E10    4.739158612210304E-4   9.066751226782799E-4  
 2.236000000000000E10    7.720103021711111E-4   1.086137708625756E-4  
 2.238000000000000E10    1.291044638492167E-3   1.267784682568163E-4  
 2.240000000000000E10   -6.485379417426884E-4  -1.713789970381185E-4  
 2.242000000000000E10    4.286627518013120E-4  -2.712369896471500E-4  
 2.244000000000000E10    5.283998907543719E-4   2.882723638322204E-4  
 2.246000000000000E10    5.240492173470557E-4  -6.681063096038997E-4  
 2.248000000000000E10    8.906117727747187E-5  -5.484185530804098E-4  
 2.250000000000000E10    1.014410750940442E-3  -1.203171210363507E-3  
 2.252000000000000E10    7.368155638687313E-4  -7.656789966858923E-4  
 2.254000000000000E10   -5.981816793791950E-4  -1.461833133362234E-3  
 2.256000000000000E10    4.616400692611933E-4   5.175158730708063E-4  
 2.258000000000000E10    5.236866418272257E-4   3.588596009649336E-4  
 2.260000000000000E10    9.646534454077482E-4  -1.111429184675217E-3  
 2.262000000000000E10   -9.421826689504087E-4  -8.590985671617091E-4  
 2.264000000000000E10   -1.112569589167833E-3  -2.780456852633506E-4  
 2.266000000000000E10    1.529088513052557E-5  -1.197265737573616E-4  
 2.268000000000000E10    2.775484172161669E-4  -4.533983592409641E-4  
 2.270000000000000E10   -7.908191037131473E-5  -9.620614582672715E-4  
 2.272000000000000E10    3.226704138796777E-4  -1.049783197231591E-3  
 2.274000000000000E10   -1.065342803485692E-3  -9.906726190820336E-4  
 2.276000000000000E10   -1.049970276653767E-3  -2.907417074311525E-4  
 2.278000000000000E10   -1.279791031265631E-4   8.181873708963394E-4  
 2.280000000000000E10    8.424567058682442E-4  -4.800806927960366E-4  
 2.282000000000000E10    4.316895501688123E-4  -1.050289603881538E-3  
 2.284000000000000E10   -1.646548626013100E-3  -1.594607951119542E-3  
 2.286000000000000E10   -5.681881448253989E-4   8.281497284770012E-4  
 2.288000000000000E10   -2.660123282112181E-4  -3.677692802739330E-5  
 2.290000000000000E10    2.240146859548986E-4  -6.350161856971681E-4  
 2.292000000000000E10   -1.691353245405480E-4  -4.820649337489158E-4  
 2.294000000000000E10   -5.182939639780670E-5  -6.800695555284619E-4  
 2.296000000000000E10   -1.201327075250447E-3  -7.451232522726059E-5  
 2.298000000000000E10   -8.893166668713093E-4   6.506958743557334E-4  
 2.300000000000000E10    1.683886948740110E-4   1.411829143762589E-3  
 2.302000000000000E10    5.107616307213903E-4  -2.136195253115147E-4  
 2.304000000000000E10   -5.803949316032231E-4  -7.373028201982379E-4  
 2.306000000000000E10   -9.757358347997069E-4   3.167320101056248E-4  
 2.308000000000000E10   -2.234417770523578E-4   1.429403782822192E-3  
 2.310000000000000E10   -1.242935686605051E-4   6.065482157282531E-4  
 2.312000000000000E10    4.687220643972978E-5   6.700015510432422E-4  
 2.314000000000000E10   -6.798212325520581E-6   3.179875202476978E-4  
 2.316000000000000E10   -2.466391597408801E-4  -6.495977140730247E-5  
 2.318000000000000E10   -1.249588909558952E-3  -2.724536170717329E-4  
 2.320000000000000E10   -6.239605718292296E-4   5.541563732549548E-4  
 2.322000000000000E10    5.213789991103113E-4   1.484078704379499E-3  
 2.324000000000000E10    5.652386462315917E-4  -3.744880668818951E-4  
 2.326000000000000E10    6.686235428787768E-5  -1.010460779070854E-3  
 2.328000000000000E10   -6.147579988464713E-4   5.427835858426988E-4  
 2.330000000000000E10    2.747838443610817E-4   7.757874554954469E-4  
 2.332000000000000E10    5.904238205403090E-4   1.032544416375458E-3  
 2.334000000000000E10    3.462770837359130E-4   6.645127432420850E-4  
 2.336000000000000E10    8.728810353204608E-4   1.954667532118037E-4  
 2.338000000000000E10   -3.066774224862456E-4  -3.746502334252000E-4  
 2.340000000000000E10   -1.190372859127820E-3   2.323330263607204E-4  
 2.342000000000000E10   -6.310542812570930E-4   1.008845632895827E-3  
 2.344000000000000E10    1.302060205489397E-3   3.318515082355589E-4  
 2.346000000000000E10    1.205876818858087E-3  -8.733692811802030E-4  
 2.348000000000000E10    6.382240680977702E-4  -1.032632309943438E-3  
 2.350000000000000E10   -2.388296707067639E-4   5.699437460862100E-4  
 2.352000000000000E10    6.221888470463455E-4   8.991406648419797E-4  
 2.354000000000000E10    1.664867042563856E-3   1.362932962365449E-3  
 2.356000000000000E10    1.003007637336850E-3   9.730968304211274E-5  
 2.358000000000000E10    5.050432519055903E-4  -1.956259657163173E-4  
 2.360000000000000E10   -7.716199615970254E-4  -1.407796753483126E-5  
 2.362000000000000E10   -3.902770986314863E-4  -3.997303792857565E-5  
 2.364000000000000E10   -5.373475505621173E-5   1.131925149820745E-3  
 2.366000000000000E10    1.606754842214286E-3  -5.309104453772306E-4  
 2.368000000000000E10    1.192254014313221E-3  -1.276102964766324E-3  
 2.370000000000000E10   -4.188139573670924E-4  -1.175089506432414E-3  
 2.372000000000000E10   -1.137627550633624E-4   7.267040782608092E-4  
 2.374000000000000E10    6.541009061038494E-4   2.181404124712572E-4  
 2.376000000000000E10    9.535585995763540E-4  -9.065523045137525E-6  
 2.378000000000000E10    2.095878589898348E-4  -4.503395757637918E-4  
 2.380000000000000E10    3.005671314895153E-4  -1.204834203235805E-3  
 2.382000000000000E10   -8.061698754318059E-4  -4.157292423769832E-4  
 2.384000000000000E10   -4.000713233835995E-4   6.772001506760716E-5  
 2.386000000000000E10    2.766899997368455E-4   2.738258044701070E-4  
 2.388000000000000E10    8.795600151643157E-4  -2.928625035565347E-4  
 2.390000000000000E10    2.868602168746293E-4  -1.038199989125133E-3  
 2.392000000000000E10   -8.186832419596613E-4  -1.047832774929702E-3  
 2.394000000000000E10   -7.500192732550204E-4   4.398758755996823E-4  
 2.396000000000000E10    1.219946498167701E-4   6.103541236370802E-4  
 2.398000000000000E10    5.358607158996165E-4   1.930461257870775E-5  
 2.400000000000000E10    5.705643561668694E-4  -5.378647474572063E-4  
 2.402000000000000E10    1.610781037015840E-4  -5.382279050536454E-4  
 2.404000000000000E10   -8.271854603663087E-4  -2.138882409781218E-4  
 2.406000000000000E10   -1.010119565762579E-3   1.130840391851962E-3  
 2.408000000000000E10    4.738262214232236E-4   1.386814285069704E-3  
 2.410000000000000E10    1.149188843555749E-3  -3.336240188218653E-4  
 2.412000000000000E10   -7.136154454201460E-4  -1.094774343073368E-3  
 2.414000000000000E10   -9.742397814989090E-4  -3.893499379046261E-4  
 2.416000000000000E10   -7.655358640477061E-4   7.065612589940429E-4  
 2.418000000000000E10    5.161506705917418E-4   5.017523071728647E-4  
 2.420000000000000E10    1.177335041575134E-3   5.277320087770931E-5  
 2.422000000000000E10    7.491646683774889E-4  -4.939697682857513E-4  
 2.424000000000000E10   -3.444535250309855E-4  -3.770208859350532E-4  
 2.426000000000000E10   -7.364575285464525E-4   2.166949561797082E-4  
 2.428000000000000E10   -7.419937901431695E-5   1.252538640983403E-3  
 2.430000000000000E10    7.004592916928232E-4   9.848604677245021E-4  
 2.432000000000000E10    1.067694742232561E-3  -5.620897863991559E-4  
 2.434000000000000E10   -8.564393501728773E-4  -9.109906968660653E-4  
 2.436000000000000E10   -1.367022749036551E-3   2.340969658689573E-4  
 2.438000000000000E10   -4.470738349482417E-4   1.361616421490908E-3  
 2.440000000000000E10    6.597668398171663E-4   3.735553182195872E-4  
 2.442000000000000E10    5.044766585342586E-4  -2.593498211354017E-4  
 2.444000000000000E10    5.326190148480237E-4  -6.096382276155055E-5  
 2.446000000000000E10   -4.583309637382627E-4  -6.580606568604708E-4  
 2.448000000000000E10   -7.991338497959077E-4  -9.106162906391546E-5  
 2.450000000000000E10    3.406320174690336E-4   1.294174813665450E-3  
 2.452000000000000E10    1.360470196232200E-3   2.201498136855662E-4  
 2.454000000000000E10    7.101016817614436E-4  -8.512293570674956E-4  
 2.456000000000000E10   -4.356553254183382E-4  -3.789098991546780E-4  
 2.458000000000000E10   -4.981634556315839E-4   4.639202961698175E-4  
 2.460000000000000E10   -1.132918841904029E-4   3.437806153669953E-4  
 2.462000000000000E10    1.649222685955465E-4   4.702978767454624E-4  
 2.464000000000000E10    6.397959077730775E-5  -1.953765313373879E-4  
 2.466000000000000E10    3.653402382042259E-4  -8.859001100063324E-4  
 2.468000000000000E10   -2.783462696243078E-4  -8.619836880825460E-4  
 2.470000000000000E10   -7.771070231683552E-4  -3.069306549150497E-4  
 2.472000000000000E10    4.712106601800770E-4   1.234688097611070E-3  
 2.474000000000000E10    1.562608871608973E-3   5.974249215796590E-4  
 2.476000000000000E10    7.668443140573800E-4  -1.198931364342570E-3  
 2.478000000000000E10   -1.170105184428394E-3  -7.226003799587488E-4  
 2.480000000000000E10   -1.283094868995249E-3   4.445965168997645E-4  
 2.482000000000000E10   -2.811088634189218E-4   1.218553952639923E-4  
 2.484000000000000E10   -4.771680687554181E-5  -2.004911948461086E-4  
 2.486000000000000E10    1.061750008375384E-4  -5.393382743932307E-4  
 2.488000000000000E10    5.645905621349812E-4  -1.371540827676654E-3  
 2.490000000000000E10   -6.798107060603797E-4  -9.536061552353203E-4  
 2.492000000000000E10   -8.242068579420447E-4   2.064627478830516E-4  
 2.494000000000000E10    4.348336660768837E-4   1.378786284476519E-3  
 2.496000000000000E10    5.842666141688824E-4   1.018549301079474E-4  
 2.498000000000000E10    6.032410237821750E-5  -1.243399106897414E-3  
 2.500000000000000E10   -1.404967508278787E-3  -5.671807684848318E-6  
 2.502000000000000E10   -1.468802453018725E-3   5.664450000040233E-4  
 2.504000000000000E10    6.111990660429001E-5   1.099604996852577E-3  
 2.506000000000000E10    4.889473784714937E-4   8.827088458929211E-5  
 2.508000000000000E10   -4.687896216637455E-5  -2.359397767577320E-4  
 2.510000000000000E10   -4.387592489365488E-4  -2.146648475900292E-4  
 2.512000000000000E10   -7.287584012374282E-4   3.230530128348619E-4  
 2.514000000000000E10   -1.470693852752447E-3   1.198425306938589E-3  
 2.516000000000000E10   -1.581329415785149E-4   1.432631979696453E-3  
 2.518000000000000E10    9.871973888948560E-4   5.084704025648534E-4  
 2.520000000000000E10   -4.375047574285418E-4  -7.918815826997161E-4  
 2.522000000000000E10   -1.284888247027993E-3   1.082822491298430E-4  
 2.524000000000000E10   -2.162357413908467E-4   1.425470574758947E-3  
 2.526000000000000E10    4.573534533847123E-4   1.384766306728125E-3  
 2.528000000000000E10    5.596218397840858E-4   4.113204195164144E-4  
 2.530000000000000E10    4.773208638653159E-4   1.019191331579350E-4  
 2.532000000000000E10   -3.489247174002230E-4   4.737079434562475E-4  
 2.534000000000000E10   -1.488080597482622E-4   4.877981264144182E-4  
 2.536000000000000E10   -8.124594023684040E-5   5.670276004821062E-4  
 2.538000000000000E10    5.637534195557237E-4   9.308439912274480E-4  
 2.540000000000000E10    1.634247018955648E-3   4.378091834951192E-4  
 2.542000000000000E10    6.595969316549599E-4  -9.355096262879670E-4  
 2.544000000000000E10   -5.939007387496531E-4  -3.016808768734336E-4  
 2.546000000000000E10   -9.920503362081945E-5   1.415110658854246E-3  
 2.548000000000000E10    7.505624089390039E-4   8.407318382523954E-4  
 2.550000000000000E10    7.631127955392003E-4  -2.458117087371647E-4  
 2.552000000000000E10    5.064066499471664E-5  -8.556478423997760E-4  
 2.554000000000000E10    3.038212889805436E-4  -5.111916689202189E-4  
 2.556000000000000E10   -4.571100289467722E-4  -6.213933811523020E-4  
 2.558000000000000E10    4.436044546309859E-4  -1.363766205031425E-4  
 2.560000000000000E10    9.404003503732383E-4   4.907287075184286E-4  
 2.562000000000000E10    1.510738627985120E-3  -5.455457721836865E-4  
 2.564000000000000E10    6.206852413015440E-5  -5.466842558234930E-4  
 2.566000000000000E10   -9.801057167351246E-4  -5.699095781892538E-4  
 2.568000000000000E10   -7.495167083106935E-4   1.179464976303279E-3  
 2.570000000000000E10    4.665509331971407E-4  -1.815919677028433E-4  
 2.572000000000000E10    8.719241595827043E-4  -1.204833271913230E-3  
 2.574000000000000E10   -5.850046291016042E-4  -2.057309495285153E-3  
 2.576000000000000E10   -1.155464633484371E-4  -1.140584819950163E-3  
 2.578000000000000E10   -2.124632155755535E-4  -2.135091926902533E-5  
 2.580000000000000E10    7.439464097842574E-4  -1.253019145224243E-4  
 2.582000000000000E10    4.426222003530711E-4   1.098619031836279E-4  
 2.584000000000000E10    4.576341889332980E-4  -5.483312997967005E-4  
 2.586000000000000E10   -4.270803474355489E-4  -6.508614751510322E-4  
 2.588000000000000E10   -1.533024013042450E-3  -3.590728156268597E-4  
 2.590000000000000E10   -6.910558440722525E-4   5.568651831708849E-4  
 2.592000000000000E10   -2.577113264123909E-5  -6.375508964993060E-4  
 2.594000000000000E10    6.173978326842189E-4  -9.162750793620944E-4  
 2.596000000000000E10   -8.567636541556567E-5  -1.353698782622814E-3  
 2.598000000000000E10   -1.698534033494070E-4  -3.910544619429857E-4  
 2.600000000000000E10   -2.790319558698684E-4   5.784984678030014E-4  
 2.602000000000000E10    5.289482069201767E-4   7.000394398346543E-4  
 2.604000000000000E10   -4.525894764810801E-4   3.436875704210252E-4  
 2.606000000000000E10   -9.987551311496645E-5  -2.356951445108280E-4  
 2.608000000000000E10   -3.807229804806411E-4  -2.764337987173349E-4  
 2.610000000000000E10   -1.196911325678229E-3  -1.096617081202567E-3  
 2.612000000000000E10   -7.349381339736283E-4   6.026351475156844E-4  
 2.614000000000000E10    8.518334361724556E-4   4.150700406171382E-4  
 2.616000000000000E10    1.952090417034924E-3  -3.651969891507179E-4  
 2.618000000000000E10    4.552739264909178E-4  -9.164024377241731E-4  
 2.620000000000000E10   -6.425472092814744E-4   5.803059902973473E-4  
 2.622000000000000E10   -2.243768103653565E-4   1.486294670030475E-3  
 2.624000000000000E10    9.252459858544171E-4   1.284382189624012E-3  
 2.626000000000000E10    1.909693673951551E-4   1.861969649326056E-4  
 2.628000000000000E10   -1.832269044825807E-4  -1.920846116263419E-4  
 2.630000000000000E10   -4.341932362876833E-4   1.004704099614173E-4  
 2.632000000000000E10   -6.100850878283382E-4  -4.783753538504243E-4  
 2.634000000000000E10   -1.128581352531910E-4   2.557819534558803E-4  
 2.636000000000000E10    9.038598509505391E-4   6.173074943944812E-4  
 2.638000000000000E10    1.379056135192514E-3  -1.074632164090872E-4  
 2.640000000000000E10   -2.930425034719519E-5  -7.419424946419895E-4  
 2.642000000000000E10   -1.299123163335025E-3   5.993807571940124E-4  
 2.644000000000000E10   -9.364003926748410E-5   1.375662162899971E-3  
 2.646000000000000E10    5.811523878946900E-4   6.786329904571176E-4  
 2.648000000000000E10    2.057353849522770E-4  -6.467571947723627E-4  
 2.650000000000000E10   -1.954173203557730E-4  -2.438369119772688E-4  
 2.652000000000000E10   -5.782369989901781E-4  -3.634835011325777E-4  
 2.654000000000000E10   -3.180412750225514E-4  -3.770562470890582E-4  
 2.656000000000000E10   -6.872288649901748E-4  -2.176091402361635E-5  
 2.658000000000000E10    9.438805282115936E-4   4.623986606020480E-4  
 2.660000000000000E10    1.099304878152907E-3  -1.558404037496075E-4  
 2.662000000000000E10   -1.608318416401744E-4  -1.463929656893015E-3  
 2.664000000000000E10   -1.066265627741814E-3   4.385910287965089E-4  
 2.666000000000000E10   -4.829822864849120E-4   1.133712707087398E-3  
 2.668000000000000E10    1.007799990475178E-3   2.134508104063571E-4  
 2.670000000000000E10   -2.081742277368903E-4  -6.806358578614891E-4  
 2.672000000000000E10   -1.088975928723812E-3  -4.772327083628625E-4  
 2.674000000000000E10   -3.904534678440541E-4  -4.179261741228402E-4  
 2.676000000000000E10   -3.197596524842084E-4  -2.661783073563129E-4  
 2.678000000000000E10   -9.563769708620384E-5  -1.327199279330671E-4  
 2.680000000000000E10    8.967508329078555E-4   2.800743386615068E-4  
 2.682000000000000E10    1.099798013456166E-3  -2.984396996907890E-4  
 2.684000000000000E10   -3.483744512777776E-4  -8.726616506464779E-4  
 2.686000000000000E10   -1.427748007699847E-3   7.720807334408164E-4  
 2.688000000000000E10   -2.634726988617331E-4   1.555068651214242E-3  
 2.690000000000000E10    4.203751741442829E-4   2.007476578000933E-4  
 2.692000000000000E10    2.604704059194773E-4  -1.006333739496768E-3  
 2.694000000000000E10   -7.842600462026894E-4  -5.223009502515197E-4  
 2.696000000000000E10   -4.750498919747770E-4  -2.610473311506212E-4  
 2.698000000000000E10   -3.007928717124742E-5   5.398099892772734E-4  
 2.700000000000000E10   -2.981290454044938E-4   6.683207466267049E-4  
 2.702000000000000E10    1.054348773323000E-3   4.511511651799083E-4  
 2.704000000000000E10    4.132369940634817E-4  -1.342061295872554E-4  
 2.706000000000000E10   -9.794167708605528E-4  -4.209998587612063E-4  
 2.708000000000000E10   -1.204899628646672E-3   1.222422230057418E-3  
 2.710000000000000E10   -3.158719919156283E-4   1.642513205297291E-3  
 2.712000000000000E10    6.284019327722490E-4  -1.720554573694244E-4  
 2.714000000000000E10   -3.180534622515552E-5  -8.278755121864379E-4  
 2.716000000000000E10   -8.408165886066854E-4   6.459786527557299E-5  
 2.718000000000000E10   -2.394781040493399E-4   1.556708302814513E-4  
 2.720000000000000E10    4.897791077382863E-4   6.173044093884528E-4  
 2.722000000000000E10    1.167448572232388E-4   7.108349818736315E-4  
 2.724000000000000E10    8.041980327107012E-4   1.097941785701551E-4  
 2.726000000000000E10    4.431276174727827E-4   2.033680939348415E-4  
 2.728000000000000E10   -1.036704285070300E-3  -3.085783973801881E-4  
 2.730000000000000E10   -4.870603734161705E-4   5.841900128871203E-4  
 2.732000000000000E10    4.484401724766940E-4   1.025576726533473E-3  
 2.734000000000000E10    1.045294455252588E-3   6.174168083816767E-5  
 2.736000000000000E10    8.905403956305236E-5  -7.795831770636141E-4  
 2.738000000000000E10   -6.846497417427599E-4  -7.440221088472754E-5  
 2.740000000000000E10   -2.512238570488989E-4   2.868990704882890E-4  
 2.742000000000000E10    3.776914090849459E-4   1.358686276944354E-4  
 2.744000000000000E10    3.772422787733376E-4   2.062690182356164E-4  
 2.746000000000000E10    6.359698600135744E-4  -3.168850089423358E-4  
 2.748000000000000E10    7.414840511046350E-4  -5.042610573582351E-4  
 2.750000000000000E10   -4.822060000151396E-4   1.012452339637093E-4  
 2.752000000000000E10   -3.711051249410957E-4   5.700048059225082E-4  
 2.754000000000000E10    8.295334409922361E-4   9.362564305774868E-4  
 2.756000000000000E10    6.912645185366273E-4   1.098445936804637E-4  
