#  HZ   S   RI   R     50.00 
! Rohde & Schwarz ZVA40 4Ports - Version 3.90 - 1145.1110k42 SN: 100403
! Date: 2023-10-04 11:37:44
! Measurement: S12 
! 
 2.200000000000000E10    1.678307540714741E-3   1.198700629174709E-4  
 2.202000000000000E10   -4.036702375742607E-5  -9.918524883687496E-4  
 2.204000000000000E10   -7.938661146908999E-4  -3.178296319674701E-4  
 2.206000000000000E10    3.531826587277465E-5   8.119072881527245E-4  
 2.208000000000000E10    1.142217428423464E-3  -8.911605109460652E-4  
 2.210000000000000E10   -7.743480091448873E-5  -8.354770834557712E-4  
 2.212000000000000E10   -1.076076441677287E-4   2.736973983701319E-4  
 2.214000000000000E10    1.483676955103874E-3   5.212524047237821E-5  
 2.216000000000000E10    3.981338813900948E-4  -1.226469292305410E-3  
 2.218000000000000E10   -1.172612188383937E-3  -8.574511157348752E-4  
 2.220000000000000E10   -2.153866953449324E-4   3.907088539563119E-4  
 2.222000000000000E10    2.729673578869551E-4   3.377362154424191E-4  
 2.224000000000000E10    3.779631224460900E-4  -1.048564794473350E-3  
 2.226000000000000E10   -1.396915758959949E-4  -4.577278159558773E-4  
 2.228000000000000E10   -4.705433093477041E-4  -4.003090434707701E-4  
 2.230000000000000E10   -3.354522414156236E-5   8.498271199641749E-5  
 2.232000000000000E10   -1.321964518865570E-4   3.948199446313083E-4  
 2.234000000000000E10    3.532992195687257E-5   8.475023205392063E-4  
 2.236000000000000E10    2.663134364411235E-4  -4.515524196904153E-4  
 2.238000000000000E10    1.056733344739769E-5  -8.864931296557188E-4  
 2.240000000000000E10   -2.733861794695258E-3   3.750032628886402E-4  
 2.242000000000000E10   -5.488442839123309E-4   8.257724111899734E-4  
 2.244000000000000E10    8.408712456002832E-4   7.267848704941571E-4  
 2.246000000000000E10   -5.337354014045559E-5  -1.364793046377599E-3  
 2.248000000000000E10   -8.294580620713532E-4   8.368818816961721E-5  
 2.250000000000000E10   -8.820600924082100E-4   7.467264076694846E-4  
 2.252000000000000E10    2.775280154310167E-4   1.350747537799180E-3  
 2.254000000000000E10   -5.120451096445322E-4   4.108835128135979E-4  
 2.256000000000000E10    1.399502943968400E-4   9.899818105623126E-4  
 2.258000000000000E10   -1.783410989446566E-4   6.986370135564357E-5  
 2.260000000000000E10   -3.077797882724553E-4  -3.198759222868830E-4  
 2.262000000000000E10   -1.560803968459368E-3   9.411657229065895E-4  
 2.264000000000000E10    1.642074785195291E-4   1.099343993701041E-3  
 2.266000000000000E10    8.862394024617970E-4  -5.851497917319648E-5  
 2.268000000000000E10    1.393378188367933E-4  -6.764917052350938E-4  
 2.270000000000000E10   -8.447002037428320E-4   3.861169971060008E-4  
 2.272000000000000E10    2.313660224899650E-4   6.657790509052575E-4  
 2.274000000000000E10    3.506466746330261E-4   8.059042738750577E-4  
 2.276000000000000E10   -4.552552418317646E-4  -1.082389985640475E-6  
 2.278000000000000E10    5.785356042906642E-4   1.003468292765319E-3  
 2.280000000000000E10    4.128237196709961E-4  -1.655363303143531E-4  
 2.282000000000000E10    7.073779124766588E-4  -5.015116767026484E-4  
 2.284000000000000E10   -1.062155351974070E-3   3.815907111857086E-4  
 2.286000000000000E10    5.836399504914880E-4   1.419659936800599E-3  
 2.288000000000000E10    1.585159567184746E-3   4.897815524600446E-4  
 2.290000000000000E10    6.396092358045280E-4  -5.286606028676033E-4  
 2.292000000000000E10   -5.211617099121213E-4   1.589432504260913E-4  
 2.294000000000000E10    3.303851699456573E-4   6.415140233002603E-4  
 2.296000000000000E10    1.900534698506817E-4   4.736907139886171E-4  
 2.298000000000000E10    3.467185015324503E-4   1.864634832600132E-4  
 2.300000000000000E10    1.034721848554909E-3   4.264846211299300E-4  
 2.302000000000000E10    8.283052593469620E-4  -9.653477463871241E-4  
 2.304000000000000E10   -3.075015556532890E-4  -1.052698120474815E-3  
 2.306000000000000E10   -7.239395636133850E-4   3.715446218848229E-4  
 2.308000000000000E10    1.188541064038873E-3   1.210480462759733E-3  
 2.310000000000000E10    1.728354603983462E-3  -4.110650334041566E-4  
 2.312000000000000E10    7.067646947689354E-4  -1.642479794099927E-3  
 2.314000000000000E10   -9.318232769146562E-4  -8.572147635277361E-5  
 2.316000000000000E10   -4.495721659623087E-4   2.065086300717667E-4  
 2.318000000000000E10    6.104029598645866E-4   2.615468692965806E-4  
 2.320000000000000E10   -1.913258747663349E-4  -4.073445161338896E-4  
 2.322000000000000E10    7.075688336044550E-4  -8.624851470813155E-4  
 2.324000000000000E10    2.303212204424199E-5  -1.643590978346765E-3  
 2.326000000000000E10   -1.087629119865596E-3  -1.146752154454589E-3  
 2.328000000000000E10   -5.293597350828350E-4   5.974657251499593E-4  
 2.330000000000000E10    1.081835827790201E-3   2.171280502807349E-4  
 2.332000000000000E10    4.948323476128280E-4  -1.079409499652684E-3  
 2.334000000000000E10   -1.083132810890675E-3  -1.743491622619331E-3  
 2.336000000000000E10   -1.004591817036271E-3  -2.090385678457096E-4  
 2.338000000000000E10   -4.096432239748538E-4   3.193281299900264E-4  
 2.340000000000000E10    3.597431059461087E-4  -4.553843464236707E-4  
 2.342000000000000E10    2.248969976790249E-4  -4.768378566950560E-4  
 2.344000000000000E10   -3.266420026193373E-5  -6.336286896839738E-4  
 2.346000000000000E10   -3.805833403021097E-4  -8.102116407826543E-4  
 2.348000000000000E10   -9.890912333503366E-4  -9.901308658299968E-5  
 2.350000000000000E10   -8.585947798565030E-4   1.180866034701467E-3  
 2.352000000000000E10    5.334509769454598E-4   2.505751581338700E-5  
 2.354000000000000E10    3.335995716042817E-4  -7.201795815490186E-4  
 2.356000000000000E10   -1.457589212805033E-3  -1.101910718716681E-3  
 2.358000000000000E10   -6.053010583855212E-4   3.485716879367828E-4  
 2.360000000000000E10   -1.622773706912994E-4   4.339722509030253E-4  
 2.362000000000000E10    3.344962606206536E-4   1.804271232686006E-5  
 2.364000000000000E10   -1.313588873017579E-4   6.593992584384978E-4  
 2.366000000000000E10    3.639211936388165E-4  -5.931701161898673E-4  
 2.368000000000000E10   -4.721097648143768E-4   1.359069483441999E-5  
 2.370000000000000E10   -1.467641908675432E-3   6.242025992833078E-4  
 2.372000000000000E10   -5.638005677610636E-5   1.208491157740355E-3  
 2.374000000000000E10    3.686112759169191E-4   7.251043571159244E-4  
 2.376000000000000E10    5.323073128238320E-4  -7.921464275568724E-4  
 2.378000000000000E10   -8.397424244321883E-4  -4.552677855826914E-4  
 2.380000000000000E10   -1.223824685439467E-3   3.612121508922428E-4  
 2.382000000000000E10    1.022966753225774E-4   9.678571950644255E-4  
 2.384000000000000E10    8.518025279045105E-4   3.171954303979874E-4  
 2.386000000000000E10    6.397317629307509E-4  -3.250921436119825E-4  
 2.388000000000000E10   -3.954091880586930E-5  -3.718459629453719E-4  
 2.390000000000000E10   -8.875550120137632E-4  -2.776211476884782E-4  
 2.392000000000000E10   -4.173530032858253E-4   1.261838828213513E-3  
 2.394000000000000E10    7.652762578800321E-4   9.762184345163405E-4  
 2.396000000000000E10    1.091892248950899E-3  -3.950523678213358E-4  
 2.398000000000000E10   -1.785320637281984E-4  -9.538438753224909E-4  
 2.400000000000000E10   -9.567525121383369E-4   5.221576066105627E-5  
 2.402000000000000E10   -3.992428246419877E-4   8.303776849061251E-4  
 2.404000000000000E10    5.405510310083628E-4   9.159180917777121E-4  
 2.406000000000000E10    9.654372115619481E-4   1.715687976684421E-4  
 2.408000000000000E10    5.947853787802160E-4  -7.087218691594899E-4  
 2.410000000000000E10   -6.279679364524782E-4  -8.655098645249382E-5  
 2.412000000000000E10   -8.047765586525202E-4   9.855257667368278E-5  
 2.414000000000000E10    5.777975893579423E-4   1.270092208869755E-3  
 2.416000000000000E10    5.523930885829032E-4   5.660748574882746E-4  
 2.418000000000000E10    3.935932472813875E-4  -3.105767827946693E-4  
 2.420000000000000E10   -7.109213038347662E-4  -5.334833986125886E-4  
 2.422000000000000E10   -7.110093138180673E-4  -3.601811476983130E-4  
 2.424000000000000E10   -6.033209501765668E-4   4.263786540832371E-4  
 2.426000000000000E10    4.252947110217065E-4  -7.378508598776534E-5  
 2.428000000000000E10    5.861654062755406E-4  -1.998347579501569E-4  
 2.430000000000000E10    4.549528821371496E-4  -6.440934375859797E-4  
 2.432000000000000E10    6.407658656826243E-5  -6.891915691085160E-4  
 2.434000000000000E10   -1.267631072551012E-3   4.429937689565122E-4  
 2.436000000000000E10    2.210571692558006E-4   1.592759275808930E-3  
 2.438000000000000E10    7.732715457677841E-4   2.134261303581297E-4  
 2.440000000000000E10    3.804573207162321E-4  -1.351554179564118E-3  
 2.442000000000000E10   -7.817393634468317E-4  -6.590903503820300E-4  
 2.444000000000000E10   -4.546755226328969E-4  -4.867129900958389E-4  
 2.446000000000000E10    3.794506119447760E-5   2.746323880273849E-4  
 2.448000000000000E10    6.297093350440264E-4   4.417059244588018E-4  
 2.450000000000000E10    1.126208808273077E-3  -1.193627103930339E-4  
 2.452000000000000E10    2.914132783189416E-4  -8.488838793709874E-4  
 2.454000000000000E10   -5.521323182620108E-4  -5.277885938994587E-4  
 2.456000000000000E10   -9.810696355998516E-4   5.492586060427129E-4  
 2.458000000000000E10    2.428147809041548E-6   1.217927434481680E-3  
 2.460000000000000E10    1.114836544729769E-3  -1.648124307394028E-4  
 2.462000000000000E10    1.147289003711194E-4  -1.925346907228231E-3  
 2.464000000000000E10   -8.469517924822867E-4  -6.634330493398011E-4  
 2.466000000000000E10   -9.110862156376243E-4   5.930060870014131E-4  
 2.468000000000000E10    7.822455372661352E-4   7.018002797849476E-4  
 2.470000000000000E10    6.241887458600104E-4   2.855080820154399E-4  
 2.472000000000000E10    4.300338041502982E-4   1.542741665616632E-4  
 2.474000000000000E10   -3.297614457551390E-4  -3.814671072177589E-4  
 2.476000000000000E10   -1.186820096336305E-3  -8.171534864231944E-5  
 2.478000000000000E10   -1.007549813948572E-3   1.491572242230177E-3  
 2.480000000000000E10    1.141351182013750E-3   8.871984900906682E-4  
 2.482000000000000E10    9.947919752448797E-4  -5.999217391945422E-4  
 2.484000000000000E10   -3.186794347129762E-4  -1.004013000056148E-3  
 2.486000000000000E10   -7.536238408647478E-4   3.144012007396668E-4  
 2.488000000000000E10   -1.549527369206771E-4   1.156617887318134E-3  
 2.490000000000000E10    4.891876596957445E-4   8.411512244492769E-4  
 2.492000000000000E10    8.310033590532839E-4   1.197462770505808E-4  
 2.494000000000000E10    8.347484981641173E-4  -1.136618266173173E-5  
 2.496000000000000E10   -3.067222423851490E-4  -2.847669384209439E-5  
 2.498000000000000E10   -2.217458822997287E-4  -2.789490099530667E-4  
 2.500000000000000E10    2.556131948949769E-5   1.257974770851433E-3  
 2.502000000000000E10    7.255166419781745E-4   1.006291247904301E-3  
 2.504000000000000E10    1.297900336794555E-3  -9.891243098536506E-5  
 2.506000000000000E10   -3.462192253209651E-4  -1.000303425826132E-3  
 2.508000000000000E10   -1.085494877770543E-3  -5.779676575912163E-5  
 2.510000000000000E10    1.098667416954413E-5   5.576068651862443E-4  
 2.512000000000000E10    1.043576747179031E-3   1.875365160231013E-5  
 2.514000000000000E10    7.014333386905491E-4  -7.339987787418068E-4  
 2.516000000000000E10    9.433538652956486E-4  -8.513451321050525E-4  
 2.518000000000000E10    2.518101828172803E-4  -8.642977918498218E-4  
 2.520000000000000E10   -5.683772033080459E-4  -2.896995865739882E-4  
 2.522000000000000E10    2.574924728833139E-4   7.208150927908719E-4  
 2.524000000000000E10    6.853788509033620E-4   7.495512254536152E-4  
 2.526000000000000E10    3.437231935095042E-4  -9.170784614980221E-4  
 2.528000000000000E10   -3.590254345908761E-4  -2.060080412775278E-3  
 2.530000000000000E10   -8.718646713532507E-4  -6.570104160346091E-4  
 2.532000000000000E10   -1.206668312079273E-4   2.946420863736421E-4  
 2.534000000000000E10    1.088795601390302E-3  -7.603996782563627E-4  
 2.536000000000000E10    9.602073114365339E-4  -1.068794168531895E-3  
 2.538000000000000E10   -3.177047183271498E-4  -1.058920170180500E-3  
 2.540000000000000E10   -1.190167822642252E-4  -4.936524201184511E-4  
 2.542000000000000E10   -5.238672019913793E-4   2.333477459615096E-4  
 2.544000000000000E10    1.678528205957264E-4   5.603239696938545E-5  
 2.546000000000000E10    4.747693601530045E-4   1.651671336730942E-4  
 2.548000000000000E10   -3.804470543400385E-5  -1.366901560686529E-3  
 2.550000000000000E10   -9.025824838317931E-4  -1.230337773449719E-3  
 2.552000000000000E10   -1.509761321358383E-3   1.108031574403867E-5  
 2.554000000000000E10    7.505670509999618E-5   9.125515935011208E-4  
 2.556000000000000E10   -4.158720184932463E-5   1.837192830862477E-4  
 2.558000000000000E10    4.359636513981968E-4  -9.285154519602656E-4  
 2.560000000000000E10   -1.090610632672906E-3  -8.839780639391393E-5  
 2.562000000000000E10   -7.858072058297694E-4   3.171600474161096E-5  
 2.564000000000000E10   -3.255507617723197E-4   9.574726573191583E-4  
 2.566000000000000E10    3.584087244234979E-5   8.275636355392635E-5  
 2.568000000000000E10    7.172710029408336E-4   1.939773064805195E-4  
 2.570000000000000E10   -2.907681046053767E-4  -1.059637143043801E-4  
 2.572000000000000E10   -5.157982814125717E-4  -6.216704059625045E-5  
 2.574000000000000E10   -1.073748688213527E-3   8.387338602915406E-4  
 2.576000000000000E10    7.220122643047944E-5   1.222801627591252E-3  
 2.578000000000000E10    5.362478550523520E-4   5.994616658426821E-4  
 2.580000000000000E10    1.692492078291252E-4  -7.218671962618828E-4  
 2.582000000000000E10   -9.202227229252458E-4   9.242622036254033E-5  
 2.584000000000000E10   -8.900446700863540E-4   4.006333474535495E-4  
 2.586000000000000E10    2.268940988869872E-6   1.342384261079133E-3  
 2.588000000000000E10    6.503489566966891E-4   4.287933697924018E-4  
 2.590000000000000E10    9.751904872246087E-4   3.460470761638135E-4  
 2.592000000000000E10   -2.460961695760489E-4   1.462307263864204E-4  
 2.594000000000000E10   -5.999338463880122E-4   6.190487183630467E-4  
 2.596000000000000E10   -4.163761332165450E-4   6.850598729215562E-4  
 2.598000000000000E10   -1.395589351886883E-4   1.055194763466716E-3  
 2.600000000000000E10    8.965292945504189E-4   1.179791361209936E-4  
 2.602000000000000E10    8.619548752903938E-4  -8.438850636593998E-4  
 2.604000000000000E10   -7.587709696963430E-4  -3.786698216572404E-4  
 2.606000000000000E10   -1.581564720254391E-4   4.913977463729680E-4  
 2.608000000000000E10    6.465680198743939E-4   1.426508999429643E-3  
 2.610000000000000E10    7.176203071139753E-4   2.178293507313356E-4  
 2.612000000000000E10    5.582175799645484E-4  -2.995164250023663E-4  
 2.614000000000000E10   -1.057525048963726E-3  -4.425585502758622E-4  
 2.616000000000000E10   -8.036253857426345E-4   1.135254860855639E-4  
 2.618000000000000E10    1.135452621383593E-4   4.313956305850297E-4  
 2.620000000000000E10    1.257111289305612E-4   2.191805833717808E-4  
 2.622000000000000E10    7.244930020533502E-4  -4.284697060938925E-4  
 2.624000000000000E10    1.097367960028350E-3  -8.560711285099387E-4  
 2.626000000000000E10   -4.991450696252286E-4  -5.561856669373810E-4  
 2.628000000000000E10   -4.869840922765434E-4   5.274240393191576E-4  
 2.630000000000000E10    6.701785023324192E-4   1.142528722994030E-3  
 2.632000000000000E10    6.186364335007966E-4  -3.423260059207678E-4  
 2.634000000000000E10   -1.994152553379536E-4  -1.109141856431961E-3  
 2.636000000000000E10   -3.338448877912015E-4  -3.559792239684612E-4  
 2.638000000000000E10   -2.650200040079653E-4  -8.009558223420754E-5  
 2.640000000000000E10    4.613457422237843E-4  -6.989577668718994E-4  
 2.642000000000000E10    6.011388613842428E-4   6.163149373605847E-4  
 2.644000000000000E10    6.605299422517419E-4  -1.584050187375397E-4  
 2.646000000000000E10    1.088661723770201E-3  -4.856061423197389E-4  
 2.648000000000000E10   -7.869583787396550E-4  -3.837015246972442E-4  
 2.650000000000000E10   -1.022131647914648E-3   6.937707075849176E-4  
 2.652000000000000E10    3.248902212362737E-4   1.583929988555610E-3  
 2.654000000000000E10    1.242209109477699E-3  -7.262990111485124E-4  
 2.656000000000000E10   -4.230536433169618E-5  -1.327530713751912E-3  
 2.658000000000000E10   -9.815805824473500E-4  -3.700439410749823E-4  
 2.660000000000000E10    5.616660564555787E-5   6.979723693802953E-4  
 2.662000000000000E10    3.369456389918923E-4  -2.880164247471839E-4  
 2.664000000000000E10    7.215775549411774E-4   1.486617693444714E-4  
 2.666000000000000E10    8.616509730927646E-4   3.350688202772290E-4  
 2.668000000000000E10    6.002643494866788E-4  -4.146745195612311E-4  
 2.670000000000000E10   -9.033734677359462E-4  -1.904100936371833E-4  
 2.672000000000000E10   -7.128792349249125E-4   1.248525804840028E-3  
 2.674000000000000E10    7.507647969760001E-4   9.523195330984891E-4  
 2.676000000000000E10    9.288385044783354E-4  -1.037942594848573E-3  
 2.678000000000000E10   -6.282560643739998E-4  -1.193323289044201E-3  
 2.680000000000000E10   -6.716385250911117E-4  -5.360011346056126E-5  
 2.682000000000000E10   -8.512726344633848E-5   4.880604101344943E-4  
 2.684000000000000E10    9.359260438941419E-4  -1.500647485954687E-4  
 2.686000000000000E10    6.830040947534144E-4  -2.994068927364424E-5  
 2.688000000000000E10    1.140776148531586E-4  -3.757082449737936E-4  
 2.690000000000000E10    4.881986242253333E-4  -3.321002805023454E-5  
 2.692000000000000E10   -1.042056013830006E-3   2.803923853207380E-4  
 2.694000000000000E10   -8.487310260534287E-4   8.074163342826068E-4  
 2.696000000000000E10    9.144814102910459E-4   1.029736362397671E-3  
 2.698000000000000E10    2.130220818798989E-4  -8.225686033256352E-4  
 2.700000000000000E10   -7.850254187360406E-4  -1.665388466790319E-3  
 2.702000000000000E10   -9.036252158693969E-4   2.452630142215639E-4  
 2.704000000000000E10    8.983058796729893E-5   6.674997275695205E-4  
 2.706000000000000E10    8.813777239993215E-4  -1.715777907520533E-4  
 2.708000000000000E10    7.513638120144606E-4   5.142415102454834E-5  
 2.710000000000000E10   -1.113254620577209E-4  -3.415318205952644E-4  
 2.712000000000000E10   -1.198411919176579E-4  -2.456373185850680E-4  
 2.714000000000000E10   -6.589017575606704E-4   3.875127003993839E-4  
 2.716000000000000E10   -4.845747025683522E-4   5.202478496357799E-4  
 2.718000000000000E10    9.613398578949273E-4  -1.533638860564679E-4  
 2.720000000000000E10    5.025743157602847E-4  -7.242402643896639E-4  
 2.722000000000000E10   -5.718123866245151E-4  -1.349761267192662E-3  
 2.724000000000000E10   -5.314584268489853E-5   1.472181320423260E-4  
 2.726000000000000E10    3.526914806570858E-4   1.124543137848377E-3  
 2.728000000000000E10    1.012294553220272E-3   6.024537651683204E-5  
 2.730000000000000E10    4.123055841773748E-4   4.593411631503841E-6  
 2.732000000000000E10   -6.639054627157748E-4  -2.372631861362606E-4  
 2.734000000000000E10   -6.173417204990983E-4  -1.824509672587737E-4  
 2.736000000000000E10   -4.440282064024359E-4   1.682534057181329E-4  
 2.738000000000000E10   -1.200598417199217E-4   8.299355395138264E-4  
 2.740000000000000E10    9.336753282696009E-4  -3.147723618894815E-4  
 2.742000000000000E10    4.173779452685267E-4  -1.055929227732122E-3  
 2.744000000000000E10   -6.852054502815008E-4  -7.313097012229264E-4  
 2.746000000000000E10   -3.687838034238666E-4   5.733414436690509E-4  
 2.748000000000000E10    3.431997029110789E-4   1.184261636808515E-3  
 2.750000000000000E10    6.187835824675858E-4   1.628726458875462E-4  
 2.752000000000000E10    3.178418555762619E-4  -5.496286321431398E-4  
 2.754000000000000E10   -5.120467394590378E-4  -2.626446948852390E-4  
 2.756000000000000E10   -6.401253631338477E-4   4.549095319816843E-5  
