#  HZ   S   RI   R     50.00 
! Rohde & Schwarz ZVA40 4Ports - Version 3.90 - 1145.1110k42 SN: 100403
! Date: 2023-10-04 11:37:25
! Measurement: S12 
! 
 2.200000000000000E10    4.623827699106187E-4   3.391726349946111E-4  
 2.202000000000000E10    1.834106224123389E-4  -5.985423340462148E-4  
 2.204000000000000E10   -2.383661922067404E-5  -2.055902295978740E-4  
 2.206000000000000E10   -2.309285991941579E-5   4.301736480556428E-4  
 2.208000000000000E10    3.898068971466273E-4  -1.351266982965171E-4  
 2.210000000000000E10   -9.463785099796951E-4   2.030126197496429E-4  
 2.212000000000000E10   -2.787300618365407E-4   1.080192625522614E-3  
 2.214000000000000E10    8.805341785773635E-4   6.311815814115107E-4  
 2.216000000000000E10    6.611486605834216E-5  -8.943132124841213E-4  
 2.218000000000000E10   -1.329829916357994E-3  -7.313532405532897E-4  
 2.220000000000000E10   -1.917796762427315E-4   6.892423843964934E-4  
 2.222000000000000E10    7.351099629886448E-4   2.366008411627263E-4  
 2.224000000000000E10    1.227783039212227E-3  -1.097337459214032E-3  
 2.226000000000000E10   -6.746742292307317E-5   2.882211119867861E-4  
 2.228000000000000E10    4.129325388930738E-4   6.108897505328059E-4  
 2.230000000000000E10    8.930800831876695E-4  -1.514605537522584E-4  
 2.232000000000000E10   -1.138681545853615E-3  -2.074438525596634E-4  
 2.234000000000000E10   -6.806241435697302E-5   7.986965356394649E-4  
 2.236000000000000E10    7.391667459160090E-4   1.366174255963415E-4  
 2.238000000000000E10    6.692461320199072E-4  -1.509152119979262E-3  
 2.240000000000000E10   -9.160994086414576E-4  -1.378341694362462E-3  
 2.242000000000000E10    2.597736020106822E-4  -2.464402641635388E-4  
 2.244000000000000E10    4.449122352525592E-4   3.496792051009834E-4  
 2.246000000000000E10    5.675900611095130E-4  -7.068503764458001E-4  
 2.248000000000000E10    3.739212115760893E-4   1.814452116377652E-4  
 2.250000000000000E10   -9.999802568927407E-5  -4.530945152509958E-4  
 2.252000000000000E10   -4.625169822247699E-5  -2.847751893568784E-4  
 2.254000000000000E10   -1.457635196857154E-3  -1.765540946507826E-4  
 2.256000000000000E10    2.744450175669044E-4   6.465297192335129E-4  
 2.258000000000000E10    6.090416572988033E-4  -2.999051939696074E-4  
 2.260000000000000E10    1.891151332529262E-4  -1.539373653940857E-3  
 2.262000000000000E10   -1.581808552145958E-3  -6.860488792881370E-4  
 2.264000000000000E10   -1.588345185155049E-4   5.400215159170330E-4  
 2.266000000000000E10    7.372375112026930E-4   6.622825167141855E-4  
 2.268000000000000E10    3.892464737873524E-4  -1.122681074775755E-3  
 2.270000000000000E10   -4.448815598152578E-4  -8.213192631956190E-5  
 2.272000000000000E10    8.793122833594680E-5   1.257492695003748E-4  
 2.274000000000000E10   -3.592008142732084E-4  -1.186262088594958E-4  
 2.276000000000000E10   -1.270255655981600E-3   1.368138473480940E-4  
 2.278000000000000E10    3.386265016160905E-4   7.271207869052887E-4  
 2.280000000000000E10    4.970996524207294E-4  -2.919373218901455E-4  
 2.282000000000000E10    9.192325524054468E-4  -1.163632841780782E-3  
 2.284000000000000E10   -1.636883593164384E-3   3.336759109515697E-4  
 2.286000000000000E10   -7.291703368537128E-4   1.012488035485148E-3  
 2.288000000000000E10    5.958569236099720E-4   4.254131636116654E-4  
 2.290000000000000E10    1.435585727449507E-4  -4.180665710009635E-4  
 2.292000000000000E10   -6.297956570051611E-4   1.963849354069680E-4  
 2.294000000000000E10   -5.968283221591264E-5   1.841448465711437E-5  
 2.296000000000000E10   -1.492826559115201E-4   6.494277386082104E-6  
 2.298000000000000E10   -5.772434524260461E-4  -1.118177242460661E-4  
 2.300000000000000E10    2.737697213888168E-4   1.202079816721380E-3  
 2.302000000000000E10    1.466089626774192E-3  -2.870143798645586E-4  
 2.304000000000000E10    1.187000452773646E-4  -1.287168706767261E-3  
 2.306000000000000E10   -1.564443926326931E-3   8.121061837300658E-4  
 2.308000000000000E10   -1.152509867097251E-4   1.622112933546305E-3  
 2.310000000000000E10    9.599237237125635E-4   3.277209179941565E-4  
 2.312000000000000E10    3.121196350548416E-4  -3.521069884300232E-4  
 2.314000000000000E10   -6.706608692184091E-4   2.660156751517206E-4  
 2.316000000000000E10   -1.566024147905409E-4  -1.328740327153355E-4  
 2.318000000000000E10    8.767602594161872E-6   5.892091430723667E-4  
 2.320000000000000E10   -3.643902600742877E-4   8.487172308377922E-4  
 2.322000000000000E10    1.072449493221939E-3   6.511831306852400E-4  
 2.324000000000000E10    7.713973172940314E-4   1.050931859936100E-5  
 2.326000000000000E10   -8.150066714733839E-4  -5.776822799816728E-4  
 2.328000000000000E10   -1.079765846952796E-3   4.395068099256605E-4  
 2.330000000000000E10    3.784528234973550E-4   1.337577705271542E-3  
 2.332000000000000E10    1.117746811360121E-3  -1.411816265317611E-5  
 2.334000000000000E10    4.802581679541618E-4  -7.893622969277203E-4  
 2.336000000000000E10   -8.998587145470083E-5   5.406157288234681E-5  
 2.338000000000000E10   -1.911806175485253E-4   3.130800614599139E-4  
 2.340000000000000E10    6.138688768260181E-4   6.032181554473937E-4  
 2.342000000000000E10    3.204135573469102E-4   8.649771334603429E-4  
 2.344000000000000E10    1.524536870419979E-3   3.584006044548005E-4  
 2.346000000000000E10    4.814910062123090E-4  -2.362217055633664E-4  
 2.348000000000000E10   -1.145540154539049E-3  -6.499623996205628E-4  
 2.350000000000000E10   -6.055766134522855E-4   5.206406931392849E-4  
 2.352000000000000E10    1.043891417793930E-3   9.377946262247860E-4  
 2.354000000000000E10    1.365164178423584E-3  -2.765780955087394E-4  
 2.356000000000000E10    5.866184947080910E-4  -1.245135441422463E-3  
 2.358000000000000E10   -3.950876707676798E-4  -5.633310065604746E-4  
 2.360000000000000E10   -2.444707206450403E-4   8.010868332348764E-4  
 2.362000000000000E10    4.272471123840660E-4   5.501644336618483E-4  
 2.364000000000000E10    6.280471570789814E-4   1.832933048717678E-4  
 2.366000000000000E10    2.129944186890498E-4  -4.629775648936629E-4  
 2.368000000000000E10   -9.144686919171363E-5  -8.328913245350123E-4  
 2.370000000000000E10   -7.959607173688710E-4  -5.761117208749056E-4  
 2.372000000000000E10   -2.036312071140856E-4   4.882963257841766E-4  
 2.374000000000000E10    9.167965617962182E-4   5.342409131117165E-4  
 2.376000000000000E10    7.839502068236470E-4  -9.791477350518107E-4  
 2.378000000000000E10   -5.112506187288091E-5  -9.939443552866578E-4  
 2.380000000000000E10   -5.076864035800099E-4  -1.227000757353380E-4  
 2.382000000000000E10    1.495523756602779E-4   4.125026753172278E-4  
 2.384000000000000E10    2.858089865185320E-4   5.640406161546707E-4  
 2.386000000000000E10    4.553399630822241E-4  -3.048497019335628E-4  
 2.388000000000000E10    6.252963794395328E-5  -1.030380954034627E-3  
 2.390000000000000E10   -5.003443802706897E-4  -9.664296521805227E-4  
 2.392000000000000E10   -6.513991975225508E-4  -3.339948016218841E-4  
 2.394000000000000E10    1.243447768501937E-4   3.484123444650322E-4  
 2.396000000000000E10    6.732548354193568E-4   5.272114067338407E-4  
 2.398000000000000E10    5.504452274180949E-4  -1.423127017915249E-3  
 2.400000000000000E10   -5.220923339948058E-4  -9.760896209627390E-4  
 2.402000000000000E10   -1.344934687949717E-3   3.634493041317910E-4  
 2.404000000000000E10   -5.689662066288292E-4   5.304351216182113E-4  
 2.406000000000000E10   -1.959963556146249E-4   3.938823065254837E-4  
 2.408000000000000E10    1.074247047654353E-4  -7.152443140512332E-5  
 2.410000000000000E10   -3.303309204056859E-4  -1.250296598300338E-3  
 2.412000000000000E10   -1.320817391388118E-3  -7.631412008777261E-4  
 2.414000000000000E10   -1.101408153772354E-3   5.995006649754942E-4  
 2.416000000000000E10    2.347682748222724E-4   4.247846372891218E-4  
 2.418000000000000E10    1.366196898743510E-3  -5.299793556332588E-4  
 2.420000000000000E10   -8.815417095320299E-5  -9.017357369884849E-4  
 2.422000000000000E10   -5.888851010240614E-4  -5.439211963675916E-4  
 2.424000000000000E10   -5.595121183432639E-4   7.624393911100924E-4  
 2.426000000000000E10   -2.988421765621752E-4   8.471849723719060E-4  
 2.428000000000000E10    6.287684664130211E-4   5.088704638183117E-4  
 2.430000000000000E10    2.081866259686649E-4  -2.054347860394046E-4  
 2.432000000000000E10   -9.805978043004870E-4  -1.143378787674010E-3  
 2.434000000000000E10   -1.127902185544372E-3   2.671415568329394E-4  
 2.436000000000000E10   -3.667986602522433E-4   9.048290085047483E-4  
 2.438000000000000E10    1.101601985283196E-3   2.327283436898142E-4  
 2.440000000000000E10    1.371727208606899E-3  -3.485520428512245E-4  
 2.442000000000000E10   -2.973748996737413E-5  -3.529641544446349E-4  
 2.444000000000000E10   -5.752752185799182E-4   7.038580952212215E-4  
 2.446000000000000E10   -4.300011642044410E-5   9.145940421149135E-4  
 2.448000000000000E10   -2.144742029486224E-4   7.789992960169911E-4  
 2.450000000000000E10    4.814015410374850E-4   4.732926317956299E-4  
 2.452000000000000E10    5.639577284455299E-4  -6.403670995496213E-4  
 2.454000000000000E10   -3.892996464855969E-4  -1.278453622944653E-3  
 2.456000000000000E10   -6.152166170068085E-4  -1.122807516367175E-4  
 2.458000000000000E10    3.802176506724209E-4   7.003690116107464E-4  
 2.460000000000000E10    1.590827363543212E-3   8.652933320263401E-5  
 2.462000000000000E10    9.573730640113354E-4  -5.964890005998313E-4  
 2.464000000000000E10    1.434706355212256E-4  -4.020848136860877E-4  
 2.466000000000000E10   -5.750861018896103E-4  -2.354928801651113E-5  
 2.468000000000000E10   -5.513763753697276E-4   4.224277508910745E-4  
 2.470000000000000E10   -1.208399553433992E-4   6.009234930388629E-4  
 2.472000000000000E10    7.458844920620322E-4  -3.696214989759028E-4  
 2.474000000000000E10    3.370345802977681E-4  -1.130601274780929E-3  
 2.476000000000000E10   -7.370922830887139E-4  -1.303307712078095E-3  
 2.478000000000000E10   -8.811829029582441E-4  -2.693125907171634E-6  
 2.480000000000000E10    3.570308617781848E-4   8.730213739909232E-4  
 2.482000000000000E10    1.188967027701438E-3   2.973813388962299E-4  
 2.484000000000000E10    3.498109072097577E-5  -1.408962300047278E-3  
 2.486000000000000E10   -1.156011829152703E-3  -6.983905332162976E-4  
 2.488000000000000E10   -9.404735174030066E-4   2.980213903356344E-4  
 2.490000000000000E10   -1.056243218044983E-5   4.329601651988924E-4  
 2.492000000000000E10    2.163255849154666E-4   8.343689114553854E-5  
 2.494000000000000E10    4.960431833751500E-4  -2.331522118765861E-4  
 2.496000000000000E10   -2.468902312102728E-5  -9.958723094314337E-4  
 2.498000000000000E10   -1.119185006245971E-3  -6.461339071393013E-4  
 2.500000000000000E10   -1.031279680319130E-3   1.054684282280505E-3  
 2.502000000000000E10    4.202971467748284E-4   9.352648048661649E-4  
 2.504000000000000E10    8.317292667925358E-4  -6.730825989507139E-4  
 2.506000000000000E10   -2.666772925294936E-4  -9.121583425439894E-4  
 2.508000000000000E10   -1.070795115083456E-3  -4.149259621044621E-5  
 2.510000000000000E10   -4.916255129501224E-4   8.549226331524551E-4  
 2.512000000000000E10    6.966011715121567E-4   1.169553841464222E-3  
 2.514000000000000E10    6.667267298325896E-4   1.604181161383167E-4  
 2.516000000000000E10    4.710404609795660E-4   2.671857946552336E-4  
 2.518000000000000E10   -2.875079808291048E-4   3.269708249717951E-4  
 2.520000000000000E10   -6.535873399116099E-4   1.238618278875947E-4  
 2.522000000000000E10   -3.612917789723724E-4   9.244008688256145E-4  
 2.524000000000000E10    5.637748399749398E-4   1.159457024186850E-3  
 2.526000000000000E10    1.368314842693508E-3  -6.612278521060944E-4  
 2.528000000000000E10    5.885752616450191E-4  -6.709002191200852E-4  
 2.530000000000000E10   -4.975946503691375E-4   8.717597229406238E-4  
 2.532000000000000E10    1.520693040220067E-4   1.512409304268658E-3  
 2.534000000000000E10    1.086452044546604E-3   6.282263784669340E-4  
 2.536000000000000E10    6.061495514586568E-4   5.450544413179159E-4  
 2.538000000000000E10   -4.171804175712168E-4  -1.822857884690166E-4  
 2.540000000000000E10    9.873307863017544E-5  -2.523834700696170E-4  
 2.542000000000000E10   -6.000305875204504E-4   4.460602649487555E-4  
 2.544000000000000E10    3.421541259740479E-5   3.457927377894521E-4  
 2.546000000000000E10    1.107060583308339E-3   6.533426349051297E-4  
 2.548000000000000E10    1.205227687023580E-3  -7.359970477409661E-4  
 2.550000000000000E10    5.631954991258681E-4  -7.722407463006675E-4  
 2.552000000000000E10   -7.161040557548404E-4  -3.215926335542463E-5  
 2.554000000000000E10    4.454578811419196E-5   9.951824322342873E-4  
 2.556000000000000E10    7.369056693278253E-4   5.164671456441283E-4  
 2.558000000000000E10    8.554103551432490E-4  -9.359753457829356E-4  
 2.560000000000000E10   -4.554174083750695E-4  -4.462541255634278E-4  
 2.562000000000000E10   -3.613256267271936E-4  -8.509204490110278E-4  
 2.564000000000000E10   -2.830492740031332E-4   2.019631356233731E-4  
 2.566000000000000E10    3.019594005309045E-4   3.955375868827105E-4  
 2.568000000000000E10    1.197021920233965E-3   9.806794696487486E-5  
 2.570000000000000E10   -1.393672846461413E-6  -1.173181110061705E-3  
 2.572000000000000E10   -4.682227445300669E-4  -4.996746429242194E-4  
 2.574000000000000E10   -8.655685815028846E-4   2.574301324784756E-4  
 2.576000000000000E10   -2.254473947687075E-4   4.151126777287573E-4  
 2.578000000000000E10    3.641587391030043E-4  -4.534026375040412E-4  
 2.580000000000000E10    9.471743833273649E-4  -1.105085597373545E-3  
 2.582000000000000E10   -7.972066523507237E-4  -1.396075705997646E-3  
 2.584000000000000E10   -7.794608245603740E-4  -3.004712343681604E-4  
 2.586000000000000E10    3.303664561826736E-5   7.174629135988653E-4  
 2.588000000000000E10    5.607036291621625E-4  -4.593332414515317E-4  
 2.590000000000000E10    3.295417627668940E-5  -1.949888428498525E-5  
 2.592000000000000E10   -5.808602436445653E-4  -9.134652209468186E-4  
 2.594000000000000E10   -4.290864744689316E-4  -3.905782359652221E-4  
 2.596000000000000E10   -1.025725039653480E-3   3.450089425314218E-4  
 2.598000000000000E10    1.306606009165989E-5   1.881396456155926E-4  
 2.600000000000000E10   -5.716377563658170E-5  -7.710320642217994E-5  
 2.602000000000000E10    2.015146164922044E-4  -5.505299777723849E-4  
 2.604000000000000E10   -4.190864856354892E-4  -5.465372814796865E-4  
 2.606000000000000E10   -1.126104849390686E-3  -2.042840351350606E-4  
 2.608000000000000E10   -4.555413615889847E-4   9.853740921244025E-4  
 2.610000000000000E10    6.863255403004587E-4  -3.365034644957632E-4  
 2.612000000000000E10    6.511006504297257E-4  -6.848893244750798E-4  
 2.614000000000000E10   -5.852340254932642E-4  -4.742789606098086E-4  
 2.616000000000000E10   -2.940577105619013E-4  -3.239068028051406E-4  
 2.618000000000000E10   -1.904791424749419E-4   2.161132870242000E-4  
 2.620000000000000E10   -1.897066540550441E-4   5.680739996023476E-4  
 2.622000000000000E10    9.541024919599295E-4   1.603574055479839E-4  
 2.624000000000000E10    3.625596873462200E-4  -3.587562532629818E-4  
 2.626000000000000E10   -1.295744441449642E-3  -7.984644034877420E-4  
 2.628000000000000E10   -7.022187928669155E-4   4.303828172851354E-4  
 2.630000000000000E10    1.475489843869582E-4   1.470355549827218E-3  
 2.632000000000000E10    7.087710546329618E-4  -3.725852002389729E-4  
 2.634000000000000E10    5.683468771167100E-4  -8.136852993629873E-4  
 2.636000000000000E10   -1.005545258522034E-3   2.103808510582894E-4  
 2.638000000000000E10   -1.012626336887479E-3   9.264549007639289E-4  
 2.640000000000000E10    2.948860055767000E-4   9.081620955839753E-4  
 2.642000000000000E10   -4.858723514189478E-6   7.751678349450231E-4  
 2.644000000000000E10    8.482715202262625E-6  -5.782717198599130E-5  
 2.646000000000000E10    4.889870178885758E-4  -7.395866123260930E-5  
 2.648000000000000E10   -8.357551414519548E-4  -6.256366032175720E-4  
 2.650000000000000E10   -7.409505196847022E-4   4.004521179012954E-4  
 2.652000000000000E10    9.207446710206568E-4   1.498930854722858E-3  
 2.654000000000000E10    1.271727494895458E-3   2.779502246994525E-4  
 2.656000000000000E10   -3.442290471866727E-4  -9.462047019042075E-4  
 2.658000000000000E10   -5.594283575192094E-4  -4.494031236390583E-5  
 2.660000000000000E10   -5.239523015916348E-4   1.008842373266816E-3  
 2.662000000000000E10    9.083136683329940E-5   2.178928407374769E-4  
 2.664000000000000E10    7.266067404998466E-5   1.000340998871252E-4  
 2.666000000000000E10   -1.797464356059209E-4  -7.490784628316760E-4  
 2.668000000000000E10   -2.037824015133083E-4  -4.141653189435601E-4  
 2.670000000000000E10   -5.813408060930669E-4  -3.924900956917554E-4  
 2.672000000000000E10   -3.505376516841352E-4   8.601230802014470E-4  
 2.674000000000000E10    8.034621714614332E-4   1.273150788620114E-3  
 2.676000000000000E10    9.858447592705488E-4  -2.645828644745052E-4  
 2.678000000000000E10   -4.811282269656658E-4  -7.655647350475192E-4  
 2.680000000000000E10   -1.342220348306000E-3   2.402053942205384E-4  
 2.682000000000000E10   -7.083284435793757E-4   1.046017510816455E-3  
 2.684000000000000E10    3.667885321192443E-4   3.128094249404967E-4  
 2.686000000000000E10    1.334886183030903E-4  -4.555132181849331E-4  
 2.688000000000000E10    2.918560858233832E-5  -4.374543204903603E-4  
 2.690000000000000E10    1.445747038815171E-4  -6.587406969629228E-4  
 2.692000000000000E10   -5.522204446606338E-4  -4.481391806621105E-4  
 2.694000000000000E10   -3.834676172118634E-4   6.487648934125900E-4  
 2.696000000000000E10    1.084869727492333E-3   9.598661563359201E-4  
 2.698000000000000E10    6.826080498285592E-4  -3.808937908615917E-4  
 2.700000000000000E10    1.530215522507206E-4  -1.435969257727265E-3  
 2.702000000000000E10   -1.046206220053136E-3   9.418638073839247E-4  
 2.704000000000000E10   -6.125556537881494E-4   8.266647928394377E-4  
 2.706000000000000E10    1.176164369098842E-3   3.338826063554734E-4  
 2.708000000000000E10    1.668969634920359E-4  -4.322248278185725E-4  
 2.710000000000000E10   -3.251129528507590E-4  -9.774338686838746E-4  
 2.712000000000000E10    6.472591485362500E-5   1.550267770653591E-4  
 2.714000000000000E10   -3.753300916287117E-6   4.085186810698360E-5  
 2.716000000000000E10    2.682040794752538E-4   4.800148599315435E-4  
 2.718000000000000E10    1.087279641069472E-3   7.781696040183306E-4  
 2.720000000000000E10    6.791354971937835E-4  -2.311074495082721E-4  
 2.722000000000000E10   -3.454578400123864E-4  -6.052678218111396E-4  
 2.724000000000000E10   -6.875125691294670E-4   9.920076699927449E-4  
 2.726000000000000E10   -3.595910384319723E-4   1.107126940041781E-3  
 2.728000000000000E10    8.736744639463723E-4  -3.924476040992886E-4  
 2.730000000000000E10    6.107654189690948E-4  -7.238232647068799E-4  
 2.732000000000000E10   -6.185161182656884E-4  -1.035216264426708E-3  
 2.734000000000000E10    2.110082859871909E-4  -2.375525946263224E-4  
 2.736000000000000E10    2.522082650102675E-4   3.103821363765746E-4  
 2.738000000000000E10    5.976577522233129E-4   2.007716102525592E-4  
 2.740000000000000E10    9.441401925869286E-4   3.517219738569111E-4  
 2.742000000000000E10    6.282090325839818E-4  -6.165554805193096E-5  
 2.744000000000000E10   -6.368560134433210E-4  -5.112834624014795E-4  
 2.746000000000000E10   -1.108841504901648E-3   3.792461939156056E-4  
 2.748000000000000E10   -2.519134141039103E-4   7.005346124060452E-4  
 2.750000000000000E10    6.097636651247740E-4  -3.154168953187764E-4  
 2.752000000000000E10    4.639484686776996E-4  -1.370168756693602E-3  
 2.754000000000000E10   -9.925079066306353E-4  -4.445907252375037E-4  
 2.756000000000000E10   -2.643010811880231E-4  -1.584841957082972E-4  
