#  HZ   S   RI   R     50.00 
! Rohde & Schwarz ZVA40 4Ports - Version 3.90 - 1145.1110k42 SN: 100403
! Date: 2023-10-04 11:37:07
! Measurement: S12 
! 
 2.200000000000000E10    1.047060475684702E-3   1.452892320230603E-4  
 2.202000000000000E10   -2.204517659265548E-4  -4.186549631413072E-4  
 2.204000000000000E10   -4.228248144499958E-4  -3.306661674287170E-4  
 2.206000000000000E10   -2.288513496750966E-4   4.443803045433015E-4  
 2.208000000000000E10   -1.133198456955142E-4  -5.316349561326206E-4  
 2.210000000000000E10   -2.994342066813260E-4  -3.196476900484413E-4  
 2.212000000000000E10    2.616831916384399E-4   1.180407343781553E-4  
 2.214000000000000E10    1.185115776024759E-3  -2.999835705850273E-4  
 2.216000000000000E10    1.876667520264164E-4  -1.390305347740650E-3  
 2.218000000000000E10   -7.394736749120057E-4   2.167593047488481E-4  
 2.220000000000000E10    4.847251402679831E-4   1.572777400724590E-3  
 2.222000000000000E10    1.226377557031810E-3   6.451034569181502E-4  
 2.224000000000000E10   -3.931184473913163E-4  -1.163702690973878E-3  
 2.226000000000000E10   -1.555182388983667E-3   1.472936564823613E-4  
 2.228000000000000E10   -5.343894590623677E-4   6.513500702567399E-4  
 2.230000000000000E10    3.816338721662760E-4   9.540189057588577E-5  
 2.232000000000000E10   -4.506804107222706E-4  -6.691584712825716E-4  
 2.234000000000000E10    6.090972456149757E-4   9.337205847259611E-5  
 2.236000000000000E10    1.666617899900302E-4  -2.024772984441370E-4  
 2.238000000000000E10    4.284816386643797E-4  -8.642555330879986E-4  
 2.240000000000000E10   -6.555473082698882E-4   7.965084514580667E-4  
 2.242000000000000E10    2.574150275904685E-4   7.916364120319486E-4  
 2.244000000000000E10    9.517021826468408E-4   2.090432244585827E-4  
 2.246000000000000E10   -3.036179987248033E-4  -1.033252803608775E-3  
 2.248000000000000E10   -1.386862597428262E-3   1.472610601922497E-4  
 2.250000000000000E10   -3.817086108028889E-4   3.488108341116458E-4  
 2.252000000000000E10    9.471848607063294E-4   3.946860088035464E-4  
 2.254000000000000E10   -9.750971803441644E-4  -1.171206589788199E-3  
 2.256000000000000E10    8.632908575236797E-4   2.119644195772708E-4  
 2.258000000000000E10   -1.207442401209846E-4   2.748624538071454E-4  
 2.260000000000000E10    4.390489484649152E-4  -1.020526164211333E-3  
 2.262000000000000E10   -1.202618004754186E-3   1.405094168148935E-3  
 2.264000000000000E10    8.705726213520393E-5   9.075895650312305E-4  
 2.266000000000000E10    1.238386961631477E-3   5.838518263772130E-4  
 2.268000000000000E10   -9.313652990385890E-4  -1.495055505074561E-3  
 2.270000000000000E10   -1.260370365343988E-3   5.865862476639450E-4  
 2.272000000000000E10   -9.201054926961660E-4   7.367763319052756E-4  
 2.274000000000000E10    8.305738447234035E-4  -4.395292489789426E-4  
 2.276000000000000E10    1.319959847023711E-4  -2.492641797289252E-4  
 2.278000000000000E10    3.198157064616680E-4  -5.382139352150261E-4  
 2.280000000000000E10    5.325348683982156E-5  -3.206410910934210E-4  
 2.282000000000000E10   -1.966569107025862E-4   1.885670826595742E-5  
 2.284000000000000E10   -6.980903563089669E-4   9.575114818289876E-4  
 2.286000000000000E10    7.824321510270238E-4   1.058106427080929E-3  
 2.288000000000000E10    1.190586714074016E-3  -1.176148070953786E-4  
 2.290000000000000E10   -1.045515993610025E-3  -1.568136271089315E-3  
 2.292000000000000E10   -1.619275775738061E-3   3.749725583475083E-4  
 2.294000000000000E10    4.402554477564991E-4   1.015293644741178E-3  
 2.296000000000000E10    1.170650357380509E-3  -2.482235140632838E-4  
 2.298000000000000E10    2.670793910510838E-4  -8.647911017760634E-4  
 2.300000000000000E10    1.329758961219341E-4   1.197578676510602E-4  
 2.302000000000000E10    2.952183058368973E-5  -1.718505081953481E-4  
 2.304000000000000E10    5.332108121365309E-4   9.741750545799732E-5  
 2.306000000000000E10   -1.952134516614024E-5   8.106589084491134E-4  
 2.308000000000000E10    1.028399448841810E-3   2.690748369786888E-4  
 2.310000000000000E10    5.596422706730664E-4  -7.733167149126530E-4  
 2.312000000000000E10   -8.247334044426680E-4  -9.498418075963855E-4  
 2.314000000000000E10   -1.064036623574793E-3   2.965847088489682E-4  
 2.316000000000000E10    6.247180863283575E-4   5.284819635562599E-4  
 2.318000000000000E10    1.275380840525031E-3  -1.477046462241560E-4  
 2.320000000000000E10    1.450295676477253E-4  -1.342772389762104E-3  
 2.322000000000000E10   -1.509083376731724E-4  -3.446385089773685E-4  
 2.324000000000000E10   -2.744845405686647E-4  -1.693419035291299E-4  
 2.326000000000000E10    5.074336077086628E-4  -1.250342320417985E-4  
 2.328000000000000E10   -1.076453336281702E-4   8.202834869734943E-4  
 2.330000000000000E10    8.548881742171943E-4  -5.058514216216281E-5  
 2.332000000000000E10    3.231169830542058E-4  -1.192876487039030E-3  
 2.334000000000000E10   -1.399981323629618E-3  -1.105124480091035E-3  
 2.336000000000000E10   -6.081865867599845E-4   7.780226878821850E-4  
 2.338000000000000E10    4.116916097700596E-4   2.422956895316020E-4  
 2.340000000000000E10    6.454484537243843E-4  -9.027457563206554E-4  
 2.342000000000000E10   -8.928072056733072E-4  -1.202961895614862E-3  
 2.344000000000000E10   -6.289930897764862E-4  -7.364849443547428E-4  
 2.346000000000000E10   -2.694145659916103E-4   8.394641918130219E-4  
 2.348000000000000E10   -4.238487454131246E-4  -4.911003634333611E-4  
 2.350000000000000E10    6.928032380528748E-4   1.329316000919789E-4  
 2.352000000000000E10   -2.668205415830016E-4   1.044179007294588E-4  
 2.354000000000000E10   -1.582217373652384E-4  -1.488313195295632E-3  
 2.356000000000000E10   -9.575183503329754E-4  -5.349456114345230E-5  
 2.358000000000000E10   -1.140363165177405E-3   6.444263271987438E-4  
 2.360000000000000E10    8.122329600155354E-4   4.447506507858634E-4  
 2.362000000000000E10    3.532593254931271E-4  -1.059765112586319E-3  
 2.364000000000000E10   -5.986434407532215E-4  -8.766995742917061E-4  
 2.366000000000000E10   -1.056610839441419E-3   2.355878386879340E-4  
 2.368000000000000E10   -3.631105355452746E-4   5.433979677036405E-4  
 2.370000000000000E10   -2.145837497664616E-4   3.599422634579241E-4  
 2.372000000000000E10    3.702135873027146E-4  -3.662059898488224E-4  
 2.374000000000000E10   -1.486518340243492E-5  -7.188715972006321E-4  
 2.376000000000000E10   -8.184298058040440E-4  -1.062444993294776E-3  
 2.378000000000000E10   -5.414836923591793E-4   3.443713067099452E-4  
 2.380000000000000E10    9.840482380241156E-5   1.075354055501521E-3  
 2.382000000000000E10    1.025368575938046E-3   3.284630074631423E-4  
 2.384000000000000E10    3.434517711866647E-4  -4.310170479584485E-4  
 2.386000000000000E10   -9.124956559389830E-4   2.222123214323801E-7  
 2.388000000000000E10   -1.049868762493134E-3   1.054929802194238E-3  
 2.390000000000000E10   -1.484246513427934E-5   1.725681126117706E-3  
 2.392000000000000E10    1.242045254912227E-4   4.097110067959875E-4  
 2.394000000000000E10    1.765642373356968E-4  -1.049656886607409E-3  
 2.396000000000000E10   -4.237037792336196E-4  -4.983405815437436E-4  
 2.398000000000000E10   -5.625256453640759E-4   5.474422869156115E-5  
 2.400000000000000E10    4.786178178619593E-4   1.426252187229693E-3  
 2.402000000000000E10    1.051386003382504E-3   9.661230724304915E-4  
 2.404000000000000E10    1.228024251759052E-3  -1.933333260240033E-5  
 2.406000000000000E10   -6.923393084434792E-5   2.565538161434233E-4  
 2.408000000000000E10   -1.271332497708499E-3   4.196179506834596E-4  
 2.410000000000000E10   -3.713628102559596E-4   1.438497100025415E-3  
 2.412000000000000E10    5.122597212903202E-4   1.006940728984773E-3  
 2.414000000000000E10    8.203358156606555E-4  -2.213008701801300E-4  
 2.416000000000000E10    1.023819713736884E-4  -8.870784658938646E-4  
 2.418000000000000E10   -2.035052457358688E-4  -2.793823950923979E-4  
 2.420000000000000E10   -2.781802613753825E-4   6.891996017657220E-4  
 2.422000000000000E10    1.045340206474066E-3   5.121378926560283E-4  
 2.424000000000000E10    6.552700651809573E-4   5.501008708961308E-4  
 2.426000000000000E10    7.832185947336257E-4  -3.106254443991929E-4  
 2.428000000000000E10    6.434975075535476E-4   4.863565845880657E-5  
 2.430000000000000E10   -1.068722573108971E-3   1.547651481814683E-4  
 2.432000000000000E10   -1.882868236862123E-4   1.375148713123053E-4  
 2.434000000000000E10    6.460243021138012E-4   9.258508798666298E-4  
 2.436000000000000E10    5.649158847518265E-4  -5.900023388676345E-4  
 2.438000000000000E10    3.147125535178930E-4  -1.250667264685035E-3  
 2.440000000000000E10   -8.366698166355491E-4  -5.080025875940919E-4  
 2.442000000000000E10   -8.629361400380731E-4   4.662474966607988E-4  
 2.444000000000000E10    7.600607350468636E-4   6.234400207176805E-4  
 2.446000000000000E10    9.750993340276182E-4   6.023523383191787E-6  
 2.448000000000000E10   -9.847307956079021E-5  -8.638410945422947E-4  
 2.450000000000000E10   -2.605108311399818E-4  -6.686407868983224E-5  
 2.452000000000000E10   -1.177211175672710E-3   7.213443750515580E-4  
 2.454000000000000E10   -2.279008913319558E-4   6.877889391034842E-4  
 2.456000000000000E10    6.051512318663299E-4   6.173372967168689E-4  
 2.458000000000000E10    6.163376383483410E-4  -6.331671611405909E-4  
 2.460000000000000E10   -3.536873555276543E-4  -1.317617599852383E-3  
 2.462000000000000E10   -1.394175458699465E-3  -4.076280674780719E-5  
 2.464000000000000E10   -5.967219476588070E-4   9.028833010233939E-4  
 2.466000000000000E10    1.150368363596499E-3   6.451957160606980E-4  
 2.468000000000000E10    1.166284200735390E-3  -4.377449804451317E-4  
 2.470000000000000E10   -9.041518787853420E-4  -6.796337547712028E-4  
 2.472000000000000E10   -7.349234656430781E-4   4.554510815069079E-4  
 2.474000000000000E10   -5.240117316134274E-4   1.380587345920503E-3  
 2.476000000000000E10    1.919171627378091E-4   3.074673004448414E-4  
 2.478000000000000E10    4.406055668368936E-4  -5.145068862475455E-4  
 2.480000000000000E10    3.276069401181303E-5  -1.028750208206475E-3  
 2.482000000000000E10   -1.487709087086842E-4  -4.143274272792041E-4  
 2.484000000000000E10   -4.649832553695887E-4   1.891646388685331E-5  
 2.486000000000000E10    5.602883757092059E-4   7.219985127449036E-4  
 2.488000000000000E10    1.452489057555795E-3   5.377912893891335E-4  
 2.490000000000000E10    6.845659227110446E-4  -6.801217095926404E-4  
 2.492000000000000E10   -3.858903655782342E-4  -1.785770000424236E-4  
 2.494000000000000E10   -9.345369180664420E-4   5.148064810782671E-4  
 2.496000000000000E10   -1.024736848194152E-4   6.576261366717517E-4  
 2.498000000000000E10    1.624496508156881E-4  -9.030420187627897E-5  
 2.500000000000000E10    3.932384133804590E-4  -6.593554280698299E-4  
 2.502000000000000E10   -3.507143992464989E-5  -9.779825340956450E-4  
 2.504000000000000E10    9.247542038792744E-5  -4.407039959914982E-4  
 2.506000000000000E10   -2.182793832616881E-4   3.276720526628196E-4  
 2.508000000000000E10    3.436464467085898E-4   6.480088341049850E-4  
 2.510000000000000E10    9.427597397007048E-4   3.581311102607288E-5  
 2.512000000000000E10    4.436770395841450E-4  -9.825618471950293E-4  
 2.514000000000000E10   -1.085333991795778E-3  -8.791553555056453E-4  
 2.516000000000000E10   -7.434400031343103E-4   2.132414083462209E-4  
 2.518000000000000E10    2.650502137839794E-4   5.509465700015426E-4  
 2.520000000000000E10    5.964406882412732E-4  -6.003614398650825E-4  
 2.522000000000000E10    4.398321907501668E-4  -7.925675599835813E-4  
 2.524000000000000E10   -8.851500460878015E-4  -8.700037142261863E-4  
 2.526000000000000E10   -8.126521133817732E-4  -6.049328949302435E-4  
 2.528000000000000E10   -7.215132936835289E-4   7.157694781199098E-4  
 2.530000000000000E10   -2.991267538163811E-4   5.410501034930348E-4  
 2.532000000000000E10    6.421827711164951E-4  -8.135006064549089E-4  
 2.534000000000000E10   -6.986952503211796E-4  -1.301234937272966E-3  
 2.536000000000000E10   -1.410386059433222E-3  -2.988039923366159E-4  
 2.538000000000000E10   -9.089185041375458E-4   7.235192460939288E-4  
 2.540000000000000E10    2.936607343144715E-4   8.134995005093515E-4  
 2.542000000000000E10    2.018843515543267E-4  -3.013362875208259E-4  
 2.544000000000000E10   -5.173094687052071E-4  -1.097281114198268E-3  
 2.546000000000000E10   -1.100284280255437E-3  -1.911632571136579E-4  
 2.548000000000000E10   -6.418577395379543E-4   4.044073866680265E-4  
 2.550000000000000E10    1.053557498380542E-4   5.640255403704941E-4  
 2.552000000000000E10    3.993762948084623E-4   3.541141049936414E-4  
 2.554000000000000E10    1.002224278636277E-3  -6.080796010792255E-4  
 2.556000000000000E10   -4.213032079860568E-4  -4.642833955585957E-4  
 2.558000000000000E10   -6.935448036529124E-4   5.652569234371185E-4  
 2.560000000000000E10   -2.967470936710015E-5   1.577196526341140E-3  
 2.562000000000000E10    9.959306335076690E-4   4.448984691407532E-4  
 2.564000000000000E10    3.932155086658895E-4  -3.519738093018532E-4  
 2.566000000000000E10   -2.807489945553243E-4  -5.749617703258991E-4  
 2.568000000000000E10   -5.875315982848406E-4   2.874312631320208E-4  
 2.570000000000000E10   -1.803800842026249E-4   4.565910494420677E-4  
 2.572000000000000E10    1.104896189644933E-3   2.649329835548997E-4  
 2.574000000000000E10    8.218644652515650E-4  -3.043649485334754E-4  
 2.576000000000000E10    2.025128633249551E-4  -5.874176276847720E-4  
 2.578000000000000E10   -7.183964771684259E-5   3.417418338358402E-4  
 2.580000000000000E10   -3.210439754184336E-4   5.935757071711123E-4  
 2.582000000000000E10   -2.534403174649924E-4   1.197902369312942E-3  
 2.584000000000000E10    5.942747229710221E-4  -1.511323789600283E-4  
 2.586000000000000E10    4.853666177950800E-4  -9.385694866068661E-4  
 2.588000000000000E10   -5.695014260709286E-4  -1.170634524896741E-3  
 2.590000000000000E10   -4.049315757583827E-4   2.467026642989367E-4  
 2.592000000000000E10    3.888840365107171E-5   2.274450707773212E-5  
 2.594000000000000E10    1.216856297105551E-3   2.820016234181821E-4  
 2.596000000000000E10    6.826520548202097E-4   5.533731382456608E-5  
 2.598000000000000E10   -1.837582094594836E-4  -8.761755307205021E-4  
 2.600000000000000E10   -9.929611114785075E-4   4.070781869813800E-4  
 2.602000000000000E10   -4.644164873752743E-4   9.919903241097927E-4  
 2.604000000000000E10    5.842019527335651E-5   3.089811070822179E-4  
 2.606000000000000E10    9.344681893708184E-5  -3.292217443231493E-4  
 2.608000000000000E10   -1.278866548091173E-4  -5.994748789817095E-4  
 2.610000000000000E10   -4.655536322388798E-4  -6.574650760740042E-4  
 2.612000000000000E10   -6.460648146457970E-4   8.791276486590505E-4  
 2.614000000000000E10    2.916985977208242E-5   8.379194187000394E-4  
 2.616000000000000E10    1.111156772822142E-3   5.649983650073409E-4  
 2.618000000000000E10    2.690090332180262E-4  -2.224277995992452E-4  
 2.620000000000000E10   -7.709280471317470E-4  -5.534787196666002E-4  
 2.622000000000000E10   -1.086215605027974E-3   5.569537170231342E-4  
 2.624000000000000E10   -2.908516908064485E-4   8.012208272702992E-4  
 2.626000000000000E10    8.243680349551141E-4   1.732984237605706E-4  
 2.628000000000000E10    5.709996330551803E-4  -6.473956746049225E-4  
 2.630000000000000E10   -6.494754925370216E-4  -2.812194579746574E-4  
 2.632000000000000E10   -4.827572047361173E-5  -8.570961654186249E-5  
 2.634000000000000E10    1.875500602182001E-4   6.871077348478138E-4  
 2.636000000000000E10   -3.886075282935053E-4   7.199388928711414E-4  
 2.638000000000000E10    9.036478004418314E-4   4.135046037845314E-4  
 2.640000000000000E10    8.286191150546074E-4  -6.986940279603005E-4  
 2.642000000000000E10   -1.177560188807547E-3  -6.372315692715347E-4  
 2.644000000000000E10   -7.784279878251255E-4   2.507675380911678E-4  
 2.646000000000000E10    3.463641332928091E-4   9.396563400514424E-4  
 2.648000000000000E10    8.258714224211872E-4  -3.048965882044286E-4  
 2.650000000000000E10    7.551776943728328E-4  -8.259727037511766E-4  
 2.652000000000000E10   -2.959929988719523E-4  -3.413503000047058E-4  
 2.654000000000000E10    2.733154360612389E-5   2.776114342850633E-5  
 2.656000000000000E10   -1.416227751178667E-4   7.367010693997145E-4  
 2.658000000000000E10    5.834902403876185E-4   5.249091191217303E-4  
 2.660000000000000E10    1.142348279245198E-3   4.177333612460643E-4  
 2.662000000000000E10    2.724686637520790E-4  -8.538564434275031E-4  
 2.664000000000000E10   -8.134589297696948E-4  -1.865639642346650E-4  
 2.666000000000000E10   -4.498898051679134E-4   6.633677985519171E-4  
 2.668000000000000E10    1.219274476170540E-3   6.076593999750912E-4  
 2.670000000000000E10    9.359885589219630E-4  -6.286893039941788E-4  
 2.672000000000000E10   -3.508502413751558E-5  -1.453372649848461E-3  
 2.674000000000000E10   -3.944857744500041E-4  -2.046290610451251E-4  
 2.676000000000000E10    1.311060623265803E-4   4.500239447224885E-4  
 2.678000000000000E10    8.068725001066923E-4   3.454936377238482E-4  
 2.680000000000000E10    3.812709765043110E-4   3.559071337804198E-4  
 2.682000000000000E10    6.683649262413383E-4  -2.802446542773396E-4  
 2.684000000000000E10   -2.324598608538508E-4  -1.004525576718152E-3  
 2.686000000000000E10   -9.253072203136981E-4  -7.532706513302401E-5  
 2.688000000000000E10   -1.985412091016769E-4   8.759479969739914E-4  
 2.690000000000000E10    1.089230761863291E-3   4.639000399038196E-4  
 2.692000000000000E10    1.275035785511136E-3  -9.141298942267895E-4  
 2.694000000000000E10   -4.062911320943385E-4  -6.844176095910370E-4  
 2.696000000000000E10   -8.977003162726760E-4   6.328341987682506E-5  
 2.698000000000000E10    1.397308515151963E-4   1.048790058121085E-3  
 2.700000000000000E10    7.380446186289191E-4   1.744057080941275E-4  
 2.702000000000000E10   -1.498449273640290E-4  -3.817936812993139E-4  
 2.704000000000000E10   -1.582715485710651E-4  -5.510264891199768E-4  
 2.706000000000000E10   -3.059366717934609E-4  -8.799122879281640E-4  
 2.708000000000000E10   -9.420313290320337E-4  -6.712431058986113E-5  
 2.710000000000000E10   -9.754689381225035E-5   4.245228774379939E-4  
 2.712000000000000E10    9.880652651190758E-4   1.019287228700705E-4  
 2.714000000000000E10    4.857837338931859E-4  -1.101975329220295E-3  
 2.716000000000000E10   -5.558370030485094E-4  -8.190506487153471E-4  
 2.718000000000000E10   -9.937592549249530E-4   5.314423469826579E-4  
 2.720000000000000E10    7.888782420195639E-5   5.106764729134738E-4  
 2.722000000000000E10    7.546378183178604E-4   1.665758609306067E-4  
 2.724000000000000E10   -3.447156923357397E-4  -8.364096283912659E-4  
 2.726000000000000E10   -3.892538370564580E-4  -7.252540090121329E-4  
 2.728000000000000E10   -6.287667783908546E-4  -9.986400073103141E-6  
 2.730000000000000E10   -2.838538202922791E-4   6.451314402511343E-5  
 2.732000000000000E10    9.756827239471022E-6   3.672075108624995E-4  
 2.734000000000000E10    4.227082827128470E-4  -6.488323560915887E-5  
 2.736000000000000E10    3.935454587917775E-4  -1.023707329295576E-3  
 2.738000000000000E10   -1.075376174412668E-3  -1.084025483578444E-3  
 2.740000000000000E10   -1.063333591446281E-3   6.120495381765068E-4  
 2.742000000000000E10    3.524265775922686E-4   1.019932096824050E-3  
 2.744000000000000E10    1.046410761773586E-3  -5.396066699177027E-4  
 2.746000000000000E10   -4.083863459527493E-4  -6.909087533131242E-4  
 2.748000000000000E10   -7.846671505831182E-4  -1.607513695489615E-4  
 2.750000000000000E10   -2.504804870113730E-4   6.876555853523314E-4  
 2.752000000000000E10   -1.415852893842384E-4   6.976764416322112E-4  
 2.754000000000000E10   -1.349693338852376E-4   9.954258712241426E-5  
 2.756000000000000E10    2.811462036333978E-4   1.580814023327548E-5  
