#  HZ   S   RI   R     50.00 
! Rohde & Schwarz ZVA40 4Ports - Version 3.90 - 1145.1110k42 SN: 100403
! Date: 2023-10-04 11:36:47
! Measurement: S12 
! 
 2.200000000000000E10    4.959833458997309E-4  -6.541853072121739E-4  
 2.202000000000000E10   -1.117814914323390E-3  -1.532314578071237E-3  
 2.204000000000000E10   -8.141020080074668E-4   4.254622617736459E-4  
 2.206000000000000E10    6.640364881604910E-4   1.253869966603816E-3  
 2.208000000000000E10    1.470964518375695E-3  -8.201307500712574E-4  
 2.210000000000000E10   -5.604895413853228E-4  -6.248437566682696E-4  
 2.212000000000000E10   -1.245926134288311E-3   3.481902531348169E-4  
 2.214000000000000E10    3.802879946306348E-4   6.041908054612577E-4  
 2.216000000000000E10    2.838881046045572E-4  -5.370565850171261E-5  
 2.218000000000000E10   -6.609603296965361E-4  -3.163674264214933E-4  
 2.220000000000000E10    3.099299792665988E-4   2.396190211584326E-6  
 2.222000000000000E10    5.644047632813454E-4  -6.033804384060204E-4  
 2.224000000000000E10   -7.059831987135112E-4  -8.431133464910090E-4  
 2.226000000000000E10   -2.072656388918404E-5   5.133719532750547E-4  
 2.228000000000000E10    1.111242105253041E-3   3.757223021239042E-4  
 2.230000000000000E10    1.036168425343931E-3  -4.196023510303348E-4  
 2.232000000000000E10    9.681205119704828E-5  -2.869985764846206E-4  
 2.234000000000000E10   -3.069831873290241E-4   9.426788310520351E-4  
 2.236000000000000E10   -6.890195654705167E-4   3.011229564435780E-4  
 2.238000000000000E10    8.199199219234288E-4  -2.341245090065058E-5  
 2.240000000000000E10   -1.078801346011460E-3  -7.771463970129844E-6  
 2.242000000000000E10    3.158434992656112E-4  -8.473916677758098E-4  
 2.244000000000000E10    7.315030670724809E-4  -1.185044529847801E-4  
 2.246000000000000E10   -9.630533750168979E-4  -1.054060296155512E-3  
 2.248000000000000E10   -4.437177267391235E-4   9.916024282574654E-4  
 2.250000000000000E10    4.398612363729626E-4   8.199054282158613E-4  
 2.252000000000000E10    1.099088229238987E-3  -3.626330362749286E-5  
 2.254000000000000E10   -1.084375311620534E-3  -1.077232649549842E-3  
 2.256000000000000E10   -9.617748437449336E-4   2.336191391805187E-4  
 2.258000000000000E10   -7.332816021516919E-4   1.177435973659158E-3  
 2.260000000000000E10    6.374609074555337E-4  -3.863821621052921E-4  
 2.262000000000000E10   -2.189252118114382E-4   3.352037747390568E-4  
 2.264000000000000E10    1.935669570229948E-4  -8.032700861804187E-4  
 2.266000000000000E10    3.630153369158506E-4  -2.529745397623628E-4  
 2.268000000000000E10   -4.547824210021645E-4   1.876877067843452E-4  
 2.270000000000000E10   -9.797616075957194E-5   1.084369723685086E-3  
 2.272000000000000E10    2.495658409316093E-4   8.948476170189679E-4  
 2.274000000000000E10    8.666223147884011E-4  -4.087539855390787E-4  
 2.276000000000000E10   -1.149118179455400E-3  -6.941566825844348E-4  
 2.278000000000000E10   -1.014964305795729E-3   2.993026864714921E-4  
 2.280000000000000E10    5.394798936322331E-4   4.518333589658141E-4  
 2.282000000000000E10    9.544862550683320E-4   4.096492775715888E-4  
 2.284000000000000E10   -1.632466737646610E-4  -5.202412139624357E-4  
 2.286000000000000E10    4.821189213544130E-4   7.151682075345889E-5  
 2.288000000000000E10    3.263969556428492E-4   5.709137185476720E-4  
 2.290000000000000E10   -3.925977507606149E-4  -2.694954746402800E-4  
 2.292000000000000E10    2.511024649720639E-4   1.245186431333423E-3  
 2.294000000000000E10    3.629889106377959E-4   6.736258510500193E-4  
 2.296000000000000E10    7.264006417244673E-4  -8.533597574569285E-4  
 2.298000000000000E10   -6.414264789782465E-4  -1.017102622427046E-3  
 2.300000000000000E10   -4.957963246852160E-4   3.923262120224536E-4  
 2.302000000000000E10    1.797313889255747E-4   2.965395106002688E-4  
 2.304000000000000E10    1.363641582429409E-3  -5.519245751202107E-4  
 2.306000000000000E10    3.601350472308695E-4  -7.747352356091142E-4  
 2.308000000000000E10    7.135120540624484E-5  -3.039813309442252E-4  
 2.310000000000000E10   -3.772313066292554E-4   5.624360055662692E-4  
 2.312000000000000E10   -5.465250578708947E-4   3.466802445473149E-5  
 2.314000000000000E10    1.457253383705393E-4   7.589926826767623E-4  
 2.316000000000000E10    3.930229286197573E-4  -3.832727379631251E-4  
 2.318000000000000E10   -2.042741689365357E-4  -1.516004675067961E-3  
 2.320000000000000E10   -1.367540098726749E-3  -1.108411699533463E-3  
 2.322000000000000E10   -1.415704173268750E-4   1.275239977985621E-3  
 2.324000000000000E10    9.097677539102733E-4   5.761749926023185E-4  
 2.326000000000000E10    1.586947357282043E-3  -1.159184612333775E-3  
 2.328000000000000E10   -5.094323423691094E-4  -3.069068479817361E-4  
 2.330000000000000E10   -8.655411656945944E-4  -2.537450345698744E-4  
 2.332000000000000E10   -2.178774448111653E-4   1.215652911923826E-3  
 2.334000000000000E10    7.989561709109694E-5   3.279036900494248E-4  
 2.336000000000000E10    7.339508738368750E-4  -5.532757495529950E-4  
 2.338000000000000E10   -2.114378730766475E-5  -4.056719189975411E-4  
 2.340000000000000E10   -1.497947960160673E-4  -5.652514519169927E-4  
 2.342000000000000E10   -8.704607025720179E-4   1.142184919444844E-4  
 2.344000000000000E10   -1.933944295160472E-4   8.457557414658368E-4  
 2.346000000000000E10    1.406415598466992E-3   9.310765308327973E-4  
 2.348000000000000E10    6.798264803364873E-4  -5.494029028341174E-4  
 2.350000000000000E10   -9.377351962029934E-4  -5.992344813421369E-4  
 2.352000000000000E10   -1.174772623926401E-3   9.913707617670298E-4  
 2.354000000000000E10    5.359081551432610E-4   6.831843638792634E-4  
 2.356000000000000E10    7.792590768076479E-4   5.143632297404110E-4  
 2.358000000000000E10    1.322216849075630E-4  -6.412141374312341E-4  
 2.360000000000000E10    7.348389772232622E-5  -4.508804704528302E-4  
 2.362000000000000E10   -4.242024151608348E-4  -8.191844972316176E-5  
 2.364000000000000E10   -3.709856900968589E-5   6.096105789765716E-4  
 2.366000000000000E10    9.358419338241220E-4   1.096960040740669E-3  
 2.368000000000000E10    1.052155857905746E-3  -1.143433473771438E-4  
 2.370000000000000E10    1.228353503393009E-4  -4.456132592167705E-4  
 2.372000000000000E10   -1.069671707227826E-3   1.965986593859270E-4  
 2.374000000000000E10   -7.350079249590635E-4   6.406604079529643E-4  
 2.376000000000000E10    1.131403842009604E-3   6.539590540342033E-4  
 2.378000000000000E10    5.078678368590772E-4  -2.081924758385867E-4  
 2.380000000000000E10   -4.589735908666626E-5  -1.046465244144201E-3  
 2.382000000000000E10   -2.614447112136986E-6   1.679841370787472E-4  
 2.384000000000000E10   -4.089105641469359E-4   1.547851425129920E-4  
 2.386000000000000E10    4.634425567928702E-4   1.873557484941557E-4  
 2.388000000000000E10    9.328445885330439E-4   7.462633075192571E-4  
 2.390000000000000E10    9.863693267107010E-4  -3.287018625997007E-4  
 2.392000000000000E10   -1.216767559526488E-4  -2.665900974534452E-4  
 2.394000000000000E10   -5.763796507380903E-4  -2.780567156150937E-4  
 2.396000000000000E10    4.728427156805992E-4   9.331369074061513E-4  
 2.398000000000000E10    5.310746491886675E-4   1.851933629950509E-4  
 2.400000000000000E10    7.743957685306668E-4  -9.902206948027015E-4  
 2.402000000000000E10    1.337245776085183E-4  -1.351817627437413E-3  
 2.404000000000000E10   -1.049104321282357E-4  -7.128799916245043E-4  
 2.406000000000000E10    2.749520353972912E-4   4.341536841820926E-4  
 2.408000000000000E10    9.281036327593029E-4  -2.738175453487202E-6  
 2.410000000000000E10    1.402794034220278E-3  -1.871998101705685E-4  
 2.412000000000000E10   -9.879922436084598E-5  -5.352656007744372E-4  
 2.414000000000000E10   -2.332197327632457E-4  -7.209918694570661E-4  
 2.416000000000000E10   -1.054212450981140E-3   3.889846557285637E-4  
 2.418000000000000E10   -3.504272608552128E-4   3.487697977107018E-4  
 2.420000000000000E10    1.280544674955308E-3  -3.157158789690584E-4  
 2.422000000000000E10    4.930106224492192E-4  -1.213627285324037E-3  
 2.424000000000000E10   -8.169730426743627E-4  -1.701340661384165E-3  
 2.426000000000000E10   -6.355851655825973E-4  -7.452953286701813E-5  
 2.428000000000000E10    1.993216574192047E-4   9.858993580564857E-4  
 2.430000000000000E10    1.077185501344502E-3   1.365661009913310E-4  
 2.432000000000000E10    1.114404993131757E-3  -5.683901836164296E-4  
 2.434000000000000E10   -1.039264374412596E-3  -7.590492605231702E-4  
 2.436000000000000E10   -1.402843976393342E-3   2.752586151473224E-4  
 2.438000000000000E10   -3.826692118309438E-4   9.819595143198967E-4  
 2.440000000000000E10   -2.075641677947715E-4  -6.683792162220925E-5  
 2.442000000000000E10    7.915013702586293E-4  -6.506902282126248E-4  
 2.444000000000000E10   -8.789823914412409E-5  -1.219770754687488E-3  
 2.446000000000000E10   -1.310544554144144E-3  -4.402009653858841E-4  
 2.448000000000000E10   -4.886387614533305E-4   7.380465394817293E-4  
 2.450000000000000E10    8.935600053519011E-4   1.183082349598408E-3  
 2.452000000000000E10    7.422961643896997E-4  -4.669734917115420E-4  
 2.454000000000000E10    8.735467417864129E-5  -6.867640768177807E-4  
 2.456000000000000E10   -1.226922613568604E-3   3.623669326771051E-4  
 2.458000000000000E10   -8.573085651732981E-4   2.858161460608244E-4  
 2.460000000000000E10    4.266219621058554E-4   9.060227312147617E-4  
 2.462000000000000E10   -7.917048060335219E-5   3.009133615705650E-5  
 2.464000000000000E10    3.336844383738935E-4  -8.003246621228755E-4  
 2.466000000000000E10   -2.154472313122824E-4  -6.094558048062027E-4  
 2.468000000000000E10   -8.886772557161748E-4  -2.391175075899810E-4  
 2.470000000000000E10   -2.957965189125389E-4   5.552017828449607E-4  
 2.472000000000000E10    1.065457239747047E-3   4.713445960078389E-4  
 2.474000000000000E10    4.190954205114394E-4  -2.642385079525411E-4  
 2.476000000000000E10   -3.892854438163340E-4  -1.001370023004711E-3  
 2.478000000000000E10   -1.228173845447600E-3   2.352411538595334E-4  
 2.480000000000000E10   -8.732487913221121E-4   7.432191632688046E-4  
 2.482000000000000E10    2.151289227185771E-4   4.665153392124921E-4  
 2.484000000000000E10    1.392108533764258E-4  -5.787000409327447E-4  
 2.486000000000000E10   -1.892965374281630E-4  -9.259083890356123E-4  
 2.488000000000000E10   -6.438081618398428E-4  -7.462619105353952E-4  
 2.490000000000000E10   -6.036381237208843E-4  -4.615175203070976E-5  
 2.492000000000000E10    1.097420463338494E-4   9.401552961207926E-4  
 2.494000000000000E10    9.065574267879129E-4   4.011348064523190E-4  
 2.496000000000000E10    5.015323404222727E-4  -3.626516554504633E-4  
 2.498000000000000E10   -1.242952770553529E-3  -9.176291641779244E-4  
 2.500000000000000E10   -1.415991340763867E-3   4.258799890521914E-4  
 2.502000000000000E10   -7.249843329191208E-4   8.502824930474162E-4  
 2.504000000000000E10    1.015930785797536E-3   3.117087471764535E-4  
 2.506000000000000E10    9.463071182835847E-5  -9.205793612636626E-4  
 2.508000000000000E10   -7.037043105810881E-4  -8.607567870058119E-4  
 2.510000000000000E10   -6.460059084929526E-4   6.451085791923106E-4  
 2.512000000000000E10    6.725396815454587E-5   8.488926105201244E-4  
 2.514000000000000E10    4.795490822289139E-4   9.367620805278420E-4  
 2.516000000000000E10    5.160807631909847E-4   1.882302749436349E-4  
 2.518000000000000E10   -1.473576685384614E-5  -2.796864428091794E-4  
 2.520000000000000E10   -1.386421965435147E-3  -7.992071186890826E-5  
 2.522000000000000E10   -9.084491175599396E-4   7.382801850326359E-4  
 2.524000000000000E10    5.335794994607568E-4   1.263463054783642E-3  
 2.526000000000000E10    1.115356804803014E-3  -7.024789374554530E-5  
 2.528000000000000E10   -8.183139289030805E-5  -8.492968627251685E-4  
 2.530000000000000E10   -2.571562072262168E-4  -1.713892852421850E-4  
 2.532000000000000E10    1.019101473502815E-4   1.281636883504689E-3  
 2.534000000000000E10    3.797349927481264E-4   1.129632932133973E-3  
 2.536000000000000E10    1.150976866483688E-3   7.594861090183258E-4  
 2.538000000000000E10    4.659630358219147E-4   2.950908383354545E-4  
 2.540000000000000E10    2.314854500582442E-4   1.436718011973426E-4  
 2.542000000000000E10   -5.604536854662001E-4   4.124547122046351E-4  
 2.544000000000000E10   -2.063657448161393E-4   8.105320739559829E-4  
 2.546000000000000E10    9.392244974151254E-4   1.162145286798477E-3  
 2.548000000000000E10    9.954395936802030E-4  -2.141347504220903E-4  
 2.550000000000000E10    1.542089012218639E-4  -5.266558728180826E-4  
 2.552000000000000E10   -1.155006699264050E-3  -1.377624867018312E-4  
 2.554000000000000E10    6.154385482659563E-5   9.276721393689513E-4  
 2.556000000000000E10    3.766510635614395E-4   5.572755471803248E-4  
 2.558000000000000E10    1.128869829699397E-3  -8.089171606115997E-4  
 2.560000000000000E10    7.744252216070890E-4  -3.153655270580202E-4  
 2.562000000000000E10    2.540411696827505E-5  -8.279178873635829E-4  
 2.564000000000000E10   -3.743826237041503E-4   1.706681650830433E-4  
 2.566000000000000E10    3.731090400833637E-4   8.647191571071744E-4  
 2.568000000000000E10    9.560723556205630E-4   1.187281159218401E-4  
 2.570000000000000E10    3.119604079984129E-4  -1.317940186709166E-3  
 2.572000000000000E10   -6.808880716562271E-4  -1.052654464729130E-3  
 2.574000000000000E10   -1.112989382818341E-3  -1.348314544884488E-4  
 2.576000000000000E10    4.615580546669662E-4   4.313691169954836E-4  
 2.578000000000000E10    7.930893916636705E-4  -2.535934618208557E-4  
 2.580000000000000E10    3.963423951063305E-4  -1.207371242344379E-3  
 2.582000000000000E10   -3.485892666503787E-4  -5.599290016107261E-4  
 2.584000000000000E10   -6.110514514148235E-4  -1.240464916918427E-4  
 2.586000000000000E10   -7.494415040127933E-4   4.938942147418857E-4  
 2.588000000000000E10    6.541537004522979E-5   4.554527986329049E-4  
 2.590000000000000E10    3.453397366683930E-4  -3.772346826735884E-4  
 2.592000000000000E10   -3.572090936359018E-4  -1.609669998288155E-3  
 2.594000000000000E10   -8.733525173738599E-4  -6.127678207121790E-4  
 2.596000000000000E10   -4.336218989919871E-4   8.634914411231875E-5  
 2.598000000000000E10    6.791643681935966E-4   4.622886481229216E-4  
 2.600000000000000E10    5.553542869165540E-4   6.906632916070521E-5  
 2.602000000000000E10    8.540762792108581E-5  -2.177283022319898E-4  
 2.604000000000000E10   -9.472588426433504E-4  -3.058580914512277E-4  
 2.606000000000000E10   -6.119240424595773E-4   3.367372846696526E-4  
 2.608000000000000E10   -6.791402120143175E-4   7.704528979957104E-4  
 2.610000000000000E10    3.123185306321830E-4  -1.099580913432874E-4  
 2.612000000000000E10    6.941308965906501E-4  -8.688648231327534E-4  
 2.614000000000000E10   -5.371785505303706E-7  -1.285706297494471E-3  
 2.616000000000000E10   -2.968474000226706E-4   4.128848377149552E-5  
 2.618000000000000E10    2.204774500569329E-4   8.249970269389451E-4  
 2.620000000000000E10    9.926893981173635E-4   7.936523761600256E-4  
 2.622000000000000E10    5.025019636377692E-4   1.507595879957080E-4  
 2.624000000000000E10   -1.797151162463706E-5  -1.891302235890180E-4  
 2.626000000000000E10   -8.691335096955299E-4   2.169294893974438E-4  
 2.628000000000000E10   -1.003412762656808E-3   1.380606699967757E-4  
 2.630000000000000E10    7.638975512236357E-5   7.016524323262274E-4  
 2.632000000000000E10    9.198288898915052E-4  -1.009508778224699E-4  
 2.634000000000000E10    3.071951214224100E-4  -1.236413605511189E-3  
 2.636000000000000E10   -2.256891311844811E-4  -6.438732962124050E-4  
 2.638000000000000E10   -5.461556138470769E-4   9.372278582304716E-4  
 2.640000000000000E10    2.359967329539359E-4   1.010360196232796E-3  
 2.642000000000000E10    9.354623034596443E-4   3.621095675043762E-4  
 2.644000000000000E10    9.301383397541940E-5  -4.662324208766222E-4  
 2.646000000000000E10   -5.360482609830797E-4  -5.064122378826141E-4  
 2.648000000000000E10   -8.238105801865459E-4  -1.307800848735496E-4  
 2.650000000000000E10   -3.097711305599660E-4  -1.785040694812778E-5  
 2.652000000000000E10    2.800597285386175E-4   5.051018888480030E-5  
 2.654000000000000E10    1.232523471117020E-3  -7.553403847850859E-4  
 2.656000000000000E10    1.416434970451519E-4  -1.151536940596998E-3  
 2.658000000000000E10   -1.005534199066460E-3  -1.368167140753940E-4  
 2.660000000000000E10   -1.905803510453552E-4   5.639690789394081E-4  
 2.662000000000000E10    7.222983404062688E-4   5.871451576240361E-4  
 2.664000000000000E10    4.794170963577926E-4  -7.973443716764450E-4  
 2.666000000000000E10   -4.045210080221295E-4  -7.726283511146903E-4  
 2.668000000000000E10   -1.133015961386263E-3  -2.341131767025217E-4  
 2.670000000000000E10   -4.891998250968754E-4  -2.276990271639079E-4  
 2.672000000000000E10    6.854969979031012E-5  -3.136497689411044E-4  
 2.674000000000000E10    5.935574299655855E-4  -4.724183236248791E-4  
 2.676000000000000E10    5.984244635328651E-4  -7.492497679777443E-4  
 2.678000000000000E10   -2.734886656980962E-4  -1.156944432295859E-3  
 2.680000000000000E10   -8.092713542282581E-4  -8.846558921504766E-5  
 2.682000000000000E10   -3.839633427560329E-4   8.986695320345461E-4  
 2.684000000000000E10    6.787715828977525E-4   3.474682453088462E-4  
 2.686000000000000E10    1.633860811125487E-4  -8.627786883153021E-4  
 2.688000000000000E10   -8.110433700494468E-4  -1.014716341160238E-3  
 2.690000000000000E10   -1.095083542168140E-3  -1.058623893186450E-4  
 2.692000000000000E10   -7.680897397221997E-5   3.143723006360233E-4  
 2.694000000000000E10    2.510860795155168E-4  -2.060695551335812E-4  
 2.696000000000000E10    1.627759338589385E-4  -5.197088466957212E-4  
 2.698000000000000E10    1.399931206833571E-4  -5.234375130385160E-4  
 2.700000000000000E10   -5.142919835634530E-4  -6.394509109668434E-4  
 2.702000000000000E10   -7.476655300706625E-4   4.154221387580037E-4  
 2.704000000000000E10   -2.330673160031438E-4   1.234547351486981E-3  
 2.706000000000000E10    6.039537838660181E-4   2.090290217893198E-4  
 2.708000000000000E10    2.674363786354661E-4  -6.963106570765376E-4  
 2.710000000000000E10   -1.490055932663381E-3  -6.293272017501295E-4  
 2.712000000000000E10   -1.147180330008268E-3   5.107078468427062E-4  
 2.714000000000000E10    4.921742947772145E-4   8.478410309180617E-4  
 2.716000000000000E10    7.091820589266717E-4  -5.325250822352246E-5  
 2.718000000000000E10    1.066623080987483E-4  -1.679731212789193E-4  
 2.720000000000000E10   -5.999444965709699E-6   2.722031495068222E-4  
 2.722000000000000E10   -5.218775477260351E-4   4.472694708965719E-4  
 2.724000000000000E10   -3.866906336043030E-4   9.003621526062489E-4  
 2.726000000000000E10   -2.030684263445437E-4   1.414689235389233E-3  
 2.728000000000000E10    3.352072963025421E-4   8.290554251288995E-5  
 2.730000000000000E10    1.584133860887960E-4  -8.011744357645512E-4  
 2.732000000000000E10   -1.323013100773096E-3  -8.033147605601698E-5  
 2.734000000000000E10   -8.447576547041535E-4   1.085042487829924E-3  
 2.736000000000000E10    1.198208192363381E-3   1.313726184889674E-3  
 2.738000000000000E10    8.490437176078558E-4  -7.312759407795966E-4  
 2.740000000000000E10   -2.826991549227387E-4  -3.471019153948873E-4  
 2.742000000000000E10   -1.834752329159528E-4   1.030586659908295E-3  
 2.744000000000000E10   -1.001031414489262E-4   7.659243419766426E-4  
 2.746000000000000E10    4.209015969536267E-5   5.552508519031107E-4  
 2.748000000000000E10    4.470028216019273E-4   1.018499257043004E-3  
 2.750000000000000E10    3.775029035750777E-4  -1.482688530813903E-4  
 2.752000000000000E10    1.042242583935149E-4  -5.914285429753363E-4  
 2.754000000000000E10   -4.567685537040234E-4   7.762279710732400E-4  
 2.756000000000000E10   -2.630755479913205E-4   9.133461280725896E-4  
