#  HZ   S   RI   R     50.00 
! Rohde & Schwarz ZVA40 4Ports - Version 3.90 - 1145.1110k42 SN: 100403
! Date: 2023-10-04 11:36:24
! Measurement: S12 
! 
 2.200000000000000E10    7.578464574180543E-4  -8.716075099073350E-4  
 2.202000000000000E10   -5.307527026161552E-4  -7.335299742408097E-4  
 2.204000000000000E10   -8.097034296952188E-4   1.051325118169189E-3  
 2.206000000000000E10    3.566008526831865E-4   9.373532957397401E-4  
 2.208000000000000E10    9.373540524393320E-4  -3.640358045231551E-4  
 2.210000000000000E10    3.780362603720278E-4   2.941704879049212E-4  
 2.212000000000000E10   -4.125779087189585E-4   1.488125126343221E-4  
 2.214000000000000E10    2.243054914288223E-4   1.327583740931004E-4  
 2.216000000000000E10    1.461485808249563E-4   1.886016252683476E-4  
 2.218000000000000E10    6.632578879361972E-5   2.237242588307709E-4  
 2.220000000000000E10    6.364425644278526E-4   3.634000313468278E-4  
 2.222000000000000E10    4.490999272093177E-4  -4.965355619788170E-4  
 2.224000000000000E10   -4.709578643087298E-4  -1.080672256648541E-3  
 2.226000000000000E10   -5.789805436506867E-4   1.121242763474584E-3  
 2.228000000000000E10    8.092646603472531E-4   7.825355860404670E-4  
 2.230000000000000E10    8.419303339906037E-4  -4.655447555705905E-4  
 2.232000000000000E10   -4.901226493529975E-4  -8.821173105388880E-4  
 2.234000000000000E10   -2.591625961940736E-4   3.732960612978786E-4  
 2.236000000000000E10   -7.261731661856175E-5   1.123580732382834E-4  
 2.238000000000000E10    8.119269041344523E-4  -3.836501273326576E-4  
 2.240000000000000E10   -2.976832620333880E-4   6.726800929754973E-4  
 2.242000000000000E10    7.377139409072697E-4  -3.648462297860533E-4  
 2.244000000000000E10    2.365720138186589E-4  -1.612917112652212E-4  
 2.246000000000000E10   -1.014288631267846E-3  -8.491376647725701E-4  
 2.248000000000000E10    1.416082795913098E-5   3.116711159236729E-4  
 2.250000000000000E10   -1.486050459789112E-4   7.736679435765836E-6  
 2.252000000000000E10    1.610857201740146E-3  -9.064021869562566E-4  
 2.254000000000000E10   -4.614060890162364E-5  -7.926380494609475E-4  
 2.256000000000000E10   -2.757376059889793E-4  -3.779469116125256E-4  
 2.258000000000000E10    1.700940629234538E-4   9.005748433992267E-4  
 2.260000000000000E10    4.456836322788149E-4  -2.948349865619093E-4  
 2.262000000000000E10    4.118022916372865E-4   1.796407595975325E-4  
 2.264000000000000E10    1.105418705265038E-4  -4.109575238544494E-4  
 2.266000000000000E10    1.062183437170461E-4  -6.982565973885357E-4  
 2.268000000000000E10   -8.958815596997738E-4  -5.258796154521406E-4  
 2.270000000000000E10   -2.560973516665399E-4   5.736948805861175E-4  
 2.272000000000000E10    9.600192424841225E-4  -2.613215183373541E-4  
 2.274000000000000E10    1.178794424049556E-3  -1.496556797064841E-3  
 2.276000000000000E10   -6.148935062810779E-4  -4.875269078183919E-4  
 2.278000000000000E10   -2.792956365738064E-4   2.148503699572757E-4  
 2.280000000000000E10    4.352614923845977E-4   6.666643312200904E-4  
 2.282000000000000E10    5.603621248155832E-4   2.664034254848957E-4  
 2.284000000000000E10    9.976504952646792E-5  -4.148518783040345E-4  
 2.286000000000000E10   -6.732241599820554E-4  -1.788158260751516E-4  
 2.288000000000000E10   -6.828516488894820E-4   2.622106112539768E-4  
 2.290000000000000E10   -3.669544239528477E-4  -3.832640068139881E-4  
 2.292000000000000E10    1.154479323304258E-4   3.130974073428661E-4  
 2.294000000000000E10    2.257631858810782E-4   4.144708509556949E-5  
 2.296000000000000E10    8.171014487743378E-4  -7.288623019121587E-4  
 2.298000000000000E10   -4.298045241739601E-4  -2.233986888313666E-4  
 2.300000000000000E10   -2.812188176903874E-4   9.662610827945173E-4  
 2.302000000000000E10    7.521290681324899E-4   9.234245517291129E-4  
 2.304000000000000E10    4.204534343443811E-4   3.514366981107742E-4  
 2.306000000000000E10   -9.253440657630563E-4  -1.686454634182155E-4  
 2.308000000000000E10   -3.785250592045486E-4  -4.037344770040363E-4  
 2.310000000000000E10   -5.894054193049669E-4   8.751341738388874E-6  
 2.312000000000000E10   -2.379656507400796E-4  -5.080559640191495E-4  
 2.314000000000000E10    9.162430069409311E-4   2.956077805720270E-4  
 2.316000000000000E10    9.993804851546884E-4   2.709336877160240E-5  
 2.318000000000000E10    7.175684440881014E-4  -6.536541623063386E-4  
 2.320000000000000E10   -8.524698205292225E-4   2.344551030546427E-4  
 2.322000000000000E10   -6.583792273886502E-4   1.298990449868143E-3  
 2.324000000000000E10    1.403411442879587E-4   1.438198145478964E-3  
 2.326000000000000E10    8.564472664147615E-4  -7.978488574735820E-4  
 2.328000000000000E10   -9.660251089371741E-4  -1.095206127502024E-3  
 2.330000000000000E10   -1.197061152197421E-3  -2.877491351682693E-4  
 2.332000000000000E10    3.474933328106999E-4   1.060046022757888E-3  
 2.334000000000000E10    4.663827130571008E-4   4.034173325635493E-4  
 2.336000000000000E10    9.571523987688124E-4  -3.876050686812960E-5  
 2.338000000000000E10    5.234233685769141E-4   4.148829902987927E-4  
 2.340000000000000E10   -4.318520659580827E-4  -6.204801611602306E-4  
 2.342000000000000E10   -7.967331330291927E-4   1.008227118290961E-3  
 2.344000000000000E10   -1.762951142154634E-4   1.448837341740727E-3  
 2.346000000000000E10    8.012778707779944E-4   5.987526674289256E-5  
 2.348000000000000E10    8.586160402046517E-5  -1.287936349399388E-3  
 2.350000000000000E10   -1.209102920256555E-3  -7.687740726396442E-4  
 2.352000000000000E10   -6.775949150323868E-4   3.455062396824360E-4  
 2.354000000000000E10    8.406068081967533E-4   9.361865231767297E-4  
 2.356000000000000E10    5.286919185891748E-4   1.976095700229053E-5  
 2.358000000000000E10    2.799492503982037E-4  -7.082939846441150E-4  
 2.360000000000000E10   -4.059630446135998E-4   3.240118676330894E-4  
 2.362000000000000E10   -5.032985354773700E-4   3.176868776790798E-4  
 2.364000000000000E10   -5.140896537341178E-4   8.883427362889051E-4  
 2.366000000000000E10   -2.194737026002258E-4   4.939042264595628E-4  
 2.368000000000000E10    8.806211990304291E-4  -7.140134111978114E-4  
 2.370000000000000E10   -1.126160350395367E-4  -1.077205059118569E-3  
 2.372000000000000E10   -1.173456432297826E-3  -5.535442032851279E-4  
 2.374000000000000E10   -3.250443551223725E-4   8.119468693621457E-4  
 2.376000000000000E10    6.669746362604201E-4   4.966047708876431E-4  
 2.378000000000000E10    3.102414193563163E-4  -7.885660306783393E-5  
 2.380000000000000E10   -6.435737013816834E-4  -7.565912092104554E-4  
 2.382000000000000E10   -9.437120170332491E-4   6.634849796682829E-6  
 2.384000000000000E10   -1.300522009842098E-3   6.823982112109661E-4  
 2.386000000000000E10    5.879679520148784E-5   4.125850682612509E-4  
 2.388000000000000E10    4.213308857288212E-4   1.641387352719903E-4  
 2.390000000000000E10   -2.200917951995507E-4  -9.421250433661044E-4  
 2.392000000000000E10   -4.628455208148807E-4  -5.998332053422928E-4  
 2.394000000000000E10   -1.102254027500749E-3   3.458993160165846E-4  
 2.396000000000000E10    1.406837545800954E-4   1.307112397626042E-3  
 2.398000000000000E10    1.229842775501311E-3   1.126042683608830E-3  
 2.400000000000000E10    5.610287189483643E-4  -6.615219172090292E-4  
 2.402000000000000E10   -9.358685347251594E-4   4.294771861168556E-5  
 2.404000000000000E10   -9.071574313566089E-4   1.201524049974978E-3  
 2.406000000000000E10    2.183074102504179E-4   1.195943448692560E-3  
 2.408000000000000E10    5.436993087641895E-4   1.572065521031618E-4  
 2.410000000000000E10    3.862541052512825E-4   1.070720245479606E-4  
 2.412000000000000E10   -2.851313911378384E-4  -1.665679592406377E-4  
 2.414000000000000E10   -2.108755870722234E-4  -2.343051455682144E-4  
 2.416000000000000E10    1.152298209490255E-4   1.114582410082221E-3  
 2.418000000000000E10    7.893769070506096E-4   1.286740764044225E-3  
 2.420000000000000E10    8.759079501032829E-4   4.503334639593959E-4  
 2.422000000000000E10    3.035989357158542E-4  -8.887563308235258E-5  
 2.424000000000000E10   -6.983387283980846E-4   1.005004305625334E-4  
 2.426000000000000E10   -9.830995695665479E-4   9.310423629358411E-4  
 2.428000000000000E10    1.845405495259911E-5   4.138032381888479E-4  
 2.430000000000000E10    9.233131422661245E-4  -2.330783900106326E-4  
 2.432000000000000E10    3.460916050244123E-4  -6.451975204981864E-4  
 2.434000000000000E10   -4.006664967164397E-4  -7.183209527283907E-4  
 2.436000000000000E10    1.199625985464081E-4   1.480154896853492E-4  
 2.438000000000000E10   -2.116707328241319E-4   8.028256124816835E-4  
 2.440000000000000E10    6.499224109575152E-4   7.370459497906268E-4  
 2.442000000000000E10    9.598016040399671E-4  -6.667772686341777E-5  
 2.444000000000000E10   -8.380978833884001E-4  -1.089824363589287E-3  
 2.446000000000000E10   -1.048544654622674E-3  -4.781815805472434E-4  
 2.448000000000000E10   -7.843367056921125E-4   9.890575893223286E-4  
 2.450000000000000E10    3.635078028310090E-4   5.260896286927164E-4  
 2.452000000000000E10    1.100719557143748E-3  -9.059713920578361E-4  
 2.454000000000000E10   -2.854493504855782E-4  -1.051192055456340E-3  
 2.456000000000000E10   -1.100705238059163E-3  -1.902266230899841E-4  
 2.458000000000000E10    1.257297553820536E-4   7.997038192115724E-4  
 2.460000000000000E10    5.488279857672751E-4   8.280822657980025E-4  
 2.462000000000000E10    6.719137309119105E-4  -1.261551369680092E-4  
 2.464000000000000E10    4.183773999102414E-4  -3.314677451271564E-4  
 2.466000000000000E10   -7.795373676344752E-4  -3.978187160100788E-4  
 2.468000000000000E10   -9.029114735312760E-4   1.950924634002149E-4  
 2.470000000000000E10    4.765062476508319E-4   1.307710888795555E-3  
 2.472000000000000E10    1.292672706767917E-3   1.193806674564257E-4  
 2.474000000000000E10    5.088998586870730E-4  -1.324155135080218E-3  
 2.476000000000000E10   -5.445863935165107E-4  -1.032057800330222E-3  
 2.478000000000000E10   -7.229171460494399E-4   6.013378151692450E-4  
 2.480000000000000E10    8.243927150033414E-4   7.070897263474762E-4  
 2.482000000000000E10    1.428760937415063E-3  -1.650795893510804E-4  
 2.484000000000000E10    5.076496745459735E-4  -9.259551297873259E-4  
 2.486000000000000E10   -1.654192783462349E-5  -5.351732834242284E-4  
 2.488000000000000E10   -4.370645910967141E-5   5.903165219933726E-5  
 2.490000000000000E10    7.977784844115377E-5   5.748774274252355E-4  
 2.492000000000000E10    6.027781055308878E-4   4.620088730007410E-4  
 2.494000000000000E10    8.035944192670286E-4  -3.204955428373069E-4  
 2.496000000000000E10    2.205955388490111E-4  -7.271292270161212E-4  
 2.498000000000000E10   -6.865671603009105E-4  -8.962680003605783E-4  
 2.500000000000000E10   -1.928366691572592E-4   4.063847009092569E-4  
 2.502000000000000E10    8.569569909013808E-4   7.112730527296662E-4  
 2.504000000000000E10    1.032840111292899E-3  -2.651106624398381E-4  
 2.506000000000000E10   -8.776820322964340E-5  -6.136381416581571E-4  
 2.508000000000000E10   -6.082554464228451E-4  -3.310045285616070E-4  
 2.510000000000000E10   -6.376790115609765E-4   7.135100895538926E-5  
 2.512000000000000E10   -6.860421854071319E-5   1.563544210512191E-4  
 2.514000000000000E10    2.903111453633755E-4   1.107904336095089E-5  
 2.516000000000000E10    1.134719568653964E-4  -9.324800921604037E-4  
 2.518000000000000E10    3.257358184782788E-5  -1.533220871351659E-3  
 2.520000000000000E10   -1.084634335711598E-3  -8.353317971341312E-4  
 2.522000000000000E10   -5.180384032428265E-4   3.973830607719719E-4  
 2.524000000000000E10    9.696540655568242E-4   8.995073731057346E-4  
 2.526000000000000E10    6.006117910146713E-4  -6.495361449196935E-4  
 2.528000000000000E10   -8.268791134469211E-4  -1.420371700078249E-3  
 2.530000000000000E10   -1.652519335038960E-3  -2.784110547509044E-4  
 2.532000000000000E10   -7.977675413712859E-4   7.485582027584314E-4  
 2.534000000000000E10    9.144168870989233E-6  -2.083602448692545E-4  
 2.536000000000000E10    2.813034370774403E-5  -1.109381206333637E-3  
 2.538000000000000E10   -6.186743266880512E-4  -9.150185505859554E-4  
 2.540000000000000E10   -8.266281220130622E-4  -6.309318123385310E-4  
 2.542000000000000E10   -1.263093901798129E-3   5.686637596227229E-4  
 2.544000000000000E10   -4.768070648424327E-4   6.812307401560247E-4  
 2.546000000000000E10    5.568885244429112E-4   3.323928103782237E-4  
 2.548000000000000E10   -6.322970730252564E-4  -9.176848689094186E-4  
 2.550000000000000E10   -1.730750547721982E-3  -7.263696752488613E-4  
 2.552000000000000E10   -1.387043506838381E-3   6.118984892964363E-4  
 2.554000000000000E10    1.964088005479425E-4   6.752950721420348E-4  
 2.556000000000000E10    2.031022886512801E-4  -1.652610808378086E-5  
 2.558000000000000E10   -1.822829362936318E-4  -5.810335278511047E-4  
 2.560000000000000E10   -5.689020617865026E-4   2.131711225956678E-4  
 2.562000000000000E10   -7.102930103428662E-4   4.584450798574835E-4  
 2.564000000000000E10   -1.625306613277644E-4   7.854115101508796E-4  
 2.566000000000000E10    2.408336731605232E-4   8.900593384169042E-4  
 2.568000000000000E10    6.692896713502705E-4   2.802936251100618E-5  
 2.570000000000000E10    3.663602401502430E-4  -4.271838406566531E-4  
 2.572000000000000E10   -5.680032772943378E-4   3.440436266828328E-4  
 2.574000000000000E10    1.066236873157322E-4   1.142281806096435E-3  
 2.576000000000000E10    1.172768999822438E-3   1.113556209020317E-3  
 2.578000000000000E10    1.032017171382904E-3  -2.448068989906460E-4  
 2.580000000000000E10    1.781246974132955E-4  -3.703497059177607E-4  
 2.582000000000000E10   -4.851029079873115E-4   1.748857175698504E-4  
 2.584000000000000E10   -2.164844545404776E-6   3.380207926966250E-4  
 2.586000000000000E10    6.183759542182088E-4   3.356861998327076E-4  
 2.588000000000000E10    1.081413473002613E-3   1.374132989440113E-4  
 2.590000000000000E10    9.983784984797239E-4  -4.223795840516686E-4  
 2.592000000000000E10    4.344898043200374E-4  -8.951764320954680E-4  
 2.594000000000000E10   -2.338955819141120E-4   5.121719441376627E-4  
 2.596000000000000E10    4.946819390170276E-4   1.284960773773491E-3  
 2.598000000000000E10    1.460119383409619E-3   4.315478727221489E-4  
 2.600000000000000E10    4.804085474461317E-4  -9.520017192699015E-4  
 2.602000000000000E10   -2.540590649005026E-4  -5.866637802682817E-4  
 2.604000000000000E10   -8.037882507778704E-4   3.526609216351062E-4  
 2.606000000000000E10    4.623639979399741E-4   1.215393058373593E-4  
 2.608000000000000E10    7.894863374531269E-4  -3.336627560202032E-5  
 2.610000000000000E10    7.328668725676835E-4  -7.878472679294646E-4  
 2.612000000000000E10    1.422225323040038E-4  -5.934310611337423E-4  
 2.614000000000000E10   -5.234556156210601E-4  -5.188937648199499E-4  
 2.616000000000000E10   -3.754532663151622E-4   2.862410292436834E-5  
 2.618000000000000E10    3.601090575102717E-4   6.345149595290422E-4  
 2.620000000000000E10    7.707131444476545E-4  -2.919247781392187E-4  
 2.622000000000000E10   -7.239393744384870E-5  -1.284599187783897E-3  
 2.624000000000000E10   -8.628750802017748E-4  -8.326147799380124E-4  
 2.626000000000000E10   -6.905161426402628E-4   3.523885970935226E-4  
 2.628000000000000E10    1.222477876581252E-4   2.014739875448868E-4  
 2.630000000000000E10    5.725859664380550E-4   4.881112545263022E-6  
 2.632000000000000E10   -9.701155067887157E-5  -4.199840768706054E-4  
 2.634000000000000E10   -6.288335425779223E-4  -6.619042833335698E-4  
 2.636000000000000E10   -6.816404056735337E-4   1.061075454344973E-4  
 2.638000000000000E10   -6.624506786465645E-4   5.968389450572431E-4  
 2.640000000000000E10    4.913226584903896E-4   4.683129664044827E-4  
 2.642000000000000E10    8.285984513349831E-4  -3.914054832421243E-4  
 2.644000000000000E10   -1.381320034852251E-4  -6.847648764960468E-4  
 2.646000000000000E10   -8.272783015854657E-4  -3.793119685724378E-5  
 2.648000000000000E10   -5.878713272977620E-5   1.244554528966546E-3  
 2.650000000000000E10    7.708464399911463E-4   7.995305350050330E-4  
 2.652000000000000E10    4.670004709623754E-4  -4.517480847425759E-4  
 2.654000000000000E10   -1.186288864118978E-4  -5.735543090850115E-4  
 2.656000000000000E10   -4.806567158084363E-4  -2.456172078382224E-4  
 2.658000000000000E10   -4.176699148956686E-4   6.260826485231519E-4  
 2.660000000000000E10    4.456342721823603E-4   1.018295646645129E-3  
 2.662000000000000E10    1.383665367029607E-3   5.005043931305409E-4  
 2.664000000000000E10    3.312745830044150E-4  -7.532999734394252E-4  
 2.666000000000000E10   -5.769442650489509E-4  -2.956880198325962E-4  
 2.668000000000000E10   -6.510598468594253E-4   1.158066908828914E-3  
 2.670000000000000E10    5.859750672243536E-4   1.306644873693585E-3  
 2.672000000000000E10    7.165033021010459E-4   3.025827754754573E-4  
 2.674000000000000E10    1.855981827247888E-4  -3.471697855275124E-4  
 2.676000000000000E10   -5.989535129629076E-4  -2.223076007794589E-4  
 2.678000000000000E10   -3.097179869655520E-4   8.635274753032718E-6  
 2.680000000000000E10    1.604195517757034E-6   4.842836933676153E-4  
 2.682000000000000E10    6.750277825631201E-4   4.309277574066073E-4  
 2.684000000000000E10    1.142620341852307E-3  -2.463173295836896E-4  
 2.686000000000000E10    4.266768810339272E-4  -6.004103925079107E-4  
 2.688000000000000E10   -5.090544000267983E-4   1.551512978039682E-4  
 2.690000000000000E10   -4.384773492347449E-4   1.356297172605991E-3  
 2.692000000000000E10    8.860882371664047E-4   8.519832626916468E-4  
 2.694000000000000E10    9.128628298640251E-4  -5.934786750003696E-4  
 2.696000000000000E10   -3.078634035773575E-4  -6.889868527650833E-4  
 2.698000000000000E10   -4.598086525220424E-4   1.154907949967310E-4  
 2.700000000000000E10   -1.136966529884376E-4   1.170262403320521E-4  
 2.702000000000000E10    2.948104520328343E-4  -2.115286952175666E-5  
 2.704000000000000E10    5.226553766988218E-4   4.438823816599324E-5  
 2.706000000000000E10    5.566314212046564E-4  -1.069667865522206E-3  
 2.708000000000000E10   -9.221475920639932E-5  -7.290418143384159E-4  
 2.710000000000000E10   -5.923617864027619E-4   1.267196494154632E-4  
 2.712000000000000E10    5.610812222585082E-4   6.409784546121955E-4  
 2.714000000000000E10    5.858308286406100E-4   1.928956189658493E-4  
 2.716000000000000E10    4.960186197422445E-4  -1.290036481805146E-3  
 2.718000000000000E10   -8.281893678940833E-4  -3.811620990745723E-4  
 2.720000000000000E10   -8.256214205175638E-4  -1.136389528255677E-5  
 2.722000000000000E10    4.171524778939784E-4  -2.511477796360850E-4  
 2.724000000000000E10    4.517487250268459E-4  -6.188525585457683E-4  
 2.726000000000000E10    1.279821735806763E-4  -5.738947074860334E-4  
 2.728000000000000E10    6.091789109632373E-4  -1.021845382638276E-3  
 2.730000000000000E10    7.802839536452666E-5  -9.991484694182873E-4  
 2.732000000000000E10   -1.025746460072696E-3  -4.696500764111988E-5  
 2.734000000000000E10    2.083104191115126E-4   4.548143770080060E-4  
 2.736000000000000E10    1.012968597933650E-3  -2.206021308666095E-4  
 2.738000000000000E10   -1.376850850647315E-4  -1.569437445141375E-3  
 2.740000000000000E10   -1.075525535270572E-3  -6.181619828566909E-4  
 2.742000000000000E10   -8.037449442781508E-4   3.719745727721602E-4  
 2.744000000000000E10    6.452746456488967E-4   1.929462014231831E-4  
 2.746000000000000E10    5.694128922186792E-4  -5.841859965585172E-4  
 2.748000000000000E10   -2.208065707236528E-4  -5.366969853639603E-4  
 2.750000000000000E10   -8.527651662006974E-4  -1.900707575259730E-4  
 2.752000000000000E10   -6.630643620155752E-4   4.466441623662831E-6  
 2.754000000000000E10   -5.255552241578698E-4   6.971186376176775E-4  
 2.756000000000000E10   -4.751951491925865E-4   1.716911210678518E-4  
