#  HZ   S   RI   R     50.00 
! Rohde & Schwarz ZVA40 4Ports - Version 3.90 - 1145.1110k42 SN: 100403
! Date: 2023-10-04 11:36:03
! Measurement: S12 
! 
 2.200000000000000E10    1.071909093298018E-3  -4.983855178579688E-4  
 2.202000000000000E10    7.408345118165016E-5  -6.380523554980755E-4  
 2.204000000000000E10   -1.074299681931734E-3  -3.548176900949329E-4  
 2.206000000000000E10   -1.293569075642154E-4   3.383992589078844E-4  
 2.208000000000000E10    3.677578642964363E-4   9.756316285347566E-5  
 2.210000000000000E10   -4.617368394974619E-4  -7.158109801821411E-4  
 2.212000000000000E10   -2.308958210051060E-4  -4.970263689756393E-4  
 2.214000000000000E10    2.690116234589368E-4  -3.303793782833964E-4  
 2.216000000000000E10   -5.346360267139971E-4  -1.209678244777024E-3  
 2.218000000000000E10   -8.315924205817282E-4  -3.632732550613582E-4  
 2.220000000000000E10    1.545009290566668E-4   9.695214102976024E-4  
 2.222000000000000E10    5.495123914442956E-4  -9.259881917387247E-4  
 2.224000000000000E10   -4.815484862774611E-5  -1.049114041961730E-3  
 2.226000000000000E10   -1.438423292711377E-3  -3.560691766324453E-5  
 2.228000000000000E10   -9.621193748898804E-5   1.303828175878152E-4  
 2.230000000000000E10    4.570722812786698E-4   3.650239377748221E-4  
 2.232000000000000E10   -5.372815066948533E-4  -6.496002897620201E-4  
 2.234000000000000E10   -3.190048737451434E-4  -6.703409599140286E-4  
 2.236000000000000E10   -6.115228170529008E-4   2.365609689150006E-4  
 2.238000000000000E10   -1.303677163377870E-5  -4.550365702016279E-5  
 2.240000000000000E10   -6.636534235440195E-4  -1.122994035540614E-5  
 2.242000000000000E10    5.461203400045633E-4   6.333812489174306E-4  
 2.244000000000000E10    1.714129030006006E-4   6.900476873852313E-4  
 2.246000000000000E10   -3.112137201242149E-4  -8.639692678116262E-4  
 2.248000000000000E10   -1.295609865337610E-3   9.424024610780180E-4  
 2.250000000000000E10   -9.473551181145012E-4   1.094187493436039E-3  
 2.252000000000000E10    7.417681626975536E-4   3.278797667007893E-4  
 2.254000000000000E10   -1.009496045298874E-3  -5.876295035704970E-4  
 2.256000000000000E10   -6.620867643505335E-4  -1.512724847998470E-4  
 2.258000000000000E10   -8.531193452654406E-5   5.868265288881958E-4  
 2.260000000000000E10   -3.431184741202742E-4   3.084403288085014E-4  
 2.262000000000000E10   -1.832601701607928E-4   5.370536237023771E-4  
 2.264000000000000E10    6.477246060967445E-4   2.901804400607944E-4  
 2.266000000000000E10   -3.929913873434998E-5   4.762118333019316E-4  
 2.268000000000000E10   -4.672164795920253E-4  -1.630920887691900E-4  
 2.270000000000000E10   -7.836443255655468E-4   6.710164598189294E-4  
 2.272000000000000E10   -3.172463329974562E-4   1.204026048071683E-3  
 2.274000000000000E10    6.718239746987820E-4   6.259818328544498E-4  
 2.276000000000000E10    9.659974602982402E-5  -9.999724570661783E-4  
 2.278000000000000E10   -9.821217827266082E-5  -4.331509408075362E-4  
 2.280000000000000E10   -7.276618853211403E-4   8.496844093315303E-4  
 2.282000000000000E10    6.183899240568280E-4   6.903034518472850E-4  
 2.284000000000000E10    1.125249662436545E-3   3.218122001271695E-4  
 2.286000000000000E10    1.796740689314902E-4  -1.184881039080210E-4  
 2.288000000000000E10    2.794837637338787E-4  -3.172284923493862E-4  
 2.290000000000000E10   -3.708362928591669E-4  -1.191985211335123E-4  
 2.292000000000000E10   -5.861763493157923E-4   9.425412281416357E-4  
 2.294000000000000E10    8.297906024381518E-4   5.495891091413796E-4  
 2.296000000000000E10    9.982772171497345E-4  -5.098704132251442E-4  
 2.298000000000000E10   -3.489488153718412E-4  -1.250557252205908E-3  
 2.300000000000000E10   -6.789960898458958E-4  -2.399913064436987E-4  
 2.302000000000000E10   -4.265358729753643E-4   7.815624121576548E-4  
 2.304000000000000E10    1.751863281242549E-3   2.393002214375883E-4  
 2.306000000000000E10    1.099513610824943E-3  -5.573353264480829E-4  
 2.308000000000000E10   -1.606000296305865E-4  -6.852032383903861E-4  
 2.310000000000000E10   -4.182123229838908E-4   3.774390788748860E-4  
 2.312000000000000E10    7.331225788220763E-5   3.417519328650087E-4  
 2.314000000000000E10   -3.287310391897336E-5   5.884445854462683E-4  
 2.316000000000000E10   -1.628349418751895E-4  -4.711766669061035E-4  
 2.318000000000000E10    1.081279944628477E-3  -7.036776514723897E-4  
 2.320000000000000E10   -8.939148392528296E-4  -9.399847476743162E-4  
 2.322000000000000E10   -7.617735536769033E-4  -7.603853009641171E-4  
 2.324000000000000E10    1.999422238441184E-4   7.722960435785353E-4  
 2.326000000000000E10    1.150283613242209E-3  -4.446725652087480E-4  
 2.328000000000000E10    2.528052718844265E-4  -9.664859971962869E-4  
 2.330000000000000E10   -5.273814313113689E-4  -5.495672812685370E-4  
 2.332000000000000E10   -5.027915467508137E-4   3.881758602801710E-4  
 2.334000000000000E10    2.337760997761507E-5   2.273489808430895E-4  
 2.336000000000000E10    5.998938577249646E-4   3.926831122953445E-4  
 2.338000000000000E10   -1.112532117986120E-4  -2.608755021356046E-4  
 2.340000000000000E10    2.179516450269148E-4  -5.427598371170461E-4  
 2.342000000000000E10   -5.414929473772645E-4  -3.095173742622137E-4  
 2.344000000000000E10   -4.081311926711351E-4  -2.324862543900963E-5  
 2.346000000000000E10    3.925703640561551E-4   1.436977763660252E-3  
 2.348000000000000E10    9.473033132962883E-4  -3.613891603890806E-4  
 2.350000000000000E10   -2.624948683660477E-5  -1.519002835266292E-3  
 2.352000000000000E10   -1.145910006016493E-3  -4.045125388074666E-4  
 2.354000000000000E10   -3.972553240600973E-4   9.315151837654412E-4  
 2.356000000000000E10    6.111980183050036E-4   1.472814892622409E-5  
 2.358000000000000E10    9.124766802415252E-4  -2.989573113154620E-4  
 2.360000000000000E10   -2.775618922896683E-4  -4.214382497593761E-4  
 2.362000000000000E10   -4.533519968390465E-4  -7.361142779700458E-4  
 2.364000000000000E10   -7.049257401376963E-4   7.289072382263839E-4  
 2.366000000000000E10   -2.947454922832549E-4   7.641801494173706E-4  
 2.368000000000000E10    1.004268415272236E-3   6.063655600883067E-4  
 2.370000000000000E10    2.288554533151910E-4  -5.562385194934905E-4  
 2.372000000000000E10   -4.059913626406342E-4  -1.045218203216791E-3  
 2.374000000000000E10   -9.434147505089641E-4   6.032980163581669E-4  
 2.376000000000000E10    2.144805330317468E-4   7.411310798488557E-4  
 2.378000000000000E10    1.466807676479220E-3   3.919859009329230E-4  
 2.380000000000000E10    5.463908892124891E-4  -9.335135109722614E-4  
 2.382000000000000E10   -1.549046719446778E-4  -2.858043881133199E-4  
 2.384000000000000E10   -6.575424340553582E-4   7.870356785133481E-4  
 2.386000000000000E10    2.154465473722667E-4   1.117247593356296E-4  
 2.388000000000000E10    1.059777860064060E-4   6.147797685116530E-4  
 2.390000000000000E10    4.236904787831008E-4  -2.860791573766619E-4  
 2.392000000000000E10    3.997661115135998E-4  -9.827507892623544E-4  
 2.394000000000000E10   -7.658886024728417E-4  -7.047204417176545E-4  
 2.396000000000000E10   -3.899633593391627E-4   8.267402299679816E-4  
 2.398000000000000E10    8.100001141428947E-4   6.612720899283886E-4  
 2.400000000000000E10    1.512911869212985E-3  -4.113779868930578E-4  
 2.402000000000000E10    3.826567844953388E-4  -8.417236385867000E-4  
 2.404000000000000E10   -5.524494335986674E-4   7.444689254043624E-5  
 2.406000000000000E10   -8.888765005394816E-4   9.946037316694856E-4  
 2.408000000000000E10    5.892119952477515E-4   5.917475791648030E-4  
 2.410000000000000E10    3.893805842380971E-4  -2.365124819334596E-4  
 2.412000000000000E10   -5.397280328907073E-4  -1.025522244162858E-3  
 2.414000000000000E10   -4.749720683321357E-4  -6.389956106431782E-4  
 2.416000000000000E10   -7.774987607263029E-4  -7.041029311949387E-5  
 2.418000000000000E10    9.444155875826255E-5   3.225542313884944E-4  
 2.420000000000000E10    6.633784505538642E-4   1.448096154490486E-4  
 2.422000000000000E10    1.156474347226322E-3  -9.945489000529051E-4  
 2.424000000000000E10   -5.023525445722044E-4  -9.174455772154033E-4  
 2.426000000000000E10   -9.775843936949968E-4   2.467435551807284E-4  
 2.428000000000000E10    3.327004960738123E-4   1.308302395045757E-3  
 2.430000000000000E10    4.685717867687345E-4   2.194555854657665E-4  
 2.432000000000000E10    1.843355566961691E-4  -1.086213858798146E-3  
 2.434000000000000E10   -9.382519638165832E-4  -8.526509627699852E-4  
 2.436000000000000E10   -1.109361764974892E-3   4.164232086623088E-5  
 2.438000000000000E10    1.961649104487151E-5   2.249287535960320E-5  
 2.440000000000000E10    1.117196050472558E-3  -4.845756120630540E-5  
 2.442000000000000E10    6.589291733689606E-4   2.575401958893053E-5  
 2.444000000000000E10    1.577149523654953E-4  -8.370534633286297E-4  
 2.446000000000000E10   -5.335872992873192E-4  -2.456190122757107E-4  
 2.448000000000000E10   -1.559586380608380E-3   4.371156974229962E-4  
 2.450000000000000E10    5.106881144456565E-4   5.293019348755479E-4  
 2.452000000000000E10    1.052671112120152E-3   6.478784052887932E-5  
 2.454000000000000E10   -1.068320198100992E-4  -1.365508767776191E-3  
 2.456000000000000E10   -8.198200375773013E-4  -7.577461074106395E-4  
 2.458000000000000E10   -2.752190048340708E-4   1.600948889972642E-4  
 2.460000000000000E10    3.397151594981551E-4   2.068099129246548E-4  
 2.462000000000000E10    8.747228421270847E-4  -2.595119876787067E-4  
 2.464000000000000E10    6.942632026039064E-4   7.651877967873588E-5  
 2.466000000000000E10   -2.162369055440649E-4  -7.878975593484938E-4  
 2.468000000000000E10   -7.270466885529459E-4  -1.904160599224269E-4  
 2.470000000000000E10   -1.354984473437071E-3   9.452704107388854E-4  
 2.472000000000000E10    1.930555445142090E-4   5.902123521082103E-4  
 2.474000000000000E10    9.236019686795771E-4  -5.404107505455613E-4  
 2.476000000000000E10   -6.344873108901084E-4  -1.480463077314198E-3  
 2.478000000000000E10   -1.662654103711247E-3  -3.597505274228752E-4  
 2.480000000000000E10   -2.049618924502283E-4   8.734573493711650E-4  
 2.482000000000000E10    6.433635717257857E-4   1.155493082478643E-3  
 2.484000000000000E10    3.158359904773533E-4  -6.895159021951258E-4  
 2.486000000000000E10   -1.867058308562264E-4  -4.729375068563968E-4  
 2.488000000000000E10   -1.076115760952234E-3   1.042362055159174E-4  
 2.490000000000000E10   -9.148893877863884E-4   3.245248808525503E-4  
 2.492000000000000E10   -3.603232908062637E-4   6.175751332193613E-4  
 2.494000000000000E10    5.775041645392776E-4   2.257333107991144E-4  
 2.496000000000000E10    3.380359848961234E-4  -1.229596324265003E-3  
 2.498000000000000E10   -9.613078436814249E-4  -7.945303805172443E-4  
 2.500000000000000E10   -1.316328649409115E-3   7.559034274891019E-4  
 2.502000000000000E10   -1.944917021319270E-4   1.158427097834647E-3  
 2.504000000000000E10    1.125271315686405E-3   2.536041720304638E-4  
 2.506000000000000E10   -7.142390677472577E-5  -7.203068234957755E-4  
 2.508000000000000E10   -1.046660356223583E-3  -4.262210568413138E-4  
 2.510000000000000E10   -8.458505035378039E-4   1.121177338063717E-3  
 2.512000000000000E10    1.844838516262826E-5   1.123059657402337E-3  
 2.514000000000000E10    3.196189063601196E-4   3.328456368763000E-4  
 2.516000000000000E10    4.693666051025502E-5   2.111613284796476E-4  
 2.518000000000000E10   -3.185023670084775E-4   7.518559414165793E-6  
 2.520000000000000E10   -9.733210899867117E-4  -1.423403500666609E-5  
 2.522000000000000E10   -4.999097436666489E-4   8.114236406981945E-4  
 2.524000000000000E10    8.837748464429751E-5   9.532812982797623E-4  
 2.526000000000000E10    1.488363486714661E-3  -1.194170545204543E-4  
 2.528000000000000E10    8.178931893780828E-4  -5.657923757098615E-4  
 2.530000000000000E10   -6.782563868910074E-4   2.627544454298914E-4  
 2.532000000000000E10    2.842917165253311E-4   1.433972385711968E-3  
 2.534000000000000E10    1.018686103634536E-3   1.106037874706090E-3  
 2.536000000000000E10    7.446219678968191E-4   5.389486323110759E-4  
 2.538000000000000E10   -5.496151861734688E-4  -6.427422340493649E-5  
 2.540000000000000E10    2.663326740730554E-4  -7.084028038661927E-5  
 2.542000000000000E10   -6.442990852519870E-4   2.528777404222637E-4  
 2.544000000000000E10    2.758525079116225E-4   2.902884152717888E-4  
 2.546000000000000E10    1.169880270026624E-3   9.080901509150863E-4  
 2.548000000000000E10    1.845263410359621E-3  -5.891091423109174E-4  
 2.550000000000000E10    1.074073254130781E-3  -5.441674147732556E-4  
 2.552000000000000E10   -6.699087680317462E-4   5.559456185437739E-4  
 2.554000000000000E10    6.506274803541601E-4   1.807976746931672E-3  
 2.556000000000000E10    1.501511665992439E-3   6.560141337104142E-4  
 2.558000000000000E10    7.093548774719238E-4  -7.158676162362099E-4  
 2.560000000000000E10   -7.320298464037478E-4  -7.728823111392558E-4  
 2.562000000000000E10   -9.053050598595291E-5  -4.062554216943681E-4  
 2.564000000000000E10    1.621368573978543E-4  -9.127364319283515E-5  
 2.566000000000000E10    9.342972771264613E-4  -4.936855402775109E-4  
 2.568000000000000E10    1.048217643983662E-3  -3.992510610260069E-4  
 2.570000000000000E10    6.502649630419910E-4  -1.211058697663248E-3  
 2.572000000000000E10   -7.343768374994397E-4  -6.853821105323732E-4  
 2.574000000000000E10   -8.093212964013219E-4   4.137561481911689E-4  
 2.576000000000000E10    4.096122866030783E-4   8.267060620710254E-4  
 2.578000000000000E10    5.115530802868307E-4  -6.502385367639363E-4  
 2.580000000000000E10   -2.809051366057247E-4  -1.512096612714231E-3  
 2.582000000000000E10   -1.150896307080984E-3  -6.461468874476850E-4  
 2.584000000000000E10   -2.474383509252220E-4   1.522449565527495E-5  
 2.586000000000000E10    1.358674635412172E-4  -1.379162131343037E-4  
 2.588000000000000E10    2.221224131062627E-4  -8.024332346394658E-4  
 2.590000000000000E10   -3.675282350741327E-4  -6.885061156935990E-4  
 2.592000000000000E10   -2.307590621057898E-4  -6.732769543305039E-4  
 2.594000000000000E10   -1.219032565131784E-3  -5.998854176141322E-4  
 2.596000000000000E10   -5.838652141392231E-4   1.630960177863017E-4  
 2.598000000000000E10    1.858358009485528E-4   7.609940366819501E-4  
 2.600000000000000E10    2.473072963766754E-4  -1.055857515893877E-3  
 2.602000000000000E10   -7.136975764296949E-4  -1.314057153649628E-3  
 2.604000000000000E10   -1.612131134606898E-3   1.389760291203857E-4  
 2.606000000000000E10   -4.496189940255135E-4   1.095031970180571E-3  
 2.608000000000000E10    6.005874820402823E-5   2.639386220835149E-4  
 2.610000000000000E10    5.613350003841333E-5  -2.702431229408830E-4  
 2.612000000000000E10   -6.386694731190801E-4  -1.682825241005048E-4  
 2.614000000000000E10   -6.841938593424857E-4  -1.640505979594309E-5  
 2.616000000000000E10   -8.438152726739645E-4   5.471748299896717E-4  
 2.618000000000000E10   -3.048424787266413E-6   8.426411077380180E-4  
 2.620000000000000E10    5.202162428759038E-4   2.467477461323142E-4  
 2.622000000000000E10    4.696815158240497E-4  -6.839566049166024E-4  
 2.624000000000000E10   -7.592511246912181E-4  -6.389662157744169E-4  
 2.626000000000000E10   -8.461248362436891E-4   7.734741666354239E-4  
 2.628000000000000E10    4.828761739190668E-4   1.165612018667162E-3  
 2.630000000000000E10    7.981467642821372E-4  -1.793633855413646E-4  
 2.632000000000000E10    2.168427599826828E-4  -8.704990614205599E-4  
 2.634000000000000E10   -4.087289853487164E-4   3.929009835701436E-4  
 2.636000000000000E10   -2.263647184008732E-5   3.569129621610045E-4  
 2.638000000000000E10    1.310375955654308E-4   3.182584769092500E-4  
 2.640000000000000E10    2.310678682988510E-4   8.703635539859533E-4  
 2.642000000000000E10    7.983850664459169E-4  -1.836023293435574E-4  
 2.644000000000000E10    3.302162222098559E-4  -7.408944657072425E-4  
 2.646000000000000E10   -9.438470005989075E-4  -4.043648659717292E-4  
 2.648000000000000E10    5.991620855638757E-5   9.252089657820761E-4  
 2.650000000000000E10    9.436380350962281E-4   7.058263290673494E-4  
 2.652000000000000E10    1.204291242174804E-3  -2.550710632931441E-4  
 2.654000000000000E10    1.602112606633455E-4  -6.999279139563441E-4  
 2.656000000000000E10   -7.106151315383613E-4  -4.129260196350515E-5  
 2.658000000000000E10   -4.854521248489618E-4   6.249548750929534E-4  
 2.660000000000000E10    2.248197124572471E-4   6.057433711248450E-5  
 2.662000000000000E10    5.140224238857627E-4  -3.831321082543582E-4  
 2.664000000000000E10    3.063614713028073E-4  -7.125033880583942E-4  
 2.666000000000000E10   -3.065877826884389E-4  -1.027097692713141E-3  
 2.668000000000000E10   -6.168405525386334E-4  -6.542589981108904E-4  
 2.670000000000000E10    1.710846408968791E-4   6.788540631532669E-4  
 2.672000000000000E10    1.104915514588356E-3   3.245040134061128E-4  
 2.674000000000000E10    5.549890338443220E-4  -1.025439472869039E-3  
 2.676000000000000E10   -1.090543577447534E-3  -9.292704635299742E-4  
 2.678000000000000E10   -8.134009549394250E-4   4.060860956087709E-4  
 2.680000000000000E10   -2.272112033097073E-4   5.687999655492604E-4  
 2.682000000000000E10    2.180188312195242E-4  -2.801658993121237E-4  
 2.684000000000000E10    5.366049008443952E-4  -1.039888709783554E-3  
 2.686000000000000E10   -1.904932287288830E-4  -1.046285731717944E-3  
 2.688000000000000E10   -9.609550470486283E-4  -8.933965582400560E-4  
 2.690000000000000E10   -4.599628446158022E-4   3.956755390390754E-4  
 2.692000000000000E10    4.842015623580664E-4   5.502134445123375E-4  
 2.694000000000000E10    6.374905351549387E-4  -5.045042489655316E-4  
 2.696000000000000E10   -3.354268555995077E-4  -1.011653803288937E-3  
 2.698000000000000E10   -1.068738871254027E-3  -3.443724126555026E-4  
 2.700000000000000E10   -1.021318836137652E-3   7.184979040175676E-4  
 2.702000000000000E10    5.724717630073428E-4   4.371789400465787E-4  
 2.704000000000000E10    4.937875783070922E-4  -2.361871156608686E-4  
 2.706000000000000E10   -6.270300946198404E-4  -7.336012786254287E-4  
 2.708000000000000E10   -6.029975484125316E-4  -4.466426325961947E-4  
 2.710000000000000E10   -5.940404953435063E-4   3.336520749144256E-4  
 2.712000000000000E10   -3.585721424315125E-5   1.192151103168726E-3  
 2.714000000000000E10    5.519947153516114E-4   5.077939713373780E-4  
 2.716000000000000E10    4.592587647493929E-4  -3.530566464178264E-4  
 2.718000000000000E10   -1.161170075647533E-3  -6.506048066512449E-6  
 2.720000000000000E10   -8.394756587222219E-4   5.336808972060680E-4  
 2.722000000000000E10    8.650505333207548E-5   1.510138507001102E-3  
 2.724000000000000E10    3.963122435379773E-4   2.518469700589776E-4  
 2.726000000000000E10    2.274666621815413E-4  -1.136950522777624E-4  
 2.728000000000000E10   -6.379080004990101E-4   2.068603935185820E-4  
 2.730000000000000E10   -4.827482043765485E-4   1.240920246345922E-4  
 2.732000000000000E10    7.621189433848485E-5   6.078260485082865E-4  
 2.734000000000000E10    1.555666967760772E-4   8.870190940797329E-4  
 2.736000000000000E10    5.760214407928288E-4   1.554814080009237E-4  
 2.738000000000000E10    3.394318628124893E-4   4.011412602267228E-5  
 2.740000000000000E10   -8.770058630034328E-4   2.643642656039447E-4  
 2.742000000000000E10   -1.136193983256817E-3   9.656321490183473E-4  
 2.744000000000000E10    4.221170966047794E-4   1.206728513352573E-3  
 2.746000000000000E10    4.449008265510202E-4  -2.114902017638087E-4  
 2.748000000000000E10   -2.658882294781506E-4  -9.954628767445684E-4  
 2.750000000000000E10   -3.610639541875571E-4   3.488736110739410E-4  
 2.752000000000000E10    1.345401833532378E-4   5.742202629335225E-4  
 2.754000000000000E10    4.265224852133542E-4   4.407437809277326E-4  
 2.756000000000000E10    3.627173718996346E-4   3.432445519138128E-4  
