#  HZ   S   RI   R     50.00 
! Rohde & Schwarz ZVA40 4Ports - Version 3.90 - 1145.1110k42 SN: 100403
! Date: 2023-10-04 11:35:46
! Measurement: S12 
! 
 2.200000000000000E10    1.218374585732818E-3   4.862119385506958E-4  
 2.202000000000000E10    8.616632112534717E-5  -7.065391982905567E-4  
 2.204000000000000E10   -9.023610036820173E-4  -4.850233963225037E-4  
 2.206000000000000E10    2.055401564575732E-4   1.345812226645649E-3  
 2.208000000000000E10    7.719503628322855E-5   6.208444247022271E-4  
 2.210000000000000E10    2.722573408391327E-4   1.279026328120381E-4  
 2.212000000000000E10   -5.170354852452874E-4   9.875510586425662E-4  
 2.214000000000000E10   -2.734945446718484E-4   2.072811912512407E-4  
 2.216000000000000E10    7.287455810001120E-5   3.472369571682066E-4  
 2.218000000000000E10   -7.273695082403719E-4   4.770275554619730E-4  
 2.220000000000000E10   -2.449047169648111E-4   7.040478521957994E-4  
 2.222000000000000E10    6.822100258432329E-4   6.923421751707792E-4  
 2.224000000000000E10    9.202372748404741E-4  -4.537771746981889E-4  
 2.226000000000000E10   -5.076276720501483E-4  -4.338133658166044E-5  
 2.228000000000000E10    1.352177059743553E-4   5.922653945162892E-4  
 2.230000000000000E10    7.871767156757414E-4   1.081374357454479E-3  
 2.232000000000000E10    1.112934900447726E-3  -2.709469699766487E-4  
 2.234000000000000E10    2.157009730581194E-4   8.573447703383863E-4  
 2.236000000000000E10   -4.351781099103391E-4   7.411242695525289E-4  
 2.238000000000000E10    5.145538598299027E-4  -2.667163498699665E-4  
 2.240000000000000E10   -6.937470752745867E-4   7.083463715389371E-4  
 2.242000000000000E10   -3.223679377697408E-4   5.470021278597415E-4  
 2.244000000000000E10    1.400860957801342E-3  -3.910946834366769E-4  
 2.246000000000000E10    4.945640102960169E-4  -7.399526657536626E-4  
 2.248000000000000E10   -6.538388697663322E-5  -3.739487146958709E-4  
 2.250000000000000E10    4.477887123357505E-4   7.236032979562879E-4  
 2.252000000000000E10    1.309645827859640E-3   1.233729184605181E-3  
 2.254000000000000E10    7.648549508303404E-4  -3.762240521609783E-5  
 2.256000000000000E10    4.909350536763668E-4  -7.821802864782512E-4  
 2.258000000000000E10   -1.018977840431035E-3  -1.079039429896511E-4  
 2.260000000000000E10    1.039413764374331E-4   3.679177098092623E-5  
 2.262000000000000E10    2.576317056082189E-4   6.419046258088201E-5  
 2.264000000000000E10    2.627101785037667E-4  -6.607190589420497E-4  
 2.266000000000000E10    9.198338957503438E-4  -3.715035563800484E-4  
 2.268000000000000E10    6.639537168666720E-4  -1.377951353788376E-3  
 2.270000000000000E10   -5.654777633026242E-4  -1.041428768076003E-4  
 2.272000000000000E10   -3.105900832451880E-4   7.129696896299720E-4  
 2.274000000000000E10    1.371056190691888E-3   1.951068115886301E-4  
 2.276000000000000E10    3.658099158201367E-4  -8.833936881273985E-4  
 2.278000000000000E10   -6.454703398048878E-4  -7.926275138743222E-4  
 2.280000000000000E10   -6.780706462450326E-4   1.685402967268601E-4  
 2.282000000000000E10   -2.271907578688115E-4   8.765501843299717E-5  
 2.284000000000000E10    1.608093152754009E-4   1.107017014874145E-4  
 2.286000000000000E10    7.485931855626404E-4  -6.357650272548199E-4  
 2.288000000000000E10    5.455586942844093E-4  -5.831833113916218E-4  
 2.290000000000000E10   -4.929573042318225E-4  -2.910133844125085E-5  
 2.292000000000000E10   -1.075569452950731E-4   1.028186816256493E-4  
 2.294000000000000E10    1.508129935245961E-4   1.819302269723266E-4  
 2.296000000000000E10   -6.079168315409333E-7  -8.397980855079368E-5  
 2.298000000000000E10    5.871808389201760E-4  -7.130175945349038E-4  
 2.300000000000000E10   -9.808030445128679E-4  -8.980269776657224E-4  
 2.302000000000000E10   -1.013215049169958E-3   6.705184350721538E-4  
 2.304000000000000E10    3.451158991083503E-4   4.435373120941222E-4  
 2.306000000000000E10    4.767444916069508E-4  -2.987133339047432E-4  
 2.308000000000000E10    8.151897418429144E-6  -4.723140737041831E-4  
 2.310000000000000E10   -6.445201579481363E-4  -4.498394264373928E-4  
 2.312000000000000E10   -6.019756547175348E-4  -1.270744833163917E-4  
 2.314000000000000E10   -4.262197180651128E-4   8.121725986711681E-4  
 2.316000000000000E10    3.238575882278383E-4   2.070796181214973E-4  
 2.318000000000000E10    2.879444218706340E-4  -3.268874716013670E-4  
 2.320000000000000E10   -1.521495723864064E-4  -1.067643170244992E-3  
 2.322000000000000E10   -9.037049021571875E-4   1.198126046801917E-4  
 2.324000000000000E10   -5.422013346105814E-4   4.641716077458113E-4  
 2.326000000000000E10    8.755861199460924E-4   9.174130973406136E-4  
 2.328000000000000E10    5.504539003595710E-4  -6.969542009755969E-4  
 2.330000000000000E10   -3.984947688877583E-4  -7.417949382215738E-4  
 2.332000000000000E10   -1.929524587467313E-3   7.135807536542416E-4  
 2.334000000000000E10   -3.278845106251538E-4   6.195168243721128E-4  
 2.336000000000000E10    4.813304694835097E-4   3.366363234817982E-4  
 2.338000000000000E10   -3.439271240495145E-4  -6.107602384872735E-4  
 2.340000000000000E10    2.115356473950669E-4  -3.350398619659245E-4  
 2.342000000000000E10   -9.819369297474623E-4  -7.829844253137708E-4  
 2.344000000000000E10   -6.000325665809214E-4   3.549855318851769E-4  
 2.346000000000000E10    2.492544881533831E-4   1.556870178319514E-3  
 2.348000000000000E10    1.483659842051566E-3  -2.480752591509372E-4  
 2.350000000000000E10    1.184457214549184E-4   3.535588257363997E-5  
 2.352000000000000E10   -1.078676083125174E-3   1.028675760608167E-4  
 2.354000000000000E10   -6.126170628704131E-4   1.009295578114688E-3  
 2.356000000000000E10    9.641396900406107E-5   1.144615234807134E-3  
 2.358000000000000E10    4.759703297168016E-4  -2.757623442448676E-4  
 2.360000000000000E10    7.894544251030311E-5  -7.389680249616504E-4  
 2.362000000000000E10   -4.643947759177536E-4  -3.064894699491561E-4  
 2.364000000000000E10   -1.341251627309248E-4   3.294253838248551E-4  
 2.366000000000000E10    2.842789981514216E-4   6.371133495122194E-4  
 2.368000000000000E10    6.105867796577513E-4   8.764611557126045E-4  
 2.370000000000000E10    3.806324093602598E-4   3.877056951751001E-5  
 2.372000000000000E10   -1.687415060587227E-4  -6.605752860195935E-4  
 2.374000000000000E10   -1.567066181451082E-3   3.476111451163888E-4  
 2.376000000000000E10   -1.672557264100760E-4   1.181459869258106E-3  
 2.378000000000000E10    9.406210738234222E-4   1.769788359524682E-4  
 2.380000000000000E10    9.182478534057736E-4  -1.708100084215403E-3  
 2.382000000000000E10   -4.773285036208108E-5  -9.063242468982935E-4  
 2.384000000000000E10   -9.777607920113951E-5  -2.142893063137308E-4  
 2.386000000000000E10    6.071572424843907E-4   8.071071933954954E-4  
 2.388000000000000E10    8.929881150834262E-4   5.916954251006246E-4  
 2.390000000000000E10    7.542237290181220E-4  -2.477199632267002E-5  
 2.392000000000000E10   -7.238687248900533E-4  -3.305360150989145E-4  
 2.394000000000000E10   -1.017855363897979E-3  -2.394695038674399E-4  
 2.396000000000000E10   -5.295131704770029E-4   2.534145023673773E-4  
 2.398000000000000E10   -2.698594762478024E-4   2.361003862461075E-4  
 2.400000000000000E10    6.830352358520031E-4  -4.658332545659505E-5  
 2.402000000000000E10    2.367873530602083E-4  -1.887650112621486E-3  
 2.404000000000000E10   -8.574253879487515E-4  -8.245296776294708E-4  
 2.406000000000000E10   -4.215616500005126E-4   7.937484188005328E-4  
 2.408000000000000E10    1.143211848102510E-3   9.185515809804201E-4  
 2.410000000000000E10    5.400233785621822E-4   2.555209503043443E-4  
 2.412000000000000E10   -2.017231599893421E-4  -3.034011169802398E-4  
 2.414000000000000E10   -6.387071916833520E-4   2.467899685143493E-5  
 2.416000000000000E10   -1.454120967537165E-3   8.908453310141340E-5  
 2.418000000000000E10   -4.120978701394051E-4   1.132231918745674E-4  
 2.420000000000000E10    3.489980590529740E-4   4.201379779260606E-4  
 2.422000000000000E10    9.890566579997540E-4  -6.295787752605975E-4  
 2.424000000000000E10   -3.450183721724898E-4  -8.957299287430942E-4  
 2.426000000000000E10   -6.779911345802248E-4  -1.888515107566491E-4  
 2.428000000000000E10   -3.759452665690333E-4   1.622309791855514E-3  
 2.430000000000000E10    7.287769694812596E-4   1.395916217006743E-3  
 2.432000000000000E10    1.201257808133960E-3   1.511855371063575E-4  
 2.434000000000000E10   -9.793658973649144E-4  -9.581390768289566E-4  
 2.436000000000000E10   -1.245995750650764E-3   4.415960866026580E-4  
 2.438000000000000E10   -5.248945089988411E-4   9.423857554793358E-4  
 2.440000000000000E10    1.210038462886587E-4   6.745757855242118E-5  
 2.442000000000000E10    4.015054437331855E-4  -7.278142729774118E-4  
 2.444000000000000E10    5.900482647120953E-4  -5.904259742237628E-4  
 2.446000000000000E10   -5.718456814065576E-4  -8.774192538112402E-4  
 2.448000000000000E10   -4.033952718600631E-4   1.962627429747954E-4  
 2.450000000000000E10    4.007270908914506E-4   1.833854243159294E-3  
 2.452000000000000E10    8.801639196462929E-4   7.208671377156861E-6  
 2.454000000000000E10    3.415969840716571E-4  -7.476885803043842E-4  
 2.456000000000000E10   -1.536527415737510E-3  -4.398370801936835E-4  
 2.458000000000000E10   -1.606723875738680E-3   8.416161872446537E-4  
 2.460000000000000E10    1.770155504345894E-4   1.096922787837684E-3  
 2.462000000000000E10    4.975276533514261E-4  -4.110788286197931E-4  
 2.464000000000000E10   -1.765229826560244E-4  -1.329284976236522E-3  
 2.466000000000000E10   -6.913938705110923E-5  -3.166087262798101E-4  
 2.468000000000000E10   -3.446210466790944E-4   3.983109199907631E-4  
 2.470000000000000E10    3.685840929392725E-4   3.620799980126321E-4  
 2.472000000000000E10    6.317320512607694E-4   1.086357631720603E-3  
 2.474000000000000E10    3.729063028004021E-4   1.478507037973031E-4  
 2.476000000000000E10   -2.467444865033031E-4  -4.929465358145535E-4  
 2.478000000000000E10   -1.192968571558595E-3   2.004304551519454E-4  
 2.480000000000000E10   -6.027802010066807E-4   1.239266945049167E-3  
 2.482000000000000E10    1.012725289911032E-3   5.366870318539441E-4  
 2.484000000000000E10    1.057104091159999E-3  -7.673998479731381E-4  
 2.486000000000000E10   -2.014469937421382E-4  -6.324425339698792E-4  
 2.488000000000000E10    3.631738309195498E-6   3.467106143943965E-4  
 2.490000000000000E10    5.675789434462786E-4   1.171794370748103E-3  
 2.492000000000000E10    4.542353854048997E-4   1.151083386503160E-3  
 2.494000000000000E10    7.813924457877874E-4   4.628705792129040E-4  
 2.496000000000000E10    5.344419623725116E-4   2.293233410455287E-4  
 2.498000000000000E10   -3.186568792443723E-4  -3.348676254972816E-4  
 2.500000000000000E10   -7.708227494731545E-4   2.300847409060225E-4  
 2.502000000000000E10    2.576849074102938E-4   9.832980576902628E-4  
 2.504000000000000E10    1.551962108351290E-3   4.870298434980214E-4  
 2.506000000000000E10    1.104382914490998E-3  -1.109745702706277E-3  
 2.508000000000000E10   -6.474483234342188E-5  -7.283366867341101E-4  
 2.510000000000000E10   -2.331058203708381E-4   8.548987680114806E-4  
 2.512000000000000E10    7.265461026690900E-4   7.406844524666667E-4  
 2.514000000000000E10    1.073013758286834E-3  -1.235891104442999E-4  
 2.516000000000000E10    5.754571175202727E-4  -5.340714706107974E-4  
 2.518000000000000E10    3.343630814924836E-4  -5.432958132587373E-4  
 2.520000000000000E10    1.573948684381321E-4  -4.587229050230235E-4  
 2.522000000000000E10   -1.432293065590784E-4   1.429616968380287E-4  
 2.524000000000000E10    6.872204830870032E-4   4.275521496310830E-4  
 2.526000000000000E10    1.622211420908570E-3  -4.239367845002562E-4  
 2.528000000000000E10    1.852144196163863E-4  -1.877520233392716E-3  
 2.530000000000000E10   -6.984875071793795E-4  -1.411199569702148E-3  
 2.532000000000000E10   -2.373669121880084E-4   4.140464297961444E-4  
 2.534000000000000E10    1.015990623272955E-3   6.772845517843962E-5  
 2.536000000000000E10    1.299496274441481E-3  -1.419440843164921E-3  
 2.538000000000000E10   -1.784311025403440E-4  -1.656062551774085E-3  
 2.540000000000000E10   -5.511353374458849E-4  -1.538470387458801E-4  
 2.542000000000000E10   -3.475094272289425E-4   1.691016077529639E-4  
 2.544000000000000E10   -1.637282693991438E-4  -3.097965091001242E-4  
 2.546000000000000E10   -4.570942255668342E-4  -6.536144064739347E-4  
 2.548000000000000E10    2.100235869875178E-4  -1.051985775120556E-3  
 2.550000000000000E10   -6.820240523666143E-4  -1.428417745046318E-3  
 2.552000000000000E10   -1.548855449073017E-3  -1.087879645638168E-3  
 2.554000000000000E10   -3.491731768008322E-4   5.067196325398982E-4  
 2.556000000000000E10    6.541568436659873E-4  -2.043318381765857E-4  
 2.558000000000000E10    6.277792854234576E-4  -1.394583727233112E-3  
 2.560000000000000E10   -1.591579406522214E-3  -4.886676906608045E-4  
 2.562000000000000E10   -1.193218166008592E-3   4.880115739069879E-4  
 2.564000000000000E10   -4.412490816321224E-4   8.790933643467724E-4  
 2.566000000000000E10    1.407750241924077E-4  -1.839583419496194E-4  
 2.568000000000000E10   -5.137711414135993E-4  -3.487700596451759E-4  
 2.570000000000000E10   -6.324202986434102E-4  -9.868700290098786E-4  
 2.572000000000000E10   -3.852856752928346E-4   1.240435176441679E-5  
 2.574000000000000E10   -6.159593467600644E-4   5.311687709763646E-4  
 2.576000000000000E10    2.809106663335115E-4   1.285388018004596E-3  
 2.578000000000000E10    8.981752325780690E-4   5.825232947245240E-4  
 2.580000000000000E10   -1.972396566998214E-4  -7.611131877638400E-4  
 2.582000000000000E10   -1.705171423964202E-3  -5.784751556348056E-5  
 2.584000000000000E10   -8.335495949722827E-4   1.800453639589250E-3  
 2.586000000000000E10    9.379440452903509E-4   1.019823248498142E-3  
 2.588000000000000E10    8.781657670624554E-4  -5.560383433476090E-4  
 2.590000000000000E10   -7.376296562142670E-4   6.317978841252625E-5  
 2.592000000000000E10   -4.650355258490890E-4   6.385414162650704E-4  
 2.594000000000000E10   -1.293000386795029E-4   8.371933363378048E-4  
 2.596000000000000E10    6.312823825282976E-5   1.207821886055172E-3  
 2.598000000000000E10    2.339963975828141E-4   1.014703768305481E-3  
 2.600000000000000E10    6.163191283121705E-4  -4.429572800290771E-5  
 2.602000000000000E10   -1.819515309762210E-4  -2.576248371042311E-4  
 2.604000000000000E10   -8.987850160337985E-4   3.633725282270461E-4  
 2.606000000000000E10    4.470704880077392E-4   1.367818564176559E-3  
 2.608000000000000E10    1.435146783478558E-3   6.418414413928986E-4  
 2.610000000000000E10    8.890759199857712E-4  -6.459061405621469E-4  
 2.612000000000000E10   -6.356126395985484E-4  -2.595169353298843E-4  
 2.614000000000000E10   -4.731935041490942E-5   1.258986303582788E-3  
 2.616000000000000E10    2.717788156587631E-4   5.666334764100611E-4  
 2.618000000000000E10    5.745763191953301E-4  -1.131216631620191E-4  
 2.620000000000000E10    1.069938880391419E-4   3.197854384779930E-4  
 2.622000000000000E10    3.297889197710902E-4  -8.742862264625728E-4  
 2.624000000000000E10    5.194686673348770E-5  -8.973876829259098E-4  
 2.626000000000000E10   -6.375940283760428E-4   3.229984722565860E-4  
 2.628000000000000E10    4.077262419741601E-4   6.551638944074512E-4  
 2.630000000000000E10    1.615855959244072E-3   2.363591338507831E-4  
 2.632000000000000E10    2.585336624179035E-4  -8.616097038611770E-4  
 2.634000000000000E10   -1.014275941997767E-3  -5.198052967898548E-4  
 2.636000000000000E10   -4.777066933456808E-4   7.715125684626401E-4  
 2.638000000000000E10    1.833326386986300E-4   3.862233425024897E-4  
 2.640000000000000E10    4.358815494924784E-4  -3.805976593866944E-4  
 2.642000000000000E10   -1.074323517968878E-4  -7.416781154461205E-4  
 2.644000000000000E10   -3.750514006242156E-4  -6.043615285307169E-4  
 2.646000000000000E10   -4.699107084888965E-4  -5.900525138713419E-4  
 2.648000000000000E10   -2.401226374786347E-4   5.303565412759781E-4  
 2.650000000000000E10    9.683298994787037E-4   4.508613492362201E-4  
 2.652000000000000E10    8.503342978656292E-4  -6.529816309921444E-4  
 2.654000000000000E10   -4.866715462412685E-4  -9.247572743333876E-4  
 2.656000000000000E10   -1.348937745206058E-3   1.913696032715961E-4  
 2.658000000000000E10   -1.727882045088336E-4   1.736251288093627E-3  
 2.660000000000000E10    7.971525192260742E-4   6.532357656396925E-4  
 2.662000000000000E10   -5.212533505982719E-5  -8.626760682091117E-4  
 2.664000000000000E10   -9.065527701750398E-4  -6.400046986527741E-4  
 2.666000000000000E10   -5.409212317317724E-4   4.238847468513995E-4  
 2.668000000000000E10   -6.158242467790842E-4   4.887427203357220E-4  
 2.670000000000000E10    2.474412031006068E-4   1.204717627842911E-4  
 2.672000000000000E10    5.830452428199351E-4  -1.278576964978129E-4  
 2.674000000000000E10    1.194691649288870E-4  -3.256785275880247E-4  
 2.676000000000000E10   -7.096084882505238E-4  -2.500122645869851E-4  
 2.678000000000000E10   -7.803353946655989E-4   8.858062210492790E-4  
 2.680000000000000E10   -8.461786819680128E-6   1.087768701836467E-3  
 2.682000000000000E10    6.546162185259163E-4   4.090178481419571E-5  
 2.684000000000000E10   -2.629107912071049E-4  -7.715451065450907E-4  
 2.686000000000000E10   -1.097507309168577E-3  -1.445635425625369E-4  
 2.688000000000000E10   -2.941458078566939E-4   7.853474235162139E-4  
 2.690000000000000E10   -7.236260444187792E-6   8.180416189134121E-4  
 2.692000000000000E10    2.780838403850794E-4  -6.117345037637278E-5  
 2.694000000000000E10    4.270810750313103E-4   3.404259914532304E-4  
 2.696000000000000E10   -7.514521712437272E-5  -4.018710460513830E-4  
 2.698000000000000E10   -7.729212520644069E-4   1.459849736420438E-4  
 2.700000000000000E10   -7.586954743601382E-4   8.759155170992017E-4  
 2.702000000000000E10    1.012181397527456E-3   4.142628458794206E-4  
 2.704000000000000E10    7.119925576262176E-4  -5.939130787737668E-4  
 2.706000000000000E10   -2.041959087364376E-4  -1.015489338897169E-3  
 2.708000000000000E10   -4.401431069709361E-4   3.108874370809645E-4  
 2.710000000000000E10    1.743116881698370E-4   8.595857652835548E-4  
 2.712000000000000E10    1.088830642402172E-3   5.056853406131268E-4  
 2.714000000000000E10    8.293418213725090E-4  -2.502967836335301E-4  
 2.716000000000000E10    1.894966844702140E-4  -7.088794955052435E-4  
 2.718000000000000E10   -5.314695881679654E-4  -1.478335470892489E-4  
 2.720000000000000E10   -8.109991176752374E-5   5.780886276625097E-4  
 2.722000000000000E10    2.665653009898961E-4  -2.715112350415438E-5  
 2.724000000000000E10    1.202336279675365E-3  -6.382142892107368E-4  
 2.726000000000000E10    3.251184534747154E-4  -8.123978041112423E-4  
 2.728000000000000E10   -2.164233301300556E-4  -6.231135339476168E-4  
 2.730000000000000E10   -8.668224472785369E-5   7.684594020247459E-4  
 2.732000000000000E10    5.236286087892950E-4   6.072203395888209E-4  
 2.734000000000000E10    8.879738743416965E-4  -6.047284696251154E-4  
 2.736000000000000E10    2.402626996627078E-4  -7.093074964359403E-4  
 2.738000000000000E10   -4.543459508568049E-4  -5.908308085054159E-4  
 2.740000000000000E10   -3.169468545820564E-4  -3.504653795971535E-5  
 2.742000000000000E10    2.398971992079169E-4   4.365374334156513E-4  
 2.744000000000000E10    1.183902611956000E-3   4.220784176141024E-4  
 2.746000000000000E10    6.925258203409612E-4  -9.292876347899437E-4  
 2.748000000000000E10   -2.258513704873622E-4  -5.071485647931695E-4  
 2.750000000000000E10   -8.061024127528071E-4   1.025495585054159E-4  
 2.752000000000000E10    1.632838684599847E-4   3.327511658426374E-4  
 2.754000000000000E10    5.329938721843064E-4   4.732821544166654E-4  
 2.756000000000000E10    7.252550567500293E-4  -9.261190425604582E-4  
