#  HZ   S   RI   R     50.00 
! Rohde & Schwarz ZVA40 4Ports - Version 3.90 - 1145.1110k42 SN: 100403
! Date: 2023-10-04 11:35:16
! Measurement: S12 
! 
 2.200000000000000E10    7.040406344458461E-4   3.212289593648166E-4  
 2.202000000000000E10    1.187149900943041E-3  -7.263556472025812E-4  
 2.204000000000000E10   -2.244300994789228E-4  -6.658316706307232E-4  
 2.206000000000000E10   -1.086141914129257E-3  -2.397102798568085E-5  
 2.208000000000000E10    4.074585158377886E-4   2.587375638540834E-4  
 2.210000000000000E10    7.624493446201086E-4  -1.985577000596095E-5  
 2.212000000000000E10   -1.753235992509872E-4  -7.129526347853243E-4  
 2.214000000000000E10    2.258362364955246E-4  -1.516742195235565E-4  
 2.216000000000000E10    2.108704356942326E-4  -1.593712659087032E-4  
 2.218000000000000E10   -3.967040975112468E-4  -5.769142298959196E-4  
 2.220000000000000E10   -2.713901340030134E-4   2.037922968156636E-4  
 2.222000000000000E10    8.502642740495503E-4   2.319189462696158E-7  
 2.224000000000000E10    4.429708642419428E-4  -1.415231847204268E-3  
 2.226000000000000E10   -1.616305671632290E-4  -8.738455944694579E-4  
 2.228000000000000E10   -3.685622068587691E-4   4.588727024383843E-4  
 2.230000000000000E10    5.617202259600163E-4  -4.708158376161009E-4  
 2.232000000000000E10    7.543900283053517E-4  -9.039009455591440E-4  
 2.234000000000000E10   -5.269045941531658E-4  -2.832716854754835E-4  
 2.236000000000000E10   -3.497559810057282E-4  -3.889183280989528E-4  
 2.238000000000000E10    6.638621562160552E-5  -3.348959144204855E-4  
 2.240000000000000E10   -3.966182994190604E-4  -1.518186327302828E-4  
 2.242000000000000E10   -1.993313198909164E-4  -6.313310586847365E-4  
 2.244000000000000E10   -4.331655800342560E-4  -1.154051278717816E-4  
 2.246000000000000E10    2.096879616146907E-4  -7.285560132004321E-4  
 2.248000000000000E10   -5.254363641142845E-4  -1.308287726715207E-3  
 2.250000000000000E10   -9.832179639488459E-4  -3.280063174315728E-5  
 2.252000000000000E10    1.303340195590863E-5   4.326461348682642E-4  
 2.254000000000000E10    7.639389950782061E-4  -7.321822922676802E-4  
 2.256000000000000E10   -5.174581310711801E-4  -7.854562863940373E-5  
 2.258000000000000E10   -1.197469653561711E-3  -8.363999222638086E-5  
 2.260000000000000E10   -7.621221448061988E-5   2.186491619795561E-4  
 2.262000000000000E10   -1.155995763838291E-3   6.138930912129581E-4  
 2.264000000000000E10   -3.804165171459317E-4  -3.904760319528577E-7  
 2.266000000000000E10   -6.361604027915746E-5  -1.233479997608811E-4  
 2.268000000000000E10   -8.642167667858303E-4  -9.798954706639051E-4  
 2.270000000000000E10   -5.582203739322722E-4  -1.930587459355593E-4  
 2.272000000000000E10   -4.075674805790186E-4   2.497127279639244E-4  
 2.274000000000000E10    7.166676223278046E-4   1.007444458082318E-3  
 2.276000000000000E10    5.608604406006634E-4   2.548600023146719E-4  
 2.278000000000000E10   -3.796468081418425E-4  -6.351483752951026E-4  
 2.280000000000000E10   -1.062758266925812E-3   4.901837673969567E-4  
 2.282000000000000E10   -1.320520299486816E-3   8.040782995522022E-4  
 2.284000000000000E10    3.017562557943165E-4   2.273500285809860E-4  
 2.286000000000000E10   -2.823121940309648E-5  -5.874970811419189E-4  
 2.288000000000000E10   -9.152283309958875E-4  -5.014970156480558E-5  
 2.290000000000000E10   -2.687484811758623E-5  -3.813092480413616E-4  
 2.292000000000000E10   -7.535296026617289E-5   8.939055260270834E-4  
 2.294000000000000E10    3.555869334377348E-4   1.136813545599580E-3  
 2.296000000000000E10    1.000506686978042E-3   4.752901149913669E-4  
 2.298000000000000E10    2.536921419959981E-5  -3.117691085208207E-4  
 2.300000000000000E10   -1.142440596595407E-3   5.549599882215262E-4  
 2.302000000000000E10   -5.962565192021430E-4   7.460779161192477E-4  
 2.304000000000000E10    3.379739355295897E-4   8.144542225636542E-4  
 2.306000000000000E10    3.491461975499988E-4  -1.857585739344358E-4  
 2.308000000000000E10    4.936162731610239E-4  -7.906882092356682E-4  
 2.310000000000000E10   -5.663394113071263E-4  -2.757086185738444E-4  
 2.312000000000000E10    4.701738071162254E-4   1.068848534487188E-3  
 2.314000000000000E10    9.007556363940239E-4   9.941713651642203E-4  
 2.316000000000000E10    9.057401330210269E-4   5.183048779144883E-4  
 2.318000000000000E10    7.001739868428558E-5   6.352415657602251E-4  
 2.320000000000000E10    3.723106783581898E-5  -4.385254869703203E-4  
 2.322000000000000E10   -4.613499913830310E-4   3.107696247752756E-4  
 2.324000000000000E10   -6.811659550294280E-4   6.631008000113070E-4  
 2.326000000000000E10    1.334214000962675E-3   5.204198532737792E-4  
 2.328000000000000E10    1.234897412359715E-3  -9.844389278441668E-4  
 2.330000000000000E10    2.050094772130251E-4  -1.105914358049631E-3  
 2.332000000000000E10   -5.565022584050894E-4   2.773628802970052E-4  
 2.334000000000000E10    5.411555757746100E-4   4.797458823304623E-4  
 2.336000000000000E10    6.633361917920411E-4   8.147598709911108E-4  
 2.338000000000000E10    3.874428803101182E-4  -6.751995533704758E-4  
 2.340000000000000E10   -2.409431544947438E-5  -7.184620480984449E-4  
 2.342000000000000E10   -7.507748086936772E-4   1.186622830573469E-4  
 2.344000000000000E10   -1.737442507874221E-4   6.168481195345521E-4  
 2.346000000000000E10    2.435847272863612E-4   2.990625398524571E-5  
 2.348000000000000E10    1.050768070854247E-3  -1.038311165757477E-4  
 2.350000000000000E10    5.068539758212864E-4  -9.002402075566351E-4  
 2.352000000000000E10   -7.474664598703384E-4  -1.179345184937120E-3  
 2.354000000000000E10   -2.922056301031262E-4   1.345701981335878E-3  
 2.356000000000000E10    7.981247035786510E-4   1.071194885298610E-3  
 2.358000000000000E10    1.344527583569288E-3  -1.003365381620824E-3  
 2.360000000000000E10   -6.289595621638000E-4  -8.045423892326653E-4  
 2.362000000000000E10   -9.325116407126188E-4  -1.866567326942459E-4  
 2.364000000000000E10   -8.026762952795252E-5   4.204766009934247E-4  
 2.366000000000000E10    2.398830256424844E-4  -4.459862248040736E-4  
 2.368000000000000E10    1.060617505572736E-3  -4.716253024525940E-4  
 2.370000000000000E10    6.221710937097669E-4  -7.379731396213174E-4  
 2.372000000000000E10   -1.325182092841715E-4  -7.076325127854943E-4  
 2.374000000000000E10   -6.517420406453311E-4   1.947013370227069E-4  
 2.376000000000000E10    2.906323788920417E-5   6.699809455312789E-4  
 2.378000000000000E10    3.555548901204020E-4   6.123274215497077E-4  
 2.380000000000000E10    3.266163694206625E-4  -7.610043976455927E-4  
 2.382000000000000E10   -8.035956416279078E-4  -8.147392072714865E-4  
 2.384000000000000E10   -1.772622345015407E-3   5.105327363708057E-5  
 2.386000000000000E10    1.095043844543397E-4   7.942540105432272E-4  
 2.388000000000000E10    5.227541550993919E-4  -4.965526168234646E-4  
 2.390000000000000E10    4.184474237263203E-4  -8.028837619349361E-4  
 2.392000000000000E10   -3.241098602302373E-4  -3.513668489176780E-4  
 2.394000000000000E10   -1.114399710786529E-4  -3.960809553973377E-4  
 2.396000000000000E10   -4.349585506133735E-4   1.036927802488208E-3  
 2.398000000000000E10   -3.188064147252590E-4   8.497075759805739E-4  
 2.400000000000000E10    9.795110672712326E-4  -1.106409399653785E-4  
 2.402000000000000E10   -9.775512153282762E-4  -7.354983245022595E-4  
 2.404000000000000E10   -1.233729068189859E-3  -1.961145026143640E-4  
 2.406000000000000E10   -5.620690062642098E-4   1.085019670426846E-3  
 2.408000000000000E10    7.439362234435976E-4   2.480890543665737E-4  
 2.410000000000000E10    1.180112012661994E-3  -5.561956204473972E-4  
 2.412000000000000E10   -7.313728565350175E-5  -1.065787160769105E-3  
 2.414000000000000E10   -6.822563591413200E-4   3.038289432879537E-4  
 2.416000000000000E10    1.132968900492415E-4   1.531608169898391E-3  
 2.418000000000000E10    4.960731021128595E-4   9.350459440611303E-4  
 2.420000000000000E10   -1.788891095202416E-4  -1.899870694614947E-4  
 2.422000000000000E10    1.570308086229488E-4  -2.312093565706164E-4  
 2.424000000000000E10   -6.086670910008252E-4  -4.852343699894846E-4  
 2.426000000000000E10   -8.072562632150948E-4  -4.510955186560750E-4  
 2.428000000000000E10    6.692166061839089E-5   6.279788212850690E-4  
 2.430000000000000E10    1.295342110097408E-3   4.176919464953244E-4  
 2.432000000000000E10    7.997825159691274E-4  -7.533971802331507E-4  
 2.434000000000000E10   -7.199893007054925E-4  -9.231902076862752E-4  
 2.436000000000000E10   -3.557536401785910E-4   1.316305133514106E-3  
 2.438000000000000E10    4.434814763953909E-5   1.043557422235608E-3  
 2.440000000000000E10    1.017353497445583E-3   1.745794543239754E-5  
 2.442000000000000E10    1.413890422554687E-4  -2.379560319241136E-4  
 2.444000000000000E10   -3.704148111864924E-4  -7.504482637159526E-4  
 2.446000000000000E10   -9.010524809127674E-5   1.794668642105535E-4  
 2.448000000000000E10    9.827574103837833E-5   1.746230991557241E-4  
 2.450000000000000E10    2.413452020846307E-4   3.081490867771208E-4  
 2.452000000000000E10    1.444482943043113E-3  -8.590111974626780E-5  
 2.454000000000000E10    9.548201924189925E-4  -7.169462041929364E-4  
 2.456000000000000E10   -9.319710661657155E-4  -8.453197660855949E-4  
 2.458000000000000E10   -3.882136079482734E-4   1.050792168825865E-3  
 2.460000000000000E10    1.037261332385242E-3   1.435313490219414E-3  
 2.462000000000000E10    1.306218444369733E-3  -9.053984540514648E-4  
 2.464000000000000E10   -4.722796729765832E-4  -8.176038390956819E-4  
 2.466000000000000E10   -9.523751214146614E-4  -3.873587775160559E-5  
 2.468000000000000E10   -2.236186410300434E-4   4.603398265317082E-4  
 2.470000000000000E10    5.257863667793572E-4   2.057434176094830E-4  
 2.472000000000000E10    7.770433439873159E-4  -1.444607769371942E-4  
 2.474000000000000E10    8.171693771146238E-4  -5.323237273842096E-4  
 2.476000000000000E10   -2.023892302531749E-4  -7.207796443253756E-4  
 2.478000000000000E10   -1.033676206134260E-3   2.675843425095081E-4  
 2.480000000000000E10   -8.677712321514264E-5   8.771976572461426E-4  
 2.482000000000000E10    1.181449857540429E-3   3.268464352004230E-4  
 2.484000000000000E10    2.692192501854152E-4  -1.337926718406379E-3  
 2.486000000000000E10   -1.420126412995160E-3  -1.323457458056510E-3  
 2.488000000000000E10   -1.568771316669881E-3  -5.378619789553341E-6  
 2.490000000000000E10    3.838879056274891E-4   5.047186277806759E-4  
 2.492000000000000E10    7.159310625866056E-4  -8.487512823194265E-4  
 2.494000000000000E10    2.428423904348165E-4  -1.304652541875839E-3  
 2.496000000000000E10   -6.827558972872794E-4  -2.538863627705723E-4  
 2.498000000000000E10   -6.169073749333620E-4  -1.612393389223144E-4  
 2.500000000000000E10   -5.550611531361938E-4   4.317917919252068E-4  
 2.502000000000000E10   -3.372834471520037E-4   5.198982544243336E-4  
 2.504000000000000E10    3.027108614332974E-4  -5.396103952080011E-4  
 2.506000000000000E10   -8.326281677000225E-4  -1.452330849133432E-3  
 2.508000000000000E10   -1.530940877273679E-3  -7.759926957078278E-4  
 2.510000000000000E10   -9.822100400924683E-4   4.832920385524631E-4  
 2.512000000000000E10    1.036899513565004E-3   8.597042324254289E-5  
 2.514000000000000E10    5.491024348884821E-4  -6.145450170151889E-4  
 2.516000000000000E10   -9.975192369893193E-4  -1.123885042034090E-3  
 2.518000000000000E10   -1.111872959882021E-3   4.341537423897535E-4  
 2.520000000000000E10   -5.949400365352631E-4   6.952057592570782E-4  
 2.522000000000000E10   -1.494301541242749E-4   5.161060253158212E-4  
 2.524000000000000E10   -6.348926108330488E-4   1.003756333375350E-4  
 2.526000000000000E10   -1.573363260831684E-4   5.915565998293459E-5  
 2.528000000000000E10   -4.616707155946642E-4  -6.432146765291691E-4  
 2.530000000000000E10   -7.678553811274469E-4   2.034042117884383E-4  
 2.532000000000000E10   -7.330083171837032E-4   1.657387474551797E-3  
 2.534000000000000E10    8.835179032757878E-4   7.123542600311339E-4  
 2.536000000000000E10    4.290770157240331E-4  -7.016583695076406E-4  
 2.538000000000000E10   -1.327121746726334E-3  -4.676378448493779E-4  
 2.540000000000000E10   -1.048903563059866E-3   1.365738455206156E-3  
 2.542000000000000E10    1.041081995936111E-4   7.672574138268828E-4  
 2.544000000000000E10    6.689131841994822E-4   9.869040513876826E-5  
 2.546000000000000E10   -1.590200668033504E-6  -3.286970240878873E-5  
 2.548000000000000E10   -2.721828350331634E-4   1.927870616782457E-4  
 2.550000000000000E10   -2.506492019165307E-4   2.094241644954309E-4  
 2.552000000000000E10    7.040188847895479E-6   7.960227667354047E-4  
 2.554000000000000E10    4.876624370808713E-5   1.357049099169672E-3  
 2.556000000000000E10    1.380598172545433E-3   3.148779505863786E-4  
 2.558000000000000E10    3.033140383195132E-4  -4.885362577624619E-4  
 2.560000000000000E10   -1.360646449029446E-3   3.120627661701292E-5  
 2.562000000000000E10   -4.081308434251696E-4   1.867427141405642E-3  
 2.564000000000000E10    1.044476055540144E-3   1.191559596918523E-3  
 2.566000000000000E10    1.165952649898827E-3  -6.998552125878632E-4  
 2.568000000000000E10   -8.503540302626789E-4  -3.073499246966094E-4  
 2.570000000000000E10   -3.680826921481639E-4   6.670780712738633E-4  
 2.572000000000000E10    3.145504451822490E-4   6.901414599269629E-4  
 2.574000000000000E10    4.274992970749736E-4  -5.258504097582772E-5  
 2.576000000000000E10    7.020724588073790E-4   6.021130320732482E-5  
 2.578000000000000E10    1.167254289612174E-3  -4.048490663990378E-4  
 2.580000000000000E10    7.195214275270701E-4  -5.962441209703684E-4  
 2.582000000000000E10   -4.073922173120081E-4   5.336017929948866E-4  
 2.584000000000000E10    3.374256775714457E-4   1.307373750023544E-3  
 2.586000000000000E10    1.506642787717283E-3   3.756115620490164E-4  
 2.588000000000000E10    7.685804157517850E-4  -9.708809666335583E-4  
 2.590000000000000E10   -9.894578251987696E-4  -1.238644821569324E-3  
 2.592000000000000E10   -2.133449597749859E-4   3.287228464614600E-4  
 2.594000000000000E10    1.142600900493562E-3   3.840611898340285E-4  
 2.596000000000000E10    1.249394612386823E-3  -8.030936587601900E-4  
 2.598000000000000E10    6.298085791058838E-4  -6.741744000464678E-4  
 2.600000000000000E10    3.597085888031870E-4  -2.933897194452584E-4  
 2.602000000000000E10   -8.979325502878055E-5  -2.718123141676188E-4  
 2.604000000000000E10   -6.235683104023337E-4   9.087297803489491E-5  
 2.606000000000000E10    4.022817593067884E-4   9.495577542111278E-4  
 2.608000000000000E10    7.443098002113402E-4  -6.326260627247393E-4  
 2.610000000000000E10    4.821505863219500E-4  -2.103133592754602E-3  
 2.612000000000000E10   -1.331105828285217E-3  -7.678527617827058E-4  
 2.614000000000000E10   -6.305840361164883E-5   5.599589785560966E-4  
 2.616000000000000E10    1.319740549661219E-3   7.456524763256311E-4  
 2.618000000000000E10    1.224036095663905E-3  -8.309794939123094E-4  
 2.620000000000000E10   -6.543346680700779E-4  -7.798679871484637E-4  
 2.622000000000000E10   -1.029381528496742E-3   4.050079733133316E-4  
 2.624000000000000E10   -2.149568172171712E-4   7.953863241709769E-4  
 2.626000000000000E10   -1.975845407287125E-5  -3.681543457787484E-4  
 2.628000000000000E10    4.003724025096744E-4  -4.444074002094567E-4  
 2.630000000000000E10   -4.932734373142012E-5  -4.834231513086706E-4  
 2.632000000000000E10   -1.132958059315570E-4  -1.146465772762895E-3  
 2.634000000000000E10   -4.207570455037057E-4   2.208975092798937E-5  
 2.636000000000000E10    1.674197992542759E-4   1.701793866232038E-3  
 2.638000000000000E10    7.343373144976795E-4   2.483053831383586E-4  
 2.640000000000000E10    5.726340459659696E-4  -4.779075970873237E-4  
 2.642000000000000E10   -1.850416301749647E-3  -2.314807643415406E-4  
 2.644000000000000E10   -9.471417870372534E-4   6.208045524545014E-4  
 2.646000000000000E10    1.223878061864525E-4   8.586698095314205E-4  
 2.648000000000000E10    9.013860108098015E-5  -5.955341621302068E-4  
 2.650000000000000E10    2.362188097322360E-4  -3.440278524067253E-4  
 2.652000000000000E10    1.431384589523077E-4  -5.672597762895748E-5  
 2.654000000000000E10    1.534281364001799E-5   2.448936284054071E-4  
 2.656000000000000E10   -3.397793334443122E-4   7.209854666143656E-4  
 2.658000000000000E10    3.819648991338909E-4   9.303356637246907E-4  
 2.660000000000000E10    5.710654077120125E-4   5.258219516690588E-6  
 2.662000000000000E10    2.153939130948857E-4  -9.375778608955443E-4  
 2.664000000000000E10   -1.404130714945495E-3  -3.787765745073557E-4  
 2.666000000000000E10   -7.822049083188176E-4   8.177015697583556E-4  
 2.668000000000000E10    8.103619911707938E-4   3.044503973796964E-4  
 2.670000000000000E10    9.869612986221910E-4  -8.674272103235126E-4  
 2.672000000000000E10   -2.333826851099730E-4  -9.432865772396326E-4  
 2.674000000000000E10   -5.272970520309173E-5  -1.393527054460719E-4  
 2.676000000000000E10   -2.271006269438658E-5   4.818301822524518E-4  
 2.678000000000000E10    3.158513281960040E-4   5.129321943968535E-4  
 2.680000000000000E10    6.171208224259317E-4   3.322417906019837E-4  
 2.682000000000000E10    3.437621635384858E-4  -8.793636807240546E-4  
 2.684000000000000E10   -3.890228981617838E-4  -6.703008548356593E-4  
 2.686000000000000E10   -9.863512823358178E-4   6.526493234559894E-5  
 2.688000000000000E10    4.006521194241941E-4   9.592764545232058E-4  
 2.690000000000000E10    8.440080564469099E-4  -6.325900903902948E-4  
 2.692000000000000E10    1.118436572141945E-3  -1.263058511540294E-3  
 2.694000000000000E10   -6.559375906363130E-4  -4.183585406281054E-4  
 2.696000000000000E10   -4.143625556025654E-4  -1.096332471206551E-5  
 2.698000000000000E10    8.273382554762065E-4   1.097177970223129E-3  
 2.700000000000000E10    7.062042714096606E-4   7.392032421194017E-5  
 2.702000000000000E10    3.580727498047054E-4  -4.262465226929635E-4  
 2.704000000000000E10   -6.027917843312025E-4  -2.761982614174485E-4  
 2.706000000000000E10   -6.042402819730341E-4  -1.804308558348566E-4  
 2.708000000000000E10   -7.728292839601636E-4   1.595418143551797E-4  
 2.710000000000000E10    2.224883501185104E-4   3.831023641396314E-4  
 2.712000000000000E10    1.039804657921195E-3  -3.515084972605109E-4  
 2.714000000000000E10   -1.799452002160251E-4  -1.421046326868236E-3  
 2.716000000000000E10   -6.679681246168912E-4  -8.353046723641455E-5  
 2.718000000000000E10   -4.640298138838261E-4   9.597286698408425E-4  
 2.720000000000000E10    8.853703620843589E-4   5.834575276821852E-4  
 2.722000000000000E10    3.052801475860179E-4  -2.321426436537877E-4  
 2.724000000000000E10   -6.087527726776898E-4  -7.904031081125140E-4  
 2.726000000000000E10   -9.868507040664554E-4   1.257220574188978E-4  
 2.728000000000000E10   -4.709497734438628E-4   1.323742471868172E-4  
 2.730000000000000E10   -2.138459240086377E-4   2.011902397498488E-4  
 2.732000000000000E10    2.408941363682970E-4  -6.465333863161504E-4  
 2.734000000000000E10    4.975778283551335E-4  -1.726622431306168E-4  
 2.736000000000000E10   -1.069185440428555E-3  -6.139905308373272E-4  
 2.738000000000000E10   -4.537954810075462E-4   7.239661499625072E-5  
 2.740000000000000E10   -1.489673886680976E-4   1.629536040127277E-3  
 2.742000000000000E10    3.869040519930422E-4  -2.193881664425135E-4  
 2.744000000000000E10    1.750009541865438E-4  -6.748284795321524E-4  
 2.746000000000000E10   -1.162613974884152E-3  -2.822770911734551E-4  
 2.748000000000000E10   -5.506909801624715E-4   2.113941736752167E-4  
 2.750000000000000E10    3.750048927031457E-4   4.883755464106798E-4  
 2.752000000000000E10    4.266259784344584E-4   2.611086529213935E-4  
 2.754000000000000E10    4.046733374707401E-4  -4.051319847349078E-4  
 2.756000000000000E10    1.654266525292769E-4  -3.051161183975637E-4  
