#  HZ   S   RI   R     50.00 
! Rohde & Schwarz ZVA40 4Ports - Version 3.90 - 1145.1110k42 SN: 100403
! Date: 2023-10-04 11:34:36
! Measurement: S12 
! 
 2.200000000000000E10    5.598008865490556E-4  -2.562864028732292E-5  
 2.202000000000000E10    2.263672358822078E-4  -3.765142755582929E-4  
 2.204000000000000E10   -7.792097167111933E-4  -9.311120957136154E-4  
 2.206000000000000E10   -8.721736958250403E-4   4.718925338238478E-4  
 2.208000000000000E10    6.707413704134524E-4   4.959602374583483E-4  
 2.210000000000000E10    4.933118470944464E-4  -9.520527091808617E-4  
 2.212000000000000E10   -4.664067528210580E-4  -1.070379628799856E-3  
 2.214000000000000E10   -7.057356415316463E-4   1.623941498110071E-4  
 2.216000000000000E10    1.052602383424528E-4  -1.849762338679284E-4  
 2.218000000000000E10    3.314701607450843E-4  -1.513099559815601E-4  
 2.220000000000000E10   -4.736358532682061E-4  -4.694840754382312E-5  
 2.222000000000000E10    4.735933907795698E-5  -1.299112773267552E-4  
 2.224000000000000E10   -6.376381497830153E-4  -7.943273521959782E-5  
 2.226000000000000E10   -1.005109283141792E-3  -9.579987090546638E-5  
 2.228000000000000E10   -3.640865616034716E-4   1.052050502039492E-3  
 2.230000000000000E10   -2.856676001101732E-4   1.912169827846810E-4  
 2.232000000000000E10    3.984725917689502E-4  -5.663266056217253E-4  
 2.234000000000000E10   -1.166114932857454E-3  -7.062376826070249E-4  
 2.236000000000000E10   -8.398550562560558E-4   9.138960158452392E-4  
 2.238000000000000E10    6.688798312097788E-4   1.718701329082251E-3  
 2.240000000000000E10    6.890768418088555E-4  -5.604993202723563E-4  
 2.242000000000000E10   -3.235449839849025E-4   1.410119730280712E-4  
 2.244000000000000E10   -1.409721211530268E-3   8.675204589962959E-4  
 2.246000000000000E10   -1.149648087448441E-4   6.421383586712182E-4  
 2.248000000000000E10   -7.449818076565862E-4   4.539548826869577E-4  
 2.250000000000000E10   -3.408527118153870E-4   9.263364336220548E-5  
 2.252000000000000E10    2.450411557219923E-4   3.522074548527598E-4  
 2.254000000000000E10   -5.654720589518547E-4  -9.824356529861689E-4  
 2.256000000000000E10   -2.297278115293011E-4   1.954175240825862E-4  
 2.258000000000000E10   -8.808322309050709E-5   1.088769291527569E-3  
 2.260000000000000E10    7.478437037207186E-4   5.062832497060299E-4  
 2.262000000000000E10    1.343183685094118E-4   2.625239139888436E-4  
 2.264000000000000E10   -2.303827495779842E-4   1.404146023560315E-4  
 2.266000000000000E10   -1.050894497893751E-3   1.037108246237040E-3  
 2.268000000000000E10   -2.063923020614311E-4   7.445882074534893E-4  
 2.270000000000000E10    4.403261118568480E-4  -1.257215189980343E-4  
 2.272000000000000E10   -1.147511866292916E-4  -3.793601936195046E-4  
 2.274000000000000E10    4.003291833214462E-4   3.466153866611421E-4  
 2.276000000000000E10    5.961134447716177E-4   5.392366801970638E-5  
 2.278000000000000E10    3.503301704768091E-4  -2.572226221673191E-4  
 2.280000000000000E10    1.799628225853667E-4   1.045886310748756E-3  
 2.282000000000000E10    3.695482155308127E-4   1.293496927246451E-3  
 2.284000000000000E10    6.784404395148158E-4  -7.716751861153171E-5  
 2.286000000000000E10   -9.368512546643615E-4  -3.220127255190164E-4  
 2.288000000000000E10   -4.199041868560016E-4   4.207418824080378E-4  
 2.290000000000000E10    4.168954910710454E-4   3.446579212322831E-4  
 2.292000000000000E10    4.877450410276651E-4  -5.467493901960552E-4  
 2.294000000000000E10    9.301581885665655E-4  -6.215379689820111E-4  
 2.296000000000000E10    8.059039828367531E-4  -3.333086788188666E-4  
 2.298000000000000E10    3.488484362605959E-4   5.788444541394711E-4  
 2.300000000000000E10    7.021725759841502E-4   4.276691179256886E-4  
 2.302000000000000E10    9.258611826226115E-4   8.061169646680355E-4  
 2.304000000000000E10    6.356133380904794E-4   6.256452179513872E-4  
 2.306000000000000E10    2.226609358331189E-4  -8.847665158100426E-4  
 2.308000000000000E10   -9.008109336718917E-4  -3.543852653820068E-4  
 2.310000000000000E10   -2.451893233228475E-4   3.311941400170326E-4  
 2.312000000000000E10    1.305736252106726E-3  -1.299432915402576E-4  
 2.314000000000000E10    1.390274963341653E-3  -1.692747464403510E-3  
 2.316000000000000E10    1.552868925500661E-4  -1.253369613550603E-3  
 2.318000000000000E10   -5.369448335841298E-4  -4.078791243955493E-5  
 2.320000000000000E10    8.001123205758631E-4   5.903950077481568E-4  
 2.322000000000000E10    5.029094172641635E-4   4.579269734676927E-4  
 2.324000000000000E10    2.815992047544569E-4  -7.445649243891239E-4  
 2.326000000000000E10    7.959530921652913E-5  -8.366787806153297E-4  
 2.328000000000000E10   -1.057166024111211E-3  -8.034331258386374E-4  
 2.330000000000000E10   -3.392791841179133E-4  -3.715141210705042E-4  
 2.332000000000000E10    3.361654817126691E-4   4.912122385576367E-4  
 2.334000000000000E10    1.108971075154841E-3  -6.789094186387956E-4  
 2.336000000000000E10    4.848936223424971E-4  -1.122228452004492E-3  
 2.338000000000000E10   -1.058699795976281E-3  -2.807856071740389E-4  
 2.340000000000000E10   -6.254919571802020E-4   7.689716294407845E-4  
 2.342000000000000E10    1.840923359850422E-4   3.717608051374555E-4  
 2.344000000000000E10    4.816802975255996E-4  -7.799484883435071E-4  
 2.346000000000000E10   -8.283396018669009E-4  -8.016523206606507E-4  
 2.348000000000000E10   -6.891652010381222E-4  -4.574900376610458E-4  
 2.350000000000000E10   -4.018923791591078E-4   1.549412809254136E-5  
 2.352000000000000E10   -5.154190002940595E-4  -1.942412782227621E-4  
 2.354000000000000E10    5.580703145824373E-4   3.535339492373169E-4  
 2.356000000000000E10    5.083646392449737E-4  -2.834660408552736E-4  
 2.358000000000000E10   -5.823427345603705E-4  -4.471955180633813E-4  
 2.360000000000000E10   -1.656744978390634E-3   4.914575838483870E-4  
 2.362000000000000E10   -2.648249792400748E-4   1.473524258472025E-3  
 2.364000000000000E10    5.555511597776786E-5   6.285107810981572E-4  
 2.366000000000000E10   -1.668760087341070E-4  -1.255678245797753E-3  
 2.368000000000000E10   -8.264351054094732E-4  -4.325349873397499E-4  
 2.370000000000000E10   -1.269084285013378E-3   3.308899467810988E-4  
 2.372000000000000E10    2.639761078171432E-4   8.703995845280588E-4  
 2.374000000000000E10    7.206254522316158E-4   4.632895579561591E-4  
 2.376000000000000E10    3.637895861174911E-4  -3.329459868837148E-4  
 2.378000000000000E10    3.107403699686984E-6   5.410069206845947E-5  
 2.380000000000000E10   -7.302926387637854E-4   4.860425542574376E-4  
 2.382000000000000E10   -7.860891637392342E-4   9.800924453884363E-4  
 2.384000000000000E10    4.602471599355340E-4   6.816834211349487E-4  
 2.386000000000000E10    9.114150889217854E-4  -4.811127146240324E-4  
 2.388000000000000E10   -3.045640769414604E-4  -1.370478072203696E-3  
 2.390000000000000E10   -6.938170408830047E-4  -1.587026054039598E-4  
 2.392000000000000E10    1.271435321541503E-4   1.205575652420521E-3  
 2.394000000000000E10    1.269878353923559E-3  -2.976240830321331E-5  
 2.396000000000000E10    5.889006424695253E-4  -3.559626347851008E-4  
 2.398000000000000E10   -5.171321099624038E-4  -5.379368667490780E-4  
 2.400000000000000E10   -2.230677782790735E-4   5.008064326830208E-4  
 2.402000000000000E10   -6.600843043997884E-4   4.635098157450557E-4  
 2.404000000000000E10    2.878454106394202E-4   1.399915199726820E-4  
 2.406000000000000E10   -7.231961353681982E-5  -2.702677156776190E-4  
 2.408000000000000E10    2.794378087855876E-5  -1.113553997129202E-3  
 2.410000000000000E10   -3.261210804339498E-4  -2.617581048980355E-4  
 2.412000000000000E10   -7.162324618548155E-4  -8.036393410293385E-5  
 2.414000000000000E10    6.300147506408393E-4   9.626267128624022E-4  
 2.416000000000000E10    1.109950826503336E-3   4.986172425560653E-4  
 2.418000000000000E10    3.509420203045011E-4  -8.916422957554460E-4  
 2.420000000000000E10   -1.126418006606400E-3  -2.702937345020473E-4  
 2.422000000000000E10   -5.690370453521609E-4   1.082108938135207E-3  
 2.424000000000000E10   -5.707747186534107E-5   1.900453935377300E-4  
 2.426000000000000E10    4.599874955601990E-4  -5.407195421867073E-4  
 2.428000000000000E10    3.028916253242642E-4  -3.274498449172825E-4  
 2.430000000000000E10   -3.230665170121938E-4  -1.132605364546180E-3  
 2.432000000000000E10   -2.952501235995442E-4  -1.616542140254751E-4  
 2.434000000000000E10    3.003061283379793E-4   7.525204564444721E-4  
 2.436000000000000E10    1.146257505752146E-3   7.774441037327051E-4  
 2.438000000000000E10    1.152763026766479E-3  -6.699138320982456E-4  
 2.440000000000000E10   -3.433243255130947E-4  -3.512254625093192E-4  
 2.442000000000000E10   -1.721953507512808E-3  -2.511908678570762E-5  
 2.444000000000000E10   -1.177937447209843E-4   1.045062323100865E-3  
 2.446000000000000E10    7.113773608580232E-4   5.040394607931376E-4  
 2.448000000000000E10    7.516954792663455E-4  -1.727147260680795E-3  
 2.450000000000000E10   -4.340119485277683E-4  -1.196077326312661E-3  
 2.452000000000000E10   -6.502231699414551E-4   5.820384249091148E-4  
 2.454000000000000E10    6.155818118713796E-4   2.707763924263418E-4  
 2.456000000000000E10    6.390010821633041E-4  -1.245425519300625E-4  
 2.458000000000000E10    4.014747100882232E-4  -6.059946827008389E-5  
 2.460000000000000E10    4.364074266050011E-4  -1.132767763920128E-3  
 2.462000000000000E10   -5.990503123030067E-4  -5.144118913449347E-4  
 2.464000000000000E10   -1.241272897459567E-3   7.430335972458124E-4  
 2.466000000000000E10    4.683646548073739E-4   8.137110271491110E-4  
 2.468000000000000E10    1.059848233126104E-3  -2.070382033707574E-4  
 2.470000000000000E10   -2.614623226691037E-4  -1.614140579476953E-3  
 2.472000000000000E10   -9.511609096080065E-4  -5.731516284868121E-4  
 2.474000000000000E10   -5.249239038676024E-4   8.316992316395044E-4  
 2.476000000000000E10    7.173125050030649E-4   4.282202571630478E-4  
 2.478000000000000E10    6.217752816155553E-4  -6.299534579738975E-4  
 2.480000000000000E10   -4.820079775527120E-4  -2.553220547270030E-4  
 2.482000000000000E10   -5.693659186363220E-4   3.927262150682509E-4  
 2.484000000000000E10   -2.502407587599009E-4   4.917796832160093E-5  
 2.486000000000000E10   -7.109370781108737E-4   6.977498997002840E-4  
 2.488000000000000E10   -1.578451920067892E-4   7.863381179049611E-4  
 2.490000000000000E10    7.921120850369334E-4  -2.911391784437001E-4  
 2.492000000000000E10   -6.728674052283168E-4  -1.518802717328072E-3  
 2.494000000000000E10   -1.297853537835181E-3   1.031041247188114E-4  
 2.496000000000000E10   -5.281787525746040E-5   1.512545510195196E-3  
 2.498000000000000E10    1.366070006042719E-3   2.319442428415641E-4  
 2.500000000000000E10    1.626208249945194E-4  -5.271288100630045E-4  
 2.502000000000000E10   -1.038441900163889E-3  -2.245984651381150E-4  
 2.504000000000000E10   -9.548070374876261E-4   9.013225208036602E-4  
 2.506000000000000E10   -6.940119201317430E-4   7.857175078243017E-4  
 2.508000000000000E10   -1.635802764212713E-4   4.678391560446471E-4  
 2.510000000000000E10   -2.091783389914781E-4  -3.524045750964433E-4  
 2.512000000000000E10   -8.620651351520792E-5  -4.421980702318251E-4  
 2.514000000000000E10   -9.248792193830013E-4  -5.802292143926024E-4  
 2.516000000000000E10   -4.880277556367219E-4   4.038525803480297E-4  
 2.518000000000000E10    7.804216002114117E-4   1.965176779776812E-3  
 2.520000000000000E10    1.645252108573914E-3   3.920559829566628E-4  
 2.522000000000000E10    2.636652207002044E-4  -6.144970539025962E-4  
 2.524000000000000E10   -1.847333507612348E-3   3.893340472131968E-4  
 2.526000000000000E10   -6.611670833081007E-4   1.916999462991953E-3  
 2.528000000000000E10    8.185608312487602E-4   7.714867242611945E-4  
 2.530000000000000E10    2.365376276429743E-4  -6.629165145568550E-4  
 2.532000000000000E10   -1.970323355635628E-4  -3.327517770230770E-4  
 2.534000000000000E10    3.871473891194910E-4  -2.029371535172686E-4  
 2.536000000000000E10    9.931065142154694E-5   6.258666398935020E-4  
 2.538000000000000E10    4.894778248853982E-4   7.601361139677465E-4  
 2.540000000000000E10    1.300209551118314E-3   7.827149820514023E-4  
 2.542000000000000E10    8.440869860351086E-4  -5.377674824558199E-4  
 2.544000000000000E10   -4.368926747702062E-4  -2.654114214237779E-4  
 2.546000000000000E10   -1.119922264479101E-3   2.824164694175124E-4  
 2.548000000000000E10    8.012526668608189E-4   9.090997045859695E-4  
 2.550000000000000E10    1.660664100199938E-3   1.837952731875703E-4  
 2.552000000000000E10    7.956199697218835E-4  -1.178659615106881E-3  
 2.554000000000000E10   -2.720900229178369E-4  -6.041242158971727E-5  
 2.556000000000000E10    9.598222823115066E-5   6.325560971163213E-4  
 2.558000000000000E10    9.556709555909038E-4   6.465337937697768E-4  
 2.560000000000000E10    6.027913186699152E-4  -2.276470622746274E-4  
 2.562000000000000E10    6.941989413462579E-4   1.317043643211946E-4  
 2.564000000000000E10    5.535675154533237E-5  -6.994482828304172E-4  
 2.566000000000000E10   -2.610096416901797E-4  -8.511506603099406E-4  
 2.568000000000000E10   -4.693170194514096E-4   6.652789888903499E-4  
 2.570000000000000E10    1.160244923084974E-3   5.436932551674545E-4  
 2.572000000000000E10    1.167347654700279E-3  -8.588956552557647E-4  
 2.574000000000000E10   -2.463367127347738E-4  -1.389467157423496E-3  
 2.576000000000000E10   -1.018068171106279E-3   4.847495874855667E-4  
 2.578000000000000E10    5.991603393340483E-5   5.513729411177337E-4  
 2.580000000000000E10    1.144484383985400E-3  -5.778164631919935E-5  
 2.582000000000000E10    3.542352351360023E-4  -1.106259180232883E-3  
 2.584000000000000E10   -1.806032960303128E-4  -5.108946934342384E-4  
 2.586000000000000E10   -5.214711418375373E-4   5.968011464574374E-5  
 2.588000000000000E10    1.729420328047127E-4   1.406740484526381E-4  
 2.590000000000000E10   -1.234334486071020E-4  -3.420139182708226E-5  
 2.592000000000000E10    2.148660423699766E-4   3.546307561919093E-4  
 2.594000000000000E10   -4.247065517120063E-4  -1.123720081523061E-3  
 2.596000000000000E10   -5.648810183629394E-4  -1.482661580666900E-3  
 2.598000000000000E10   -1.455963589251041E-3   7.063675438985229E-4  
 2.600000000000000E10    7.652143540326506E-5   1.019827395793982E-4  
 2.602000000000000E10    1.354228239506483E-3  -5.523992003872991E-4  
 2.604000000000000E10   -3.434331447351724E-4  -1.743960776366293E-3  
 2.606000000000000E10   -8.243989432230592E-4  -8.274320134660229E-5  
 2.608000000000000E10   -7.658787653781474E-4   5.201210733503103E-4  
 2.610000000000000E10    1.428836549166590E-4   3.253025060985237E-4  
 2.612000000000000E10    3.962565097026527E-5  -1.575545320520178E-4  
 2.614000000000000E10   -3.541109908837825E-4  -4.617144877556711E-4  
 2.616000000000000E10   -5.860907840542495E-4  -4.804112832061946E-4  
 2.618000000000000E10   -6.639639032073319E-4  -5.185147747397423E-4  
 2.620000000000000E10   -4.529272846411914E-4   2.973731025122106E-4  
 2.622000000000000E10    2.989188069477677E-4   7.478471379727125E-4  
 2.624000000000000E10    1.157549093477428E-3  -4.542765964288265E-4  
 2.626000000000000E10   -3.380078851478174E-5  -7.759257568977773E-4  
 2.628000000000000E10   -1.662305206991732E-3   1.511598529759795E-4  
 2.630000000000000E10   -1.404215581715107E-4   1.115731312893331E-3  
 2.632000000000000E10    1.009384752251208E-3   3.236391639802605E-4  
 2.634000000000000E10    5.846489802934229E-4  -9.590188856236637E-4  
 2.636000000000000E10   -3.848917840514332E-4  -4.828604578506202E-4  
 2.638000000000000E10    1.458079786971211E-4  -1.776829012669623E-4  
 2.640000000000000E10   -5.997771222610027E-5   4.865260852966458E-4  
 2.642000000000000E10    1.670312485657632E-4   7.266076281666756E-4  
 2.644000000000000E10    8.588114287704229E-4   5.797258927486837E-4  
 2.646000000000000E10   -1.327492009295384E-5  -6.419290439225733E-4  
 2.648000000000000E10   -4.239497648086399E-4  -7.238331600092351E-4  
 2.650000000000000E10   -1.257463474757969E-3   6.047421484254301E-4  
 2.652000000000000E10    5.955025553703308E-4   9.044824400916696E-4  
 2.654000000000000E10    1.629920559935272E-3   1.364061463391408E-4  
 2.656000000000000E10    1.243290607817471E-4  -1.337812165729702E-3  
 2.658000000000000E10   -8.986312896013260E-4  -2.845341514330357E-4  
 2.660000000000000E10   -4.008348041679710E-4   1.369975856505334E-3  
 2.662000000000000E10    6.966859800741077E-4   7.830777321942151E-4  
 2.664000000000000E10    4.052250005770475E-4  -3.912012034561485E-4  
 2.666000000000000E10   -3.733169287443161E-4  -6.258702487684786E-4  
 2.668000000000000E10   -5.137661355547607E-4  -3.711599565576762E-4  
 2.670000000000000E10   -6.045895279385150E-4  -1.219722689711489E-4  
 2.672000000000000E10   -1.836653245845810E-4   3.207745612598956E-4  
 2.674000000000000E10    9.003694285638630E-4   4.710111243184656E-4  
 2.676000000000000E10    5.696041043847799E-4  -9.771944023668766E-4  
 2.678000000000000E10   -5.006695864722133E-4  -8.039822569116950E-4  
 2.680000000000000E10   -1.301655662246049E-3   5.114517407491803E-4  
 2.682000000000000E10   -9.383593715028837E-5   7.883333018980920E-4  
 2.684000000000000E10    7.591804023832083E-4  -1.837281160987914E-5  
 2.686000000000000E10   -2.595836413092911E-4  -1.133684650994837E-3  
 2.688000000000000E10   -8.962341235019267E-4  -9.506577625870705E-4  
 2.690000000000000E10   -4.616095393430442E-4  -1.457386133552063E-5  
 2.692000000000000E10    3.970513935200870E-4   2.217084402218461E-4  
 2.694000000000000E10    2.382892125751823E-5  -2.488421450834721E-4  
 2.696000000000000E10    4.957849159836769E-4  -2.620187005959451E-4  
 2.698000000000000E10    2.853270234481897E-5  -4.261717185727321E-5  
 2.700000000000000E10   -7.194377831183374E-4  -8.930151234380901E-4  
 2.702000000000000E10   -7.207882590591908E-4   4.731756635010243E-4  
 2.704000000000000E10   -1.886269164970145E-4   9.208809351548553E-4  
 2.706000000000000E10    1.112771104089916E-3  -5.983949522487819E-4  
 2.708000000000000E10   -5.490587791427970E-4  -9.431688813492656E-4  
 2.710000000000000E10   -1.513614435680211E-3  -7.170258322730660E-4  
 2.712000000000000E10   -2.320044004591182E-4   1.280975062400103E-3  
 2.714000000000000E10    3.363642026670277E-4   2.285463851876557E-4  
 2.716000000000000E10    5.535552045330405E-4  -4.667822504416108E-4  
 2.718000000000000E10   -2.902414962591138E-5  -4.147857835050672E-4  
 2.720000000000000E10   -3.382454451639205E-4   2.046885929303244E-4  
 2.722000000000000E10   -7.768973009660840E-4   5.117008695378900E-4  
 2.724000000000000E10   -5.595949551207013E-5   7.947128033265472E-4  
 2.726000000000000E10    2.597406273707748E-4   1.026730169542134E-3  
 2.728000000000000E10    3.069051308557391E-4  -8.433233597315848E-4  
 2.730000000000000E10   -3.032539971172810E-4  -4.689449851866812E-4  
 2.732000000000000E10   -9.364929283037782E-4   7.368606748059392E-4  
 2.734000000000000E10   -2.692255293368362E-5   1.238304655998945E-3  
 2.736000000000000E10    1.356108346953988E-3   1.414123107679188E-4  
 2.738000000000000E10    4.908695700578392E-4  -3.467380010988563E-4  
 2.740000000000000E10   -8.221089956350625E-4  -1.588200684636831E-4  
 2.742000000000000E10    1.329561782767996E-4   1.212445204146206E-3  
 2.744000000000000E10    1.399065695295576E-5   9.593968861736357E-4  
 2.746000000000000E10    3.216784680262208E-4   3.357980167493224E-4  
 2.748000000000000E10    4.036929167341441E-4   1.342253672191873E-4  
 2.750000000000000E10   -2.463032724335790E-4  -3.925022028852254E-4  
 2.752000000000000E10   -4.804952768608928E-4  -3.638657799456269E-4  
 2.754000000000000E10   -2.932052120740991E-5   8.534518419764936E-4  
 2.756000000000000E10    6.044672918505967E-4   5.787403788417578E-4  
