#  HZ   S   RI   R     50.00 
! Rohde & Schwarz ZVA40 4Ports - Version 3.90 - 1145.1110k42 SN: 100403
! Date: 2023-10-04 11:34:14
! Measurement: S12 
! 
 2.200000000000000E10    6.147858221083880E-4   1.093421946279705E-3  
 2.202000000000000E10    1.190345865325071E-4  -2.873547491617501E-4  
 2.204000000000000E10   -3.813120129052550E-4  -4.226391320116818E-4  
 2.206000000000000E10   -3.632573061622679E-4   1.166212954558432E-3  
 2.208000000000000E10    3.170086420141161E-4   1.108838245272636E-3  
 2.210000000000000E10    1.029647886753082E-3  -2.404025144642219E-4  
 2.212000000000000E10   -1.993654295802116E-4  -1.032763975672424E-4  
 2.214000000000000E10   -7.259066333062947E-4   6.910425145179033E-4  
 2.216000000000000E10    4.246954631526023E-4   8.813979220576584E-4  
 2.218000000000000E10    6.181983626447618E-4  -1.401072804583237E-4  
 2.220000000000000E10    5.444337512017228E-5  -4.011013370472938E-4  
 2.222000000000000E10    4.360349848866463E-4   5.927033489570022E-4  
 2.224000000000000E10    1.016225549392402E-3  -4.975162300979719E-5  
 2.226000000000000E10   -2.621371822897345E-4  -8.515650406479836E-4  
 2.228000000000000E10    2.486301818862557E-4   6.150509580038488E-4  
 2.230000000000000E10    8.758590556681156E-4   7.691538194194436E-4  
 2.232000000000000E10    1.270933193154633E-3  -9.445832110941410E-4  
 2.234000000000000E10   -7.385723292827606E-4  -2.396257186774164E-4  
 2.236000000000000E10   -2.652027469594032E-4  -8.377117774216458E-5  
 2.238000000000000E10    2.924746950156987E-4   5.177113343961537E-4  
 2.240000000000000E10    3.550459805410355E-4  -7.421503541991115E-4  
 2.242000000000000E10    1.046728459186852E-3  -3.923437907360494E-4  
 2.244000000000000E10   -2.580212603788823E-4  -6.895706173963845E-4  
 2.246000000000000E10    1.854182337410748E-4   2.254568098578602E-4  
 2.248000000000000E10   -5.985533061902970E-5   2.504368603695184E-4  
 2.250000000000000E10    5.414856714196503E-4   3.106003714492545E-5  
 2.252000000000000E10   -4.094602991244756E-5   6.343608838506043E-4  
 2.254000000000000E10    3.125338116660714E-4  -9.387293830513954E-4  
 2.256000000000000E10   -6.719952216371894E-4  -9.699717047624290E-4  
 2.258000000000000E10   -1.352091436274350E-3   2.070558839477599E-4  
 2.260000000000000E10    3.266680869273841E-4   5.228160298429430E-4  
 2.262000000000000E10    1.221929560415447E-3  -1.167199108749628E-3  
 2.264000000000000E10   -6.268745637498796E-4  -1.212371978908777E-3  
 2.266000000000000E10   -4.751885717269033E-4   2.810544719977770E-5  
 2.268000000000000E10    5.896105431020260E-4   4.996508359909058E-4  
 2.270000000000000E10    2.102398320857901E-5  -1.798287703422830E-4  
 2.272000000000000E10    2.378039789618924E-4   7.153522892622277E-5  
 2.274000000000000E10   -4.504777607508004E-4  -5.232269759289920E-4  
 2.276000000000000E10   -6.091711693443358E-4  -8.812750456854701E-4  
 2.278000000000000E10   -8.596727275289595E-4   1.775846758391708E-4  
 2.280000000000000E10   -2.717081806622446E-4   1.150570824393071E-4  
 2.282000000000000E10    4.148934385739267E-4   2.022610424319282E-4  
 2.284000000000000E10    6.331439362838864E-4  -4.186036821920425E-4  
 2.286000000000000E10   -5.881878314539790E-4  -9.431043872609735E-4  
 2.288000000000000E10   -6.545477081090212E-4   3.553796850610524E-4  
 2.290000000000000E10   -8.650327072246000E-5   1.007584156468511E-3  
 2.292000000000000E10    7.122748647816479E-4  -3.910151463060174E-6  
 2.294000000000000E10   -7.813683478161693E-4  -7.662517418793868E-6  
 2.296000000000000E10   -1.121159992180765E-3   4.607462415151531E-6  
 2.298000000000000E10   -5.316645256243646E-4  -4.820527828997001E-5  
 2.300000000000000E10   -6.479644798673689E-4  -1.821401092456654E-4  
 2.302000000000000E10   -4.737619310617447E-4   2.587463241070509E-4  
 2.304000000000000E10    6.506926147267222E-4  -2.027808659477159E-4  
 2.306000000000000E10    3.440574510022998E-4  -7.469134288839996E-4  
 2.308000000000000E10   -9.673262247815728E-4   6.523881165776402E-5  
 2.310000000000000E10   -6.573683349415660E-4   1.072335755452514E-3  
 2.312000000000000E10    1.259840792044997E-4   1.244322280399501E-3  
 2.314000000000000E10    1.332393003394827E-4   2.236841392004862E-4  
 2.316000000000000E10   -5.344460369087756E-4  -9.974448475986719E-4  
 2.318000000000000E10   -1.085854950360954E-3   3.512430121190846E-4  
 2.320000000000000E10   -9.751137695275247E-4   6.165148224681616E-4  
 2.322000000000000E10    6.655726465396583E-4  -2.319602936040610E-5  
 2.324000000000000E10    6.679217331111431E-4   2.897337617469020E-5  
 2.326000000000000E10    4.897244507446885E-4  -2.157954440917820E-4  
 2.328000000000000E10   -4.117469943594188E-4  -1.784340274753049E-4  
 2.330000000000000E10   -2.824118128046393E-4   4.653551150113344E-4  
 2.332000000000000E10   -2.015980862779543E-4   1.649196492508054E-3  
 2.334000000000000E10    1.028909115120769E-3   9.500562009634450E-5  
 2.336000000000000E10    1.560561649966985E-4  -7.481800275854766E-4  
 2.338000000000000E10   -1.588352257385850E-3  -5.742021603509784E-4  
 2.340000000000000E10   -3.126209194306284E-4   7.524027023464441E-4  
 2.342000000000000E10    8.173582027666271E-4   7.424550713039935E-4  
 2.344000000000000E10    7.747383206151426E-4  -1.748826616676524E-4  
 2.346000000000000E10   -1.911921863211319E-4  -5.169605719856918E-4  
 2.348000000000000E10   -4.284648093744181E-5  -6.687959830742329E-5  
 2.350000000000000E10   -5.603401805274189E-4   7.978650392033160E-4  
 2.352000000000000E10    7.142268586903811E-4   8.039585663937032E-4  
 2.354000000000000E10    6.101773469708860E-4   3.604942758101970E-4  
 2.356000000000000E10    3.595679881982505E-4  -7.261027931235731E-4  
 2.358000000000000E10   -2.546095638535917E-4  -2.892242046073079E-4  
 2.360000000000000E10   -8.230088860727847E-4  -4.591266042552888E-5  
 2.362000000000000E10    6.151212728582323E-4   1.029806444421411E-3  
 2.364000000000000E10    9.217265178449452E-4   9.498754661763087E-5  
 2.366000000000000E10    7.589611923322082E-4  -8.651913376525044E-4  
 2.368000000000000E10   -1.171306008473039E-3  -6.055478588677943E-4  
 2.370000000000000E10   -5.172943347133696E-4   2.820554655045271E-4  
 2.372000000000000E10    8.005612180568278E-4   4.427222884260118E-4  
 2.374000000000000E10    2.145941398339346E-4  -3.650623548310250E-4  
 2.376000000000000E10    4.980624071322382E-4  -1.346143108094111E-4  
 2.378000000000000E10    4.579873348120600E-4  -3.396196407265961E-4  
 2.380000000000000E10   -3.726398863364011E-4  -5.459806998260319E-4  
 2.382000000000000E10   -2.130144130205736E-4   1.076808897778392E-3  
 2.384000000000000E10    4.563828988466412E-4   7.614596397615969E-4  
 2.386000000000000E10    9.758941596373916E-4  -3.251677844673395E-4  
 2.388000000000000E10   -5.764592206105590E-4  -1.100610475987196E-3  
 2.390000000000000E10   -1.259176759049296E-3  -4.477914189919829E-4  
 2.392000000000000E10   -2.573076926637441E-4   1.040356350131333E-3  
 2.394000000000000E10    9.582263883203268E-4   5.167915951460600E-4  
 2.396000000000000E10    1.107663963921368E-3  -8.699048194102943E-4  
 2.398000000000000E10   -1.319251314271241E-4  -1.207777881063521E-3  
 2.400000000000000E10   -6.157043389976025E-4   3.220315556973219E-4  
 2.402000000000000E10    1.193567732116208E-4   7.525217370130122E-4  
 2.404000000000000E10    3.855676914099604E-4   5.873816553503275E-4  
 2.406000000000000E10    3.659052017610520E-4   2.022921216848772E-5  
 2.408000000000000E10    5.363525706343353E-4  -5.477769300341606E-4  
 2.410000000000000E10   -1.490815775468946E-3  -5.955146625638008E-4  
 2.412000000000000E10   -1.049282378517091E-3   3.927530196961016E-4  
 2.414000000000000E10    7.565412088297308E-4   1.463174819946289E-3  
 2.416000000000000E10    9.161670459434390E-4  -1.035624649375677E-3  
 2.418000000000000E10    7.506702968385071E-5  -1.217356300912798E-3  
 2.420000000000000E10   -9.099300950765610E-4   2.063149986497592E-5  
 2.422000000000000E10   -7.039174670353532E-5   7.454603910446167E-4  
 2.424000000000000E10    5.085910088382661E-4   8.499404066242278E-4  
 2.426000000000000E10    8.746059029363096E-4   7.994321640580893E-5  
 2.428000000000000E10   -2.405703853582963E-4  -2.286835078848526E-4  
 2.430000000000000E10   -1.038708956912160E-3  -5.201295716688037E-4  
 2.432000000000000E10   -3.298225055914372E-4   4.549338482320309E-4  
 2.434000000000000E10   -8.715394069440663E-4   8.677965524839237E-5  
 2.436000000000000E10    2.849098236765713E-4   2.529022749513388E-4  
 2.438000000000000E10    9.853307856246829E-4  -4.555182531476021E-4  
 2.440000000000000E10   -1.706493931123987E-4  -1.295841764658690E-3  
 2.442000000000000E10   -1.230276771821082E-3  -5.057704402133822E-5  
 2.444000000000000E10    6.926232163095847E-5   1.127465744502842E-3  
 2.446000000000000E10    1.038760412484407E-3   3.826899337582290E-4  
 2.448000000000000E10    6.119767203927040E-4  -1.072673941962421E-3  
 2.450000000000000E10   -6.900570006109774E-4  -2.776529981929343E-5  
 2.452000000000000E10   -1.235205447301269E-3   3.796536839217879E-5  
 2.454000000000000E10    1.187257948913612E-4   1.563467376399785E-4  
 2.456000000000000E10    4.472330620046705E-4   3.892339009325951E-4  
 2.458000000000000E10    8.257340523414314E-4  -4.689845081884414E-4  
 2.460000000000000E10    4.467421968001872E-4  -4.108328430447727E-4  
 2.462000000000000E10   -3.781857376452535E-4  -2.010224852710962E-4  
 2.464000000000000E10   -8.970211492851377E-4   4.866317030973733E-4  
 2.466000000000000E10    4.754293768201023E-4   1.459924154914916E-3  
 2.468000000000000E10    1.443301327526569E-3   2.259628818137571E-4  
 2.470000000000000E10    1.764842454576865E-4  -1.756668207235634E-3  
 2.472000000000000E10   -1.549658016301692E-3   9.567332017468289E-5  
 2.474000000000000E10   -7.397436420433223E-4   1.432935125194490E-3  
 2.476000000000000E10    1.660693436861038E-3   3.999195178039372E-5  
 2.478000000000000E10    7.661416893824935E-4  -7.014811271801591E-4  
 2.480000000000000E10   -4.109358706045896E-4  -6.918444414623082E-4  
 2.482000000000000E10   -1.087442797143012E-5   2.159976284019649E-4  
 2.484000000000000E10   -2.383954233664554E-5   4.252418875694275E-4  
 2.486000000000000E10    8.342255023308098E-5   7.396729197353125E-4  
 2.488000000000000E10    1.011119107715786E-3   1.758322032401338E-4  
 2.490000000000000E10    5.904152058064938E-4  -8.579104905948043E-4  
 2.492000000000000E10   -6.370440241880715E-4  -8.018549997359514E-4  
 2.494000000000000E10   -4.345194902271032E-4   4.036308964714408E-4  
 2.496000000000000E10    5.956034292466939E-4   7.167708827182651E-4  
 2.498000000000000E10    1.331323059275746E-3  -8.431365131400526E-4  
 2.500000000000000E10    4.740103613585234E-4  -1.358831650577486E-3  
 2.502000000000000E10   -8.437656215392053E-4  -4.388345114421099E-4  
 2.504000000000000E10    4.176004731561989E-4   6.814853986725211E-4  
 2.506000000000000E10    1.151355565525591E-3   5.477890372276306E-4  
 2.508000000000000E10    3.798944235313684E-4  -4.628251481335610E-4  
 2.510000000000000E10    4.403840866871178E-4  -1.765958295436576E-4  
 2.512000000000000E10    2.897639642469585E-4  -3.263543476350606E-4  
 2.514000000000000E10   -6.456528208218515E-4  -9.533817647024989E-4  
 2.516000000000000E10   -3.775259247049689E-4   3.018046263605356E-4  
 2.518000000000000E10    6.016323459334672E-4   5.115123931318522E-4  
 2.520000000000000E10    1.221038401126862E-3  -1.529334113001823E-3  
 2.522000000000000E10   -3.698954969877377E-5  -1.224232022650540E-3  
 2.524000000000000E10   -1.075495732948184E-3  -2.391460293438286E-4  
 2.526000000000000E10    2.183667529607192E-4   7.892840658314526E-4  
 2.528000000000000E10    8.156773401424289E-4   5.925032892264426E-4  
 2.530000000000000E10    3.225744294468314E-4  -9.035690454766154E-4  
 2.532000000000000E10   -8.462333353236318E-4  -8.819344802759588E-4  
 2.534000000000000E10   -1.296908827498555E-3  -4.236503154970706E-4  
 2.536000000000000E10   -4.979068180546165E-4   1.319307339144871E-4  
 2.538000000000000E10   -6.370655319187790E-5  -4.269749333616346E-4  
 2.540000000000000E10    8.290482219308615E-4  -2.743326767813414E-4  
 2.542000000000000E10    2.111167268594727E-4  -8.017443469725549E-4  
 2.544000000000000E10   -7.428615936078131E-4  -8.397835190407932E-4  
 2.546000000000000E10   -1.087627140805125E-3   1.220959122292697E-3  
 2.548000000000000E10    1.663134025875479E-4   1.448919414542615E-3  
 2.550000000000000E10    3.869404608849436E-4  -3.320809919387102E-4  
 2.552000000000000E10   -1.119681051932275E-3  -1.563439378514886E-3  
 2.554000000000000E10   -1.816979725845158E-3   2.060616825474426E-4  
 2.556000000000000E10   -1.301209209486842E-3   6.081361207179725E-4  
 2.558000000000000E10    5.201688036322594E-4  -1.731512893456966E-4  
 2.560000000000000E10    5.148343188920990E-5  -4.717378178611398E-4  
 2.562000000000000E10   -9.840897109825164E-5  -4.476018948480487E-4  
 2.564000000000000E10   -6.435476825572550E-4  -6.415375082724495E-6  
 2.566000000000000E10   -7.919482304714620E-4   7.532350136898458E-4  
 2.568000000000000E10   -4.921273211948574E-4   1.248064334504306E-3  
 2.570000000000000E10    1.624092110432684E-4   5.229673697613180E-4  
 2.572000000000000E10    4.404478750075214E-5  -5.196523852646351E-4  
 2.574000000000000E10   -8.749538101255894E-4  -9.546367800794542E-4  
 2.576000000000000E10   -9.972780244424939E-4   1.231232163263485E-4  
 2.578000000000000E10    5.555761745199561E-4   1.083759823814035E-3  
 2.580000000000000E10    1.136406906880438E-3   1.676397660048679E-4  
 2.582000000000000E10    3.958233864977956E-4  -9.806968737393618E-4  
 2.584000000000000E10   -6.905326736159623E-4   4.942376399412751E-4  
 2.586000000000000E10   -2.951683127321303E-4   6.151467678137124E-4  
 2.588000000000000E10    2.267909585498273E-4   4.714895912911743E-4  
 2.590000000000000E10    1.640105074329767E-5   1.978691143449396E-4  
 2.592000000000000E10    4.599122330546379E-4  -1.318363938480616E-4  
 2.594000000000000E10    3.287005820311606E-4  -1.061556278727949E-3  
 2.596000000000000E10   -4.519020731095225E-4   2.077247627312318E-4  
 2.598000000000000E10   -4.243101866450161E-4   8.990044007077813E-4  
 2.600000000000000E10    1.591625390574336E-3   7.969767902977765E-4  
 2.602000000000000E10    8.026596624404192E-4   9.113548003369942E-5  
 2.604000000000000E10   -4.647944006137550E-4  -1.140600419603288E-3  
 2.606000000000000E10   -1.247826614417136E-3   4.941812367178500E-4  
 2.608000000000000E10   -2.558088744990528E-4   7.441322086378932E-4  
 2.610000000000000E10    9.852799121290445E-4   2.095992967952043E-4  
 2.612000000000000E10    7.924452074803412E-4  -1.341044553555548E-3  
 2.614000000000000E10   -3.103831259068102E-4  -4.746070189867169E-4  
 2.616000000000000E10   -1.566662103869021E-4  -3.705165872815996E-4  
 2.618000000000000E10    4.894931335002184E-4   5.467569571919739E-4  
 2.620000000000000E10   -5.716455575566215E-7   6.848264602012932E-4  
 2.622000000000000E10    1.023324322886765E-3   3.919064474757761E-4  
 2.624000000000000E10   -3.251100133638829E-5  -4.444906371645629E-4  
 2.626000000000000E10   -9.097267757169902E-4  -4.712374066002667E-4  
 2.628000000000000E10   -1.157833961769939E-3   5.973774241283536E-4  
 2.630000000000000E10    2.881202381104231E-4   6.927720387466252E-4  
 2.632000000000000E10    5.702123744413257E-4  -4.542032183962874E-5  
 2.634000000000000E10    9.868911001831293E-5  -1.168759190477431E-3  
 2.636000000000000E10   -7.640689727850258E-4  -1.878089387901127E-4  
 2.638000000000000E10   -3.299913078080863E-4   6.067195208743215E-4  
 2.640000000000000E10    3.926415811292827E-4   8.732781861908734E-4  
 2.642000000000000E10    4.119185032323003E-4  -5.981831054668874E-5  
 2.644000000000000E10   -1.955979969352484E-4  -2.344012609682977E-4  
 2.646000000000000E10   -1.428355608368293E-4   3.377080429345369E-5  
 2.648000000000000E10   -3.734441997949034E-4   2.875690988730639E-4  
 2.650000000000000E10   -5.698144086636603E-4   1.323547476204112E-4  
 2.652000000000000E10    5.578143754974008E-4   7.682617288082838E-4  
 2.654000000000000E10    4.608172166626900E-4  -2.517704560887069E-4  
 2.656000000000000E10   -4.665156302507967E-5  -1.368776429444552E-3  
 2.658000000000000E10   -1.015451038256288E-3  -8.608205826021731E-5  
 2.660000000000000E10    1.876613241620362E-4   1.422115135937929E-3  
 2.662000000000000E10    9.106577490456402E-4   3.842772566713393E-4  
 2.664000000000000E10    8.627598290331662E-4  -9.715541964396834E-4  
 2.666000000000000E10   -5.731176934204996E-4  -1.497972552897409E-4  
 2.668000000000000E10   -6.571022677235305E-4   4.163532285019755E-4  
 2.670000000000000E10   -1.161956097348593E-4   9.632920264266431E-4  
 2.672000000000000E10    3.045465564355254E-4  -3.161610948154703E-5  
 2.674000000000000E10    4.668602196034044E-4   3.782165367738344E-5  
 2.676000000000000E10    3.838248085230589E-4  -6.301868124864996E-4  
 2.678000000000000E10   -1.874203153420240E-4  -5.210983799770474E-4  
 2.680000000000000E10   -7.870396948419511E-4   4.261099093127996E-4  
 2.682000000000000E10    8.679707534611225E-4   1.526903477497399E-3  
 2.684000000000000E10    1.721491105854511E-3   3.560198529157788E-4  
 2.686000000000000E10    3.884724574163556E-4  -1.002091914415360E-3  
 2.688000000000000E10   -1.045256853103638E-3   4.636236990336329E-4  
 2.690000000000000E10   -4.953706520609558E-4   1.724270754493773E-3  
 2.692000000000000E10    1.264191232621670E-3   5.482638953253627E-4  
 2.694000000000000E10    8.622437599115074E-4  -4.195775545667857E-4  
 2.696000000000000E10   -3.186388639733195E-4  -3.074314736295492E-4  
 2.698000000000000E10   -1.879306655609980E-4   2.501847920939326E-4  
 2.700000000000000E10    2.017496590269730E-4   5.038318340666592E-4  
 2.702000000000000E10    2.179048897232860E-4   9.125674841925502E-4  
 2.704000000000000E10    8.794282330200076E-4   2.637491852510721E-4  
 2.706000000000000E10    7.883647340349853E-4  -3.630818391684443E-4  
 2.708000000000000E10   -4.600596148520708E-4  -5.302762147039175E-4  
 2.710000000000000E10   -4.177590890321881E-4   3.974693536292762E-4  
 2.712000000000000E10    3.067143261432648E-4   1.344467629678547E-3  
 2.714000000000000E10    1.405191840603948E-3  -2.202986361226067E-4  
 2.716000000000000E10    3.982521302532405E-4  -9.467373602092266E-4  
 2.718000000000000E10   -7.289379136636853E-4  -4.471719439607114E-4  
 2.720000000000000E10   -1.920276554301381E-5   7.150747696869075E-4  
 2.722000000000000E10    6.168450345285237E-4  -1.240538258571178E-4  
 2.724000000000000E10    1.318556169280782E-4  -5.109080811962485E-4  
 2.726000000000000E10   -1.869128900580108E-4  -6.989553803578019E-4  
 2.728000000000000E10    7.310097571462393E-4  -4.957347409799695E-4  
 2.730000000000000E10   -7.748767966404557E-4  -9.150800760835409E-4  
 2.732000000000000E10   -6.713495240546763E-4   1.696610161161516E-5  
 2.734000000000000E10    3.400667919777334E-4   5.284624639898539E-4  
 2.736000000000000E10    1.122787245549262E-3  -1.088986871764064E-3  
 2.738000000000000E10   -2.799798094201833E-4  -1.530417823232710E-3  
 2.740000000000000E10   -1.162412576377392E-3  -5.932810017839074E-4  
 2.742000000000000E10    4.476553658605553E-5   9.506721980869770E-4  
 2.744000000000000E10    9.254411561414599E-4  -2.983859740197659E-4  
 2.746000000000000E10    4.343423934187740E-4  -7.455348386429250E-4  
 2.748000000000000E10   -6.746423896402121E-4  -6.780409603379667E-4  
 2.750000000000000E10   -4.650559276342392E-4  -1.322952739428729E-4  
 2.752000000000000E10   -4.766203637700528E-4   1.387111551593989E-4  
 2.754000000000000E10    9.408492769580334E-5   7.777454447932541E-5  
 2.756000000000000E10    4.380378522910178E-4  -4.600780084729195E-4  
