#  HZ   S   RI   R     50.00 
! Rohde & Schwarz ZVA40 4Ports - Version 3.90 - 1145.1110k42 SN: 100403
! Date: 2023-10-04 11:33:50
! Measurement: S12 
! 
 2.200000000000000E10    1.066829645424150E-4  -4.110113077331334E-4  
 2.202000000000000E10    1.114778453484178E-3  -7.977199857123196E-4  
 2.204000000000000E10   -5.220056045800448E-4  -9.190991986542940E-4  
 2.206000000000000E10   -4.464205703698099E-4   3.270640081609599E-5  
 2.208000000000000E10    2.572966041043401E-4   7.399009773507714E-4  
 2.210000000000000E10    8.615400874987245E-4  -6.968420930206776E-4  
 2.212000000000000E10   -1.105022034607828E-3  -5.662660696543753E-4  
 2.214000000000000E10   -6.770830950699747E-4  -7.254765951074660E-4  
 2.216000000000000E10   -1.184263328468660E-5   1.115752034820616E-3  
 2.218000000000000E10   -1.838466560002416E-4  -7.187835290096700E-4  
 2.220000000000000E10    1.092828024411574E-4   2.571529184933752E-4  
 2.222000000000000E10   -6.958316662348807E-4  -2.680983743630350E-4  
 2.224000000000000E10    3.227895940653980E-4  -1.023173317662440E-4  
 2.226000000000000E10   -6.980319158174098E-4   3.888269711751491E-4  
 2.228000000000000E10   -2.736387541517615E-4  -7.739834472886287E-6  
 2.230000000000000E10   -5.460485117509961E-4   7.812920375727117E-4  
 2.232000000000000E10    7.400448084808886E-4  -1.861143828136846E-4  
 2.234000000000000E10   -8.392746676690877E-4  -3.972849517595023E-4  
 2.236000000000000E10   -7.009896216914058E-4   2.549308701418340E-4  
 2.238000000000000E10    4.242556460667402E-4   1.520111691206694E-3  
 2.240000000000000E10    2.475348592270166E-4  -5.159653373993933E-4  
 2.242000000000000E10   -3.996103769168258E-4  -1.125816925195977E-4  
 2.244000000000000E10   -9.924795012921095E-4   5.200565210543573E-4  
 2.246000000000000E10    4.349551163613796E-4  -9.639446943765506E-5  
 2.248000000000000E10   -2.329262497369200E-4  -5.879846867173910E-4  
 2.250000000000000E10   -4.660387639887631E-4   7.878591422922909E-4  
 2.252000000000000E10    4.328061768319458E-4   5.113509832881391E-4  
 2.254000000000000E10    1.106357434764504E-3  -5.446252762340009E-4  
 2.256000000000000E10   -9.641196229495108E-4   1.192078416352160E-4  
 2.258000000000000E10   -9.396355017088354E-4   2.936089003924280E-4  
 2.260000000000000E10    5.553980008699000E-4   1.065307063981891E-3  
 2.262000000000000E10    4.887300310656428E-4   1.677867112448439E-4  
 2.264000000000000E10    3.634777021943592E-5  -1.081048161722720E-3  
 2.266000000000000E10   -4.035098245367408E-4  -1.060733338817954E-4  
 2.268000000000000E10    2.092473187076394E-5   7.318328716792166E-4  
 2.270000000000000E10    6.951473187655211E-4  -3.751069743884727E-5  
 2.272000000000000E10    3.260575176682323E-4   3.240283112972975E-4  
 2.274000000000000E10    2.860550303012133E-4   3.822355647571385E-4  
 2.276000000000000E10    4.536423948593438E-4  -1.768303773133084E-4  
 2.278000000000000E10   -5.129352211952210E-4  -7.428551180055365E-5  
 2.280000000000000E10   -7.470248383469880E-4   1.066406490281224E-3  
 2.282000000000000E10    6.777169764973223E-4   1.261078868992627E-3  
 2.284000000000000E10    7.995149935595691E-4  -5.306697566993535E-4  
 2.286000000000000E10   -7.857243181206286E-4  -1.034303568303585E-3  
 2.288000000000000E10   -1.261836732737720E-4   1.312201493419707E-3  
 2.290000000000000E10    8.451259927824140E-4   9.362901910208166E-4  
 2.292000000000000E10    1.465202891267836E-3   1.865920494310558E-4  
 2.294000000000000E10    1.615855289855972E-4  -3.610423300415278E-4  
 2.296000000000000E10    8.674839045852423E-5  -2.981072466354817E-4  
 2.298000000000000E10   -1.743854663800448E-4   1.759355945978314E-4  
 2.300000000000000E10    2.135515969712287E-4   4.529301368165761E-4  
 2.302000000000000E10    4.989475564798340E-5   1.402841735398397E-4  
 2.304000000000000E10    8.672575931996107E-4  -7.411315455101430E-4  
 2.306000000000000E10    1.025646924972534E-4  -3.789823967963457E-4  
 2.308000000000000E10   -5.329133127816021E-4  -2.573489909991622E-4  
 2.310000000000000E10   -1.490452268626541E-4   8.795363246463239E-4  
 2.312000000000000E10    1.303098979406059E-3   4.768999642692506E-4  
 2.314000000000000E10    6.787893362343311E-4  -5.074791260994971E-4  
 2.316000000000000E10   -5.633221007883549E-4  -1.340355258435011E-3  
 2.318000000000000E10   -4.303428577259183E-4   8.943984284996986E-4  
 2.320000000000000E10    3.220099315512925E-4   1.231305068358779E-4  
 2.322000000000000E10    7.733808015473187E-4  -4.466167592909187E-4  
 2.324000000000000E10   -5.308261825121008E-5  -6.706074782414362E-5  
 2.326000000000000E10    2.633548574522138E-4  -6.479751318693161E-4  
 2.328000000000000E10   -2.325508394278586E-4  -6.341052358038724E-4  
 2.330000000000000E10   -6.323995185084641E-4   1.322345488006249E-4  
 2.332000000000000E10   -4.299533429730218E-6   6.091017276048660E-4  
 2.334000000000000E10    1.295501948334277E-3  -7.648933678865433E-4  
 2.336000000000000E10   -2.236362488474697E-4  -6.321842083707452E-4  
 2.338000000000000E10   -8.442058460786939E-4  -6.751248729415238E-4  
 2.340000000000000E10   -5.023798439651728E-4   9.079149458557367E-4  
 2.342000000000000E10    3.234470786992461E-4   5.248215747997165E-4  
 2.344000000000000E10    9.590040426701307E-4  -3.021524462383241E-4  
 2.346000000000000E10   -2.672559639904648E-4  -9.062040480785072E-4  
 2.348000000000000E10   -5.472804186865687E-4  -1.373675622744486E-4  
 2.350000000000000E10   -6.698744255118072E-4   4.874589503742755E-4  
 2.352000000000000E10   -1.702653207757976E-5   1.912540174089372E-4  
 2.354000000000000E10    1.903953816508874E-4   8.575720858061686E-5  
 2.356000000000000E10    3.116863081231713E-4  -9.456483530811966E-4  
 2.358000000000000E10   -5.227738874964416E-4  -1.398274442180991E-3  
 2.360000000000000E10   -1.247986452654004E-3  -4.515436103247339E-6  
 2.362000000000000E10    7.812183466739953E-4   9.447055635973811E-4  
 2.364000000000000E10    1.311174244619906E-3  -3.610695712268353E-4  
 2.366000000000000E10    1.300967269344255E-4  -1.583874458447099E-3  
 2.368000000000000E10   -6.619575433433056E-4   1.769439986674115E-4  
 2.370000000000000E10   -6.986347143538296E-4   7.803068729117513E-4  
 2.372000000000000E10    4.446236998774111E-4   5.395766929723322E-4  
 2.374000000000000E10    1.580575481057167E-4   1.709584903437644E-4  
 2.376000000000000E10    4.745263868244365E-5  -7.706506876274943E-4  
 2.378000000000000E10   -6.588588585145772E-4  -5.777983460575342E-4  
 2.380000000000000E10   -4.942400846630335E-4  -7.894632872194052E-4  
 2.382000000000000E10    9.810014307731763E-5   3.290595486760140E-4  
 2.384000000000000E10    8.470045286230743E-4  -2.398327051196247E-4  
 2.386000000000000E10    1.332358340732753E-3  -5.376220215111971E-4  
 2.388000000000000E10   -7.188656018115580E-4  -9.551226976327598E-4  
 2.390000000000000E10   -1.205659471452236E-3   4.630928160622716E-4  
 2.392000000000000E10   -1.549910812173039E-4   1.246513216756284E-3  
 2.394000000000000E10    6.616636528633535E-4  -2.060638653347269E-4  
 2.396000000000000E10   -4.963196697644889E-4  -8.423539693467319E-4  
 2.398000000000000E10   -8.331077406182885E-4  -4.361963074188680E-4  
 2.400000000000000E10   -1.325706980424002E-4  -2.298858889844269E-4  
 2.402000000000000E10   -8.149549103109166E-5  -4.391458933241665E-4  
 2.404000000000000E10    3.721708199009299E-4   8.877994696376845E-5  
 2.406000000000000E10    9.897296549752355E-4  -2.550444041844457E-4  
 2.408000000000000E10    5.648434162139893E-4  -4.634243377950043E-4  
 2.410000000000000E10   -1.048675389029086E-3  -2.530343772377819E-4  
 2.412000000000000E10   -4.769099468830973E-4   1.075143693014979E-3  
 2.414000000000000E10    8.630788943264633E-5   1.360767870210111E-3  
 2.416000000000000E10    6.012000376358628E-4  -9.828297188505530E-4  
 2.418000000000000E10   -3.117724263574928E-4  -1.108096679672599E-3  
 2.420000000000000E10   -1.867209561169148E-3  -4.592948826029897E-4  
 2.422000000000000E10    1.602291886229068E-4   9.365730802528560E-4  
 2.424000000000000E10    1.275519258342683E-3   4.505355900619179E-4  
 2.426000000000000E10    4.550989251583815E-4  -9.510505478829145E-4  
 2.428000000000000E10   -1.191736446344294E-4  -4.005563387181610E-4  
 2.430000000000000E10   -3.461996093392372E-4   6.187696708366275E-4  
 2.432000000000000E10   -3.328168822918087E-4   8.508589817211032E-4  
 2.434000000000000E10    2.663404156919569E-4   7.782425382174552E-4  
 2.436000000000000E10    6.825438467785716E-4   6.023178502800874E-5  
 2.438000000000000E10    9.200095519190654E-5  -1.504613319411874E-3  
 2.440000000000000E10   -6.416866090148687E-4  -6.324625574052334E-4  
 2.442000000000000E10   -8.430046727880836E-4   9.226186084561050E-4  
 2.444000000000000E10    1.020568422973156E-3   6.868875352665782E-4  
 2.446000000000000E10    1.493855845183134E-3  -3.472933603916317E-4  
 2.448000000000000E10   -1.087048076442443E-4  -1.068339566700161E-3  
 2.450000000000000E10   -1.059922040440142E-3   4.060311403009109E-5  
 2.452000000000000E10    3.161662243655883E-5   1.345995347946882E-3  
 2.454000000000000E10    5.641767056658864E-4   7.846050430089235E-4  
 2.456000000000000E10   -1.592394983163104E-4   5.023487574362662E-6  
 2.458000000000000E10   -3.817346878349781E-4   9.352745837531984E-5  
 2.460000000000000E10   -5.626474739983678E-4  -3.754626668523997E-4  
 2.462000000000000E10   -2.554148668423295E-4  -5.325857200659812E-4  
 2.464000000000000E10   -4.773121909238398E-4   9.001105208881199E-4  
 2.466000000000000E10    7.794021512381733E-4   3.873113601002842E-4  
 2.468000000000000E10    1.333882682956755E-3  -7.411655387841165E-4  
 2.470000000000000E10   -4.770379164256156E-4  -1.102742389775813E-3  
 2.472000000000000E10   -1.304142293520272E-3   9.337747469544411E-4  
 2.474000000000000E10    9.860670252237469E-5   1.101872767321765E-3  
 2.476000000000000E10    9.608783293515444E-4   1.201548584504053E-4  
 2.478000000000000E10   -3.924096818082035E-4  -7.398631423711777E-4  
 2.480000000000000E10   -6.041352753527463E-4  -5.262034828774631E-4  
 2.482000000000000E10   -6.034249672666192E-4   1.840202312450856E-4  
 2.484000000000000E10   -1.899639901239425E-4   7.641810952918604E-5  
 2.486000000000000E10    4.656850942410529E-4   4.929514252580702E-4  
 2.488000000000000E10    5.572736263275147E-4   3.280004966654815E-5  
 2.490000000000000E10    9.912946552503854E-5  -4.447648243512958E-4  
 2.492000000000000E10   -9.465080802328885E-4  -1.780028978828341E-4  
 2.494000000000000E10   -1.190887065604329E-3   1.557124778628349E-3  
 2.496000000000000E10    5.150156794115901E-4   1.158738275989890E-3  
 2.498000000000000E10    1.210989314131439E-3  -5.301492637954652E-4  
 2.500000000000000E10   -1.087575685232878E-3  -1.064115436747670E-3  
 2.502000000000000E10   -1.673950464464724E-3   3.149581025354564E-4  
 2.504000000000000E10   -1.181929860649689E-6   1.332560554146767E-3  
 2.506000000000000E10    7.129749283194542E-4   3.648440761025995E-4  
 2.508000000000000E10    9.081674943445250E-5  -5.362185765989125E-4  
 2.510000000000000E10   -3.062939213123173E-4  -2.189170918427408E-4  
 2.512000000000000E10   -3.915219567716122E-4   3.915510023944080E-4  
 2.514000000000000E10   -5.398336215876043E-4   7.121721864677966E-4  
 2.516000000000000E10   -2.598335559014231E-4   1.378457294777036E-3  
 2.518000000000000E10    2.293127181474119E-4   5.659830057993531E-4  
 2.520000000000000E10    6.312442565103993E-5  -1.065487973392010E-3  
 2.522000000000000E10   -1.185162342153490E-3  -1.147563307313249E-4  
 2.524000000000000E10   -9.916506242007017E-4   6.823659059591591E-4  
 2.526000000000000E10    9.993825806304812E-4   7.599798263981938E-4  
 2.528000000000000E10    9.356129448860884E-4  -2.040967519860715E-4  
 2.530000000000000E10   -1.360376336378977E-4  -1.078075962141156E-3  
 2.532000000000000E10   -4.242128634359688E-4   6.582902860827744E-4  
 2.534000000000000E10    4.208732570987195E-4   8.511752821505070E-4  
 2.536000000000000E10    4.303486493881792E-4   7.486420799978077E-4  
 2.538000000000000E10    2.298441104358062E-4   1.598610979272053E-4  
 2.540000000000000E10    4.973632749170065E-4   7.221303530968726E-4  
 2.542000000000000E10   -4.349031660240144E-4  -8.048377349041402E-4  
 2.544000000000000E10   -2.622116880957037E-4  -1.295891124755144E-4  
 2.546000000000000E10   -4.839676330448128E-5   7.352610118687153E-4  
 2.548000000000000E10    1.889588776975870E-3   2.628877118695527E-4  
 2.550000000000000E10    9.137151064351201E-4  -1.051756902597845E-3  
 2.552000000000000E10   -1.537347270641476E-5  -9.526564390398562E-4  
 2.554000000000000E10   -4.490739083848894E-4   8.150531211867929E-4  
 2.556000000000000E10    8.564571617171168E-4   7.631932967342436E-4  
 2.558000000000000E10    9.137734887190163E-4   4.741034063044936E-4  
 2.560000000000000E10   -2.260137262055650E-5  -1.288292580284178E-3  
 2.562000000000000E10   -1.645293814362958E-4  -4.988235305063427E-4  
 2.564000000000000E10   -6.881568115204573E-4  -1.429413532605395E-4  
 2.566000000000000E10    7.037523901090026E-4   3.656055487226695E-4  
 2.568000000000000E10    7.239289698190987E-4  -3.660119546111673E-5  
 2.570000000000000E10    1.491554430685937E-3  -2.385660773143172E-4  
 2.572000000000000E10    2.608747163321823E-4  -5.913731874898076E-4  
 2.574000000000000E10   -9.756493382155895E-4   2.687193627934903E-4  
 2.576000000000000E10   -6.937136058695614E-4   1.783513929694891E-3  
 2.578000000000000E10    1.201150706037879E-3   3.280601813457906E-4  
 2.580000000000000E10    3.280511009506881E-4  -1.090316451154649E-3  
 2.582000000000000E10   -7.332616369239986E-4  -1.186555251479149E-3  
 2.584000000000000E10   -6.611223798245192E-4   5.004423437640071E-4  
 2.586000000000000E10    2.004702400881797E-4   1.996435748878866E-4  
 2.588000000000000E10    9.299532393924892E-4   3.197712940163910E-4  
 2.590000000000000E10    2.256519655929878E-4  -3.761945990845561E-4  
 2.592000000000000E10   -8.696540317032486E-5  -1.201982522616163E-4  
 2.594000000000000E10   -7.040016353130341E-4   2.399210061412305E-4  
 2.596000000000000E10   -9.753671474754810E-4   7.250758353620768E-4  
 2.598000000000000E10   -1.259910059161484E-4   2.849613083526492E-4  
 2.600000000000000E10    5.785888643004000E-4  -2.215349923062604E-5  
 2.602000000000000E10   -2.193754771724343E-4  -8.659293525852263E-4  
 2.604000000000000E10   -3.965226642321795E-4  -8.266747463494539E-4  
 2.606000000000000E10   -5.580817232839763E-4   7.625244325026870E-4  
 2.608000000000000E10    8.004098199307919E-4   8.204374462366104E-4  
 2.610000000000000E10    7.394335698336363E-4  -2.887303890020121E-5  
 2.612000000000000E10   -1.008604012895376E-4  -1.013495726510882E-3  
 2.614000000000000E10   -1.010010950267315E-3  -1.757020254444797E-5  
 2.616000000000000E10   -3.433712117839605E-4   1.611809420865029E-4  
 2.618000000000000E10    1.492706269345945E-5   5.900632822886109E-4  
 2.620000000000000E10    1.015394693240523E-3  -6.077204598113895E-4  
 2.622000000000000E10    5.246148793958128E-4  -6.218887283466756E-4  
 2.624000000000000E10   -5.056358058936894E-4  -5.911570624448359E-4  
 2.626000000000000E10   -4.074449825566262E-4   3.643863019533455E-4  
 2.628000000000000E10   -2.542668080423027E-4   7.283320301212370E-4  
 2.630000000000000E10    9.658351191319525E-4   8.809903520159423E-4  
 2.632000000000000E10    1.778961886884645E-4  -2.703173959162086E-4  
 2.634000000000000E10   -5.594320246018469E-4  -1.068163779564202E-3  
 2.636000000000000E10   -1.415175502188504E-3   2.247125230496749E-4  
 2.638000000000000E10    4.305882903281599E-4   7.168216980062425E-4  
 2.640000000000000E10    1.234884955920279E-3  -1.339098671451211E-4  
 2.642000000000000E10    3.567507665138692E-4  -1.194913173094392E-3  
 2.644000000000000E10   -2.678159216884524E-4  -5.614929250441492E-4  
 2.646000000000000E10   -2.166052872780711E-4   6.704173865728080E-4  
 2.648000000000000E10    1.231652131536976E-4   8.101714192889631E-4  
 2.650000000000000E10    4.346280475147069E-4  -1.413463905919343E-4  
 2.652000000000000E10    3.882597957272083E-4  -1.914608437800780E-4  
 2.654000000000000E10   -2.129074855474755E-4  -7.752298843115568E-4  
 2.656000000000000E10   -2.892930060625076E-4  -4.812662882613950E-5  
 2.658000000000000E10   -4.861666820943356E-4   7.883568760007620E-4  
 2.660000000000000E10    7.355177076533437E-4   4.587244766298682E-4  
 2.662000000000000E10    1.063173636794090E-3  -5.260318284854293E-4  
 2.664000000000000E10   -1.955390616785735E-4  -9.572693961672485E-4  
 2.666000000000000E10   -1.019802293740213E-3   1.954762265086174E-4  
 2.668000000000000E10    1.640666741877794E-4   1.156652695499361E-3  
 2.670000000000000E10    6.301134708337486E-4   2.358890778850764E-4  
 2.672000000000000E10   -4.661646744352765E-5  -6.740062963217497E-4  
 2.674000000000000E10   -8.617588318884373E-4  -1.482580264564604E-4  
 2.676000000000000E10   -2.660265890881419E-4   1.121291352319531E-4  
 2.678000000000000E10   -3.272655012551695E-4  -3.213367308489978E-4  
 2.680000000000000E10   -1.617900270503014E-4   2.085489977616817E-4  
 2.682000000000000E10    1.347382785752416E-4   3.789847833104432E-4  
 2.684000000000000E10    6.603093352168798E-4  -8.164393948391080E-4  
 2.686000000000000E10   -7.971863378770649E-4  -7.170866010710597E-4  
 2.688000000000000E10   -9.753093472681940E-4   4.409436951391399E-4  
 2.690000000000000E10   -6.252215098356828E-5   1.269396976567805E-3  
 2.692000000000000E10    8.561031427234411E-4  -4.093092866241932E-4  
 2.694000000000000E10   -1.073006787919439E-4  -1.123267458751798E-3  
 2.696000000000000E10   -1.369689474813640E-3  -1.036917208693922E-3  
 2.698000000000000E10   -3.454192192293704E-4   6.694733747281134E-4  
 2.700000000000000E10    2.429655287414789E-4   4.449313735221949E-7  
 2.702000000000000E10    4.673059738706797E-4  -3.313438792247325E-4  
 2.704000000000000E10   -6.233473686734214E-5  -2.264424547320232E-4  
 2.706000000000000E10   -2.581812732387334E-4  -6.900306907482445E-4  
 2.708000000000000E10   -8.654303965158761E-4  -5.281490666675381E-5  
 2.710000000000000E10   -7.697892724536359E-4   1.037503127008677E-3  
 2.712000000000000E10    1.008647377602756E-4   5.559857236221433E-4  
 2.714000000000000E10    9.880638681352139E-4  -1.218904159031808E-3  
 2.716000000000000E10   -1.237413845956326E-3  -1.421796972863376E-3  
 2.718000000000000E10   -1.215872121974826E-3   2.047414018306881E-4  
 2.720000000000000E10    4.701930156443268E-4   1.454637851566076E-3  
 2.722000000000000E10    1.212503877468407E-3  -4.929882707074285E-4  
 2.724000000000000E10    4.114717376069166E-5  -3.811950155068189E-4  
 2.726000000000000E10   -9.818503167480230E-4   5.208979928283952E-6  
 2.728000000000000E10   -3.598371986299753E-4   8.808718412183225E-4  
 2.730000000000000E10   -3.115467843599618E-4   6.865764153189957E-4  
 2.732000000000000E10    2.976844143631752E-6   3.828712215181440E-4  
 2.734000000000000E10   -2.799742833303753E-5  -2.506151213310659E-4  
 2.736000000000000E10   -2.762928779702634E-4  -3.224573156330735E-4  
 2.738000000000000E10   -9.831057395786047E-4  -3.406228206586093E-4  
 2.740000000000000E10   -3.334404609631747E-4   1.154550351202488E-3  
 2.742000000000000E10    3.348097961861640E-4   8.432855247519910E-4  
 2.744000000000000E10    1.000683056190610E-3  -3.711658064275980E-4  
 2.746000000000000E10   -9.088842198252678E-4  -1.120880042435601E-4  
 2.748000000000000E10   -8.425785345025361E-4   4.755462286993861E-4  
 2.750000000000000E10   -2.073412324534729E-4   1.390265068039298E-3  
 2.752000000000000E10    2.082792634610087E-4   6.091674003982917E-5  
 2.754000000000000E10   -3.427793562877923E-4   1.645837073738221E-5  
 2.756000000000000E10   -4.707633634097874E-4  -2.680296020116657E-4  
