#  HZ   S   RI   R     50.00 
! Rohde & Schwarz ZVA40 4Ports - Version 3.90 - 1145.1110k42 SN: 100403
! Date: 2023-10-04 11:33:28
! Measurement: S12 
! 
 2.200000000000000E10   -1.940405927598476E-4   2.977528492920101E-4  
 2.202000000000000E10    2.168689097743481E-4   2.700872719287872E-4  
 2.204000000000000E10   -1.005414174869657E-3  -2.758375485427678E-4  
 2.206000000000000E10   -1.925992401083931E-4   5.362711963243783E-4  
 2.208000000000000E10    4.019438929390162E-4   5.554023082368076E-4  
 2.210000000000000E10    8.312411955557764E-4  -5.841297097504139E-4  
 2.212000000000000E10   -4.185754223726690E-4  -2.882867993321270E-4  
 2.214000000000000E10   -1.435803424101323E-4   5.566549370996654E-4  
 2.216000000000000E10    4.335459962021560E-4   1.361728413030505E-3  
 2.218000000000000E10    8.625462651252747E-4  -2.187763748224825E-4  
 2.220000000000000E10   -2.961929421871901E-4  -7.344112236751244E-5  
 2.222000000000000E10   -8.692900300957263E-4   2.636553836055100E-4  
 2.224000000000000E10    4.639710241463035E-4   5.229280795902014E-4  
 2.226000000000000E10   -5.164506146684289E-4   1.032492800732143E-4  
 2.228000000000000E10    2.899656246881932E-4  -1.988631265703589E-4  
 2.230000000000000E10    2.867379807867110E-4   2.525308518670499E-4  
 2.232000000000000E10    2.717433089856058E-4  -1.405482529662550E-3  
 2.234000000000000E10   -3.847214393317699E-4  -6.565955118276179E-5  
 2.236000000000000E10    6.239287176867947E-5   8.107610628940165E-4  
 2.238000000000000E10    1.324998447671533E-3   2.136853436240926E-4  
 2.240000000000000E10    6.223710370250046E-4  -8.363678352907300E-4  
 2.242000000000000E10   -4.317634156905115E-4  -8.734750008443371E-5  
 2.244000000000000E10   -6.573346909135580E-4   8.899219683371484E-4  
 2.246000000000000E10    2.982353616971523E-4   4.613199562299997E-4  
 2.248000000000000E10    5.072502244729549E-5  -3.077153523918241E-4  
 2.250000000000000E10   -4.823863855563104E-4  -5.531070637516677E-4  
 2.252000000000000E10    1.257014810107648E-4   5.835699630551972E-5  
 2.254000000000000E10    5.747207906097174E-4  -5.742277717217803E-4  
 2.256000000000000E10    3.177827238687314E-5  -1.252275978913531E-4  
 2.258000000000000E10   -4.186453224974684E-5   3.698856162372977E-4  
 2.260000000000000E10    8.124638698063791E-4   3.162317443639040E-4  
 2.262000000000000E10   -4.764732148032636E-5  -6.514202686958015E-4  
 2.264000000000000E10   -5.631185485981405E-4  -5.444283597171307E-4  
 2.266000000000000E10   -9.184897644445300E-4   1.144618610851467E-3  
 2.268000000000000E10    1.760173327056691E-4  -3.616852045524865E-4  
 2.270000000000000E10    1.063767267623916E-4  -7.822042680345476E-4  
 2.272000000000000E10   -7.510638679377735E-4  -8.629012154415250E-4  
 2.274000000000000E10    5.137402331456542E-4  -1.577291259309277E-4  
 2.276000000000000E10   -1.924160278576892E-5  -2.769939310383052E-4  
 2.278000000000000E10   -1.001600539893843E-4  -1.491995499236509E-4  
 2.280000000000000E10   -1.887923426693305E-4   4.922714433632791E-4  
 2.282000000000000E10    2.711618435569108E-4   5.460579413920641E-4  
 2.284000000000000E10   -7.034040754660964E-4  -5.422539543360472E-4  
 2.286000000000000E10   -1.200400991365314E-3  -8.489212486892939E-4  
 2.288000000000000E10   -7.333583780564368E-4   8.973465883173049E-4  
 2.290000000000000E10    9.567910456098616E-4  -3.032677050214261E-4  
 2.292000000000000E10    5.829053698107600E-4  -1.386268646456301E-3  
 2.294000000000000E10   -3.965139621868730E-4  -1.048299600370228E-3  
 2.296000000000000E10    1.180765466415323E-4   7.404630887322128E-4  
 2.298000000000000E10    3.073564148508012E-4   5.558061529882252E-4  
 2.300000000000000E10    7.711254293099046E-4   2.838147629518062E-4  
 2.302000000000000E10   -2.577504783403128E-4  -3.111713522230275E-5  
 2.304000000000000E10   -1.407659437973052E-4  -2.115824754582718E-4  
 2.306000000000000E10   -1.138091320171952E-3  -6.823531002737582E-4  
 2.308000000000000E10   -8.897826774045825E-4  -1.891399733722210E-4  
 2.310000000000000E10   -8.001529931789264E-5   7.015421288087964E-4  
 2.312000000000000E10    1.469127135351300E-3  -1.202746876515448E-3  
 2.314000000000000E10   -1.899339404189959E-4  -1.329434802755714E-3  
 2.316000000000000E10   -8.264493080787361E-4   2.273109421366826E-4  
 2.318000000000000E10    3.551402769517154E-4   1.979474211111665E-3  
 2.320000000000000E10    7.726462208665907E-4  -1.321953459409997E-5  
 2.322000000000000E10    2.538785047363490E-4  -8.435810741502792E-5  
 2.324000000000000E10   -1.084515359252691E-3  -6.944945198483765E-4  
 2.326000000000000E10   -5.493331118486822E-4   2.725446247495711E-4  
 2.328000000000000E10   -1.584373676450923E-4   4.479273338802159E-4  
 2.330000000000000E10    6.344508146867156E-4   1.429632102372125E-4  
 2.332000000000000E10    3.069293452426791E-4  -5.256920703686774E-4  
 2.334000000000000E10    2.154256508219987E-4  -3.049799415748566E-4  
 2.336000000000000E10   -8.698825258761644E-4   2.804236646625213E-5  
 2.338000000000000E10   -2.436163631500676E-4   4.519085923675448E-4  
 2.340000000000000E10    4.061303334310651E-4   1.463913358747959E-3  
 2.342000000000000E10    4.838797030970454E-4  -6.516375578939915E-4  
 2.344000000000000E10   -3.212969459127635E-4  -1.099159009754658E-3  
 2.346000000000000E10   -1.429526833817363E-3   3.625067765824497E-4  
 2.348000000000000E10    1.194949873024598E-4   8.174648392014206E-4  
 2.350000000000000E10    7.881578640080988E-4   2.851156750693917E-4  
 2.352000000000000E10   -1.635245425859466E-4  -6.295437924563885E-4  
 2.354000000000000E10    1.625820150366053E-4  -3.280443779658526E-4  
 2.356000000000000E10   -3.835756215266883E-4   1.388649397995323E-4  
 2.358000000000000E10   -4.288672644179314E-4   5.306205712258816E-4  
 2.360000000000000E10   -4.670389171224088E-5   8.111495990306139E-4  
 2.362000000000000E10    6.509330705739558E-4   1.743316097417846E-4  
 2.364000000000000E10   -8.404177788179368E-5  -1.083282288163900E-3  
 2.366000000000000E10   -9.012013906612992E-4  -5.200070445425808E-4  
 2.368000000000000E10   -4.612981865648180E-4   8.542527793906629E-4  
 2.370000000000000E10    1.756274723447859E-4   9.364556754007936E-4  
 2.372000000000000E10    1.198306796140969E-3  -4.918042031931691E-5  
 2.374000000000000E10   -1.632678468013182E-4  -3.924237680621445E-4  
 2.376000000000000E10   -1.417854335159063E-3  -3.420837310841307E-5  
 2.378000000000000E10   -2.540879359003156E-4   1.366700744256377E-3  
 2.380000000000000E10   -2.906771551351994E-4   4.259944835212082E-4  
 2.382000000000000E10    4.683226143242791E-5   3.625414319685660E-5  
 2.384000000000000E10    4.038122278871015E-5  -6.403616280294955E-4  
 2.386000000000000E10   -5.637396243400872E-4  -6.556721054948866E-4  
 2.388000000000000E10   -1.076518092304468E-3   2.646661596372724E-4  
 2.390000000000000E10    7.975741755217314E-4   1.571139204315841E-3  
 2.392000000000000E10    1.125754672102630E-3   5.472487537190318E-4  
 2.394000000000000E10    6.887497729621828E-4  -7.050313870422542E-4  
 2.396000000000000E10   -1.259186770766974E-3   3.144121437799186E-4  
 2.398000000000000E10   -8.677386795170605E-4   1.298410235904157E-3  
 2.400000000000000E10    4.886624519713223E-4   1.142688794061542E-3  
 2.402000000000000E10   -6.157308234833181E-5  -3.795277152676135E-4  
 2.404000000000000E10   -9.996512380894274E-5  -6.718279328197241E-4  
 2.406000000000000E10   -7.473826990462840E-4  -2.758262271527201E-4  
 2.408000000000000E10    9.078567927645054E-6   3.553426649887115E-4  
 2.410000000000000E10    7.101632654666901E-4  -8.129690831992775E-5  
 2.412000000000000E10    1.064514741301537E-3  -8.808563870843500E-5  
 2.414000000000000E10    8.568842895328999E-4   1.619465620024130E-4  
 2.416000000000000E10    7.427384261973202E-4  -1.840781915234402E-4  
 2.418000000000000E10   -8.279256289824843E-4   6.090303068049252E-4  
 2.420000000000000E10   -1.306808262597770E-4   9.957915171980858E-4  
 2.422000000000000E10    9.309332235716283E-4   4.677589749917388E-4  
 2.424000000000000E10    4.113636096008122E-4  -1.147983013652265E-3  
 2.426000000000000E10   -6.775715155526996E-4  -1.008223975077272E-3  
 2.428000000000000E10    1.949162542587146E-4   2.334621822228655E-4  
 2.430000000000000E10    4.655516822822392E-4  -6.471815868280828E-5  
 2.432000000000000E10    1.005169702693820E-3  -1.996988430619240E-4  
 2.434000000000000E10    7.196940132416785E-4  -1.154429701273330E-4  
 2.436000000000000E10    5.427569267340004E-4  -1.260956632904708E-4  
 2.438000000000000E10   -5.040057585574687E-4   1.504496467532590E-4  
 2.440000000000000E10   -2.806445409078151E-4   6.366011220961809E-4  
 2.442000000000000E10   -2.077854151139036E-4   7.744699832983315E-4  
 2.444000000000000E10    1.084164367057383E-3  -6.837857654318214E-4  
 2.446000000000000E10   -2.236587024526671E-4  -1.564426231198013E-3  
 2.448000000000000E10   -1.504684332758188E-3  -7.849424146115780E-4  
 2.450000000000000E10   -1.937732449732721E-4   9.888920467346907E-4  
 2.452000000000000E10    1.322425436228514E-3   5.665575154125691E-4  
 2.454000000000000E10    1.086030737496913E-3  -1.202161074616015E-3  
 2.456000000000000E10   -7.015708251856268E-4  -9.850015630945563E-4  
 2.458000000000000E10   -8.364219684153795E-4   8.005417766980827E-4  
 2.460000000000000E10   -1.059099531630636E-6   8.992480579763651E-4  
 2.462000000000000E10    4.017332103103399E-4  -1.583833654876798E-4  
 2.464000000000000E10    3.370432386873290E-5   3.929294689442031E-5  
 2.466000000000000E10    1.827681553550065E-4  -1.005274127237499E-3  
 2.468000000000000E10   -6.605020025745034E-4  -3.028234932571650E-4  
 2.470000000000000E10   -9.784648427739739E-4   6.911546224728227E-4  
 2.472000000000000E10    1.166205154731870E-3   8.467591251246631E-4  
 2.474000000000000E10    1.542243640869856E-3   1.598945236764848E-4  
 2.476000000000000E10   -1.902371877804399E-5  -7.806653156876564E-4  
 2.478000000000000E10   -1.330924918875098E-3   3.690705852932297E-5  
 2.480000000000000E10   -5.044463905505836E-4   1.762409694492817E-3  
 2.482000000000000E10    7.904671947471798E-4   8.182803867384791E-4  
 2.484000000000000E10    6.587177049368620E-4  -9.468885255046189E-4  
 2.486000000000000E10   -5.850109737366438E-4  -6.045547197572887E-4  
 2.488000000000000E10   -3.723049594555050E-4   2.623465552460402E-4  
 2.490000000000000E10    5.388103891164064E-4   1.390469492434932E-6  
 2.492000000000000E10    4.498352354858071E-4   1.831672416301444E-4  
 2.494000000000000E10    5.172683740966022E-4   4.630399926099926E-4  
 2.496000000000000E10    1.247355598025024E-3  -3.629911516327411E-4  
 2.498000000000000E10   -3.967867523897439E-4  -4.167337319813669E-4  
 2.500000000000000E10   -1.405591843649745E-3   2.879464882425964E-4  
 2.502000000000000E10    3.969334356952459E-4   1.109660137444735E-3  
 2.504000000000000E10    1.266941893845797E-3   3.631011713878252E-5  
 2.506000000000000E10    7.250848284456879E-5  -1.543475314974785E-3  
 2.508000000000000E10   -8.011773024918512E-5  -8.929250179789960E-4  
 2.510000000000000E10   -3.272296453360468E-4   5.820574588142335E-4  
 2.512000000000000E10    7.660649134777486E-4   1.439369516447187E-4  
 2.514000000000000E10    1.096286694519222E-3   3.531480979290791E-5  
 2.516000000000000E10    1.080345009540906E-5  -9.541350882500410E-4  
 2.518000000000000E10    4.854939834331162E-5  -5.173385143280029E-4  
 2.520000000000000E10   -7.396944565698504E-4  -1.419100444763899E-4  
 2.522000000000000E10   -5.165480542927980E-4   4.497281042858958E-4  
 2.524000000000000E10    5.933361244387925E-4   2.141969016520307E-4  
 2.526000000000000E10    1.153704244643450E-3  -6.851624348200858E-4  
 2.528000000000000E10   -7.495626923628151E-4  -1.696298480965197E-3  
 2.530000000000000E10   -1.025519100949168E-3  -9.852937364485115E-5  
 2.532000000000000E10    6.331369513645768E-5   1.414654892869294E-3  
 2.534000000000000E10    1.453474978916347E-3  -7.886515231803060E-4  
 2.536000000000000E10   -1.576531644786883E-6  -1.083479030057788E-3  
 2.538000000000000E10   -1.265380182303488E-3  -5.684837233275175E-4  
 2.540000000000000E10   -7.314159884117544E-4   5.391100421547890E-4  
 2.542000000000000E10    1.646394666749984E-4  -4.168006853433326E-5  
 2.544000000000000E10    3.185904060956091E-4   6.372844654833898E-5  
 2.546000000000000E10   -1.840458717197180E-4  -8.251828257925808E-4  
 2.548000000000000E10   -2.893981290981174E-4  -2.412180765531957E-4  
 2.550000000000000E10   -1.195022952742875E-3   1.478533977206098E-5  
 2.552000000000000E10   -3.120485052932054E-4   2.379101206315681E-4  
 2.554000000000000E10    3.554314025677741E-4   7.226408342830837E-4  
 2.556000000000000E10    4.427668172866106E-4  -8.097629761323333E-4  
 2.558000000000000E10   -5.843257531523705E-4  -5.847975844517350E-4  
 2.560000000000000E10   -1.244106912054122E-3  -8.317225729115307E-5  
 2.562000000000000E10   -1.222946739289910E-4   9.618410840630531E-4  
 2.564000000000000E10    3.463165485300124E-4   2.202924661105499E-4  
 2.566000000000000E10    7.678107795072720E-5  -4.159995296504349E-4  
 2.568000000000000E10   -6.673483876511455E-4  -3.254080947954208E-4  
 2.570000000000000E10   -5.989265628159046E-4   1.034343658830039E-4  
 2.572000000000000E10   -5.100948037579656E-4   1.616609079064801E-4  
 2.574000000000000E10    2.986740437336266E-4   3.326181613374502E-4  
 2.576000000000000E10    7.755940896458924E-4   1.478227932238951E-4  
 2.578000000000000E10   -3.539905446814373E-5  -7.184165879152715E-4  
 2.580000000000000E10   -1.174201257526875E-3  -1.455473829992116E-4  
 2.582000000000000E10   -7.338308496400714E-4   9.235267061740160E-4  
 2.584000000000000E10    6.959476158954203E-4   7.309808861464262E-4  
 2.586000000000000E10    7.484047673642635E-4  -1.695957325864583E-4  
 2.588000000000000E10   -3.369026235304773E-4  -8.681987528689206E-4  
 2.590000000000000E10   -6.463938043452799E-4  -1.989548618439585E-4  
 2.592000000000000E10   -1.864306395873427E-4   8.106568711809814E-4  
 2.594000000000000E10    1.130544580519199E-3   7.190104806795716E-4  
 2.596000000000000E10    9.669222054071724E-4  -3.287377185188234E-4  
 2.598000000000000E10   -3.506460052449256E-5  -6.843284791102633E-5  
 2.600000000000000E10   -8.991327486000955E-4  -7.688640471315011E-5  
 2.602000000000000E10   -4.787934885825962E-4   3.637185727711767E-4  
 2.604000000000000E10    2.392250607954338E-4   9.337263763882220E-4  
 2.606000000000000E10    7.700399146415293E-4  -2.806454140227288E-4  
 2.608000000000000E10    4.317864077165723E-4  -6.397242541424930E-4  
 2.610000000000000E10   -3.699274020618759E-5  -4.552430764306337E-4  
 2.612000000000000E10   -1.909748098114505E-4   8.929484174586833E-4  
 2.614000000000000E10    4.500420473050326E-4   9.095030254684389E-4  
 2.616000000000000E10    1.109668868593872E-3   2.794200845528394E-4  
 2.618000000000000E10   -3.490732706268318E-5  -5.072464118711650E-4  
 2.620000000000000E10   -5.999252898618579E-4  -8.265548240160570E-5  
 2.622000000000000E10   -8.768201805651188E-4   5.928137106820941E-4  
 2.624000000000000E10    4.850181867368519E-4   3.614528686739504E-4  
 2.626000000000000E10    6.687801214866340E-4  -3.992339043179527E-5  
 2.628000000000000E10    2.305824164068326E-4  -5.589469801634550E-4  
 2.630000000000000E10   -1.943803181347903E-5   2.552607329562306E-4  
 2.632000000000000E10   -7.206631125882268E-4   1.288927742280066E-4  
 2.634000000000000E10    1.992101460928097E-4   6.009496864862740E-4  
 2.636000000000000E10    4.755641566589475E-4   5.920599796809256E-4  
 2.638000000000000E10    3.725654678419232E-4  -4.484486416913569E-4  
 2.640000000000000E10   -2.466538280714303E-4  -1.077047898434103E-3  
 2.642000000000000E10   -7.644353900104761E-4  -1.728246024867985E-5  
 2.644000000000000E10   -1.553104957565665E-4   5.798659985885024E-4  
 2.646000000000000E10    6.899328436702490E-4   2.894128556363285E-4  
 2.648000000000000E10    7.350674131885171E-4  -5.442256224341691E-4  
 2.650000000000000E10   -1.965918490896002E-4  -6.994800060056150E-4  
 2.652000000000000E10   -7.538800709880889E-4   2.404954429948703E-4  
 2.654000000000000E10   -6.534180283779278E-5   7.779059815220535E-4  
 2.656000000000000E10    6.207502447068691E-4   7.535027543781325E-5  
 2.658000000000000E10    4.516162734944373E-4  -7.604695274494588E-4  
 2.660000000000000E10   -6.194485467858613E-4  -8.318804902955890E-4  
 2.662000000000000E10   -6.323940469883382E-4  -3.008008934557438E-4  
 2.664000000000000E10   -1.770314702298492E-4   4.235830274410546E-4  
 2.666000000000000E10    5.094455555081368E-4   4.147069412283599E-4  
 2.668000000000000E10    1.069109421223402E-3  -2.954269875772297E-4  
 2.670000000000000E10    2.474685024935752E-4  -9.513167897239327E-4  
 2.672000000000000E10   -1.476675155572593E-3  -2.770275459624827E-4  
 2.674000000000000E10   -4.375837452244014E-4   1.037465408444405E-3  
 2.676000000000000E10    9.630915592424572E-4   9.378428803756833E-4  
 2.678000000000000E10    3.267022257205099E-4  -1.165766152553260E-3  
 2.680000000000000E10   -6.103680352680385E-4  -7.684892625547946E-4  
 2.682000000000000E10   -9.925925405696034E-4   1.787130349839572E-5  
 2.684000000000000E10    4.030317359138280E-4   6.238142959773541E-4  
 2.686000000000000E10    7.733308593742549E-4   3.298746887594461E-4  
 2.688000000000000E10    6.077193538658321E-4  -2.513694635126740E-4  
 2.690000000000000E10   -1.685076858848333E-4  -1.564747508382425E-4  
 2.692000000000000E10   -2.153041423298419E-4   1.665793533902615E-4  
 2.694000000000000E10   -8.575367392040789E-4   7.472520228475332E-4  
 2.696000000000000E10    1.011652784654871E-4   9.405068121850491E-4  
 2.698000000000000E10    4.720869765151292E-4   3.709695301949978E-4  
 2.700000000000000E10   -1.609349274076521E-4  -1.035038963891566E-3  
 2.702000000000000E10   -1.110483659431338E-3  -1.644914300413802E-5  
 2.704000000000000E10   -5.252963164821267E-4   9.027309133671224E-4  
 2.706000000000000E10    1.103310612961650E-3   4.531637823674828E-4  
 2.708000000000000E10    5.268419045023620E-4  -5.273502902127802E-4  
 2.710000000000000E10   -1.415140723111108E-4   6.763733108527958E-5  
 2.712000000000000E10   -1.692163350526243E-4   4.300779546611011E-4  
 2.714000000000000E10    7.169368473114446E-5   5.983703304082155E-4  
 2.716000000000000E10   -5.124348099343479E-4   7.590861641801894E-4  
 2.718000000000000E10    1.098363864002749E-4   6.886164774186909E-4  
 2.720000000000000E10    4.072748997714371E-4  -2.425935381324962E-4  
 2.722000000000000E10   -2.295774611411616E-4  -5.821360973641276E-4  
 2.724000000000000E10   -7.291796500794590E-4   7.467253453796729E-5  
 2.726000000000000E10    3.653885214589536E-4   7.110539008863270E-4  
 2.728000000000000E10    9.479980799369514E-4   6.285034469328821E-4  
 2.730000000000000E10    1.173245604149997E-3  -5.433942424133420E-4  
 2.732000000000000E10   -5.122215952724218E-4   1.435369631508365E-5  
 2.734000000000000E10   -5.401908420026302E-4   4.907575785182416E-4  
 2.736000000000000E10    2.613003016449511E-4   1.175983110442758E-3  
 2.738000000000000E10    4.262156726326793E-4  -1.945753901964054E-4  
 2.740000000000000E10    4.507132398430258E-4  -4.947501001879573E-4  
 2.742000000000000E10    2.875353493436705E-5  -7.831502589397132E-4  
 2.744000000000000E10    1.813030735320353E-6   4.112818714929745E-6  
 2.746000000000000E10   -3.869549254886806E-4   2.694455906748772E-4  
 2.748000000000000E10    1.464025117456913E-3   9.423636947758496E-4  
 2.750000000000000E10    1.081219874322414E-3  -4.136713105253875E-4  
 2.752000000000000E10    1.348853111267090E-4  -1.033928128890693E-3  
 2.754000000000000E10   -9.581858175806701E-4   8.430073503404856E-4  
 2.756000000000000E10    2.562776790000498E-4   6.974315037950873E-4  
