#  HZ   S   RI   R     50.00 
! Rohde & Schwarz ZVA40 4Ports - Version 3.90 - 1145.1110k42 SN: 100403
! Date: 2023-10-04 11:33:10
! Measurement: S12 
! 
 2.200000000000000E10    4.570518212858588E-4  -7.642729906365275E-4  
 2.202000000000000E10    3.842658188659698E-4   1.299748255405575E-4  
 2.204000000000000E10   -6.145492661744356E-4  -1.148005831055343E-3  
 2.206000000000000E10    2.731555141508579E-4   6.034122779965401E-4  
 2.208000000000000E10   -1.838089956436306E-4   1.116946339607239E-3  
 2.210000000000000E10    1.149653107859194E-3  -9.106791694648564E-4  
 2.212000000000000E10   -5.334239103831351E-4  -5.925507284700871E-4  
 2.214000000000000E10   -5.964832380414009E-4  -2.747422258835286E-4  
 2.216000000000000E10    9.684496762929484E-5   5.016680224798620E-4  
 2.218000000000000E10    2.357004268560559E-4  -7.305982871912420E-4  
 2.220000000000000E10    1.119531589210965E-4   1.049267084454186E-4  
 2.222000000000000E10    2.216515422333032E-4  -3.197599435225129E-4  
 2.224000000000000E10    3.845533065032214E-4  -3.814673254964873E-5  
 2.226000000000000E10   -9.639278869144619E-4  -2.026797010330483E-4  
 2.228000000000000E10    1.100803638109937E-4   3.590528212953359E-4  
 2.230000000000000E10    4.240284906700254E-4   8.379204664379358E-4  
 2.232000000000000E10    3.229576104786247E-4  -8.819259819574654E-4  
 2.234000000000000E10   -4.451707936823368E-4  -2.485939767211676E-4  
 2.236000000000000E10   -1.021726988255978E-3   4.261859576217830E-4  
 2.238000000000000E10    6.414928939193487E-4   8.391179726459086E-4  
 2.240000000000000E10    6.393354269675911E-4  -9.324871643912047E-5  
 2.242000000000000E10   -2.924195432569832E-4  -6.694063777104020E-4  
 2.244000000000000E10   -2.363702369621024E-4   2.675950781849679E-5  
 2.246000000000000E10    1.532582245999947E-4  -6.794478395022452E-5  
 2.248000000000000E10    1.861881514741981E-6   2.096879034070298E-4  
 2.250000000000000E10    9.117203444475308E-5   5.187611677683890E-4  
 2.252000000000000E10    7.442355272360146E-4   1.629383914405480E-4  
 2.254000000000000E10   -4.218904941808432E-4  -6.004807655699551E-4  
 2.256000000000000E10   -8.233190746977925E-4  -1.108258511521854E-4  
 2.258000000000000E10    2.190452214563265E-4   1.009966712445021E-3  
 2.260000000000000E10    1.211559749208391E-3   5.640420567942783E-5  
 2.262000000000000E10    5.686758086085320E-4  -1.310752821154892E-3  
 2.264000000000000E10   -2.096894313581288E-4  -1.261098223039880E-4  
 2.266000000000000E10    6.734947237418965E-5   4.725158796645701E-4  
 2.268000000000000E10    1.159039558842778E-3  -8.403234096476808E-5  
 2.270000000000000E10    5.335547612048686E-4   3.649100253824145E-4  
 2.272000000000000E10   -7.677725807297975E-5  -3.764618595596403E-4  
 2.274000000000000E10    3.874859830830246E-4   5.154610698809847E-5  
 2.276000000000000E10    7.258813275257126E-5  -3.698455984704197E-4  
 2.278000000000000E10   -7.684877346036956E-5  -4.358033183962107E-4  
 2.280000000000000E10   -2.325637760804966E-4   1.308119390159845E-4  
 2.282000000000000E10    7.742647430859506E-4   3.255543706472963E-4  
 2.284000000000000E10    2.874633355531842E-4  -1.186669920571148E-3  
 2.286000000000000E10   -1.613767817616463E-4  -4.880909400526434E-4  
 2.288000000000000E10   -3.100746835116297E-4   1.003911020234227E-3  
 2.290000000000000E10    7.969618891365826E-4   9.025345207192004E-5  
 2.292000000000000E10    3.110658144578338E-4  -1.469122507842258E-4  
 2.294000000000000E10   -7.152247126214206E-4  -4.188971652183682E-4  
 2.296000000000000E10   -1.669501798460260E-4   4.351723764557391E-4  
 2.298000000000000E10   -4.260785353835672E-4  -3.824535524472594E-4  
 2.300000000000000E10   -1.420008775312454E-4  -1.569171399751212E-5  
 2.302000000000000E10   -2.182208118028939E-5  -3.165611633448862E-5  
 2.304000000000000E10    8.193165413103998E-4  -8.776247268542647E-4  
 2.306000000000000E10   -4.770368977915496E-4  -8.811369189061225E-4  
 2.308000000000000E10   -6.587609532289207E-4   2.999591524712741E-4  
 2.310000000000000E10    2.293880825163797E-4   1.308399019762874E-3  
 2.312000000000000E10    6.568791577592492E-4   3.656401895568706E-5  
 2.314000000000000E10   -4.303375608287752E-4  -6.160484044812620E-4  
 2.316000000000000E10   -1.447163522243500E-3  -4.075149190612137E-4  
 2.318000000000000E10   -8.025373681448400E-4   1.329364720731974E-3  
 2.320000000000000E10    4.801253089681268E-4   3.790753544308245E-4  
 2.322000000000000E10    4.343238251749426E-4  -6.084396591177210E-5  
 2.324000000000000E10   -1.143291665357538E-4   9.122729534283280E-5  
 2.326000000000000E10    2.494077489245683E-4   7.568452565465123E-5  
 2.328000000000000E10   -1.011383021250367E-3   4.443833604454994E-4  
 2.330000000000000E10   -1.069271729647880E-5   9.040421573445201E-4  
 2.332000000000000E10    1.206284621730447E-3   6.999631295911968E-4  
 2.334000000000000E10    4.177194496151060E-4  -8.701274637132883E-4  
 2.336000000000000E10   -9.276243508793414E-4  -9.794702054932714E-4  
 2.338000000000000E10   -9.112881380133331E-4   1.023736200295389E-3  
 2.340000000000000E10    4.336216661613435E-4   9.039444266818464E-4  
 2.342000000000000E10    1.135798171162605E-3  -6.052712560631335E-4  
 2.344000000000000E10    8.232833351939917E-5  -7.202431443147361E-4  
 2.346000000000000E10   -8.327290997840464E-4  -2.705238584894687E-4  
 2.348000000000000E10   -2.287458919454366E-4   3.754115314222872E-4  
 2.350000000000000E10    5.540294805541635E-4   6.080243038013578E-4  
 2.352000000000000E10    2.620248415041715E-4  -2.451707841828466E-4  
 2.354000000000000E10    2.572321100160480E-4  -7.839509053155780E-4  
 2.356000000000000E10   -1.720933360047638E-4  -5.480260006152093E-4  
 2.358000000000000E10   -7.077021873556078E-4  -8.699152967892587E-4  
 2.360000000000000E10    1.324887998634949E-4   9.364956640638411E-4  
 2.362000000000000E10    1.054713851772249E-3  -4.045649257022888E-5  
 2.364000000000000E10    8.784465026110411E-4  -1.006582751870155E-3  
 2.366000000000000E10   -1.210786984302104E-3  -8.937795646488667E-4  
 2.368000000000000E10   -4.787084180861712E-4   5.317804752849042E-4  
 2.370000000000000E10    1.197404999402352E-4   6.422747392207384E-4  
 2.372000000000000E10    9.680297225713730E-4  -7.099072099663317E-4  
 2.374000000000000E10   -2.704571525100619E-4  -4.247318138368428E-4  
 2.376000000000000E10   -4.008039250038564E-4  -5.886155995540321E-4  
 2.378000000000000E10   -3.103731432929635E-4   1.755390985636041E-4  
 2.380000000000000E10   -1.204714862979017E-5   2.434163907309994E-4  
 2.382000000000000E10    6.775911315344274E-4   3.902448515873402E-4  
 2.384000000000000E10    3.977730812039226E-4  -5.124794552102685E-4  
 2.386000000000000E10    4.101494050701149E-5  -7.226833840832114E-4  
 2.388000000000000E10   -1.345422002486885E-3  -2.777921909000725E-4  
 2.390000000000000E10   -3.224060856155120E-5   1.000120071694255E-3  
 2.392000000000000E10    6.667387206107378E-4   2.375490294070914E-4  
 2.394000000000000E10    7.101625669747591E-4  -1.514695584774017E-3  
 2.396000000000000E10   -1.034241635352373E-3  -9.699654765427113E-4  
 2.398000000000000E10   -6.415676907636225E-4   2.132520749000832E-4  
 2.400000000000000E10    6.516022840514779E-4   7.048143888823688E-4  
 2.402000000000000E10    7.938811904750764E-4  -4.159760719630867E-4  
 2.404000000000000E10    1.301461452385411E-4  -6.249098223634064E-4  
 2.406000000000000E10   -2.109673805534840E-4  -1.973845646716654E-4  
 2.408000000000000E10   -4.520181973930448E-4  -1.195166041725315E-4  
 2.410000000000000E10   -2.277082821819931E-4   7.916660397313535E-4  
 2.412000000000000E10    3.084942873101682E-4   1.038522925227881E-3  
 2.414000000000000E10    8.829467114992440E-4  -1.091191312298179E-3  
 2.416000000000000E10   -7.193225901573896E-4  -1.179580111056566E-3  
 2.418000000000000E10   -1.357924775220454E-3  -8.545286982553080E-5  
 2.420000000000000E10    1.831932895584032E-4   8.865984273143113E-4  
 2.422000000000000E10    9.391665225848556E-4   4.900277126580477E-4  
 2.424000000000000E10    6.005045142956078E-4  -1.031877007335424E-3  
 2.426000000000000E10   -7.214170182123780E-4  -2.334386081201956E-4  
 2.428000000000000E10   -9.794165380299091E-4   6.305088172666729E-4  
 2.430000000000000E10   -1.154112542280927E-4   6.992379203438759E-4  
 2.432000000000000E10    9.692674939287826E-5  -1.585669670021161E-4  
 2.434000000000000E10   -2.511409402359277E-4  -1.795221323845908E-4  
 2.436000000000000E10   -1.995137427002192E-4  -7.431475096382201E-4  
 2.438000000000000E10   -6.672540330328047E-4  -5.896054208278656E-4  
 2.440000000000000E10   -6.447697523981333E-4   4.351477255113423E-4  
 2.442000000000000E10    3.702809917740524E-4   1.158689381554723E-3  
 2.444000000000000E10    1.471493276767433E-3   9.677543857833371E-5  
 2.446000000000000E10   -1.411980483680964E-4  -9.324423735961318E-4  
 2.448000000000000E10   -1.235750038176775E-3  -3.482082684058696E-5  
 2.450000000000000E10   -4.658983380068094E-4   1.602451549842954E-3  
 2.452000000000000E10    6.290624151006341E-4   5.684681818820536E-4  
 2.454000000000000E10    4.864884540438652E-4  -7.421126356348395E-4  
 2.456000000000000E10   -2.735083980951458E-4  -7.160492241382599E-4  
 2.458000000000000E10   -1.346919452771545E-4  -2.891581098083407E-4  
 2.460000000000000E10    1.229054323630408E-4  -1.374770217807964E-4  
 2.462000000000000E10    6.000621942803264E-4   6.769488099962473E-4  
 2.464000000000000E10    9.796785889193416E-4   6.237421766854823E-4  
 2.466000000000000E10    9.658138151280582E-4  -5.291434936225414E-4  
 2.468000000000000E10   -8.014295017346740E-4  -5.575748509727418E-4  
 2.470000000000000E10   -1.540727098472416E-3   4.910368588753045E-4  
 2.472000000000000E10    4.240779962856323E-4   1.619989518076181E-3  
 2.474000000000000E10    1.344321179203689E-3  -1.726439804770052E-4  
 2.476000000000000E10   -5.840974627062678E-4  -1.700281514786184E-3  
 2.478000000000000E10   -1.305674668401480E-3  -3.262750979047269E-4  
 2.480000000000000E10   -1.778878358891234E-4   1.096876570954919E-3  
 2.482000000000000E10    7.603068952448666E-4   8.313413673022296E-6  
 2.484000000000000E10    6.071319803595543E-4  -2.203690237365663E-4  
 2.486000000000000E10   -2.361222868785262E-4  -2.258176536997780E-4  
 2.488000000000000E10   -7.985345437191427E-4  -2.117618860211223E-4  
 2.490000000000000E10   -6.626829854212701E-4   5.250902540865354E-5  
 2.492000000000000E10   -3.581769706215709E-4   6.555522559210658E-4  
 2.494000000000000E10    3.012813976965845E-4  -4.627883608918637E-4  
 2.496000000000000E10    7.231241324916482E-4  -8.442368125542998E-4  
 2.498000000000000E10   -9.068513172678649E-4  -7.165360148064792E-4  
 2.500000000000000E10   -6.956635625101626E-4   3.509330854285508E-4  
 2.502000000000000E10    6.550726247951388E-4   1.461124862544239E-3  
 2.504000000000000E10    8.364244713447988E-4   3.027212515007705E-4  
 2.506000000000000E10   -4.143383703194559E-4  -7.205988513305783E-4  
 2.508000000000000E10   -1.060635317116976E-3   2.397249627392739E-4  
 2.510000000000000E10   -8.617732091806829E-4   8.151367073878646E-4  
 2.512000000000000E10    3.291592875029892E-4  -9.348377352580428E-5  
 2.514000000000000E10   -3.903107790392824E-5   3.332917403895408E-4  
 2.516000000000000E10   -2.023311244556680E-4  -7.279767305590212E-4  
 2.518000000000000E10    3.803979780059308E-4  -8.056429942371324E-5  
 2.520000000000000E10   -1.077606924809516E-3   3.985278817708604E-5  
 2.522000000000000E10   -3.041081363335252E-4   1.373329316265881E-3  
 2.524000000000000E10    5.051465705037117E-4   1.529461704194546E-3  
 2.526000000000000E10    4.855949955526739E-4  -4.349588998593390E-4  
 2.528000000000000E10   -8.581278380006552E-4  -1.193912350572646E-3  
 2.530000000000000E10   -1.104461378417909E-3   5.110235651955009E-4  
 2.532000000000000E10   -1.564444537507370E-4   1.256890594959259E-3  
 2.534000000000000E10    1.359960879199207E-3   1.065087999450043E-4  
 2.536000000000000E10    1.105388859286904E-3  -3.046275814995170E-4  
 2.538000000000000E10   -4.297136329114437E-4  -3.366972377989441E-4  
 2.540000000000000E10   -3.267005085945129E-4   9.996473090723157E-4  
 2.542000000000000E10    2.456463562339195E-6   1.361962989903987E-3  
 2.544000000000000E10    4.910632269456983E-4   7.512723095715046E-4  
 2.546000000000000E10    6.305067799985409E-4  -2.861553803086281E-4  
 2.548000000000000E10    1.872235043265391E-5  -8.434777264483273E-4  
 2.550000000000000E10   -8.791938307695091E-4  -3.874256508424878E-4  
 2.552000000000000E10    1.011592103168368E-4   1.028961618430913E-3  
 2.554000000000000E10    1.414481317624450E-3   4.648519097827375E-4  
 2.556000000000000E10    1.228382810950279E-3  -6.975544383749366E-4  
 2.558000000000000E10   -4.213834472466260E-4  -6.963917403481901E-4  
 2.560000000000000E10   -6.579187465831637E-4   8.979502599686384E-4  
 2.562000000000000E10    1.852590503403917E-4   1.064711948856711E-3  
 2.564000000000000E10    8.496583322994411E-4  -1.564535050420091E-4  
 2.566000000000000E10    2.129698841599748E-4  -6.654124590568245E-4  
 2.568000000000000E10   -1.092636375688016E-4  -8.002043468877673E-4  
 2.570000000000000E10   -1.601231924723834E-4  -2.971863432321698E-4  
 2.572000000000000E10    1.744950277497992E-4   8.672232797835022E-5  
 2.574000000000000E10    6.553617422468960E-4   2.295405865879729E-4  
 2.576000000000000E10    8.146765176206827E-4  -2.326199755771086E-4  
 2.578000000000000E10    2.052978525171056E-4  -8.373750024475157E-4  
 2.580000000000000E10   -5.602805176749826E-4  -2.714465663302690E-4  
 2.582000000000000E10   -7.580762030556798E-4   5.778154591098428E-4  
 2.584000000000000E10    3.853631787933409E-4   2.490933111403137E-4  
 2.586000000000000E10    6.209093262441456E-4  -8.296527666971088E-4  
 2.588000000000000E10   -2.507692261133343E-4  -1.241948339156807E-3  
 2.590000000000000E10   -4.205089353490621E-4   4.500069553614594E-5  
 2.592000000000000E10   -3.769862232729793E-4   3.153394209221005E-4  
 2.594000000000000E10    1.130051678046584E-4   1.623133721295744E-4  
 2.596000000000000E10    1.993933692574501E-4  -8.079352846834809E-5  
 2.598000000000000E10    1.817569136619568E-4  -6.697642384096980E-4  
 2.600000000000000E10   -1.360290800221264E-3  -8.067646413110197E-4  
 2.602000000000000E10   -8.106143795885146E-4   3.879556898027659E-4  
 2.604000000000000E10    1.321573217865080E-4   1.141212647780776E-3  
 2.606000000000000E10    6.164478254504502E-4  -4.066048422828317E-4  
 2.608000000000000E10    1.185273940791376E-4  -8.799058268778026E-4  
 2.610000000000000E10   -1.248855143785477E-3  -2.961583377327770E-4  
 2.612000000000000E10   -6.817315588705242E-4   1.180061604827642E-3  
 2.614000000000000E10    1.576652284711599E-4   8.929432951845229E-4  
 2.616000000000000E10    8.194871479645371E-4  -4.303977766539902E-4  
 2.618000000000000E10   -5.825782864121720E-5  -6.855597603134811E-4  
 2.620000000000000E10   -1.077583641745150E-3  -3.306795842945576E-4  
 2.622000000000000E10   -4.207927850075066E-4   5.326709942892194E-4  
 2.624000000000000E10    4.076557816006243E-4   9.760244865901768E-4  
 2.626000000000000E10    3.868441272061318E-4  -3.619120107032359E-4  
 2.628000000000000E10    3.203464730177075E-4  -5.823078681714833E-4  
 2.630000000000000E10   -8.891594479791820E-4  -1.723418536130339E-4  
 2.632000000000000E10   -4.747068742290139E-4   6.114336429163814E-4  
 2.634000000000000E10    3.589900443330407E-4   8.149393252097070E-4  
 2.636000000000000E10    7.499956991523504E-4  -6.135672720120056E-6  
 2.638000000000000E10    2.753967128228396E-4  -5.422022077254951E-4  
 2.640000000000000E10   -2.412557078059763E-4  -3.160319174639881E-4  
 2.642000000000000E10   -3.535316791385412E-4   7.946623954921961E-4  
 2.644000000000000E10    2.378096251050010E-4   6.295813946053386E-4  
 2.646000000000000E10    9.950296953320503E-4   3.036611306015402E-4  
 2.648000000000000E10    3.030468069482595E-4  -4.719456774182618E-4  
 2.650000000000000E10   -3.996043815277517E-4  -6.395310629159212E-4  
 2.652000000000000E10   -2.805286494549364E-4   4.764774930663407E-4  
 2.654000000000000E10    5.032977787777782E-4   7.345703779719770E-4  
 2.656000000000000E10    8.813879685476422E-4   1.207511741085909E-5  
 2.658000000000000E10    2.034706703852862E-4  -2.297384780831635E-4  
 2.660000000000000E10    1.376330183120444E-4  -5.559875862672925E-4  
 2.662000000000000E10   -3.907200880348682E-5   4.881617787759751E-4  
 2.664000000000000E10   -3.856404218822718E-4   5.989431519992650E-4  
 2.666000000000000E10    8.207052014768124E-4   5.947834579274058E-4  
 2.668000000000000E10    3.888388164341450E-4  -6.854310631752014E-4  
 2.670000000000000E10    4.433033464010805E-4  -7.915827445685864E-4  
 2.672000000000000E10   -9.581794147379696E-4   4.607873852364719E-4  
 2.674000000000000E10    9.170478006126359E-5   6.370596820488572E-4  
 2.676000000000000E10    5.682269693352282E-4   8.529982878826559E-4  
 2.678000000000000E10    7.105090771801770E-4  -7.002662750892341E-4  
 2.680000000000000E10   -1.283493911614642E-4  -5.079528200440109E-4  
 2.682000000000000E10   -1.115694874897599E-3  -4.265442112227902E-5  
 2.684000000000000E10    2.040608524112031E-4   3.482304746285081E-4  
 2.686000000000000E10    2.671342226676643E-4   3.221943916287273E-4  
 2.688000000000000E10    4.220743721816689E-4  -3.836583637166768E-4  
 2.690000000000000E10   -4.812424231204204E-5  -6.649998831562698E-4  
 2.692000000000000E10   -7.688583573326469E-4  -5.251676775515080E-4  
 2.694000000000000E10   -8.866818971000612E-4   9.169323020614684E-4  
 2.696000000000000E10    4.245532618369907E-4   6.966756191104651E-4  
 2.698000000000000E10    1.037561334669590E-3  -7.592177134938538E-4  
 2.700000000000000E10   -2.779052301775664E-4  -9.296003263443708E-4  
 2.702000000000000E10   -1.357779023237526E-3  -4.371562099549919E-4  
 2.704000000000000E10    8.334351150551811E-5   8.494238136336207E-4  
 2.706000000000000E10    7.298617274500430E-4   2.265952789457515E-4  
 2.708000000000000E10    5.818760837428272E-4  -9.791614720597863E-4  
 2.710000000000000E10   -5.364535027183592E-4  -7.008467218838632E-4  
 2.712000000000000E10   -7.113300380297005E-4   8.232811524067074E-5  
 2.714000000000000E10   -2.703870413824916E-4   6.271522725000978E-4  
 2.716000000000000E10    5.764974048361182E-4  -3.131258126813918E-4  
 2.718000000000000E10    1.822047343011946E-4  -1.921533839777112E-4  
 2.720000000000000E10   -2.222885814262554E-4  -9.891812223941088E-4  
 2.722000000000000E10   -3.613813023548573E-4  -2.690058026928455E-4  
 2.724000000000000E10   -8.695899159647524E-4   3.895492700394243E-4  
 2.726000000000000E10    4.258704429958016E-4   5.012430483475328E-4  
 2.728000000000000E10    5.331956199370325E-4  -2.767536789178848E-4  
 2.730000000000000E10   -1.885353412944824E-4  -8.668883820064366E-4  
 2.732000000000000E10   -1.223418395966291E-3   6.297546406131005E-6  
 2.734000000000000E10   -7.211249612737447E-5   6.653483724221587E-4  
 2.736000000000000E10    3.211530565749854E-4   1.733508252073079E-4  
 2.738000000000000E10    3.082622715737671E-4  -3.052366664633155E-4  
 2.740000000000000E10   -2.840125525835902E-4  -1.336197510681814E-5  
 2.742000000000000E10   -1.579029922140762E-4  -5.644222837872803E-4  
 2.744000000000000E10   -6.368357571773231E-4   4.225629963912070E-4  
 2.746000000000000E10   -3.338630776852369E-4   4.022933717351407E-4  
 2.748000000000000E10    5.132958176545799E-4   1.015743691823445E-4  
 2.750000000000000E10    2.849770244210959E-4  -7.225853623822331E-4  
 2.752000000000000E10   -1.564419071655721E-4  -3.478537837509066E-4  
 2.754000000000000E10   -1.020051306113601E-3   3.157694300170988E-4  
 2.756000000000000E10    1.839075848693028E-4   1.024247845634818E-3  
