#  HZ   S   RI   R     50.00 
! Rohde & Schwarz ZVA40 4Ports - Version 3.90 - 1145.1110k42 SN: 100403
! Date: 2023-10-04 11:32:54
! Measurement: S12 
! 
 2.200000000000000E10   -3.328246821183711E-4   6.015568942530081E-5  
 2.202000000000000E10    2.685436047613621E-4   2.585802285466343E-4  
 2.204000000000000E10   -6.345260771922767E-4  -6.770645268261433E-4  
 2.206000000000000E10   -4.733718524221331E-4   5.163802416063845E-4  
 2.208000000000000E10    2.510884078219533E-4   2.782992960419506E-4  
 2.210000000000000E10    8.987075998447835E-4  -5.822689854539931E-4  
 2.212000000000000E10   -3.586249949876219E-4   1.343486364930868E-4  
 2.214000000000000E10   -3.227214328944683E-4   4.406766383908689E-4  
 2.216000000000000E10    4.085774999111891E-4   9.682075469754636E-4  
 2.218000000000000E10   -1.331976382061839E-4   2.207472716690972E-4  
 2.220000000000000E10    1.343388576060534E-4  -1.638782705413178E-4  
 2.222000000000000E10    8.743567013880238E-5   8.627776696812362E-5  
 2.224000000000000E10   -3.997914609499276E-4  -5.888548912480474E-5  
 2.226000000000000E10   -1.298256684094667E-4   2.269047836307436E-4  
 2.228000000000000E10   -8.099029219010845E-5   1.743780594551936E-4  
 2.230000000000000E10    3.215871693100780E-4  -4.256910688127391E-5  
 2.232000000000000E10    9.570743713993579E-5  -4.137940704822540E-4  
 2.234000000000000E10   -9.801759151741862E-4  -7.966358680278063E-5  
 2.236000000000000E10   -6.246879347600043E-4   3.714900813065469E-4  
 2.238000000000000E10    5.133741069585085E-4   2.914719807449728E-4  
 2.240000000000000E10   -2.430602035019547E-4  -5.777437472715974E-4  
 2.242000000000000E10   -6.446665502153337E-4  -6.727113504894078E-4  
 2.244000000000000E10   -2.228060475317761E-4   1.828766253311187E-4  
 2.246000000000000E10    2.004098132601939E-5  -4.794154665432870E-4  
 2.248000000000000E10    1.134991034632549E-4  -1.519822253612801E-4  
 2.250000000000000E10    1.384180068271235E-4   1.786203938536346E-4  
 2.252000000000000E10    5.212076357565820E-4  -3.292539622634649E-4  
 2.254000000000000E10   -5.528392503038049E-4  -7.633944624103606E-4  
 2.256000000000000E10   -9.621265344321728E-4   2.937425742857158E-4  
 2.258000000000000E10   -5.923735443502665E-4   7.122163078747690E-4  
 2.260000000000000E10    1.950488658621907E-4   2.181377640226856E-4  
 2.262000000000000E10    9.593938011676073E-5  -6.314674974419177E-4  
 2.264000000000000E10   -8.815778419375420E-4  -3.802866849582642E-4  
 2.266000000000000E10   -1.173297991044819E-3   5.334418965503573E-4  
 2.268000000000000E10    3.015768888872117E-4   9.781612316146493E-4  
 2.270000000000000E10    2.815738844219595E-4   4.763401375385001E-5  
 2.272000000000000E10    1.035859677358531E-4  -5.754161393269897E-4  
 2.274000000000000E10   -3.379516128916293E-4   8.150254725478590E-4  
 2.276000000000000E10   -3.372728824615479E-4   1.897549955174327E-4  
 2.278000000000000E10   -2.773244923446327E-4   1.105195726267994E-3  
 2.280000000000000E10    8.592721860622987E-5   7.578295771963894E-4  
 2.282000000000000E10    6.207016995176673E-4   2.169892395613715E-4  
 2.284000000000000E10   -8.376798359677196E-4  -7.493530283682048E-4  
 2.286000000000000E10   -1.127059920690954E-3   7.674977532587946E-4  
 2.288000000000000E10   -1.197005622088909E-4   1.196097931824625E-3  
 2.290000000000000E10    1.348496880382299E-3  -3.277398936916143E-4  
 2.292000000000000E10   -5.025111604481936E-4  -3.988476819358766E-4  
 2.294000000000000E10   -1.521967642474920E-4   1.356068678433076E-4  
 2.296000000000000E10    1.418242900399491E-4   8.226920035667718E-4  
 2.298000000000000E10    1.443815126549453E-4   2.545531315263361E-4  
 2.300000000000000E10    5.834716721437872E-4   3.943262854591012E-4  
 2.302000000000000E10    2.418633957859129E-4   5.335972309694625E-5  
 2.304000000000000E10   -4.449269545148127E-5  -4.139014345128089E-4  
 2.306000000000000E10   -9.714476618682966E-5  -2.066478336928412E-4  
 2.308000000000000E10    5.758805855293758E-5   5.236041033640504E-4  
 2.310000000000000E10    7.495257304981351E-4   3.987606905866414E-4  
 2.312000000000000E10    1.480832463130355E-3  -2.960891288239509E-4  
 2.314000000000000E10   -2.388509892625734E-4  -4.732197267003357E-4  
 2.316000000000000E10   -5.799187929369509E-4   4.743655445054174E-4  
 2.318000000000000E10    4.809192905668169E-4   1.069673686288297E-3  
 2.320000000000000E10    6.320989923551679E-4  -1.416576415067539E-4  
 2.322000000000000E10   -4.446290040505119E-5  -6.709935260005295E-4  
 2.324000000000000E10    2.944015432149172E-4  -3.687197749968618E-4  
 2.326000000000000E10   -1.782839972293004E-4   2.640287857502699E-4  
 2.328000000000000E10   -8.085514855338261E-5  -1.009617481031455E-4  
 2.330000000000000E10    7.099582580849528E-4   2.463558339513838E-4  
 2.332000000000000E10    1.152316224761307E-3  -1.527143467683345E-4  
 2.334000000000000E10    6.045035479473881E-5  -1.171702053397894E-3  
 2.336000000000000E10   -5.497274687513709E-4  -8.212742977775633E-5  
 2.338000000000000E10   -2.268151001771912E-4   7.645652513019741E-4  
 2.340000000000000E10    7.481310167349875E-4   9.022469748742878E-5  
 2.342000000000000E10    9.075589478015900E-4  -2.167274942621589E-4  
 2.344000000000000E10   -7.648166501894593E-4  -1.176726538687944E-3  
 2.346000000000000E10   -5.653590196743608E-4   6.243564421311021E-4  
 2.348000000000000E10    1.049326419888530E-5   8.724151412025094E-4  
 2.350000000000000E10    5.837382050231099E-4  -2.400132943876088E-4  
 2.352000000000000E10    6.149284308776259E-5  -7.302273879759014E-4  
 2.354000000000000E10    5.336768026609207E-6  -3.336057998239994E-4  
 2.356000000000000E10   -6.634503952227533E-4  -2.103317528963089E-4  
 2.358000000000000E10   -3.186780959367752E-4   1.813129783840850E-4  
 2.360000000000000E10    5.590805667452514E-4   7.916161557659507E-4  
 2.362000000000000E10    1.101565430872142E-3  -8.754690643399954E-4  
 2.364000000000000E10    4.871944111073390E-5  -7.140732486732304E-4  
 2.366000000000000E10   -1.540969475172460E-3  -2.024304703809321E-4  
 2.368000000000000E10   -3.554603317752481E-4   1.149781281128526E-3  
 2.370000000000000E10    4.415833100210875E-4   3.398995904717594E-4  
 2.372000000000000E10    3.517090808600187E-4  -9.876349940896034E-4  
 2.374000000000000E10   -1.044230535626411E-3  -1.085275202058256E-3  
 2.376000000000000E10   -9.575771400704980E-4   2.559915301389992E-4  
 2.378000000000000E10   -1.167568116215989E-4   6.560490000993013E-4  
 2.380000000000000E10    4.114228941034526E-4  -3.575538721634075E-5  
 2.382000000000000E10    4.957613418810070E-4   2.817779313772917E-4  
 2.384000000000000E10   -5.950404447503388E-4  -1.638342218939215E-4  
 2.386000000000000E10   -7.918219198472798E-4   2.153871755581349E-4  
 2.388000000000000E10   -9.990566177293658E-4   8.877887157723308E-4  
 2.390000000000000E10   -7.725444447714835E-6   9.211470023728907E-4  
 2.392000000000000E10    8.444601553492248E-4  -2.354392781853676E-4  
 2.394000000000000E10   -3.253557952120900E-4  -8.778230985626578E-4  
 2.396000000000000E10   -1.341153867542744E-3  -1.766929490258917E-4  
 2.398000000000000E10   -2.699602046050131E-4   1.128890318796039E-3  
 2.400000000000000E10    9.691965533420444E-4   2.648790250532329E-4  
 2.402000000000000E10    4.584821290336549E-4  -3.483245382085443E-4  
 2.404000000000000E10   -3.637674089986831E-4  -2.037746016867459E-4  
 2.406000000000000E10   -3.440376603975892E-4   5.128468037582934E-4  
 2.408000000000000E10   -4.518488422036171E-4   8.089842158369720E-4  
 2.410000000000000E10    9.200786735164002E-5   4.556543717626482E-4  
 2.412000000000000E10    5.530479247681797E-4   1.506981934653595E-4  
 2.414000000000000E10    2.447339065838605E-4  -3.151326673105359E-4  
 2.416000000000000E10   -7.319134892895818E-4  -3.730324970092624E-4  
 2.418000000000000E10   -3.586905077099800E-4   8.665573550388217E-4  
 2.420000000000000E10    4.833679413422942E-4   9.960430907085538E-4  
 2.422000000000000E10    1.472428557462990E-3  -4.946488188579679E-4  
 2.424000000000000E10    4.024023655802012E-4  -1.076466636732221E-3  
 2.426000000000000E10   -1.276071532629430E-3   3.041887612198480E-5  
 2.428000000000000E10    1.112968311645091E-4   1.403040019795299E-3  
 2.430000000000000E10    1.202906714752317E-3   6.681376835331321E-4  
 2.432000000000000E10    2.620444283820689E-4  -6.347968010231853E-4  
 2.434000000000000E10   -3.727359580807388E-4  -5.197804421186447E-4  
 2.436000000000000E10   -3.152448916807771E-4   2.995109825860709E-4  
 2.438000000000000E10   -4.918263293802738E-4   1.961971720447764E-4  
 2.440000000000000E10    4.245167365297675E-4   6.991261034272611E-4  
 2.442000000000000E10    5.572078516706824E-4   2.422566612949595E-4  
 2.444000000000000E10    7.229244802147150E-4  -9.095417335629463E-4  
 2.446000000000000E10   -1.041711540892720E-3  -3.634780587162823E-4  
 2.448000000000000E10   -9.933786932379007E-4   1.180967548862100E-3  
 2.450000000000000E10    5.223765620030463E-4   1.142888911999762E-3  
 2.452000000000000E10    1.075159641914070E-3  -7.429997785948217E-4  
 2.454000000000000E10   -4.062749212607741E-4  -1.050582272000611E-3  
 2.456000000000000E10   -1.251397072337568E-3  -3.231980008422397E-5  
 2.458000000000000E10   -1.780934981070459E-4   8.225516066886485E-4  
 2.460000000000000E10    4.396119911689311E-4   5.262170452624559E-4  
 2.462000000000000E10    1.489931310061365E-4  -2.568353374954313E-4  
 2.464000000000000E10    1.908737176563591E-4   1.232242648256943E-4  
 2.466000000000000E10   -5.240162136033177E-4  -1.189404283650219E-4  
 2.468000000000000E10   -8.713949937373400E-4   1.697229454293847E-4  
 2.470000000000000E10   -3.703709226101637E-4   1.356325228698552E-3  
 2.472000000000000E10    5.658185109496117E-4   3.534579882398248E-4  
 2.474000000000000E10    5.176027189008892E-4  -1.213435782119632E-3  
 2.476000000000000E10   -6.965722423046827E-4  -4.903904045931995E-4  
 2.478000000000000E10   -1.159117207862437E-3   1.083156210370362E-3  
 2.480000000000000E10    5.198525614105165E-4   1.076710410416126E-3  
 2.482000000000000E10    1.435274141840637E-3  -1.796827127691358E-4  
 2.484000000000000E10   -1.525379047961906E-4  -5.742454668506980E-4  
 2.486000000000000E10   -4.472370783332735E-4  -2.311467369509046E-6  
 2.488000000000000E10   -2.479276154190302E-4   6.808362086303532E-4  
 2.490000000000000E10    4.138307122047991E-5   8.470765314996243E-4  
 2.492000000000000E10    6.253813626244664E-4   3.603940713219345E-4  
 2.494000000000000E10    7.938476046547294E-4  -3.154396545141935E-4  
 2.496000000000000E10   -5.288267275318503E-4  -5.933123757131398E-4  
 2.498000000000000E10   -6.533034611493349E-4  -4.148281732341275E-5  
 2.500000000000000E10    1.490609138272703E-4   1.377216540277004E-3  
 2.502000000000000E10    1.375755877234042E-3   3.499858139548451E-4  
 2.504000000000000E10    1.102846814319491E-3  -1.318647409789264E-3  
 2.506000000000000E10   -7.072402513585985E-4  -3.754427598323673E-4  
 2.508000000000000E10   -6.447294726967812E-4   8.843237883411348E-4  
 2.510000000000000E10    1.016246271319687E-3   9.311367757618427E-4  
 2.512000000000000E10    1.265896717086434E-3  -3.593052097130567E-4  
 2.514000000000000E10    2.528985351091251E-5  -8.657678845338523E-4  
 2.516000000000000E10   -5.377238630899228E-5  -4.951392766088247E-4  
 2.518000000000000E10   -1.268581545446068E-4   4.365390923339874E-4  
 2.520000000000000E10    4.371690738480538E-4  -2.844841219484806E-4  
 2.522000000000000E10    1.185784116387367E-3  -1.948311000887770E-5  
 2.524000000000000E10    8.231232059188187E-4  -7.383722113445401E-4  
 2.526000000000000E10    3.602533834055066E-4  -5.704076029360294E-4  
 2.528000000000000E10   -4.230863123666495E-4   7.344920886680484E-4  
 2.530000000000000E10   -4.377175646368414E-4   1.048672245815396E-3  
 2.532000000000000E10    9.364557336084545E-4   2.333589509362355E-5  
 2.534000000000000E10    5.337183829396963E-4  -1.082137343473733E-3  
 2.536000000000000E10   -9.609241387806833E-4  -1.133032026700676E-3  
 2.538000000000000E10   -4.382969636935741E-4  -1.628716709092259E-4  
 2.540000000000000E10    1.018031965941191E-3   3.247516578994691E-4  
 2.542000000000000E10    7.527745910920203E-4  -6.006322219036520E-4  
 2.544000000000000E10    4.175328649580479E-4  -6.009675562381744E-4  
 2.546000000000000E10    1.567082654219121E-4   2.538249827921391E-4  
 2.548000000000000E10   -5.475789075717330E-4  -8.327262912644073E-5  
 2.550000000000000E10   -3.134439466521144E-4   3.688662836793810E-4  
 2.552000000000000E10   -1.759820297593251E-4   5.353942979127169E-4  
 2.554000000000000E10    4.496045876294375E-4  -1.113263308070600E-3  
 2.556000000000000E10   -5.726889939978719E-4  -1.518059987574816E-3  
 2.558000000000000E10   -1.224679406732321E-3  -3.450899675954133E-4  
 2.560000000000000E10   -1.409777323715389E-4   8.433650946244597E-4  
 2.562000000000000E10    1.211447757668793E-3   1.976793282665312E-4  
 2.564000000000000E10    4.571658791974187E-4  -7.859786855988205E-4  
 2.566000000000000E10   -9.322733967565000E-4  -7.559487712569535E-4  
 2.568000000000000E10   -1.191729446873069E-3   4.547385033220053E-4  
 2.570000000000000E10   -8.223680197261274E-4   6.251072045415640E-4  
 2.572000000000000E10   -2.806905285979156E-5  -1.481569925090298E-4  
 2.574000000000000E10   -1.755077246343717E-4  -1.221140846610069E-3  
 2.576000000000000E10   -4.657244135159999E-4  -9.038894204422832E-4  
 2.578000000000000E10   -9.004182065837085E-4  -2.376447082497180E-4  
 2.580000000000000E10    1.737274142215028E-4   8.897900697775185E-4  
 2.582000000000000E10    5.249404930509627E-4   8.733683498576284E-4  
 2.584000000000000E10    5.922241834923625E-4  -2.593029057607055E-4  
 2.586000000000000E10   -1.196012017317116E-3  -3.100222966168076E-4  
 2.588000000000000E10   -1.411076169461012E-3   5.792253068648279E-4  
 2.590000000000000E10   -2.677916490938515E-4   1.158941071480513E-3  
 2.592000000000000E10    3.169285773765296E-4  -2.904083812609315E-4  
 2.594000000000000E10    4.388460074551404E-4  -3.875601396430284E-4  
 2.596000000000000E10   -4.516801564022899E-4  -3.280221426393837E-4  
 2.598000000000000E10    6.210254468896892E-6   5.415552877821028E-4  
 2.600000000000000E10   -2.569578282418661E-5   8.337430190294981E-4  
 2.602000000000000E10    5.360757349990308E-4   8.944775909185410E-4  
 2.604000000000000E10    4.024485824629664E-4   1.508947752881795E-4  
 2.606000000000000E10   -4.009633266832680E-4  -1.714166282908991E-4  
 2.608000000000000E10   -5.205051857046783E-4   1.759549049893394E-4  
 2.610000000000000E10   -4.807565128430724E-4   5.579193821176887E-4  
 2.612000000000000E10    5.548734334297478E-4   6.115674623288214E-4  
 2.614000000000000E10    1.208445872180164E-3  -1.271302317036316E-4  
 2.616000000000000E10    4.929836140945554E-4  -5.793070304207504E-4  
 2.618000000000000E10   -3.321827389299870E-4  -5.397943459684029E-5  
 2.620000000000000E10   -4.832589474972338E-4   9.999442845582962E-4  
 2.622000000000000E10    2.484814904164523E-4   7.008396205492318E-4  
 2.624000000000000E10    4.043346270918846E-4   6.264683906920254E-5  
 2.626000000000000E10    1.581225515110418E-4  -8.819753420539200E-4  
 2.628000000000000E10   -8.343564695678651E-4  -3.807372413575649E-4  
 2.630000000000000E10   -6.067609065212309E-4   2.479417016729713E-4  
 2.632000000000000E10    8.391283918172121E-4   5.465343710966408E-4  
 2.634000000000000E10    7.103250245563686E-4  -1.581136020831764E-4  
 2.636000000000000E10    6.033315366948955E-5  -1.088030403479934E-3  
 2.638000000000000E10   -6.891138618811965E-4  -3.301146498415619E-4  
 2.640000000000000E10   -8.362212684005499E-4   4.969235742464662E-4  
 2.642000000000000E10    3.936278226319701E-4   6.282516987994313E-4  
 2.644000000000000E10    8.310882840305567E-4  -6.581421475857496E-4  
 2.646000000000000E10   -2.682109479792416E-4  -1.733329729177058E-3  
 2.648000000000000E10   -1.036736648529768E-3  -3.285597776994109E-4  
 2.650000000000000E10   -2.723671204876155E-4   2.849255106411874E-4  
 2.652000000000000E10    7.894184091128409E-4   3.853724047075957E-4  
 2.654000000000000E10    3.275484486948699E-4  -5.995004903525114E-4  
 2.656000000000000E10    3.586080274544656E-4  -8.177511626854539E-4  
 2.658000000000000E10   -1.131238183006644E-3   2.890242831199430E-5  
 2.660000000000000E10   -6.342945271171629E-4   3.575618611648679E-4  
 2.662000000000000E10    1.969873119378462E-4   1.160498126409948E-3  
 2.664000000000000E10    1.622244017198682E-4  -6.431743386201561E-4  
 2.666000000000000E10    1.733261306071654E-4  -8.387847337871790E-4  
 2.668000000000000E10   -1.196872093714774E-3  -3.322273551020771E-4  
 2.670000000000000E10   -5.075873923487961E-4   3.955951833631843E-4  
 2.672000000000000E10    1.680401474004611E-4   4.509268910624087E-4  
 2.674000000000000E10    7.183072739280760E-4  -3.449392388574779E-4  
 2.676000000000000E10    7.758568244753406E-5  -2.441246469970793E-4  
 2.678000000000000E10   -8.391481242142618E-4   4.347423964645714E-5  
 2.680000000000000E10   -4.064956447109580E-4   5.778995109722018E-4  
 2.682000000000000E10   -3.147132520098239E-4   6.071649258956313E-4  
 2.684000000000000E10    5.252931150607765E-4   4.192565938865300E-6  
 2.686000000000000E10   -2.124082820955664E-4  -4.373634292278439E-4  
 2.688000000000000E10   -6.796065135858953E-4  -7.445148075930774E-4  
 2.690000000000000E10    8.424040424870327E-5   6.508690421469510E-4  
 2.692000000000000E10    1.200279875774868E-4   2.733346482273191E-4  
 2.694000000000000E10    1.014578621834517E-3  -2.428860716463532E-5  
 2.696000000000000E10    1.896706817205995E-4   3.539306344464421E-4  
 2.698000000000000E10    2.303876826772466E-4  -3.157223109155893E-4  
 2.700000000000000E10   -5.853925831615925E-4   7.286724285222590E-4  
 2.702000000000000E10   -2.624304033815861E-4   6.694453768432140E-4  
 2.704000000000000E10    5.253738490864635E-4   1.043410622514784E-3  
 2.706000000000000E10    3.525470383465290E-4  -8.784203673712909E-4  
 2.708000000000000E10    3.659163121483289E-5  -8.588198106735945E-4  
 2.710000000000000E10   -1.109339762479067E-3   9.020616562338546E-5  
 2.712000000000000E10    3.986752126365900E-4   6.753550260327756E-4  
 2.714000000000000E10    9.417677065357566E-4   5.574712413363159E-4  
 2.716000000000000E10    8.024619310162962E-4  -4.479255294427276E-4  
 2.718000000000000E10   -6.220433861017227E-4  -2.422489487798885E-4  
 2.720000000000000E10   -8.513660286553204E-4   6.095503340475261E-4  
 2.722000000000000E10   -7.388103404082358E-4   6.269143777899444E-4  
 2.724000000000000E10    6.237599882297218E-4   9.807075548451394E-5  
 2.726000000000000E10    9.915277041727677E-5  -2.528577751945704E-4  
 2.728000000000000E10   -6.539551541209221E-4  -1.685852766968310E-3  
 2.730000000000000E10   -6.277095526456833E-4   1.286651422560681E-5  
 2.732000000000000E10    9.923872130457312E-5   6.279238732531667E-4  
 2.734000000000000E10    8.271779515780509E-4   5.776603356935084E-4  
 2.736000000000000E10    5.874938215129077E-4  -8.966034511104226E-4  
 2.738000000000000E10   -5.532135255634785E-4  -3.425449831411243E-4  
 2.740000000000000E10   -1.146628637798131E-3   4.762901808135212E-4  
 2.742000000000000E10    2.126714098267257E-4   1.206857850775123E-3  
 2.744000000000000E10    5.406873533502221E-4   8.783742669038475E-5  
 2.746000000000000E10    5.356811452656984E-4  -8.004844421520829E-4  
 2.748000000000000E10   -1.077515189535916E-3  -4.350308736320585E-4  
 2.750000000000000E10   -2.527332399040461E-4   2.775507455226034E-4  
 2.752000000000000E10   -1.038785103446571E-5   8.087610476650298E-4  
 2.754000000000000E10    8.669989183545113E-4  -5.912251072004437E-5  
 2.756000000000000E10    2.757777983788401E-4  -6.270223093451932E-5  
