#  HZ   S   RI   R     50.00 
! Rohde & Schwarz ZVA40 4Ports - Version 3.90 - 1145.1110k42 SN: 100403
! Date: 2023-10-04 11:32:36
! Measurement: S12 
! 
 2.200000000000000E10    6.314658676274121E-4  -8.372581760340836E-6  
 2.202000000000000E10   -2.122585137840360E-4  -1.801015168894082E-4  
 2.204000000000000E10   -5.075977533124387E-4  -1.010766427498311E-4  
 2.206000000000000E10   -3.639444912550971E-5   5.245619686320424E-4  
 2.208000000000000E10   -4.659648766391911E-5   6.588923133676872E-5  
 2.210000000000000E10   -1.999885280383751E-4  -6.871220830362290E-5  
 2.212000000000000E10    3.961288894060999E-4  -1.456959143979475E-4  
 2.214000000000000E10    3.359706606715918E-4  -3.197373298462480E-4  
 2.216000000000000E10   -6.390576600097120E-4   5.757831786468159E-6  
 2.218000000000000E10    4.361164174042642E-4   3.233912866562605E-4  
 2.220000000000000E10    2.078895631711930E-4   4.687114560510963E-4  
 2.222000000000000E10    3.327772137708962E-4  -6.296082865446806E-4  
 2.224000000000000E10   -1.280866417801008E-4   1.215877200593241E-4  
 2.226000000000000E10   -8.870269521139562E-4  -2.280036860611290E-4  
 2.228000000000000E10    3.106668882537633E-4   1.791819522622973E-4  
 2.230000000000000E10    1.546659768791869E-4   8.389096183236688E-5  
 2.232000000000000E10    2.547517651692033E-4  -5.522012361325324E-4  
 2.234000000000000E10   -4.435807059053332E-4  -1.579895470058546E-4  
 2.236000000000000E10   -4.394004645291716E-4  -5.732422869186848E-5  
 2.238000000000000E10   -2.417611540295184E-4   6.004731403663755E-4  
 2.240000000000000E10    3.439171268837526E-5   3.299056261312217E-4  
 2.242000000000000E10   -1.128876610891894E-4  -2.651226823218167E-4  
 2.244000000000000E10   -5.992841906845570E-4  -3.038409631699324E-4  
 2.246000000000000E10   -1.027679652906954E-3   5.396474080043845E-5  
 2.248000000000000E10   -1.503197127021849E-4   8.269545505754650E-4  
 2.250000000000000E10    4.231232742313296E-4   1.848490210250020E-4  
 2.252000000000000E10    1.680369023233652E-4  -4.147508589085192E-4  
 2.254000000000000E10   -6.170680280774832E-4   2.389631263213232E-4  
 2.256000000000000E10   -4.451700369827449E-4   7.010622648522258E-4  
 2.258000000000000E10    3.597824252210558E-5   5.276376614347100E-4  
 2.260000000000000E10   -1.570516542415135E-5   1.561059762025252E-4  
 2.262000000000000E10    2.396529016550630E-4   2.641706960275769E-4  
 2.264000000000000E10   -3.355392254889011E-4  -3.237621567677707E-4  
 2.266000000000000E10   -2.968863700516522E-4   5.048678722232580E-4  
 2.268000000000000E10   -4.892639699392021E-4   9.318187949247658E-4  
 2.270000000000000E10    5.492719355970621E-4   5.808863352285698E-5  
 2.272000000000000E10    1.119470543926582E-4   2.219823218183592E-4  
 2.274000000000000E10    1.843119825934991E-4  -1.752174575813115E-4  
 2.276000000000000E10   -1.678787230048329E-4   2.936524688266218E-4  
 2.278000000000000E10   -3.601399366743863E-4   4.300145665183663E-4  
 2.280000000000000E10    8.767924737185240E-4   6.974665448069572E-4  
 2.282000000000000E10    2.692410780582577E-4   5.383549723774195E-4  
 2.284000000000000E10    1.765964843798429E-4  -2.745997626334429E-4  
 2.286000000000000E10   -6.914273853908526E-6   5.963501462247223E-5  
 2.288000000000000E10    3.297018411103636E-4   5.122839356772602E-4  
 2.290000000000000E10    3.838889533653855E-4   8.215265697799623E-4  
 2.292000000000000E10    1.278646872378886E-3   6.108688830863684E-5  
 2.294000000000000E10    6.550842081196606E-4  -5.289180553518236E-4  
 2.296000000000000E10   -4.931529983878136E-4  -1.635207736399025E-4  
 2.298000000000000E10   -1.996229839278385E-4   1.076145330443978E-3  
 2.300000000000000E10    7.819539750926197E-4   4.849459801334888E-4  
 2.302000000000000E10    8.081552223302424E-4  -4.548328870441765E-4  
 2.304000000000000E10   -2.403403777861968E-5  -4.439873446244746E-4  
 2.306000000000000E10   -3.412154328543693E-4  -3.214011085219681E-4  
 2.308000000000000E10   -5.450753960758448E-4   1.182836494990625E-4  
 2.310000000000000E10    4.731501394417137E-4   4.120566591154784E-4  
 2.312000000000000E10    1.162549713626504E-3  -7.265863823704422E-4  
 2.314000000000000E10    5.403718751040287E-5  -1.203628373332322E-3  
 2.316000000000000E10   -5.625243647955358E-4  -1.734356046654284E-4  
 2.318000000000000E10   -1.661722490098327E-4   9.013279341161251E-4  
 2.320000000000000E10    5.743331857956946E-4   2.724260557442904E-4  
 2.322000000000000E10    8.024370763450861E-4  -7.391222170554102E-4  
 2.324000000000000E10   -1.857845054473728E-4  -8.985266904346645E-4  
 2.326000000000000E10   -7.598911179229617E-4  -3.473254910204560E-4  
 2.328000000000000E10   -2.742242359090596E-4   4.997326759621501E-4  
 2.330000000000000E10    3.499287995509803E-4   2.399551449343562E-4  
 2.332000000000000E10    4.706219187937677E-4  -6.886837654747069E-4  
 2.334000000000000E10    3.273224137956277E-5  -4.271209472790361E-4  
 2.336000000000000E10   -2.221803733846173E-4  -5.841017991770059E-5  
 2.338000000000000E10   -1.158232407760806E-4   2.381824451731518E-4  
 2.340000000000000E10    2.210050297435373E-5   8.504269644618034E-4  
 2.342000000000000E10    8.761604549363256E-4  -5.127949407324195E-4  
 2.344000000000000E10    3.066618519369513E-4  -4.333776596467942E-4  
 2.346000000000000E10   -1.173256780020893E-3  -1.326530618825927E-4  
 2.348000000000000E10    1.689361233729869E-4   9.359865216538310E-4  
 2.350000000000000E10    1.930673461174592E-4   4.947174456901848E-4  
 2.352000000000000E10    7.395089487545192E-4  -6.376042729243636E-4  
 2.354000000000000E10   -4.026714304927737E-4  -2.061954146483913E-4  
 2.356000000000000E10   -6.027194904163480E-4  -2.885516732931137E-4  
 2.358000000000000E10   -3.405226743780077E-4   1.256587565876544E-4  
 2.360000000000000E10    1.761363091645762E-4  -1.900165952974930E-4  
 2.362000000000000E10    8.532117935828865E-4   2.519874215067830E-5  
 2.364000000000000E10   -3.012857341673225E-4  -8.214254630729556E-4  
 2.366000000000000E10   -4.685189924202859E-4  -2.193119289586321E-4  
 2.368000000000000E10   -1.058713067322969E-3   8.966901223175228E-4  
 2.370000000000000E10    1.651123893680051E-4   7.158127264119685E-4  
 2.372000000000000E10    3.333908971399069E-4   1.090915320673958E-4  
 2.374000000000000E10   -3.112684935331345E-4  -1.275917864404619E-3  
 2.376000000000000E10   -1.293368637561798E-3  -4.490015271585435E-4  
 2.378000000000000E10   -4.838385211769491E-4   6.644392269663513E-4  
 2.380000000000000E10    4.447428509593010E-4   7.869304390624166E-4  
 2.382000000000000E10    5.656948196701706E-4  -5.184983019717038E-4  
 2.384000000000000E10   -1.523545506643131E-5  -1.200006954604760E-4  
 2.386000000000000E10   -6.570630357600749E-4   6.968907546252012E-4  
 2.388000000000000E10   -7.128844154067338E-4   2.907685411628336E-4  
 2.390000000000000E10   -1.961960078915581E-4   1.193078001961112E-3  
 2.392000000000000E10    2.809988218359649E-4   1.876304013421759E-4  
 2.394000000000000E10    2.879098174162209E-4  -1.137832645326853E-3  
 2.396000000000000E10   -9.204635280184448E-4  -1.351806713500992E-4  
 2.398000000000000E10   -9.295028867200017E-4   3.756922087632120E-4  
 2.400000000000000E10    9.317169897258282E-4   1.347936922684312E-3  
 2.402000000000000E10    1.530450535938144E-3  -3.823390670731897E-7  
 2.404000000000000E10    1.979040389414877E-4  -6.296473438851535E-4  
 2.406000000000000E10   -1.043042982928455E-3   5.449551390483975E-4  
 2.408000000000000E10   -8.250184328062460E-5   1.684877090156078E-3  
 2.410000000000000E10    6.338967941701412E-4   9.836937533691526E-4  
 2.412000000000000E10    2.254002902191132E-4  -1.443335786461830E-4  
 2.414000000000000E10   -1.414865837432444E-4   7.629656465724111E-5  
 2.416000000000000E10   -2.899824758060277E-4  -1.010912819765508E-4  
 2.418000000000000E10   -3.122690832242370E-4  -4.054199234815314E-5  
 2.420000000000000E10    4.873670404776931E-4   5.457299994304776E-4  
 2.422000000000000E10    1.144372625276446E-3   3.956501313950867E-4  
 2.424000000000000E10    9.747549775056541E-4  -8.050922770053148E-4  
 2.426000000000000E10   -8.182532037608326E-4  -1.728563365759328E-4  
 2.428000000000000E10   -8.241598843596876E-4   9.226224501617253E-4  
 2.430000000000000E10    1.078370492905378E-3   1.287573482841253E-3  
 2.432000000000000E10    7.961201481521130E-4  -2.168956707464531E-4  
 2.434000000000000E10   -3.654865431599319E-4  -1.222939928993583E-3  
 2.436000000000000E10   -4.822360933758318E-4   2.029819734161720E-5  
 2.438000000000000E10   -1.373569102725014E-4   6.613026489503682E-4  
 2.440000000000000E10    6.462269811891019E-4  -2.110016612277832E-5  
 2.442000000000000E10    8.085755980573595E-4  -2.720488992054015E-4  
 2.444000000000000E10    7.099782233126462E-4   9.673296881373972E-5  
 2.446000000000000E10    2.349031419726089E-4  -4.458980984054506E-4  
 2.448000000000000E10   -6.138641037978232E-4   4.589157761074603E-4  
 2.450000000000000E10   -3.026408958248794E-4   1.429685275070369E-3  
 2.452000000000000E10    1.022376818582416E-3   3.241964732296765E-4  
 2.454000000000000E10    5.164894391782582E-4  -1.258527045138180E-3  
 2.456000000000000E10   -1.242609811015427E-3  -7.702001021243632E-4  
 2.458000000000000E10   -8.948919130489230E-4   6.770316977053881E-4  
 2.460000000000000E10    1.170515781268477E-3   1.248036394827068E-3  
 2.462000000000000E10    1.170630683191121E-3  -2.446174039505422E-4  
 2.464000000000000E10    9.428188059246168E-5  -8.232100517489016E-4  
 2.466000000000000E10   -5.467849550768733E-4   3.795015509240329E-4  
 2.468000000000000E10   -6.311881006695330E-4   1.220023492351174E-3  
 2.470000000000000E10   -4.696023825090379E-5   4.658345424104482E-4  
 2.472000000000000E10    2.454006462357938E-4   1.984017872018740E-4  
 2.474000000000000E10    4.169764870312065E-4  -8.645424968563020E-4  
 2.476000000000000E10   -6.478554569184780E-4  -1.055186381563544E-3  
 2.478000000000000E10   -8.734666625969112E-4   1.552981557324529E-4  
 2.480000000000000E10    5.154180689714849E-4   1.280331285670400E-3  
 2.482000000000000E10    1.399349304847419E-3  -2.510208287276328E-4  
 2.484000000000000E10    8.524838485755026E-4  -8.127354667522013E-4  
 2.486000000000000E10   -9.474736871197820E-4  -9.417211549589410E-5  
 2.488000000000000E10   -7.933648885227740E-4   9.155500447377563E-4  
 2.490000000000000E10    5.718141910620034E-4   9.759452659636736E-4  
 2.492000000000000E10    8.124629384838045E-4  -7.773907855153084E-4  
 2.494000000000000E10    3.334654320497066E-5  -8.578504202887416E-4  
 2.496000000000000E10   -3.505250788293779E-4  -3.788981121033430E-4  
 2.498000000000000E10   -9.371850865136366E-6  -9.219863568432629E-5  
 2.500000000000000E10    5.800677463412285E-4   3.508834197418764E-5  
 2.502000000000000E10    1.228284323588014E-3   3.140571352560073E-4  
 2.504000000000000E10    7.984649273566902E-4  -6.451652734540403E-4  
 2.506000000000000E10    9.295225027017295E-5  -6.700624944642186E-4  
 2.508000000000000E10   -9.318206575699151E-4   2.872411569114775E-4  
 2.510000000000000E10    2.659214806044474E-5   7.833054987713695E-4  
 2.512000000000000E10    1.319766393862665E-3   6.453485548263416E-5  
 2.514000000000000E10    3.748638846445829E-4  -1.174463308416307E-3  
 2.516000000000000E10   -4.399593453854322E-4  -1.245990279130638E-3  
 2.518000000000000E10   -3.811095666605979E-4   2.672749105840921E-4  
 2.520000000000000E10    2.549373893998563E-4   6.950812530703843E-5  
 2.522000000000000E10    1.024856581352651E-3  -8.386779227294028E-4  
 2.524000000000000E10    6.703232065774500E-4  -7.801455212756991E-4  
 2.526000000000000E10   -2.933139330707490E-4  -4.980597295798361E-4  
 2.528000000000000E10   -2.461059193592519E-4  -9.430138015886769E-5  
 2.530000000000000E10   -2.027271548286080E-4   7.235777447931469E-4  
 2.532000000000000E10    6.404414889402688E-4   9.461122317588888E-6  
 2.534000000000000E10    9.677665075287223E-4  -1.356017659418285E-3  
 2.536000000000000E10   -5.040265969000757E-4  -1.296553760766983E-3  
 2.538000000000000E10   -8.341704378835857E-4  -5.534687661565840E-4  
 2.540000000000000E10    3.944737545680255E-4   9.571837144903839E-4  
 2.542000000000000E10    1.517738332040608E-3  -8.920929394662380E-5  
 2.544000000000000E10    5.299114855006337E-4  -1.251440029591322E-3  
 2.546000000000000E10   -9.259391226805747E-4  -4.932581796310842E-4  
 2.548000000000000E10   -5.270367837511003E-4   7.248879992403090E-4  
 2.550000000000000E10    3.077333385590464E-4   3.485249762888998E-4  
 2.552000000000000E10    1.521341764600948E-4  -5.263012135401368E-4  
 2.554000000000000E10   -4.429115215316415E-4  -6.200355710461736E-4  
 2.556000000000000E10   -2.941705461125821E-4  -4.682543221861124E-4  
 2.558000000000000E10   -3.877076378557831E-4  -2.799320500344038E-4  
 2.560000000000000E10    1.606543373782188E-4   6.724835257045925E-4  
 2.562000000000000E10    7.226932793855667E-4   2.977861440740526E-4  
 2.564000000000000E10    6.436323747038841E-4  -7.558022043667734E-4  
 2.566000000000000E10   -5.713011487387121E-4  -3.506979555822909E-4  
 2.568000000000000E10   -1.237020245753229E-3   4.142704419791699E-4  
 2.570000000000000E10   -5.296000163070858E-4   8.740926859900355E-4  
 2.572000000000000E10    3.270251327194274E-4  -2.309599221916869E-4  
 2.574000000000000E10   -4.316026388551109E-5  -7.117245695553720E-4  
 2.576000000000000E10   -9.383955621160567E-4  -7.626226870343089E-4  
 2.578000000000000E10   -3.226639819331467E-4  -2.799170761136338E-5  
 2.580000000000000E10   -1.239762787008658E-4   5.921851843595505E-4  
 2.582000000000000E10    4.610413161572069E-4   4.281348956283182E-4  
 2.584000000000000E10    1.978243089979515E-4   2.261225517941057E-6  
 2.586000000000000E10   -1.993519981624559E-4  -3.761008265428245E-4  
 2.588000000000000E10   -1.097302068956196E-3   3.038493741769344E-4  
 2.590000000000000E10   -8.788459817878902E-4   6.128289387561381E-4  
 2.592000000000000E10    4.720495780929923E-4   5.671219551004469E-4  
 2.594000000000000E10    7.475659949705005E-4  -5.656610592268407E-4  
 2.596000000000000E10   -1.009380866889842E-4  -1.073266030289233E-3  
 2.598000000000000E10   -1.196773024275899E-3   2.709279069676995E-4  
 2.600000000000000E10   -2.835704253811855E-5   1.281046424992383E-3  
 2.602000000000000E10    8.386923000216484E-4   6.897791172377765E-4  
 2.604000000000000E10    2.816766209434718E-4  -6.287354626692832E-4  
 2.606000000000000E10   -8.062816923484206E-4  -4.933634772896767E-4  
 2.608000000000000E10   -8.699487661942840E-4   2.339383354410529E-4  
 2.610000000000000E10   -6.165997911011800E-5   6.562985363416374E-4  
 2.612000000000000E10    6.519238813780248E-4   4.402095801196992E-4  
 2.614000000000000E10    6.190584972500801E-4  -7.203714922070503E-4  
 2.616000000000000E10   -4.330366937210783E-5  -3.503804036881775E-4  
 2.618000000000000E10   -6.546557415276766E-4   4.513899912126362E-4  
 2.620000000000000E10   -5.614817491732538E-4   9.646029793657363E-4  
 2.622000000000000E10    7.848748355172575E-4   7.042942452244461E-4  
 2.624000000000000E10    4.773041582666338E-4  -4.579775268211961E-4  
 2.626000000000000E10   -5.548389162868261E-4  -1.090306090191007E-3  
 2.628000000000000E10   -9.467622730880976E-4   2.344661625102162E-4  
 2.630000000000000E10   -8.544362935936078E-5   8.240257157012820E-4  
 2.632000000000000E10    1.236035022884607E-3  -1.452850847272202E-4  
 2.634000000000000E10    2.189263323089108E-4  -3.926847712136805E-4  
 2.636000000000000E10   -1.581146207172424E-4  -1.229036279255524E-4  
 2.638000000000000E10   -5.683853523805738E-4   3.778131795115769E-4  
 2.640000000000000E10    8.346846880158410E-5   3.289596061222255E-4  
 2.642000000000000E10   -3.708140575326979E-4   6.331877084448934E-4  
 2.644000000000000E10    2.577359264250845E-4  -4.661356215365231E-4  
 2.646000000000000E10   -2.018193918047473E-4  -5.963933654129505E-4  
 2.648000000000000E10   -8.172771777026355E-4  -5.982426810078323E-4  
 2.650000000000000E10    1.106136733142193E-5   6.758945528417826E-4  
 2.652000000000000E10    3.693534235935658E-4   3.920262970495969E-4  
 2.654000000000000E10    1.129913027398288E-3  -4.671684000641108E-4  
 2.656000000000000E10   -4.126651911064982E-4  -4.927517729811370E-4  
 2.658000000000000E10   -7.285096799023449E-4  -2.609212242532522E-4  
 2.660000000000000E10   -2.731214044615626E-4   7.805718341842294E-4  
 2.662000000000000E10    1.582250260980800E-4   1.259113341802731E-4  
 2.664000000000000E10    4.727885243482888E-4   4.631865522242151E-5  
 2.666000000000000E10   -4.439938638824970E-4  -4.653993528336287E-4  
 2.668000000000000E10   -5.912694032303989E-4  -7.624222198501229E-4  
 2.670000000000000E10   -5.327734979800880E-4   6.583370268344879E-4  
 2.672000000000000E10    4.772310785483569E-4   7.907902472652495E-4  
 2.674000000000000E10    1.278369221836329E-3  -4.622552369255573E-4  
 2.676000000000000E10   -2.022195549216121E-4  -8.180679869838059E-4  
 2.678000000000000E10   -5.262340418994427E-4  -2.105523599311709E-4  
 2.680000000000000E10   -4.234439111314714E-4   1.221025013364852E-3  
 2.682000000000000E10    2.799454086925834E-4   4.696594842243940E-4  
 2.684000000000000E10    9.770436445251107E-4  -9.147272794507444E-5  
 2.686000000000000E10   -3.313750494271517E-4  -1.033656066283584E-3  
 2.688000000000000E10   -7.352987304329872E-4   1.608272577868775E-5  
 2.690000000000000E10   -4.729057254735380E-4   2.041218249360099E-4  
 2.692000000000000E10    9.968936210498214E-4   7.157124928198755E-4  
 2.694000000000000E10    4.039897758048028E-4  -1.796591241145507E-4  
 2.696000000000000E10    5.394089967012405E-4  -1.075107371434569E-3  
 2.698000000000000E10   -8.995532989501953E-4   2.090310736093670E-4  
 2.700000000000000E10   -7.983099785633385E-4   7.295062532648444E-4  
 2.702000000000000E10    5.158174317330122E-4   9.875060059130192E-4  
 2.704000000000000E10    5.669317324645817E-4  -5.304017104208469E-4  
 2.706000000000000E10   -3.202419611625373E-4  -6.629223353229463E-4  
 2.708000000000000E10   -8.284738287329674E-4  -3.128206590190530E-4  
 2.710000000000000E10    1.343259191344259E-5   8.573805680498481E-4  
 2.712000000000000E10    3.416786785237491E-4   2.711818378884345E-4  
 2.714000000000000E10    7.902873330749571E-4  -2.307956892764196E-4  
 2.716000000000000E10   -2.638398727867752E-4  -2.729619736783207E-4  
 2.718000000000000E10   -6.203472148627043E-4  -3.496862336760387E-5  
 2.720000000000000E10   -6.358079263009131E-4   4.971342859789729E-4  
 2.722000000000000E10    4.977977732778527E-5   5.355969187803567E-4  
 2.724000000000000E10   -5.715103179682046E-5  -3.174414159730077E-4  
 2.726000000000000E10    4.019395273644477E-4  -4.204632423352450E-4  
 2.728000000000000E10   -1.037122099660337E-3  -1.283219462493435E-4  
 2.730000000000000E10   -1.663662260398269E-4   2.379367215326056E-4  
 2.732000000000000E10    3.020094882231206E-4   7.496002945117652E-4  
 2.734000000000000E10    4.187956510577351E-4  -2.042137493845075E-4  
 2.736000000000000E10    8.301165507873520E-5  -1.074908650480211E-4  
 2.738000000000000E10   -8.739021723158658E-4  -6.899326399434358E-5  
 2.740000000000000E10   -5.969772464595735E-4   4.164217389188707E-4  
 2.742000000000000E10   -3.940558235626668E-5   1.915678585646674E-4  
 2.744000000000000E10    4.124218830838800E-4   4.302426241338253E-4  
 2.746000000000000E10    3.738942614290863E-4  -4.684631130658090E-4  
 2.748000000000000E10   -6.430645589716733E-5  -3.985162475146353E-4  
 2.750000000000000E10   -7.908573024906218E-4   1.899737253552303E-4  
 2.752000000000000E10    2.338020567549393E-4   9.753088233992457E-4  
 2.754000000000000E10    6.634743767790496E-4   3.112541744485498E-4  
 2.756000000000000E10    8.240911411121488E-4  -7.889444241300225E-4  
