#  HZ   S   RI   R     50.00 
! Rohde & Schwarz ZVA40 4Ports - Version 3.90 - 1145.1110k42 SN: 100403
! Date: 2023-10-04 11:32:15
! Measurement: S12 
! 
 2.200000000000000E10    3.393353254068643E-4  -6.949006346985698E-4  
 2.202000000000000E10   -8.121823775582016E-4  -2.936002274509519E-4  
 2.204000000000000E10   -8.665649220347405E-4  -1.656090025790036E-4  
 2.206000000000000E10    4.121504316572100E-4   3.366620803717524E-4  
 2.208000000000000E10   -5.900003816350363E-5  -9.581687627360225E-4  
 2.210000000000000E10    6.126380176283419E-4  -5.109215635457076E-5  
 2.212000000000000E10    1.479127531638369E-4   3.334288776386529E-4  
 2.214000000000000E10    3.026374033652246E-4  -6.706660497002304E-4  
 2.216000000000000E10   -6.269397563301027E-4   2.898304664995521E-4  
 2.218000000000000E10   -2.376102347625420E-4   4.485082754399627E-4  
 2.220000000000000E10    9.919142758008093E-5   2.098931727232412E-4  
 2.222000000000000E10    1.413111458532512E-4  -9.089807281270623E-4  
 2.224000000000000E10   -4.600613028742373E-4  -2.901646366808564E-4  
 2.226000000000000E10   -5.321666831150651E-4   1.062273295246996E-4  
 2.228000000000000E10    8.067807066254318E-4   4.352742980699986E-4  
 2.230000000000000E10    1.518975623184815E-4  -2.301456697750837E-4  
 2.232000000000000E10    1.414780708728358E-4  -2.904823340941221E-4  
 2.234000000000000E10   -4.800305396202020E-5   7.540173246525228E-4  
 2.236000000000000E10    2.855460043065250E-4   3.515636199153960E-4  
 2.238000000000000E10    9.225365647580475E-5   1.476213510613889E-4  
 2.240000000000000E10   -3.730975731741637E-4   4.355609125923365E-4  
 2.242000000000000E10    6.657065241597593E-4   2.062386338366196E-4  
 2.244000000000000E10    2.161247393814847E-4  -3.370072226971388E-4  
 2.246000000000000E10   -3.181398205924779E-4  -2.614047843962908E-4  
 2.248000000000000E10    7.562397513538599E-5   8.198920404538512E-4  
 2.250000000000000E10    3.323137207189575E-5   5.939164548180997E-4  
 2.252000000000000E10    7.349036168307066E-4  -3.202641673851758E-4  
 2.254000000000000E10    2.893992059398443E-4  -3.205785760655999E-4  
 2.256000000000000E10   -5.469077732414007E-4   1.263576123164967E-4  
 2.258000000000000E10   -9.828841575654224E-5   9.796166559681296E-4  
 2.260000000000000E10    2.691312984097749E-4   6.301833200268447E-4  
 2.262000000000000E10    1.546730054542422E-4  -2.609780349303037E-4  
 2.264000000000000E10    1.903067604871467E-4  -3.702366302604787E-5  
 2.266000000000000E10   -3.781865816563368E-4  -6.651818694081157E-5  
 2.268000000000000E10   -6.312004552455619E-5   2.248958335258067E-4  
 2.270000000000000E10    5.915935616940260E-4   5.539145786315203E-4  
 2.272000000000000E10    1.175956567749381E-3  -2.851133467629552E-4  
 2.274000000000000E10    3.454703837633133E-4  -2.606428461149335E-4  
 2.276000000000000E10   -5.421307869255543E-4  -9.576246520737186E-5  
 2.278000000000000E10    2.404607221251354E-4   8.129397174343467E-4  
 2.280000000000000E10    7.195842335931957E-4   1.797976728994399E-4  
 2.282000000000000E10    8.969043265096843E-4  -3.458174469415098E-4  
 2.284000000000000E10   -1.476414181524888E-4  -4.983941907994449E-4  
 2.286000000000000E10   -3.217932826373726E-4  -3.373486106283963E-4  
 2.288000000000000E10   -1.918516936711967E-4   1.520034129498527E-4  
 2.290000000000000E10    8.609137730672956E-4  -6.136942101875320E-5  
 2.292000000000000E10    3.232130839023739E-4  -3.720351378433406E-4  
 2.294000000000000E10    7.844611536711454E-5  -8.981880964711309E-4  
 2.296000000000000E10   -3.368084435351193E-4  -2.658585726749152E-4  
 2.298000000000000E10    6.121650221757591E-5  -6.509466038551182E-5  
 2.300000000000000E10    5.064914003014565E-4   2.740074123721570E-4  
 2.302000000000000E10    5.202248576097190E-5  -9.742246475070715E-4  
 2.304000000000000E10    3.409209239180200E-5  -8.769648848101497E-4  
 2.306000000000000E10   -7.360655581578612E-4  -3.914600820280612E-4  
 2.308000000000000E10   -4.218920366838574E-4   2.245291543658823E-4  
 2.310000000000000E10   -9.024469909491018E-5   1.952577877091244E-4  
 2.312000000000000E10    8.622985333204269E-4  -4.334183468017727E-4  
 2.314000000000000E10   -3.419211425352842E-4  -6.686162087135017E-4  
 2.316000000000000E10   -6.195388850755990E-4  -9.330527973361313E-4  
 2.318000000000000E10   -5.219770828261972E-4   1.020874013192952E-3  
 2.320000000000000E10    5.430141463875771E-4   1.188464957522228E-4  
 2.322000000000000E10    4.972054157406092E-4  -1.751483650878072E-4  
 2.324000000000000E10   -5.749133997596800E-4  -8.461361867375672E-4  
 2.326000000000000E10   -9.139415924437344E-4  -2.756059257080779E-5  
 2.328000000000000E10   -4.855733714066446E-4   6.894508260302246E-4  
 2.330000000000000E10    1.864878286141902E-4   6.562827620655298E-4  
 2.332000000000000E10    3.388221784916823E-6  -6.022480665706098E-4  
 2.334000000000000E10    6.391046917997301E-5  -1.003150828182697E-3  
 2.336000000000000E10   -1.459706225432456E-3  -2.840355737134814E-4  
 2.338000000000000E10   -5.489877657964826E-4   7.926145917735994E-4  
 2.340000000000000E10    5.305492668412626E-4   7.539590587839484E-4  
 2.342000000000000E10    5.435541388578713E-4  -4.560209345072508E-4  
 2.344000000000000E10   -5.106218159198761E-4  -6.559757166542113E-4  
 2.346000000000000E10   -1.046791789121926E-3   7.322506280615926E-5  
 2.348000000000000E10   -4.831216647289693E-4   1.325553515926004E-3  
 2.350000000000000E10    4.999390221200883E-4   9.625399252399802E-5  
 2.352000000000000E10    7.284276071004570E-4  -4.985978011973202E-4  
 2.354000000000000E10   -7.438973989337683E-4  -6.343470886349678E-4  
 2.356000000000000E10   -4.226283344905824E-4   1.525062834843993E-4  
 2.358000000000000E10    1.855469890870154E-4   1.016147085465491E-3  
 2.360000000000000E10    4.293480014894158E-4   4.511301522143185E-4  
 2.362000000000000E10    6.930970703251660E-4  -4.120220546610653E-4  
 2.364000000000000E10   -2.660222889971919E-6  -6.383232539519668E-4  
 2.366000000000000E10   -3.883956233039498E-4  -4.391955008031800E-5  
 2.368000000000000E10   -8.587223419453949E-5   7.439525797963142E-4  
 2.370000000000000E10    7.385124918073416E-4   2.370961592532694E-4  
 2.372000000000000E10    8.280566544272006E-4  -2.554476668592542E-4  
 2.374000000000000E10   -3.642216033767909E-4  -1.136555918492377E-3  
 2.376000000000000E10   -6.531088729389012E-4   1.379918539896607E-4  
 2.378000000000000E10   -1.027490579872392E-4   8.599494467489421E-4  
 2.380000000000000E10    8.768716361373663E-4  -1.430661213817075E-4  
 2.382000000000000E10    6.357804522849619E-5  -5.651981336995959E-4  
 2.384000000000000E10   -1.537986536277458E-4  -7.545614498667419E-4  
 2.386000000000000E10   -4.727931082015857E-5  -1.120035740314052E-4  
 2.388000000000000E10   -1.022640644805506E-4   6.167648243717849E-4  
 2.390000000000000E10    6.725466228090227E-4   8.348333649337292E-4  
 2.392000000000000E10    8.409291040152311E-4  -3.967668453697115E-4  
 2.394000000000000E10    7.210609328467399E-5  -3.936621069442481E-4  
 2.396000000000000E10   -9.171824203804135E-4   1.021751904772827E-5  
 2.398000000000000E10   -3.851026121992618E-4   6.515928544104099E-4  
 2.400000000000000E10    5.008613225072622E-4   5.210630479268730E-4  
 2.402000000000000E10    4.637366218958050E-4  -1.210756134241819E-3  
 2.404000000000000E10   -2.750331768766046E-4  -1.256287214346230E-3  
 2.406000000000000E10   -8.326648967340589E-4   1.720411528367549E-4  
 2.408000000000000E10    3.987960226368159E-4   8.535283268429339E-4  
 2.410000000000000E10    1.341339433565736E-3   1.541744495625608E-5  
 2.412000000000000E10    2.752113214228302E-4  -6.908397772349417E-4  
 2.414000000000000E10   -6.039154322934337E-5  -2.798068162519485E-4  
 2.416000000000000E10   -4.718096461147070E-4   2.215535059804097E-4  
 2.418000000000000E10   -5.492178024724126E-4   4.701227007899433E-4  
 2.420000000000000E10    9.094538836507127E-5   4.419822944328189E-4  
 2.422000000000000E10    8.757367613725364E-4  -7.400846225209534E-4  
 2.424000000000000E10   -2.717467214097269E-5  -1.376697793602943E-3  
 2.426000000000000E10   -8.415993070229888E-4  -8.071383344940841E-4  
 2.428000000000000E10    2.754723536781967E-4   6.359374965541065E-4  
 2.430000000000000E10    1.026862650178373E-3   7.614625501446426E-4  
 2.432000000000000E10    1.246860716491938E-3  -7.112909806892276E-4  
 2.434000000000000E10   -5.437338841147721E-4  -9.201237116940320E-4  
 2.436000000000000E10   -9.736281936056912E-4   3.614612796809524E-4  
 2.438000000000000E10    8.230834646383300E-5   6.539559690281749E-4  
 2.440000000000000E10    7.945853285491467E-4   1.278485578950495E-4  
 2.442000000000000E10   -1.370815007248893E-4  -5.299510085023940E-4  
 2.444000000000000E10   -3.225197724532336E-4  -9.174087317660451E-4  
 2.446000000000000E10   -1.348763034911826E-4  -2.691125846467912E-4  
 2.448000000000000E10   -5.348078557290137E-4   1.191589763038792E-4  
 2.450000000000000E10    4.000696644652635E-4   4.899096675217152E-4  
 2.452000000000000E10    1.112033962272108E-3   1.350703769276151E-5  
 2.454000000000000E10   -1.419496111338958E-4  -7.909418200142682E-4  
 2.456000000000000E10   -1.484067644923925E-3  -1.856631715781987E-4  
 2.458000000000000E10   -6.153494468890131E-4   1.010841922834516E-3  
 2.460000000000000E10    8.591126534156501E-4   3.906262863893062E-4  
 2.462000000000000E10    5.963320145383477E-4  -1.078930683434010E-3  
 2.464000000000000E10   -6.865013274364173E-4  -8.065649890340865E-4  
 2.466000000000000E10   -5.077381501905620E-4  -1.086236588889733E-4  
 2.468000000000000E10    2.291725249961019E-4   6.266655982472003E-4  
 2.470000000000000E10    8.922840352170169E-4   4.825610958505422E-4  
 2.472000000000000E10    1.916553155751899E-4   1.159396924776956E-4  
 2.474000000000000E10   -1.103893082472496E-4  -5.134290549904108E-4  
 2.476000000000000E10   -6.759876268915832E-4  -2.245057839900255E-4  
 2.478000000000000E10   -6.704291445203126E-4   4.936214536428452E-4  
 2.480000000000000E10    5.203339387662709E-4   1.026248210109770E-3  
 2.482000000000000E10    1.420198474079371E-3  -5.205735214985907E-4  
 2.484000000000000E10    2.006099966820329E-4  -1.200397848151624E-3  
 2.486000000000000E10   -1.118663232773542E-3   1.005894300760701E-4  
 2.488000000000000E10    1.130066084442660E-4   1.316986395977438E-3  
 2.490000000000000E10    1.244110288098455E-3   6.602829671464860E-4  
 2.492000000000000E10    4.084739775862545E-4  -5.203237524256110E-4  
 2.494000000000000E10   -5.432497127912939E-4  -8.585742325522006E-4  
 2.496000000000000E10   -1.013764413073659E-3  -1.872280699899420E-5  
 2.498000000000000E10   -4.055021854583174E-4   3.917936701327562E-4  
 2.500000000000000E10    6.400981801562011E-4  -9.561392653267831E-5  
 2.502000000000000E10    5.867959698662162E-4  -6.330812466330826E-4  
 2.504000000000000E10   -1.420653188688448E-5  -1.009168801829219E-3  
 2.506000000000000E10   -5.491115152835846E-4  -3.060226299567148E-5  
 2.508000000000000E10   -4.338741127867252E-4   6.102137849666178E-4  
 2.510000000000000E10    4.551194433588535E-4   6.253363681025803E-4  
 2.512000000000000E10    7.767032366245985E-4  -4.573199257720262E-4  
 2.514000000000000E10   -7.822500192560256E-4  -1.230671303346753E-3  
 2.516000000000000E10   -1.318588154390454E-3  -1.449885312467814E-4  
 2.518000000000000E10   -6.158184260129929E-4   5.104216397739947E-4  
 2.520000000000000E10    8.826758712530136E-4   1.627160672796890E-4  
 2.522000000000000E10    2.536099636927247E-4  -5.859193624928594E-4  
 2.524000000000000E10   -4.367778019513935E-4  -9.574193973094225E-4  
 2.526000000000000E10   -6.610685959458351E-4   1.161591426352970E-4  
 2.528000000000000E10   -2.736094756983221E-4   6.004427559673786E-4  
 2.530000000000000E10   -2.993540838360786E-4   2.537186956033111E-4  
 2.532000000000000E10    3.374231164343655E-5  -2.821798843797296E-4  
 2.534000000000000E10   -4.419815959408879E-4  -3.409833007026464E-4  
 2.536000000000000E10   -1.085182768292725E-3  -4.393559065647423E-4  
 2.538000000000000E10   -9.297746582888067E-4   3.581937926355749E-4  
 2.540000000000000E10    2.762780350167304E-4   8.534400840289891E-4  
 2.542000000000000E10    6.186421378515661E-4  -5.022342666052282E-4  
 2.544000000000000E10   -7.395590073429048E-4  -1.017517177388072E-3  
 2.546000000000000E10   -1.108840340748429E-3   2.722983481362462E-4  
 2.548000000000000E10   -4.145494021940976E-4   7.112116436474025E-4  
 2.550000000000000E10    3.849422500934452E-4   6.764692952856422E-4  
 2.552000000000000E10    1.321764284512028E-4  -5.652297113556415E-5  
 2.554000000000000E10   -6.791280466131866E-4  -3.703667898662388E-4  
 2.556000000000000E10   -1.349759404547513E-3   4.473246226552874E-4  
 2.558000000000000E10   -3.309793828520924E-4   6.167520186863840E-4  
 2.560000000000000E10    3.532678820192814E-4   7.854007417336106E-4  
 2.562000000000000E10    4.281925794202834E-4  -3.537585726007819E-4  
 2.564000000000000E10    3.178341285092756E-5  -3.393778169993311E-4  
 2.566000000000000E10   -1.115120830945671E-3  -1.041408759192564E-4  
 2.568000000000000E10   -1.505946420365945E-4   1.347497105598450E-3  
 2.570000000000000E10    7.687250035814941E-4   1.082348637282848E-3  
 2.572000000000000E10    8.037592051550746E-4  -4.440457560122013E-4  
 2.574000000000000E10   -6.254474283196032E-4  -6.371474009938538E-4  
 2.576000000000000E10   -9.416192770004273E-4   4.782041069120169E-4  
 2.578000000000000E10    3.125194634776563E-4   1.212568953633308E-3  
 2.580000000000000E10    8.957792888395488E-4   1.411130506312475E-4  
 2.582000000000000E10    5.775705794803798E-4  -3.458671853877604E-4  
 2.584000000000000E10   -3.192393633071333E-4   4.971190355718136E-5  
 2.586000000000000E10   -2.338198974030092E-4   8.340018102899194E-4  
 2.588000000000000E10    1.887613907456398E-4   8.734498987905681E-4  
 2.590000000000000E10    3.598483453970403E-4   6.590721895918250E-4  
 2.592000000000000E10    3.617570910137147E-4   1.157918086391874E-4  
 2.594000000000000E10   -1.793721021385863E-4  -2.058990357909352E-4  
 2.596000000000000E10   -3.380060952622443E-4  -4.411665213410743E-5  
 2.598000000000000E10   -2.909040777012706E-4   6.877299165353179E-4  
 2.600000000000000E10    8.936453959904611E-4   3.633193846326321E-4  
 2.602000000000000E10    8.263135096058250E-4  -7.810987881384790E-5  
 2.604000000000000E10   -2.056811790680513E-4  -7.879716577008367E-4  
 2.606000000000000E10   -3.023969184141606E-4   2.386680307608913E-6  
 2.608000000000000E10   -3.457529819570482E-4   9.414909873157740E-4  
 2.610000000000000E10    3.473009855952114E-4   7.306847237487091E-6  
 2.612000000000000E10    5.545847816392779E-4  -2.017721708398312E-4  
 2.614000000000000E10   -9.108659469347913E-6  -3.518775338307023E-4  
 2.616000000000000E10   -2.435051719658077E-4  -5.226411740295589E-4  
 2.618000000000000E10   -1.464691595174372E-4   1.349015947198495E-4  
 2.620000000000000E10    3.132425263174810E-5   5.571763613261282E-4  
 2.622000000000000E10    1.091443467885256E-3   5.617026472464204E-4  
 2.624000000000000E10    3.801218408625573E-4  -1.093960483558476E-3  
 2.626000000000000E10   -7.368169026449323E-4  -6.747093284502626E-4  
 2.628000000000000E10   -9.799287654459477E-4   8.207055507227778E-4  
 2.630000000000000E10    1.092209015041590E-3   4.290155484341085E-4  
 2.632000000000000E10    1.211302704177797E-3  -2.163077442673966E-4  
 2.634000000000000E10   -5.492440322996117E-5  -1.208020956255496E-3  
 2.636000000000000E10   -6.146411760710180E-4   1.260759308934212E-4  
 2.638000000000000E10   -5.269972607493401E-4   9.117154986597598E-4  
 2.640000000000000E10    8.514153305441141E-4   6.752566550858319E-4  
 2.642000000000000E10    3.627940313890576E-4  -8.747429819777608E-5  
 2.644000000000000E10   -2.317371545359492E-4  -4.689061897806823E-4  
 2.646000000000000E10   -7.365153869614005E-4  -9.194572339765728E-5  
 2.648000000000000E10   -6.724724080413580E-4   3.679640067275614E-4  
 2.650000000000000E10    6.086524808779359E-4   5.389345460571349E-4  
 2.652000000000000E10    9.118723683059216E-4  -1.534641778562218E-4  
 2.654000000000000E10   -1.318741560680792E-4  -1.020357361994684E-3  
 2.656000000000000E10   -1.002534176222980E-3   3.860335855279118E-4  
 2.658000000000000E10   -6.011138320900500E-4   1.258218544535339E-3  
 2.660000000000000E10    8.257713634520769E-4   5.978067638352513E-4  
 2.662000000000000E10    1.954256003955379E-5  -4.880166088696569E-4  
 2.664000000000000E10   -4.253768129274249E-4  -8.391709998250008E-4  
 2.666000000000000E10   -8.562603034079075E-4   4.375899734441191E-4  
 2.668000000000000E10   -1.752243988448754E-4   3.802019055001438E-4  
 2.670000000000000E10    6.353009666781873E-5   2.975220850203186E-4  
 2.672000000000000E10    2.587259514257312E-4  -3.767520829569548E-4  
 2.674000000000000E10    4.041913780383766E-4   9.167697862721980E-5  
 2.676000000000000E10   -6.649307324551046E-4  -6.395172677002847E-4  
 2.678000000000000E10    3.291059329058044E-5   8.062617271207273E-4  
 2.680000000000000E10   -2.062448911601678E-4   8.710207184776664E-4  
 2.682000000000000E10    8.493388304486871E-4  -2.584942849352956E-4  
 2.684000000000000E10   -2.870569733204320E-5  -1.405641523888335E-4  
 2.686000000000000E10   -6.514494889415801E-4  -5.347722908481956E-4  
 2.688000000000000E10   -4.846185329370201E-4   6.287727155722678E-4  
 2.690000000000000E10    5.368708516471088E-4   4.742538440041244E-4  
 2.692000000000000E10    4.904487286694348E-4  -5.163566311239265E-5  
 2.694000000000000E10    1.793895644368604E-4  -5.262282211333513E-4  
 2.696000000000000E10   -1.069430145435035E-4   2.232857805211097E-4  
 2.698000000000000E10   -5.577202537097037E-4   1.566584396641702E-4  
 2.700000000000000E10    4.393787821754813E-4   7.125555421225727E-4  
 2.702000000000000E10    8.554187370464206E-4   3.734427154995501E-4  
 2.704000000000000E10    5.225316854193807E-4  -7.245026063174009E-4  
 2.706000000000000E10   -7.195684011094272E-4  -5.883768317289650E-4  
 2.708000000000000E10   -2.824817202053964E-4   7.220874540507793E-4  
 2.710000000000000E10    6.099470192566514E-4   5.234678974375129E-4  
 2.712000000000000E10    1.382790040224791E-3   3.180664498358965E-5  
 2.714000000000000E10    1.348753175989259E-5  -8.175341645255685E-4  
 2.716000000000000E10   -2.775898319669068E-4  -3.059068112634122E-4  
 2.718000000000000E10   -4.278402775526047E-4   1.117340987548232E-3  
 2.720000000000000E10    2.159554860554636E-4   5.053804488852620E-4  
 2.722000000000000E10    6.742973346263170E-4  -2.736934984568507E-4  
 2.724000000000000E10    3.614685556385666E-4  -1.018594834022224E-3  
 2.726000000000000E10   -7.379599846899509E-4  -7.339613512158394E-5  
 2.728000000000000E10   -6.672385643469170E-5  -9.011499787447974E-5  
 2.730000000000000E10    6.025150651112199E-4   8.294363506138325E-4  
 2.732000000000000E10    9.852944640442729E-4  -3.768691385630518E-4  
 2.734000000000000E10    5.423871334642172E-4  -8.479051757603884E-4  
 2.736000000000000E10   -1.099482411518693E-3  -4.608547606039792E-4  
 2.738000000000000E10   -5.079640541225672E-4   9.686800185590982E-4  
 2.740000000000000E10    4.893896984867752E-4   7.047954713925719E-4  
 2.742000000000000E10    9.084930643439293E-4  -6.605883827432990E-4  
 2.744000000000000E10   -6.357808015309274E-4  -1.182993291877210E-3  
 2.746000000000000E10   -7.666899473406375E-4  -3.556649317033589E-4  
 2.748000000000000E10   -3.029585641343147E-4   3.213906893506646E-4  
 2.750000000000000E10    7.929307175800204E-4  -1.437535829609260E-4  
 2.752000000000000E10    8.937666425481439E-4   4.247770266374573E-5  
 2.754000000000000E10    1.329821679973975E-4  -5.038458621129394E-4  
 2.756000000000000E10   -5.881583783775568E-4   3.900530282407999E-4  
