#  HZ   S   RI   R     50.00 
! Rohde & Schwarz ZVA40 4Ports - Version 3.90 - 1145.1110k42 SN: 100403
! Date: 2023-10-04 11:31:52
! Measurement: S12 
! 
 2.200000000000000E10    1.346162403933704E-3  -2.064767177216709E-4  
 2.202000000000000E10   -1.509686408098787E-4  -5.660842871293426E-4  
 2.204000000000000E10   -1.006199181574630E-5  -1.087974669644609E-4  
 2.206000000000000E10   -1.684203016338870E-4   8.999124984256923E-4  
 2.208000000000000E10    3.000178840011358E-4  -1.717635750537738E-4  
 2.210000000000000E10   -2.529213670641184E-4   1.675047387834638E-4  
 2.212000000000000E10    2.008603769354522E-5  -4.660281410906464E-4  
 2.214000000000000E10    5.485226865857840E-4  -5.094603402540088E-4  
 2.216000000000000E10   -1.429034455213696E-4  -6.303893169388175E-4  
 2.218000000000000E10    1.394483406329528E-4   9.699327347334474E-5  
 2.220000000000000E10    1.042361021973193E-3   4.940603976137936E-4  
 2.222000000000000E10    1.055353437550366E-3  -6.235203472897410E-4  
 2.224000000000000E10   -9.351162007078528E-4  -6.298848893493414E-4  
 2.226000000000000E10   -7.059726049192250E-4   5.852881004102528E-4  
 2.228000000000000E10    2.567262854427099E-4   6.078972364775837E-4  
 2.230000000000000E10    7.474407175322995E-5  -9.405229939147830E-4  
 2.232000000000000E10   -4.201466217637062E-4  -9.062133030965924E-4  
 2.234000000000000E10   -3.839734999928623E-4  -5.451949546113610E-4  
 2.236000000000000E10    3.186751855537295E-4  -1.541776000522077E-4  
 2.238000000000000E10    3.793186042457819E-4  -3.997151798103005E-4  
 2.240000000000000E10    1.669322664383799E-4  -3.854554088320583E-4  
 2.242000000000000E10    2.017826918745413E-4  -4.015773083665408E-5  
 2.244000000000000E10    2.973091322928667E-4  -5.645243800245225E-4  
 2.246000000000000E10   -4.770594823639840E-4  -3.766555528272875E-5  
 2.248000000000000E10   -3.587116370908916E-4  -3.845515311695635E-5  
 2.250000000000000E10    5.734218866564333E-4   9.330684065389505E-7  
 2.252000000000000E10    3.759886894840747E-4  -6.503456970676780E-4  
 2.254000000000000E10   -6.283912807703018E-4  -1.197589677758515E-3  
 2.256000000000000E10   -9.395111555932090E-5  -5.129009514348581E-5  
 2.258000000000000E10    2.821304951794446E-4  -6.631676660617814E-5  
 2.260000000000000E10    2.521303249523044E-4  -6.583284703083336E-4  
 2.262000000000000E10   -1.429943804396316E-4  -2.133768139174208E-4  
 2.264000000000000E10   -3.723561167134903E-5  -1.393660786561668E-4  
 2.266000000000000E10   -5.021313554607332E-4  -5.502250278368592E-4  
 2.268000000000000E10   -4.216216912027448E-4  -3.157749015372247E-4  
 2.270000000000000E10   -6.638905615545809E-4   3.967981683672406E-5  
 2.272000000000000E10    2.912000927608460E-4  -1.989745942410082E-4  
 2.274000000000000E10   -6.740189564879984E-5  -6.187533726915717E-4  
 2.276000000000000E10   -7.393148262053728E-4  -8.935501100495458E-4  
 2.278000000000000E10   -5.729300901293755E-4   8.520329720340669E-4  
 2.280000000000000E10    5.601437296718359E-4   1.639318070374429E-4  
 2.282000000000000E10    3.530199173837900E-4   2.500669215805829E-4  
 2.284000000000000E10   -5.126956384629011E-4  -7.332040113396943E-4  
 2.286000000000000E10   -9.275399497710168E-4  -1.207214882015251E-4  
 2.288000000000000E10   -6.416229880414903E-4   7.492960430681706E-4  
 2.290000000000000E10    6.624741945415735E-4   4.516875196713954E-4  
 2.292000000000000E10   -4.279397835489363E-4  -3.682159003801644E-4  
 2.294000000000000E10   -2.492598141543567E-4   3.395476960577071E-5  
 2.296000000000000E10   -7.262679282575846E-4   4.269396304152906E-4  
 2.298000000000000E10   -6.186843384057283E-4   2.359161007916555E-4  
 2.300000000000000E10    1.069529607775621E-4   1.027393969707191E-3  
 2.302000000000000E10    4.790909588336945E-4  -9.600092016626149E-5  
 2.304000000000000E10   -1.072766535799019E-4  -5.743810907006264E-4  
 2.306000000000000E10   -9.804489091038704E-4  -3.150374104734510E-4  
 2.308000000000000E10   -1.629583857720718E-4   1.129141426645219E-3  
 2.310000000000000E10    7.223677821457386E-4   6.540094618685544E-4  
 2.312000000000000E10    6.433052476495504E-4  -6.784462020732462E-4  
 2.314000000000000E10   -5.975098465569317E-4  -5.091511411592364E-6  
 2.316000000000000E10   -4.658316902350634E-4   3.906332713086158E-4  
 2.318000000000000E10   -1.906452525872737E-4   1.112482394091785E-3  
 2.320000000000000E10    7.292855298146606E-4   3.268069704063237E-4  
 2.322000000000000E10    2.914723299909383E-4  -1.355712738586590E-4  
 2.324000000000000E10   -5.419348017312586E-4  -3.875371476169676E-4  
 2.326000000000000E10   -3.028265782631934E-4   3.117624146398157E-4  
 2.328000000000000E10    1.764193148119375E-4   2.468982129357755E-4  
 2.330000000000000E10    5.783957312814891E-4   6.647754344157875E-4  
 2.332000000000000E10    7.360044983215630E-4   7.305479084607214E-5  
 2.334000000000000E10    2.264540089527145E-4  -1.479793900216464E-5  
 2.336000000000000E10   -6.486492929980159E-4  -1.366432261420414E-4  
 2.338000000000000E10    1.489470014348626E-4   1.174060977064073E-3  
 2.340000000000000E10    6.685164989903569E-4   5.879878881387413E-4  
 2.342000000000000E10    7.618183735758066E-4  -9.530559764243662E-4  
 2.344000000000000E10   -2.987137995660305E-4  -8.019260712899268E-4  
 2.346000000000000E10   -5.402153474278748E-4   4.868848482146859E-4  
 2.348000000000000E10    4.459244082681835E-4   2.467146259732544E-4  
 2.350000000000000E10    7.302829762920737E-4   3.445241309236735E-4  
 2.352000000000000E10    5.377181805670261E-4  -6.450660875998437E-4  
 2.354000000000000E10   -4.015959566459060E-4  -5.202614702284336E-4  
 2.356000000000000E10   -6.605602684430778E-4   2.947538450825959E-4  
 2.358000000000000E10   -1.438444596715272E-4   6.578180473297834E-4  
 2.360000000000000E10    3.944516065530479E-4   2.519235131330788E-4  
 2.362000000000000E10    5.842287791892886E-4  -3.190186980646104E-4  
 2.364000000000000E10   -2.303189103258774E-4  -8.941778214648366E-4  
 2.366000000000000E10   -7.923720404505730E-4  -2.731713902903721E-5  
 2.368000000000000E10    3.658452624222264E-5   1.482835621573031E-3  
 2.370000000000000E10    9.506018832325935E-4   4.697699332609773E-4  
 2.372000000000000E10    4.338707949500531E-4  -1.041040173731744E-3  
 2.374000000000000E10   -9.218584164045751E-4  -6.529674283228815E-4  
 2.376000000000000E10   -9.883489692583680E-4   7.100630900822580E-4  
 2.378000000000000E10    2.166824560845271E-4   3.939537273254246E-4  
 2.380000000000000E10    8.373443852178752E-4  -2.657811637618579E-5  
 2.382000000000000E10    1.399604516336694E-4  -4.243609728291631E-4  
 2.384000000000000E10   -4.124106199014932E-4  -6.312408950179815E-4  
 2.386000000000000E10   -5.815867334604263E-4   4.509844293352217E-4  
 2.388000000000000E10   -2.377169876126573E-4   5.705370567739010E-4  
 2.390000000000000E10    5.143751041032374E-4   4.793757034349255E-5  
 2.392000000000000E10    1.112154568545520E-4  -2.188033831771463E-4  
 2.394000000000000E10   -5.958690308034420E-4  -8.111220668070018E-4  
 2.396000000000000E10   -7.622815319336951E-4  -2.045980363618583E-4  
 2.398000000000000E10    9.181827408610843E-6   9.169676341116428E-4  
 2.400000000000000E10    7.407412631437182E-4  -1.070407961378805E-4  
 2.402000000000000E10    3.252910391893238E-4  -8.548700716346502E-4  
 2.404000000000000E10   -9.674777975305915E-4  -5.226684152148664E-7  
 2.406000000000000E10   -4.798237932845950E-4   5.774968303740025E-4  
 2.408000000000000E10   -1.899165654322133E-4   5.040097166784108E-4  
 2.410000000000000E10    2.755452587734908E-4  -3.565018050721847E-5  
 2.412000000000000E10   -1.232970680575818E-4  -4.923213855363429E-4  
 2.414000000000000E10   -5.304241785779595E-4  -3.278772346675396E-4  
 2.416000000000000E10   -1.017135335132480E-3  -3.908960206899792E-5  
 2.418000000000000E10   -9.137405140791088E-5   5.535560776479542E-4  
 2.420000000000000E10    7.260455749928951E-4   1.966830604942516E-4  
 2.422000000000000E10    6.643034284934402E-4  -5.197736900299788E-4  
 2.424000000000000E10   -1.072003855369985E-3  -5.980599089525640E-4  
 2.426000000000000E10   -8.488604798913002E-4   2.402871032245457E-4  
 2.428000000000000E10   -3.880863368976861E-4   1.089340774342418E-3  
 2.430000000000000E10    9.416250395588577E-4   1.488977577537298E-4  
 2.432000000000000E10    6.286797579377890E-4  -9.270934388041496E-4  
 2.434000000000000E10   -1.314065768383443E-3  -6.650949944742024E-4  
 2.436000000000000E10   -8.051421027630568E-4   7.746448973193765E-4  
 2.438000000000000E10    5.789122078567743E-4   6.527638761326671E-4  
 2.440000000000000E10    7.815153221599758E-4  -3.407066469662823E-5  
 2.442000000000000E10   -6.702492100885138E-5  -9.829819900915027E-4  
 2.444000000000000E10   -3.840867429971695E-4  -2.280450280522928E-4  
 2.446000000000000E10   -7.686674362048507E-4   9.071145905181766E-5  
 2.448000000000000E10    1.144536799984053E-4   5.819520447403193E-4  
 2.450000000000000E10    8.278563036583364E-4   1.855288428487256E-4  
 2.452000000000000E10    8.001342066563666E-4  -6.731605972163379E-4  
 2.454000000000000E10   -5.999205750413239E-4  -7.704816525802016E-4  
 2.456000000000000E10   -8.376265759579837E-4   4.335028061177582E-4  
 2.458000000000000E10    1.531321031507105E-4   1.368438941426575E-3  
 2.460000000000000E10    9.679285576567054E-4  -5.292938658385538E-5  
 2.462000000000000E10    1.387254887958989E-4  -8.808950660750270E-4  
 2.464000000000000E10   -1.204048050567508E-3  -4.832715494558215E-4  
 2.466000000000000E10   -6.620693020522595E-4   4.455555172171444E-4  
 2.468000000000000E10    1.074800456990488E-4   5.670425598509610E-4  
 2.470000000000000E10    7.213068893179297E-4  -5.565356113947928E-4  
 2.472000000000000E10    1.339162408839911E-4  -4.524610994849354E-4  
 2.474000000000000E10   -3.058057045564055E-4  -3.055231354665011E-4  
 2.476000000000000E10   -1.103401300497353E-3   1.307898201048374E-4  
 2.478000000000000E10   -2.408969885436818E-4   8.654794073663652E-4  
 2.480000000000000E10    5.159046850167215E-4   4.688000481110066E-4  
 2.482000000000000E10    2.726829843595624E-4  -9.415303939022124E-4  
 2.484000000000000E10   -9.484461625106633E-4  -4.545180127024651E-4  
 2.486000000000000E10   -1.044451608322561E-3   5.738103645853698E-4  
 2.488000000000000E10    5.169231444597244E-4   9.964101482182741E-4  
 2.490000000000000E10    8.835336775518954E-4   5.935684021096677E-5  
 2.492000000000000E10    8.846713171806186E-5  -4.785891505889595E-4  
 2.494000000000000E10   -8.248379454016686E-4   1.314864675805438E-5  
 2.496000000000000E10   -9.093832341022790E-4   1.071439590305090E-3  
 2.498000000000000E10   -1.113063408411108E-4   6.467287894338369E-4  
 2.500000000000000E10    2.952512004412711E-4  -1.177614540210925E-4  
 2.502000000000000E10   -1.127866271417588E-4  -4.616515652742237E-4  
 2.504000000000000E10   -4.182693664915860E-4  -6.471117376349866E-4  
 2.506000000000000E10   -1.744334440445527E-4   3.806037711910904E-4  
 2.508000000000000E10   -3.791608469327912E-5   9.125908254645765E-4  
 2.510000000000000E10    1.026910264045000E-3   7.804120541550219E-4  
 2.512000000000000E10    3.268626169301570E-4  -2.754676970653236E-4  
 2.514000000000000E10   -7.322746678255498E-4  -2.416185452602804E-4  
 2.516000000000000E10   -1.009141211397946E-3   1.100752968341112E-3  
 2.518000000000000E10    1.388198870699853E-4   1.178681384772062E-3  
 2.520000000000000E10    9.069900261238217E-4  -5.825963671668433E-5  
 2.522000000000000E10    2.677977900020778E-4  -1.097351079806685E-3  
 2.524000000000000E10   -4.632166237570345E-4  -5.897352093597874E-5  
 2.526000000000000E10   -3.777949023060501E-4   8.426217827945948E-4  
 2.528000000000000E10    7.863810751587153E-4   1.195660675875843E-3  
 2.530000000000000E10    5.722359055653215E-4   2.730161941144615E-4  
 2.532000000000000E10    1.271857036044821E-4   2.606908383313566E-4  
 2.534000000000000E10   -6.975483265705407E-4  -2.928136091213673E-4  
 2.536000000000000E10   -7.307067862711847E-4   3.337960515636951E-4  
 2.538000000000000E10    4.166580765740946E-5   8.571494254283607E-4  
 2.540000000000000E10    9.130429825745523E-4  -9.608807158656418E-5  
 2.542000000000000E10    1.891741412691772E-4  -7.250726921483874E-4  
 2.544000000000000E10   -2.273472200613469E-4  -4.689377965405583E-4  
 2.546000000000000E10   -4.247034667059779E-4   8.143140585161746E-4  
 2.548000000000000E10    6.087056244723499E-4   8.469157037325203E-4  
 2.550000000000000E10    1.404974609613419E-3   1.304681645706296E-4  
 2.552000000000000E10    2.497667155694217E-4  -9.804440196603537E-4  
 2.554000000000000E10   -7.954288157634437E-4   3.203342566848733E-5  
 2.556000000000000E10   -3.325224388390780E-4   4.077150078956038E-4  
 2.558000000000000E10    5.450206808745861E-4   3.377651446498931E-4  
 2.560000000000000E10    6.742280093021691E-4  -1.176777732325718E-4  
 2.562000000000000E10    6.153699359856546E-4  -6.416268879547715E-4  
 2.564000000000000E10   -2.097065153066069E-4  -2.751581196207553E-4  
 2.566000000000000E10   -3.498239093460143E-4   3.541235637385398E-4  
 2.568000000000000E10    4.513065505307168E-4   1.231210422702134E-3  
 2.570000000000000E10    8.342346991412342E-4  -3.062332689296454E-4  
 2.572000000000000E10    6.159079493954778E-4  -8.763042860664427E-4  
 2.574000000000000E10   -6.841023568995297E-4  -5.754384910687804E-4  
 2.576000000000000E10   -3.272907924838364E-4   7.995908963494003E-4  
 2.578000000000000E10    7.285035680979490E-4   6.665729451924563E-4  
 2.580000000000000E10    1.462563406676054E-3  -4.239138506818563E-4  
 2.582000000000000E10   -4.451696440810338E-5  -8.889703894965351E-4  
 2.584000000000000E10   -9.234059834852815E-4  -5.637470167130232E-4  
 2.586000000000000E10   -3.414737293496728E-4   6.673909374512732E-4  
 2.588000000000000E10    6.713591283187270E-4   1.612709747860208E-4  
 2.590000000000000E10    6.954843993298709E-4  -2.567763731349260E-4  
 2.592000000000000E10    1.467056335968664E-5  -1.057029701769352E-3  
 2.594000000000000E10   -6.036909180693328E-4  -2.788994461297989E-4  
 2.596000000000000E10   -1.062682713381946E-4   5.888678133487701E-4  
 2.598000000000000E10    4.775412089657039E-4   4.893641453236342E-4  
 2.600000000000000E10    9.176461026072502E-4  -2.044939610641450E-4  
 2.602000000000000E10    3.693729013320990E-6  -1.116164261475205E-3  
 2.604000000000000E10   -7.442000205628574E-4  -8.912326848076191E-6  
 2.606000000000000E10   -6.063299369998276E-4   7.113642059266567E-4  
 2.608000000000000E10    7.667031604796648E-4   4.959632642567158E-4  
 2.610000000000000E10    4.808041849173605E-4  -7.302065496332943E-4  
 2.612000000000000E10   -4.667710745707154E-4  -4.392167902551591E-4  
 2.614000000000000E10   -9.251781739294529E-4   1.981799287023023E-4  
 2.616000000000000E10    2.191543026128784E-4   1.816721633076668E-4  
 2.618000000000000E10    2.794410102069378E-4   7.307772175408900E-4  
 2.620000000000000E10    3.655650652945042E-4  -4.895782913081348E-4  
 2.622000000000000E10   -9.078032599063590E-5  -8.824768883641809E-5  
 2.624000000000000E10   -4.854239814449102E-4  -1.864980731625110E-4  
 2.626000000000000E10   -2.333372831344605E-4   4.163491248618811E-4  
 2.628000000000000E10    6.618263796553947E-6   2.753463631961495E-4  
 2.630000000000000E10    4.972021561115980E-4   5.424036062322557E-4  
 2.632000000000000E10    3.073609550483525E-4  -6.483269389718771E-4  
 2.634000000000000E10   -1.843991049099714E-4  -3.623280208557844E-4  
 2.636000000000000E10   -6.591579876840115E-4   3.207752306479961E-4  
 2.638000000000000E10    8.745555533096194E-4   5.764677189290524E-4  
 2.640000000000000E10    6.834222003817558E-4  -1.562418401590549E-5  
 2.642000000000000E10    2.856904757209122E-4  -2.612528041936457E-4  
 2.644000000000000E10   -2.550862845964730E-4  -1.287552731810138E-4  
 2.646000000000000E10   -1.599432580405846E-4  -4.936263940180652E-5  
 2.648000000000000E10   -3.443764871917665E-4   6.614332087337971E-4  
 2.650000000000000E10    9.484004112891853E-4  -1.067484408849850E-4  
 2.652000000000000E10    6.757297669537365E-4  -5.264517385512590E-4  
 2.654000000000000E10   -3.598992771003395E-5  -1.517157070338726E-3  
 2.656000000000000E10   -5.051007610745728E-4   4.757571150548756E-4  
 2.658000000000000E10    3.326050646137446E-4   1.165416091680527E-3  
 2.660000000000000E10    1.584980869665742E-3   2.403351390967146E-4  
 2.662000000000000E10    1.842264464357868E-4  -1.062474097125232E-3  
 2.664000000000000E10   -7.209618925116956E-4  -4.447466926649213E-4  
 2.666000000000000E10   -8.471295004710555E-4   1.000773976556957E-3  
 2.668000000000000E10    8.329909760504961E-4   3.025528858415783E-4  
 2.670000000000000E10    9.582617785781622E-4  -4.428714746609330E-4  
 2.672000000000000E10    1.618815731490031E-4  -9.605746017768979E-4  
 2.674000000000000E10   -5.511571071110666E-4  -6.518718873849139E-5  
 2.676000000000000E10    4.856244777329266E-5   4.001183260697871E-4  
 2.678000000000000E10    6.837961846031249E-4   4.865762894041836E-4  
 2.680000000000000E10    8.298507891595364E-4  -3.632643711171113E-5  
 2.682000000000000E10    3.485929628368467E-4  -6.248792051337659E-4  
 2.684000000000000E10   -1.065293326973915E-3  -9.378400864079595E-4  
 2.686000000000000E10   -4.007584357168526E-4   7.216111407615244E-4  
 2.688000000000000E10    6.264889962039888E-4   3.979219764005393E-4  
 2.690000000000000E10    9.889422217383981E-4  -8.963194559328258E-4  
 2.692000000000000E10   -7.559771620435640E-5  -1.184557098895311E-3  
 2.694000000000000E10   -1.910797436721623E-4   5.153483652975410E-5  
 2.696000000000000E10   -3.316490328870714E-4   1.667364849708974E-4  
 2.698000000000000E10    9.012287482619286E-4   2.238671295344830E-4  
 2.700000000000000E10   -1.009943225653842E-4  -3.732060431502760E-4  
 2.702000000000000E10    1.322477037319914E-4  -5.272796843200922E-4  
 2.704000000000000E10   -7.237250683829188E-4   1.052182778948918E-4  
 2.706000000000000E10   -3.708572185132653E-4   1.583066186867654E-4  
 2.708000000000000E10   -3.838459088001400E-4   2.438471419736743E-4  
 2.710000000000000E10    7.918933988548815E-4  -2.420988166704774E-4  
 2.712000000000000E10   -4.773948749061674E-4  -4.856073646806181E-4  
 2.714000000000000E10   -2.208649530075491E-4  -1.141211017966270E-3  
 2.716000000000000E10   -6.580642657354474E-4   3.614611632656306E-4  
 2.718000000000000E10    1.260467106476426E-4   3.621247888077050E-4  
 2.720000000000000E10    9.189914562739432E-4   1.419771288055927E-4  
 2.722000000000000E10   -1.417180610587820E-4  -9.047010680660605E-4  
 2.724000000000000E10   -7.640102412551642E-4  -1.499988138675690E-4  
 2.726000000000000E10   -7.949675782583654E-4   3.134092839900404E-4  
 2.728000000000000E10    3.024121397174895E-4   5.262144841253758E-4  
 2.730000000000000E10    5.917779344599694E-5  -3.369127225596458E-4  
 2.732000000000000E10    4.691968497354537E-4  -8.300336194224656E-4  
 2.734000000000000E10   -7.672383217141032E-4  -5.610390217043459E-4  
 2.736000000000000E10   -4.676243406720460E-4   2.394734619883820E-4  
 2.738000000000000E10    1.495194592280313E-4   1.398958615027368E-3  
 2.740000000000000E10    8.524847798980773E-4  -1.614523062016815E-4  
 2.742000000000000E10    1.189797039842233E-4  -3.899971779901534E-4  
 2.744000000000000E10   -8.850626181811094E-4  -4.150661698076874E-4  
 2.746000000000000E10   -6.560616311617196E-4   7.187146693468094E-4  
 2.748000000000000E10    1.792325492715463E-4   7.499160128645599E-4  
 2.750000000000000E10    7.179998792707920E-4  -3.379260015208274E-4  
 2.752000000000000E10   -2.585346519481391E-4  -1.113363658078015E-3  
 2.754000000000000E10   -7.973168976604939E-4   2.150239924958441E-5  
 2.756000000000000E10   -4.395851865410805E-4   6.603394867852330E-4  
