#  HZ   S   RI   R     50.00 
! Rohde & Schwarz ZVA40 4Ports - Version 3.90 - 1145.1110k42 SN: 100403
! Date: 2023-10-04 11:30:43
! Measurement: S12 
! 
 2.200000000000000E10    3.618512346292846E-5  -6.748924351995811E-5  
 2.202000000000000E10   -7.602897239848971E-4   1.084537725546397E-4  
 2.204000000000000E10    2.012518598348834E-5   2.243533235741779E-4  
 2.206000000000000E10    4.876582825090736E-4  -1.876208261819556E-4  
 2.208000000000000E10   -1.699508866295219E-4  -9.890700457617641E-4  
 2.210000000000000E10   -5.259910249151290E-4   6.489850929938257E-4  
 2.212000000000000E10    4.473204025998712E-4   8.117660763673484E-4  
 2.214000000000000E10    7.478737388737500E-4   2.056829980574548E-4  
 2.216000000000000E10   -5.622748867608607E-4  -4.602269327733666E-4  
 2.218000000000000E10   -1.103759277611971E-3   3.924081975128502E-4  
 2.220000000000000E10   -4.448360705282539E-4   1.032789121381939E-3  
 2.222000000000000E10    6.386615568771958E-4   3.684163311845623E-5  
 2.224000000000000E10   -3.436608240008354E-4  -6.270639714784920E-4  
 2.226000000000000E10   -2.198178408434615E-4  -5.561275174841285E-4  
 2.228000000000000E10    2.283775975229219E-4   4.463402437977493E-4  
 2.230000000000000E10    1.185616129077971E-4  -3.951269172830507E-5  
 2.232000000000000E10    3.674478793982416E-4   2.682434278540313E-4  
 2.234000000000000E10   -1.576821086928248E-4   6.985341315157712E-4  
 2.236000000000000E10    3.535065625328571E-4  -7.644622382940725E-5  
 2.238000000000000E10   -5.922577693127096E-4  -1.610488252481446E-4  
 2.240000000000000E10   -6.711952737532556E-4   7.803996559232473E-4  
 2.242000000000000E10    4.533975152298808E-4   1.195415970869362E-3  
 2.244000000000000E10    6.681848899461329E-4  -3.722268738783896E-4  
 2.246000000000000E10   -4.722898884210736E-4  -2.329680719412863E-4  
 2.248000000000000E10   -9.506322094239295E-4   3.572516725398600E-4  
 2.250000000000000E10    9.376298985444009E-4   1.555774244479835E-3  
 2.252000000000000E10    5.169672076590359E-4   7.882399368099868E-4  
 2.254000000000000E10    8.218379662139341E-5  -3.010706277564168E-4  
 2.256000000000000E10   -4.740478761959821E-4   7.332843961194158E-4  
 2.258000000000000E10   -1.279201751458459E-5   3.065202909056097E-4  
 2.260000000000000E10    1.270098728127778E-4   2.180815936299041E-4  
 2.262000000000000E10    2.227823715656996E-4   4.292578669264913E-4  
 2.264000000000000E10    3.711673198267818E-4   4.307477502152324E-4  
 2.266000000000000E10    4.382795596029609E-4  -3.217378398403525E-4  
 2.268000000000000E10    2.220882161054760E-4   5.200058876653202E-5  
 2.270000000000000E10   -1.565572601975873E-4   7.782936445437372E-4  
 2.272000000000000E10    6.637542974203825E-4   8.734061848372221E-4  
 2.274000000000000E10    1.058830646798015E-3  -1.124078626162373E-4  
 2.276000000000000E10   -1.472472213208675E-4  -5.810199072584510E-4  
 2.278000000000000E10   -4.841875343117863E-4   1.260265125893056E-4  
 2.280000000000000E10    7.370487437583506E-4   4.352570394985378E-4  
 2.282000000000000E10    7.099795620888472E-4   3.064468619413674E-4  
 2.284000000000000E10   -5.487716043717228E-5  -7.516425102949143E-4  
 2.286000000000000E10    8.403192623518407E-4   1.510975125711411E-4  
 2.288000000000000E10    4.135618510190398E-4  -2.664504863787442E-4  
 2.290000000000000E10   -7.425942021654919E-5  -5.778105696663261E-4  
 2.292000000000000E10   -1.479108032071963E-4   4.677687538787723E-4  
 2.294000000000000E10    9.802099084481597E-4  -7.464929512934759E-5  
 2.296000000000000E10   -1.035917084664106E-4  -8.455308852717280E-4  
 2.298000000000000E10   -5.128767224960029E-4  -8.416795753873885E-4  
 2.300000000000000E10   -5.728200776502490E-4   2.812925085891038E-4  
 2.302000000000000E10    3.252363530918956E-4  -6.646274414379150E-5  
 2.304000000000000E10    9.794224752113223E-4   1.761053135851398E-5  
 2.306000000000000E10   -2.944938023574650E-4  -1.280759926885366E-3  
 2.308000000000000E10   -6.606407696381211E-4  -2.224916388513520E-4  
 2.310000000000000E10   -2.932051138486713E-4   1.521721133030951E-4  
 2.312000000000000E10    5.387892015278339E-4   5.999423447065055E-4  
 2.314000000000000E10    1.371659072901821E-5  -4.124746192246676E-4  
 2.316000000000000E10   -1.509002468083054E-4  -4.275999090168625E-4  
 2.318000000000000E10   -7.871943525969982E-4   1.142268083640374E-4  
 2.320000000000000E10   -2.588063071016222E-4   1.100024092011154E-4  
 2.322000000000000E10   -2.034425851888955E-4   6.278772489167750E-4  
 2.324000000000000E10    1.356152934022248E-3  -1.858940668171272E-4  
 2.326000000000000E10   -4.839277607970871E-5  -8.721845806576312E-4  
 2.328000000000000E10   -1.475676312111318E-3  -4.805366552318446E-5  
 2.330000000000000E10   -3.280888777226210E-4   1.100188470445573E-3  
 2.332000000000000E10    6.734204944223166E-4   5.878732190467417E-4  
 2.334000000000000E10    6.281821406446397E-4  -1.025497214868665E-3  
 2.336000000000000E10   -3.832652873825282E-4  -4.985585692338646E-4  
 2.338000000000000E10   -1.132650300860405E-3   3.879784489981830E-4  
 2.340000000000000E10    2.465322322677821E-4   6.692392635159195E-4  
 2.342000000000000E10    5.614595138467848E-4   2.408507134532556E-4  
 2.344000000000000E10    3.197818296030164E-5  -3.198266495019198E-4  
 2.346000000000000E10   -1.046469900757074E-3  -2.131455403286964E-4  
 2.348000000000000E10   -4.237812827341259E-4  -3.604972516768612E-5  
 2.350000000000000E10   -2.412965550320223E-4   4.571573226712644E-4  
 2.352000000000000E10   -1.469192211516202E-4  -1.171859621535987E-4  
 2.354000000000000E10    9.367199963890016E-4  -9.414643864147365E-5  
 2.356000000000000E10   -2.158868737751618E-4  -9.532145923003554E-4  
 2.358000000000000E10   -1.057825400494039E-3  -4.467111721169204E-4  
 2.360000000000000E10   -4.422390775289387E-4   9.606247767806053E-4  
 2.362000000000000E10    1.082475879229605E-3   6.268298602662981E-4  
 2.364000000000000E10    7.032889698166400E-5  -9.668866405263543E-4  
 2.366000000000000E10   -5.948863690719008E-4  -7.180680986493826E-4  
 2.368000000000000E10   -9.455484105274081E-4   5.035130307078362E-4  
 2.370000000000000E10    1.449197679903591E-5   3.551011031959206E-4  
 2.372000000000000E10    6.959483143873513E-4  -1.200094411615282E-4  
 2.374000000000000E10    5.518521647900343E-4  -6.429906934499741E-4  
 2.376000000000000E10   -3.094974090345204E-4  -4.914469900541008E-4  
 2.378000000000000E10   -5.260048419586383E-5   9.471356315771118E-5  
 2.380000000000000E10   -2.924893633462489E-4   9.627265390008688E-4  
 2.382000000000000E10    4.610362229868770E-4   4.645256558433175E-4  
 2.384000000000000E10    5.784065579064190E-4  -2.257385203847662E-4  
 2.386000000000000E10   -4.394698771648109E-4  -8.055584039539099E-4  
 2.388000000000000E10   -1.114713260903955E-3   2.685746003407985E-4  
 2.390000000000000E10    1.091025915229693E-4   1.262710895389319E-3  
 2.392000000000000E10    1.137047656811774E-3   1.112868703785352E-4  
 2.394000000000000E10    4.973103641532362E-4  -1.181761152110994E-3  
 2.396000000000000E10   -9.969923412427306E-4  -1.046667894115672E-4  
 2.398000000000000E10   -3.446235496085137E-4   6.069649243727326E-4  
 2.400000000000000E10    9.611682617105544E-4   1.029902370646596E-3  
 2.402000000000000E10    4.987743450328708E-4  -1.514785544713959E-4  
 2.404000000000000E10    7.192685734480619E-5  -3.531981492415071E-4  
 2.406000000000000E10   -1.720183063298464E-4  -3.835248935502023E-4  
 2.408000000000000E10   -2.826156851369888E-4   4.328089125920087E-4  
 2.410000000000000E10    3.222640661988407E-4   6.400979327736422E-5  
 2.412000000000000E10    8.320361375808716E-4   6.469895015470684E-5  
 2.414000000000000E10    2.732205903157592E-4  -7.371443207375705E-4  
 2.416000000000000E10   -9.808469621930271E-5  -6.774752982892096E-4  
 2.418000000000000E10   -5.336042959243059E-4   4.195668443571776E-4  
 2.420000000000000E10    3.293761692475528E-4   9.604201768524945E-4  
 2.422000000000000E10    9.565724176354706E-4   1.691098877927288E-4  
 2.424000000000000E10    6.440269644372165E-4  -1.057414337992668E-3  
 2.426000000000000E10   -1.013100030831993E-3  -2.620109298732132E-4  
 2.428000000000000E10   -4.839317116420716E-4   3.711992758326232E-4  
 2.430000000000000E10    5.909670726396143E-4   6.519521120935679E-4  
 2.432000000000000E10    5.996331456117332E-4  -4.834676801692694E-4  
 2.434000000000000E10    2.807141572702676E-4  -5.803793319500983E-4  
 2.436000000000000E10   -5.658215377479792E-5  -3.841992293018848E-4  
 2.438000000000000E10   -5.825048428960145E-4  -9.624442463973537E-5  
 2.440000000000000E10   -1.088683347916231E-4   6.740178214386106E-4  
 2.442000000000000E10    8.142240112647414E-4   1.837619201978669E-4  
 2.444000000000000E10    5.739273619838059E-4  -4.473043372854590E-4  
 2.446000000000000E10   -9.044851758517325E-4  -8.312372374348342E-4  
 2.448000000000000E10   -9.063148172572255E-4   4.480127827264369E-4  
 2.450000000000000E10   -2.151731605408713E-4   8.777763578109443E-4  
 2.452000000000000E10    1.041815849021077E-3   2.866373142751399E-5  
 2.454000000000000E10    8.215633715735748E-5  -1.123714027926326E-3  
 2.456000000000000E10   -6.876899278722704E-4  -6.233387393876910E-4  
 2.458000000000000E10   -7.257219986058772E-4   5.891743930988014E-4  
 2.460000000000000E10    7.060530479066074E-4   9.253250900655985E-4  
 2.462000000000000E10    5.839015939272940E-4  -2.078873949358240E-4  
 2.464000000000000E10    3.852575318887830E-4  -2.335243043489754E-4  
 2.466000000000000E10   -5.480520194396377E-4  -2.889546740334481E-4  
 2.468000000000000E10   -6.978936144150794E-4   3.578735922928900E-4  
 2.470000000000000E10   -2.254230930702761E-4   6.741473916918039E-4  
 2.472000000000000E10    1.090871286578476E-3  -7.459543212462449E-6  
 2.474000000000000E10    5.684531643055379E-4  -1.273224945180118E-3  
 2.476000000000000E10   -3.268221043981612E-4  -6.053168326616287E-4  
 2.478000000000000E10   -7.517495541833341E-4   4.259626730345190E-4  
 2.480000000000000E10    9.264090913347900E-4   1.087668118998408E-3  
 2.482000000000000E10    9.963971097022295E-4  -1.983275433303788E-5  
 2.484000000000000E10   -2.086096646962687E-4  -8.323451620526612E-4  
 2.486000000000000E10   -8.067529415711761E-4  -2.390272566117346E-4  
 2.488000000000000E10   -4.100743390154094E-4   8.117400575429201E-4  
 2.490000000000000E10    3.356480156071484E-4  -2.659584060893394E-5  
 2.492000000000000E10    1.008322346024215E-3  -4.488945705816150E-4  
 2.494000000000000E10    1.197233868879266E-4  -8.838189532980323E-4  
 2.496000000000000E10   -2.833204634953290E-4  -4.775204288307577E-4  
 2.498000000000000E10   -4.635567529476248E-5   5.892599074286409E-5  
 2.500000000000000E10    4.327791393734515E-4   7.642954587936401E-4  
 2.502000000000000E10    1.003891113214195E-3  -1.560650271130726E-4  
 2.504000000000000E10    1.661955466261134E-4  -1.111930119805038E-3  
 2.506000000000000E10   -6.837492692284286E-4  -4.227245517540723E-4  
 2.508000000000000E10   -7.699598209001124E-4   1.398950553266332E-4  
 2.510000000000000E10    8.676149882376194E-4   4.024115623906255E-4  
 2.512000000000000E10    8.263490162789822E-4  -6.526015349663794E-4  
 2.514000000000000E10    3.260564408265054E-4  -1.260357559658587E-3  
 2.516000000000000E10   -7.003331556916237E-4  -1.618172536836937E-4  
 2.518000000000000E10   -1.742916197144950E-6   7.112901075743139E-4  
 2.520000000000000E10    4.204819852020592E-4   5.986014148220420E-4  
 2.522000000000000E10    3.376646782271564E-4  -3.534217539709061E-4  
 2.524000000000000E10   -4.297996347304434E-4  -8.216297719627619E-4  
 2.526000000000000E10   -6.566099473275244E-4  -9.305218700319529E-4  
 2.528000000000000E10   -7.472289726138115E-4  -1.800264726625755E-5  
 2.530000000000000E10    3.511263930704445E-4  -7.790755626047030E-5  
 2.532000000000000E10    1.249925815500319E-3  -3.229350841138512E-4  
 2.534000000000000E10    3.182957589160651E-4  -9.327664156444371E-4  
 2.536000000000000E10   -5.083555006422103E-4  -1.480295613873750E-4  
 2.538000000000000E10   -1.029230188578367E-3   7.956427871249616E-4  
 2.540000000000000E10    2.310207928530872E-4   1.302476157434285E-3  
 2.542000000000000E10    2.544155286159366E-4  -6.782878190279007E-4  
 2.544000000000000E10   -4.003042704425752E-4  -1.234917435795069E-3  
 2.546000000000000E10   -1.245344057679176E-3  -1.427539828000590E-4  
 2.548000000000000E10    2.513478393666446E-4   1.931899896590039E-4  
 2.550000000000000E10    6.243012612685561E-4   3.042306925635785E-4  
 2.552000000000000E10    7.662571151740849E-4  -5.571342771872878E-4  
 2.554000000000000E10    2.747986291069537E-4  -2.696180308703333E-4  
 2.556000000000000E10   -3.522326005622745E-4   9.932135071721859E-6  
 2.558000000000000E10   -4.691510403063148E-4   1.126968301832676E-3  
 2.560000000000000E10    5.805785622214899E-5   5.453991470858455E-4  
 2.562000000000000E10    1.391785772284493E-4  -2.876890939660370E-4  
 2.564000000000000E10   -2.876811486203224E-4  -1.129429438151419E-3  
 2.566000000000000E10   -8.710093679837883E-4  -4.003725189249963E-4  
 2.568000000000000E10   -3.933194675482810E-4   2.565406321082264E-4  
 2.570000000000000E10    8.763217483647168E-4   3.354625368956476E-4  
 2.572000000000000E10    7.520217332057655E-4  -4.680616257246584E-4  
 2.574000000000000E10   -2.473341592121869E-4  -2.514552033971995E-4  
 2.576000000000000E10   -7.809038506820798E-4   6.135825242381543E-5  
 2.578000000000000E10   -2.377747732680291E-4   5.310069536790252E-4  
 2.580000000000000E10    9.724046685732901E-5   3.674202598631382E-4  
 2.582000000000000E10    3.479183069430292E-4  -6.063100299797952E-4  
 2.584000000000000E10   -1.867392129497603E-4  -1.056253444403410E-3  
 2.586000000000000E10   -5.593058303929865E-4   1.595825960976072E-5  
 2.588000000000000E10   -5.136370309628546E-4   3.621206269599497E-4  
 2.590000000000000E10    5.077261594124138E-4   4.193868080619723E-4  
 2.592000000000000E10    4.146772844251245E-4  -2.720685151871294E-4  
 2.594000000000000E10   -4.283640009816736E-4  -6.255686166696250E-4  
 2.596000000000000E10   -1.251150388270617E-3  -3.963455383200198E-4  
 2.598000000000000E10   -4.597818769980222E-4   7.717999978922308E-4  
 2.600000000000000E10    4.326651105657220E-4   3.473311662673950E-4  
 2.602000000000000E10    7.026523817330599E-4  -5.954086082056165E-4  
 2.604000000000000E10   -2.613762626424432E-4  -9.765998693183065E-4  
 2.606000000000000E10   -1.012254040688276E-3  -9.548384696245194E-5  
 2.608000000000000E10   -2.843754482455552E-4   1.167264417745173E-3  
 2.610000000000000E10    6.126070511527360E-4   4.131608002353460E-4  
 2.612000000000000E10    3.482698812149465E-4  -9.386944584548473E-4  
 2.614000000000000E10   -4.883977817371488E-4  -8.610464865341783E-4  
 2.616000000000000E10   -8.794630412012339E-4   2.455770154483616E-4  
 2.618000000000000E10   -6.548285455210134E-5   4.674509109463543E-4  
 2.620000000000000E10    6.172459688968957E-4   2.757257425400894E-5  
 2.622000000000000E10    5.730257835239172E-4  -1.832073321565986E-4  
 2.624000000000000E10   -4.975313204340637E-4  -1.067240489646792E-3  
 2.626000000000000E10   -6.664452957920730E-4   2.132670342689380E-4  
 2.628000000000000E10   -5.445255083031952E-4   9.284297702834010E-4  
 2.630000000000000E10    6.833220832049847E-4   4.960980731993914E-4  
 2.632000000000000E10    2.326215180801228E-4  -1.076984684914351E-3  
 2.634000000000000E10   -7.933228043839335E-4  -3.339570248499513E-4  
 2.636000000000000E10   -7.033836445771158E-4   9.107008372666314E-5  
 2.638000000000000E10    4.925321554765105E-4   9.181092609651387E-4  
 2.640000000000000E10    2.096010430250317E-4  -2.108731569023803E-4  
 2.642000000000000E10    2.077762183034793E-4  -3.940072201658040E-4  
 2.644000000000000E10   -7.779463776387274E-4  -3.963160997955129E-5  
 2.646000000000000E10    3.098653542110696E-5   7.484308298444375E-5  
 2.648000000000000E10   -1.309345680056140E-4   4.282284644432366E-4  
 2.650000000000000E10    1.784575433703139E-4   2.290952979819849E-4  
 2.652000000000000E10    2.269676188006997E-4  -7.432057464029640E-5  
 2.654000000000000E10   -1.372232509311289E-4  -6.212580483406782E-4  
 2.656000000000000E10   -9.867961052805185E-4  -9.763611160451546E-5  
 2.658000000000000E10   -7.826623914297670E-6   6.563540082424879E-4  
 2.660000000000000E10    2.853484184015542E-4   4.382213810458779E-4  
 2.662000000000000E10    3.415948594920337E-4  -3.921635216102004E-4  
 2.664000000000000E10   -5.509843467734754E-4  -4.300398722989485E-5  
 2.666000000000000E10   -4.264091257937253E-4  -1.005523445201106E-4  
 2.668000000000000E10   -4.944253596477211E-4   5.483753629960120E-4  
 2.670000000000000E10    2.658525409060530E-5   2.529096382204443E-4  
 2.672000000000000E10    1.923787494888529E-4   3.275149792898446E-4  
 2.674000000000000E10   -1.569361629663035E-4  -9.525539353489876E-4  
 2.676000000000000E10   -5.599085707217455E-4  -5.801322913612239E-5  
 2.678000000000000E10   -1.067478442564607E-3   2.345497196074575E-4  
 2.680000000000000E10    1.049212296493352E-3   1.013577682897449E-3  
 2.682000000000000E10    5.567432381212711E-4  -4.374754789751023E-4  
 2.684000000000000E10    1.055066677508876E-4  -8.666245848871768E-4  
 2.686000000000000E10   -1.444984227418900E-3   4.553741018753499E-5  
 2.688000000000000E10   -8.599580178270116E-5   1.152234268374741E-3  
 2.690000000000000E10    6.200079806149006E-4   7.707682671025395E-4  
 2.692000000000000E10    5.148986238054931E-4  -7.420617621392012E-4  
 2.694000000000000E10   -8.891114848665893E-4  -6.029646610841155E-4  
 2.696000000000000E10   -6.400294951163232E-4  -1.109441800508648E-4  
 2.698000000000000E10   -1.214931908180006E-4   1.119785709306598E-3  
 2.700000000000000E10    6.773332715965807E-4   1.014857552945614E-4  
 2.702000000000000E10    6.917014252394438E-4  -5.245181964710355E-4  
 2.704000000000000E10   -4.137839132454246E-4  -6.514810957014561E-4  
 2.706000000000000E10   -7.341772434301674E-4   1.445113011868671E-4  
 2.708000000000000E10   -4.577038635034114E-4   8.380053332075477E-4  
 2.710000000000000E10    9.550716495141387E-4   7.227333844639361E-4  
 2.712000000000000E10    4.951073788106442E-4  -7.275413372553885E-4  
 2.714000000000000E10   -5.554790259338915E-4  -7.876437739469111E-4  
 2.716000000000000E10   -1.149290706962347E-3   6.526068318635225E-4  
 2.718000000000000E10    5.424525006674230E-4   6.957516889087856E-4  
 2.720000000000000E10    7.782236207276583E-4   1.354979758616537E-4  
 2.722000000000000E10    2.841696732502896E-5  -6.545736687257886E-4  
 2.724000000000000E10   -3.029220679309219E-4   4.958370118401945E-5  
 2.726000000000000E10   -6.586464587599039E-4   2.231262187706307E-4  
 2.728000000000000E10    1.075276159099303E-4   9.289217414334416E-4  
 2.730000000000000E10    4.253563238307834E-4  -9.266852430300787E-6  
 2.732000000000000E10    5.348367849364877E-4   1.788031840987969E-5  
 2.734000000000000E10   -5.180036532692611E-4  -5.541904829442501E-4  
 2.736000000000000E10   -5.518732941709459E-4   1.546761450299528E-5  
 2.738000000000000E10   -4.245437448844314E-4   6.012778612785041E-4  
 2.740000000000000E10    1.050248742103577E-3   6.104412022978067E-4  
 2.742000000000000E10    4.064529202878475E-4  -4.707524785771966E-4  
 2.744000000000000E10   -2.089813933707774E-4  -8.990680216811597E-4  
 2.746000000000000E10   -7.878492469899356E-4   9.195974562317133E-4  
 2.748000000000000E10    2.403380349278450E-4   7.669805781915784E-4  
 2.750000000000000E10    5.299851763993502E-4   4.572947218548507E-4  
 2.752000000000000E10    1.848913816502318E-4  -6.007880438119173E-4  
 2.754000000000000E10   -3.368117904756218E-4  -9.852320363279432E-5  
 2.756000000000000E10   -3.776084631681442E-4  -1.013300061458722E-4  
