#  HZ   S   RI   R     50.00 
! Rohde & Schwarz ZVA40 4Ports - Version 3.90 - 1145.1110k42 SN: 100403
! Date: 2023-10-04 11:30:25
! Measurement: S12 
! 
 2.200000000000000E10    1.095197440008633E-4  -4.298740241210908E-4  
 2.202000000000000E10   -6.311088800430298E-4   1.803804188966751E-4  
 2.204000000000000E10   -2.407043648418039E-4   5.419735680334270E-4  
 2.206000000000000E10   -9.269065230910201E-7   2.126876352122054E-4  
 2.208000000000000E10   -1.736881531542167E-4   3.153283614665270E-5  
 2.210000000000000E10   -2.734077279455960E-4   1.775049022398889E-4  
 2.212000000000000E10    2.586574992164969E-4   5.806437002320308E-7  
 2.214000000000000E10    8.797121699899435E-5   1.116860221372917E-4  
 2.216000000000000E10   -2.322269428987056E-4   4.473830995266326E-5  
 2.218000000000000E10    1.523579849163070E-4   6.629449781030417E-4  
 2.220000000000000E10    6.050854572094977E-4   1.559234806336463E-4  
 2.222000000000000E10    2.102877915604040E-4  -3.857863484881818E-4  
 2.224000000000000E10   -3.677570784930140E-4  -2.136608818545938E-4  
 2.226000000000000E10   -3.165489470120519E-4   9.246389381587505E-4  
 2.228000000000000E10    9.216839098371565E-4   4.698086704593152E-4  
 2.230000000000000E10    6.259710644371808E-4   1.323029719060287E-4  
 2.232000000000000E10   -5.430579185485840E-4  -4.302836605347693E-4  
 2.234000000000000E10    1.616704248590395E-4   5.956689128652215E-4  
 2.236000000000000E10    2.498381363693625E-4   3.982959024142474E-4  
 2.238000000000000E10    2.738214097917080E-4  -4.916159923595842E-6  
 2.240000000000000E10    2.211157843703404E-4   1.385917857987806E-5  
 2.242000000000000E10    2.776938199531287E-4  -5.047138620284386E-5  
 2.244000000000000E10    1.243407896254212E-4  -7.220539846457541E-4  
 2.246000000000000E10    3.153471334371716E-5   2.271241537528113E-4  
 2.248000000000000E10    3.038083377759904E-4   8.878783555701375E-4  
 2.250000000000000E10    1.019667135551572E-3   2.938422549050301E-4  
 2.252000000000000E10    3.069739614147693E-4  -9.430737118236721E-4  
 2.254000000000000E10   -4.340597370173782E-4  -2.900726685766131E-4  
 2.256000000000000E10   -1.766165951266885E-4   6.913169636391103E-4  
 2.258000000000000E10    1.127557712607086E-3   2.472551132086664E-4  
 2.260000000000000E10    4.871998098678887E-4  -6.092325202189386E-4  
 2.262000000000000E10   -3.987931268056855E-5  -7.456730818375945E-4  
 2.264000000000000E10   -5.752705037593842E-4   3.456932608969510E-4  
 2.266000000000000E10    5.859082448296249E-4   2.400809025857598E-4  
 2.268000000000000E10    1.278167474083602E-4  -1.303395256400108E-4  
 2.270000000000000E10   -8.594235623604618E-6  -3.789250913541764E-4  
 2.272000000000000E10    2.308987168362364E-4  -3.936711291316897E-4  
 2.274000000000000E10   -2.948827168438584E-4  -6.809223559685051E-4  
 2.276000000000000E10   -3.975360014010221E-4  -1.151368924183771E-4  
 2.278000000000000E10    4.732695524580777E-4   3.940341703128070E-4  
 2.280000000000000E10    7.156369974836707E-4  -5.866730134584941E-5  
 2.282000000000000E10    5.605020560324192E-4  -1.348591875284910E-3  
 2.284000000000000E10   -9.951516985893250E-4   2.259152388432995E-4  
 2.286000000000000E10   -1.691206416580826E-4   9.318029624409974E-4  
 2.288000000000000E10    9.601413621567190E-4  -2.576436090748757E-4  
 2.290000000000000E10    1.310590014327318E-4  -9.468608186580241E-4  
 2.292000000000000E10   -4.905979731120169E-4  -6.527051446028054E-4  
 2.294000000000000E10   -3.628628619480878E-4   3.120440815109760E-4  
 2.296000000000000E10   -1.459975919715362E-5   2.803001261781901E-4  
 2.298000000000000E10    7.875033770687878E-4  -1.133124096668325E-4  
 2.300000000000000E10   -6.864891038276255E-4  -2.217257861047983E-4  
 2.302000000000000E10   -5.534287192858756E-4  -5.876977811567485E-4  
 2.304000000000000E10   -3.764099965337664E-4   3.884756297338754E-4  
 2.306000000000000E10   -8.768170955590904E-4  -2.033578639384359E-4  
 2.308000000000000E10    4.745142941828817E-4   2.991186047438532E-4  
 2.310000000000000E10    3.068723017349839E-4  -4.531798913376406E-5  
 2.312000000000000E10   -2.915057120844722E-4  -1.106920186430216E-3  
 2.314000000000000E10   -6.208721897564828E-4   1.395750150550157E-4  
 2.316000000000000E10    2.369111316511408E-4   1.070037600584328E-3  
 2.318000000000000E10    5.480200634337962E-4  -1.561542376293801E-5  
 2.320000000000000E10    2.885032445192337E-4  -6.832471699453890E-4  
 2.322000000000000E10   -1.016407739371061E-3  -9.717889770399779E-5  
 2.324000000000000E10   -4.109884030185640E-4   2.746212703641504E-4  
 2.326000000000000E10    1.013692381093279E-4   2.884850255213678E-5  
 2.328000000000000E10    4.363652260508388E-4   1.415366859873757E-4  
 2.330000000000000E10    5.114880623295903E-4  -8.881709072738886E-5  
 2.332000000000000E10   -2.103921870002523E-4  -2.998707059305161E-4  
 2.334000000000000E10   -8.282413546112366E-6   1.725527981761843E-4  
 2.336000000000000E10   -3.892622480634600E-4   6.836185348220170E-4  
 2.338000000000000E10    4.688416374847293E-4   3.778958052862436E-4  
 2.340000000000000E10    6.617178441956639E-4   6.886311166454107E-5  
 2.342000000000000E10   -7.918830960988998E-4  -7.395829888992012E-4  
 2.344000000000000E10   -1.090787467546761E-3   3.355812223162502E-4  
 2.346000000000000E10   -7.440264084834780E-7   1.265587052330375E-3  
 2.348000000000000E10    1.254368806257844E-3  -8.747596439206973E-5  
 2.350000000000000E10   -2.121737634297460E-4  -1.034093205817044E-3  
 2.352000000000000E10   -8.067574817687273E-4   8.025681745493785E-5  
 2.354000000000000E10   -2.877439255826175E-4   8.400446386076510E-4  
 2.356000000000000E10    6.457054405473173E-4   7.755202386761084E-5  
 2.358000000000000E10    1.809511159081012E-4  -4.367493238532916E-5  
 2.360000000000000E10    2.149888605345041E-4  -4.370503302197903E-5  
 2.362000000000000E10   -1.651665807003155E-4  -8.646921196486801E-5  
 2.364000000000000E10   -4.749867075588554E-4   3.759169485419989E-4  
 2.366000000000000E10   -3.891561573254876E-5   6.250642472878099E-4  
 2.368000000000000E10    5.267797387205064E-4   1.751799209159799E-5  
 2.370000000000000E10    2.390911249676719E-4  -6.215825560502708E-4  
 2.372000000000000E10   -7.868906832300127E-4  -3.175922611262649E-4  
 2.374000000000000E10   -4.943718085996807E-4   5.151390214450657E-4  
 2.376000000000000E10    5.511670606210828E-4   7.774666883051395E-4  
 2.378000000000000E10    9.009098284877837E-4  -2.020734536927193E-4  
 2.380000000000000E10   -1.228253095177934E-4  -9.273723699152470E-4  
 2.382000000000000E10   -8.003426482900977E-4   5.622298922389746E-4  
 2.384000000000000E10    2.817456561388099E-6   5.937297828495503E-4  
 2.386000000000000E10    9.391607600264251E-4   7.499204366467893E-5  
 2.388000000000000E10   -9.062050958164036E-5  -3.617003676481545E-4  
 2.390000000000000E10    4.111912567168474E-4  -3.568372339941561E-4  
 2.392000000000000E10    6.808050784457009E-6  -6.579739274457097E-4  
 2.394000000000000E10   -6.992375128902495E-4  -1.593266933923587E-4  
 2.396000000000000E10   -1.527996028016787E-5   8.000349043868482E-4  
 2.398000000000000E10    1.691019395366311E-3  -1.692866499070078E-4  
 2.400000000000000E10    1.710778633423615E-5  -8.720122859813273E-4  
 2.402000000000000E10   -1.110645127482712E-3  -7.307559135369957E-4  
 2.404000000000000E10   -4.528235876932740E-4   1.070210710167885E-3  
 2.406000000000000E10    7.359215524047613E-4   4.034899466205388E-4  
 2.408000000000000E10    1.142152352258563E-3  -9.080340387299657E-4  
 2.410000000000000E10   -6.019768188707531E-4  -7.095533655956388E-4  
 2.412000000000000E10   -7.444279617629945E-4   1.179543614853174E-4  
 2.414000000000000E10    1.046823599608615E-4   4.491428844630718E-4  
 2.416000000000000E10    6.917421706020832E-4   2.236784930573776E-4  
 2.418000000000000E10    1.459496124880388E-4  -5.677149165421724E-4  
 2.420000000000000E10    3.807602333836258E-4  -7.654108921997249E-4  
 2.422000000000000E10   -5.938421818427742E-4  -2.062224666588008E-5  
 2.424000000000000E10   -4.307709168642759E-4   2.561560831964016E-4  
 2.426000000000000E10    7.575541530968621E-6   7.072351872920990E-4  
 2.428000000000000E10    9.442534646950662E-4  -2.925676817540079E-4  
 2.430000000000000E10   -5.698080058209598E-4  -1.463842228986323E-3  
 2.432000000000000E10   -1.113564008846879E-3  -2.576549886725843E-4  
 2.434000000000000E10   -3.640741342678666E-4   1.539990073069930E-3  
 2.436000000000000E10    1.361651113256812E-3  -2.546420146245509E-4  
 2.438000000000000E10    5.656324792653322E-4  -1.188862719573081E-3  
 2.440000000000000E10   -8.733744616620243E-4  -5.730370176024735E-4  
 2.442000000000000E10   -4.462239739950746E-4   7.490667630918324E-4  
 2.444000000000000E10    2.921617124229670E-4   7.186978473328054E-4  
 2.446000000000000E10    2.012966579059139E-4  -3.274545088061132E-5  
 2.448000000000000E10    3.308890154585242E-4  -5.000733071938157E-4  
 2.450000000000000E10   -1.672583748586476E-4  -5.899706156924367E-4  
 2.452000000000000E10   -6.428954657167196E-4  -1.148905794252642E-4  
 2.454000000000000E10    1.873206929303706E-5   5.938104586675763E-4  
 2.456000000000000E10    7.187101291492581E-4   2.950187190435827E-4  
 2.458000000000000E10    9.737485088407993E-4  -4.224465519655496E-4  
 2.460000000000000E10   -4.093015741091222E-4  -6.686112610623241E-4  
 2.462000000000000E10   -1.127923256717622E-3   5.055769579485059E-4  
 2.464000000000000E10   -3.235374460928142E-4   1.313680084422231E-3  
 2.466000000000000E10    9.367390885017812E-4   5.426948700915091E-5  
 2.468000000000000E10   -3.957453373004682E-5  -1.165396533906460E-3  
 2.470000000000000E10   -1.113307662308216E-3  -5.864201812073588E-4  
 2.472000000000000E10   -3.071028331760317E-4   7.326220511458814E-4  
 2.474000000000000E10    3.678134526126087E-4   3.624788660090417E-4  
 2.476000000000000E10    3.235533367842436E-4   1.321273448411375E-4  
 2.478000000000000E10    3.685419796966016E-4  -4.348742731963284E-5  
 2.480000000000000E10   -4.970721201971173E-4  -5.502068670466542E-4  
 2.482000000000000E10   -6.382651044987142E-4   2.752312866505235E-4  
 2.484000000000000E10   -2.069285837933421E-4   6.693536415696144E-4  
 2.486000000000000E10    6.532511906698346E-4   2.104676677845419E-4  
 2.488000000000000E10    3.282535180915147E-4  -9.352696943096817E-4  
 2.490000000000000E10   -1.337392168352380E-4  -7.603055564686656E-4  
 2.492000000000000E10   -7.479919004254043E-4   2.618723083287478E-4  
 2.494000000000000E10    4.310170479584485E-4   6.735736969858408E-4  
 2.496000000000000E10    1.202562707476318E-3   9.592607239028439E-5  
 2.498000000000000E10    1.994664780795574E-4  -1.002276665531099E-3  
 2.500000000000000E10   -8.502985001541674E-4  -4.863617068622261E-4  
 2.502000000000000E10   -5.430251476354897E-4   7.654234650544822E-4  
 2.504000000000000E10    1.165778012364171E-4   4.276102408766747E-4  
 2.506000000000000E10    5.080818082205951E-4  -5.848390865139663E-4  
 2.508000000000000E10   -3.801973798545077E-5  -7.495571044273675E-4  
 2.510000000000000E10   -4.897196777164936E-4  -8.678142330609262E-4  
 2.512000000000000E10   -1.171526964753866E-4  -1.067970297299326E-4  
 2.514000000000000E10    2.126453327946365E-4   5.668891826644540E-4  
 2.516000000000000E10    8.912684279493988E-4   3.447500421316363E-5  
 2.518000000000000E10    3.294199705123901E-4  -7.179374806582928E-4  
 2.520000000000000E10   -8.428482688032091E-4  -3.533562994562089E-4  
 2.522000000000000E10   -9.152945713140070E-4   3.104587085545063E-4  
 2.524000000000000E10    2.896151272580028E-4   6.287330761551857E-4  
 2.526000000000000E10    6.009759963490069E-4  -5.281970370560885E-4  
 2.528000000000000E10   -7.459369953721762E-5  -1.353050931356847E-3  
 2.530000000000000E10   -5.762241780757904E-4  -2.686218940652907E-4  
 2.532000000000000E10   -5.261671030893922E-4   7.679621921852231E-4  
 2.534000000000000E10    5.704681389033794E-4   3.036042326129973E-4  
 2.536000000000000E10    3.790851915255189E-4  -2.883527195081115E-4  
 2.538000000000000E10   -4.166322178207338E-4  -6.743466947227716E-4  
 2.540000000000000E10   -6.902421009726822E-4   1.806160580599681E-4  
 2.542000000000000E10   -6.713529000990093E-4   1.455162419006228E-4  
 2.544000000000000E10   -7.187839219113812E-5   2.743695513345301E-4  
 2.546000000000000E10    6.608948460780084E-4  -3.524719504639506E-4  
 2.548000000000000E10    3.850597131531686E-4  -6.914985133334994E-4  
 2.550000000000000E10   -9.074609261006117E-4  -1.018531504087150E-3  
 2.552000000000000E10   -8.047252777032554E-5   6.850002682767808E-4  
 2.554000000000000E10    6.141880876384676E-4   8.375961915589869E-4  
 2.556000000000000E10    6.962640327401459E-4  -4.343164036981762E-4  
 2.558000000000000E10   -8.298374596051872E-4  -8.535581291653216E-4  
 2.560000000000000E10   -7.893798174336553E-4   1.931472434080206E-5  
 2.562000000000000E10   -5.461314576677978E-4   5.384216201491654E-4  
 2.564000000000000E10    6.008984055370092E-4  -1.389740646118298E-5  
 2.566000000000000E10    4.491450963541865E-4  -5.764210363849998E-4  
 2.568000000000000E10    2.873750927392393E-4  -9.734287741594017E-4  
 2.570000000000000E10   -7.314540562219918E-4   1.338266301900148E-4  
 2.572000000000000E10   -3.102156624663621E-4   5.656006978824735E-4  
 2.574000000000000E10    3.256924974266440E-4   9.175468585453928E-4  
 2.576000000000000E10    3.069074300583452E-4  -5.161537555977702E-4  
 2.578000000000000E10   -7.790526142343879E-4  -6.279798108153045E-4  
 2.580000000000000E10   -9.287632419727743E-4  -2.574911195551977E-5  
 2.582000000000000E10   -5.540777783608064E-5   6.454691756516695E-4  
 2.584000000000000E10    5.766827380284667E-4   1.909691782202572E-4  
 2.586000000000000E10    3.793477662838996E-4  -7.555321208201349E-4  
 2.588000000000000E10   -1.013050205074251E-4  -6.964646745473146E-4  
 2.590000000000000E10   -5.363714881241322E-4   8.569391793571413E-4  
 2.592000000000000E10    2.359548670938239E-4   9.733152110129595E-4  
 2.594000000000000E10    6.095932913012803E-4   2.236595901194960E-4  
 2.596000000000000E10   -2.010330936172977E-4  -4.988170112483203E-4  
 2.598000000000000E10   -2.172947424696758E-4   1.763031832524575E-5  
 2.600000000000000E10   -7.004217477515340E-4  -1.061563234543428E-4  
 2.602000000000000E10    1.248767221113667E-4   4.179014940746129E-4  
 2.604000000000000E10    4.857047752011567E-4   3.733815683517605E-4  
 2.606000000000000E10    3.476611163932830E-4  -3.860116066789487E-6  
 2.608000000000000E10   -5.264692590571940E-4  -3.690441371873021E-4  
 2.610000000000000E10   -3.791450581047684E-4   1.581889227963984E-4  
 2.612000000000000E10   -5.927673191763461E-4   5.105044692754746E-4  
 2.614000000000000E10    2.314099692739546E-4   2.349651185795665E-4  
 2.616000000000000E10    2.540524874348193E-4  -3.439020947553217E-4  
 2.618000000000000E10   -1.009667539619841E-4  -1.103494083508849E-3  
 2.620000000000000E10   -8.759989286772907E-4  -1.735367732180748E-5  
 2.622000000000000E10   -1.553698675706983E-4   6.655698525719345E-4  
 2.624000000000000E10    9.605845552869141E-4   4.713709058705717E-4  
 2.626000000000000E10    2.387701097177342E-4  -5.436173523776233E-4  
 2.628000000000000E10   -3.659486246760935E-4  -2.554809325374663E-4  
 2.630000000000000E10   -6.240834482014179E-4  -2.124458551406860E-4  
 2.632000000000000E10   -2.663116611074656E-4   1.916093315230683E-4  
 2.634000000000000E10    3.861148434225470E-4   1.968522410606965E-4  
 2.636000000000000E10    5.542078288272023E-4  -5.328649422153831E-4  
 2.638000000000000E10   -3.990396216977388E-4  -8.935105288401246E-4  
 2.640000000000000E10   -8.454400231130421E-4  -2.522861759644002E-4  
 2.642000000000000E10   -1.842642523115501E-4   1.257745083421469E-3  
 2.644000000000000E10    6.908382056280971E-4   2.708829415496439E-4  
 2.646000000000000E10    3.836678806692362E-4  -4.251869104336947E-4  
 2.648000000000000E10   -8.180043660104275E-4  -9.798260871320963E-4  
 2.650000000000000E10   -1.176581135950983E-3   3.485381312202662E-4  
 2.652000000000000E10    2.784163807518780E-4   8.355294703505933E-4  
 2.654000000000000E10    8.631151285953820E-4  -1.922457595355809E-4  
 2.656000000000000E10    3.546588995959610E-4  -8.336658938787878E-4  
 2.658000000000000E10   -9.957858128473163E-4  -1.583132834639400E-4  
 2.660000000000000E10   -9.945168858394027E-4   4.203477583359927E-4  
 2.662000000000000E10    4.682745493482798E-4   1.191271585412324E-3  
 2.664000000000000E10    4.564067639876157E-4   1.009425395750441E-4  
 2.666000000000000E10   -4.613881628756644E-6  -5.134269595146179E-4  
 2.668000000000000E10   -1.274450449272990E-3  -5.127005861140788E-4  
 2.670000000000000E10   -3.981555637437850E-4   7.167781004682183E-4  
 2.672000000000000E10   -8.823238022159785E-5   7.822370389476419E-4  
 2.674000000000000E10    7.543538813479245E-4  -2.638952864799649E-4  
 2.676000000000000E10   -3.419258282519877E-4  -7.749904762022197E-4  
 2.678000000000000E10   -6.376811070367694E-4  -1.097639324143529E-4  
 2.680000000000000E10   -4.221434937790036E-4   8.191961096599698E-4  
 2.682000000000000E10    4.579141386784613E-4   4.401669139042497E-4  
 2.684000000000000E10    2.006870927289128E-4  -1.342647010460496E-4  
 2.686000000000000E10    1.109514487325214E-4  -5.578779382631183E-4  
 2.688000000000000E10   -6.801199633628130E-4   4.233842264511623E-5  
 2.690000000000000E10   -5.386953125707805E-4   2.663427439983934E-4  
 2.692000000000000E10    4.202259588055313E-4   4.710096109192818E-4  
 2.694000000000000E10    6.316629151115194E-5  -1.396726584061980E-4  
 2.696000000000000E10    6.753905472578481E-5  -2.285366936121136E-4  
 2.698000000000000E10   -2.664228668436408E-4  -3.230985021218658E-4  
 2.700000000000000E10   -2.686831867322326E-4   4.488162230700254E-4  
 2.702000000000000E10   -1.559969678055495E-4   7.875488954596221E-4  
 2.704000000000000E10    8.300084155052900E-4   1.994861959246919E-4  
 2.706000000000000E10   -1.294563116971403E-5  -3.028651408385485E-4  
 2.708000000000000E10   -6.729556480422616E-4  -5.373415187932551E-4  
 2.710000000000000E10   -5.418629152700305E-4   7.531806477345526E-4  
 2.712000000000000E10    3.052350075449795E-4   3.725905262399465E-4  
 2.714000000000000E10    6.300274399109185E-4   1.782029721653089E-4  
 2.716000000000000E10    2.072572096949443E-4  -5.685044452548027E-4  
 2.718000000000000E10   -3.579263575375080E-4  -1.831335393944755E-4  
 2.720000000000000E10   -6.205646786838770E-4   4.468951374292374E-4  
 2.722000000000000E10   -4.825615178560838E-5   1.107327872887254E-3  
 2.724000000000000E10    6.390495109371841E-4   2.563178422860801E-4  
 2.726000000000000E10    2.631591924000531E-4  -5.264758365228772E-4  
 2.728000000000000E10   -1.243950915522873E-3  -5.448033916763961E-4  
 2.730000000000000E10   -4.143478872720152E-4   7.997632492333651E-4  
 2.732000000000000E10    1.530603040009737E-4   1.050107763148844E-3  
 2.734000000000000E10    1.264606602489948E-3  -2.731070853769779E-4  
 2.736000000000000E10   -4.246726457495242E-4  -6.623691879212856E-4  
 2.738000000000000E10   -8.901478722691536E-4   1.732863347569946E-5  
 2.740000000000000E10   -6.095842109061778E-4   1.411685487255454E-3  
 2.742000000000000E10    8.437791839241982E-4   1.721634325804189E-4  
 2.744000000000000E10    3.043479518964887E-4  -4.186500154901296E-5  
 2.746000000000000E10   -4.399678728077561E-4  -9.324744460172951E-4  
 2.748000000000000E10   -3.782974381465465E-4   6.226056575542316E-5  
 2.750000000000000E10   -5.428078584372997E-4   5.252589471638203E-4  
 2.752000000000000E10    6.484481273218989E-4   5.748434341512620E-4  
 2.754000000000000E10    9.718329529277980E-4  -1.671580248512328E-4  
 2.756000000000000E10   -2.938941179309040E-4  -3.598998009692878E-4  
