#  HZ   S   RI   R     50.00 
! Rohde & Schwarz ZVA40 4Ports - Version 3.90 - 1145.1110k42 SN: 100403
! Date: 2023-10-04 11:29:59
! Measurement: S12 
! 
 2.200000000000000E10    2.029005263466388E-4  -2.144458121620119E-4  
 2.202000000000000E10   -8.841381350066513E-5  -4.554579209070653E-4  
 2.204000000000000E10   -6.528713583975332E-6  -3.223721432732418E-5  
 2.206000000000000E10   -1.821666519390419E-4  -6.771808693883941E-5  
 2.208000000000000E10    5.052052438259125E-4  -8.673559932503849E-5  
 2.210000000000000E10    2.999526041094214E-4   1.977324282051995E-4  
 2.212000000000000E10    6.474543479271233E-4  -2.537533582653850E-4  
 2.214000000000000E10    1.105639821616933E-4  -3.370814374648035E-4  
 2.216000000000000E10   -1.440641353838146E-4   3.625542376539670E-5  
 2.218000000000000E10    4.254754167050123E-4   2.060756523860619E-4  
 2.220000000000000E10    2.585843321867287E-4  -2.840833913069218E-4  
 2.222000000000000E10    4.457274917513132E-4  -5.753746372647584E-4  
 2.224000000000000E10   -7.181022374425083E-5  -7.665921584703028E-4  
 2.226000000000000E10    4.114184412173927E-4   9.089479135582224E-5  
 2.228000000000000E10    3.593919973354787E-4   3.011805820278823E-4  
 2.230000000000000E10    5.947609897702932E-4  -6.778120878152549E-4  
 2.232000000000000E10    8.556021202821285E-5   3.055385604966432E-5  
 2.234000000000000E10   -2.714715956244618E-4  -2.117181866196916E-4  
 2.236000000000000E10    8.216359856305644E-5  -1.208718240377493E-4  
 2.238000000000000E10   -5.455896025523543E-4  -2.309799892827869E-4  
 2.240000000000000E10    3.149937838315964E-4  -3.244538384024054E-4  
 2.242000000000000E10    2.770820283330977E-4  -4.788027727045119E-4  
 2.244000000000000E10    9.483285793976393E-6  -5.854674382135272E-4  
 2.246000000000000E10   -3.287451399955899E-4  -3.005128819495440E-4  
 2.248000000000000E10    1.833195274230093E-4   2.417505602352321E-4  
 2.250000000000000E10    5.978203844279051E-4   4.193496133666486E-4  
 2.252000000000000E10    4.458031810372631E-7  -1.052445441018790E-4  
 2.254000000000000E10   -7.530007860623300E-4  -5.219962913542986E-4  
 2.256000000000000E10   -8.719242759980261E-4   8.406046981690452E-5  
 2.258000000000000E10   -1.010437990771607E-4   2.950158086605370E-4  
 2.260000000000000E10    4.709701461251825E-4  -7.176272920332849E-4  
 2.262000000000000E10   -2.086783206323162E-4  -5.657980218529701E-4  
 2.264000000000000E10   -4.434665970620699E-5  -4.903113003820181E-4  
 2.266000000000000E10    5.188046998227947E-5   1.800018617359456E-5  
 2.268000000000000E10   -4.163683479418978E-5   2.654603158589453E-4  
 2.270000000000000E10    5.688375094905496E-4   6.537204608321190E-4  
 2.272000000000000E10    4.405038635013625E-5  -3.662347444333136E-5  
 2.274000000000000E10   -7.988834986463189E-4  -5.561865400522947E-4  
 2.276000000000000E10   -1.122944406233728E-3   2.355715987505391E-4  
 2.278000000000000E10   -2.273351856274530E-4   1.121361274272203E-4  
 2.280000000000000E10    7.577193900942802E-4  -4.803945193998516E-4  
 2.282000000000000E10    7.547450368292630E-4  -3.065334458369762E-4  
 2.284000000000000E10   -6.045070476830006E-4  -3.673691535368562E-4  
 2.286000000000000E10   -4.816058790311217E-4   4.993369802832604E-4  
 2.288000000000000E10    2.952998620457947E-4   1.084567746147513E-3  
 2.290000000000000E10    2.928744070231915E-4   8.371407602680847E-5  
 2.292000000000000E10   -6.489246152341366E-4  -8.344360394403338E-4  
 2.294000000000000E10   -9.409780614078045E-4  -1.601017138455063E-4  
 2.296000000000000E10   -2.431404864182696E-4   5.151602672412992E-4  
 2.298000000000000E10    5.278111784718931E-4   5.184028123039752E-5  
 2.300000000000000E10    1.577750954311341E-4  -1.368532393826172E-4  
 2.302000000000000E10    2.490084443707019E-4  -1.029542836477049E-4  
 2.304000000000000E10   -3.852243826258928E-4  -1.595702342456207E-4  
 2.306000000000000E10   -5.901519325561822E-4   7.104549440555275E-4  
 2.308000000000000E10    2.705487422645092E-4   8.432910544797778E-4  
 2.310000000000000E10    5.098074907436967E-4  -2.245434588985518E-4  
 2.312000000000000E10    1.503882958786562E-4  -8.495056536048651E-4  
 2.314000000000000E10   -1.120692933909595E-3  -1.602772244950756E-4  
 2.316000000000000E10   -1.814005809137598E-4   5.909463507123292E-4  
 2.318000000000000E10    1.259449869394302E-3   3.120216133538634E-4  
 2.320000000000000E10    6.475471309386194E-4  -3.988469834439457E-4  
 2.322000000000000E10   -5.988705088384450E-4  -5.335197201929987E-4  
 2.324000000000000E10   -4.807010118383914E-4   6.833387305960059E-4  
 2.326000000000000E10    1.271968940272927E-4   1.297239563427866E-3  
 2.328000000000000E10    3.375548694748431E-4  -5.361122894100845E-4  
 2.330000000000000E10    1.653797080507502E-4  -4.153059271629900E-4  
 2.332000000000000E10   -2.608530630823225E-4  -1.506318494648440E-5  
 2.334000000000000E10    1.054296008078381E-4  -2.086924941977486E-4  
 2.336000000000000E10    2.638469450175762E-4   4.776791229232913E-7  
 2.338000000000000E10    4.246213065925986E-4   2.207019424531609E-4  
 2.340000000000000E10    1.020854571834207E-3  -3.135378065053374E-4  
 2.342000000000000E10    5.238712183199823E-4  -6.598064792342484E-4  
 2.344000000000000E10   -7.325829355977476E-4   4.584105045069009E-5  
 2.346000000000000E10   -2.070073824143037E-4   7.235548109747469E-4  
 2.348000000000000E10    1.389588112942874E-3   1.083200404536910E-4  
 2.350000000000000E10    4.911290016025305E-4  -8.624879992567003E-4  
 2.352000000000000E10   -1.607727244845592E-5  -7.064249366521835E-4  
 2.354000000000000E10   -3.963961498811841E-4   4.714230308309197E-4  
 2.356000000000000E10    2.176978014176711E-4  -1.771918869053479E-5  
 2.358000000000000E10    4.522109229583293E-4   1.099562432500534E-4  
 2.360000000000000E10    2.571484947111458E-4  -6.603672518394887E-4  
 2.362000000000000E10   -2.909761462888127E-7  -7.330374792218208E-4  
 2.364000000000000E10   -8.105816086754203E-4   8.464420534437522E-5  
 2.366000000000000E10   -2.485052391421050E-4  -6.131066766101867E-5  
 2.368000000000000E10    1.651257771300152E-4   4.013819852843881E-4  
 2.370000000000000E10    8.591047953814268E-4  -6.075184210203588E-4  
 2.372000000000000E10   -5.941129056736827E-4  -9.203235385939479E-4  
 2.374000000000000E10   -1.291788299567998E-3  -8.871144382283092E-5  
 2.376000000000000E10   -2.798804052872583E-5   9.649550775066018E-4  
 2.378000000000000E10    8.655297569930553E-4  -6.668681744486094E-4  
 2.380000000000000E10    1.036536923493259E-5  -1.217533601447940E-3  
 2.382000000000000E10   -1.336100511252880E-3  -4.433552676346153E-4  
 2.384000000000000E10    2.059039070445579E-5   1.007881830446422E-3  
 2.386000000000000E10   -6.312565528787673E-5   3.747640002984554E-4  
 2.388000000000000E10    5.628889775834978E-4  -4.826208751183003E-4  
 2.390000000000000E10   -4.373951524030417E-4  -9.568756649969146E-5  
 2.392000000000000E10   -8.402582025155425E-4  -4.676750104408711E-4  
 2.394000000000000E10   -4.562230024021119E-4   4.857614694628865E-4  
 2.396000000000000E10   -9.109562961384654E-5   3.976003790739924E-4  
 2.398000000000000E10    9.613878501113504E-5  -2.424699778202921E-4  
 2.400000000000000E10    1.254131202585995E-4  -9.790298063308001E-4  
 2.402000000000000E10   -5.287596140988171E-4   7.254511729115620E-5  
 2.404000000000000E10   -1.222821418195963E-3   5.269467364996672E-4  
 2.406000000000000E10    8.131643990054727E-4   8.990628411993384E-4  
 2.408000000000000E10    3.454070538282394E-4  -1.217671451740898E-4  
 2.410000000000000E10   -6.374873919412494E-4  -1.317756366916001E-3  
 2.412000000000000E10   -1.168211456388235E-3   4.626248555723578E-4  
 2.414000000000000E10   -2.249438985018060E-4   8.939879480749369E-4  
 2.416000000000000E10    3.282914403825998E-4  -5.862549369339831E-5  
 2.418000000000000E10   -8.801653166301549E-5  -2.303387591382489E-4  
 2.420000000000000E10   -2.251447949674912E-5  -2.464332737872610E-6  
 2.422000000000000E10   -3.751524200197309E-4  -4.891507560387254E-4  
 2.424000000000000E10   -7.106532575562596E-4   4.643622087314725E-4  
 2.426000000000000E10   -1.728508359519765E-4   1.215010415762663E-3  
 2.428000000000000E10    9.914541151374579E-4  -1.141377924795961E-5  
 2.430000000000000E10   -1.379056338919327E-4  -1.151423202827573E-3  
 2.432000000000000E10   -1.112827449105680E-3  -3.561560297384858E-4  
 2.434000000000000E10   -5.354577442631126E-4   1.109360018745065E-3  
 2.436000000000000E10    9.944493649527431E-4   7.635843940079212E-4  
 2.438000000000000E10    5.725899245589972E-4  -8.736855234019458E-4  
 2.440000000000000E10   -5.221473984420300E-4  -1.121193519793451E-3  
 2.442000000000000E10   -8.404794498346746E-4   3.279512166045606E-4  
 2.444000000000000E10    4.933639502269216E-6   8.735165465623140E-4  
 2.446000000000000E10    7.073380402289331E-4  -1.724711546557955E-5  
 2.448000000000000E10   -3.021507950506930E-7  -4.861815541516990E-4  
 2.450000000000000E10   -1.742475287755951E-4  -4.617922531906515E-4  
 2.452000000000000E10   -5.084362346678972E-4  -3.466437046881765E-4  
 2.454000000000000E10   -3.294840280432254E-4   5.172635428607464E-4  
 2.456000000000000E10    5.517625831998885E-4   5.466628354042769E-4  
 2.458000000000000E10    8.478778181597590E-4  -3.247310523875058E-4  
 2.460000000000000E10   -1.244421728188172E-4  -9.566262015141547E-4  
 2.462000000000000E10   -1.173147349618375E-3   1.408824173267931E-4  
 2.464000000000000E10   -1.462076616007835E-4   1.382363028824329E-3  
 2.466000000000000E10    1.144721987657249E-3   3.245621628593653E-4  
 2.468000000000000E10    3.074611013289541E-4  -7.139076478779316E-4  
 2.470000000000000E10   -8.438567747361958E-4  -9.349928586743772E-4  
 2.472000000000000E10   -3.129317774437368E-4   6.518377922475338E-4  
 2.474000000000000E10    3.839953278657049E-4   5.075365188531578E-4  
 2.476000000000000E10    7.095359032973647E-4  -8.451571920886636E-5  
 2.478000000000000E10    4.790770253748633E-5  -5.748626426793635E-4  
 2.480000000000000E10   -3.099423774983734E-4  -2.512774372007698E-4  
 2.482000000000000E10   -1.040307339280844E-3   3.218448255211115E-4  
 2.484000000000000E10   -4.513242674875073E-5   3.753750352188945E-4  
 2.486000000000000E10    3.229976573493332E-4   4.929616698063910E-4  
 2.488000000000000E10    4.432894929777831E-4  -9.675919427536428E-4  
 2.490000000000000E10   -2.802799863275141E-4  -7.893398287706077E-4  
 2.492000000000000E10   -8.550920756533742E-4  -6.512894742627395E-6  
 2.494000000000000E10    1.047938130795956E-4   1.474589225836098E-3  
 2.496000000000000E10    7.543023675680161E-4   1.062022347468883E-4  
 2.498000000000000E10    3.266997809987515E-4  -7.781806634739041E-4  
 2.500000000000000E10   -1.598006347194314E-3  -3.734571509994566E-4  
 2.502000000000000E10   -5.328237311914563E-4   4.681303689721972E-4  
 2.504000000000000E10    2.352027659071609E-4   8.317609317600727E-4  
 2.506000000000000E10    3.852303489111364E-4  -7.187980227172375E-4  
 2.508000000000000E10    6.199290510267019E-5  -5.061449483036995E-4  
 2.510000000000000E10   -5.494250799529254E-4  -5.683317431248725E-4  
 2.512000000000000E10   -5.438106600195169E-4   6.397691904567182E-4  
 2.514000000000000E10    1.596981455804780E-4   2.717866445891559E-4  
 2.516000000000000E10    6.406910251826048E-4   3.431406803429127E-4  
 2.518000000000000E10   -6.054454133845866E-4  -5.321934004314244E-4  
 2.520000000000000E10   -7.189290481619537E-4  -2.574922109488398E-4  
 2.522000000000000E10   -8.642289903946221E-4   4.302582819946110E-4  
 2.524000000000000E10    2.144157479051501E-4   3.884917823597789E-4  
 2.526000000000000E10    8.103357395157218E-4  -1.207654495374300E-4  
 2.528000000000000E10    2.318597398698330E-4  -8.200102020055056E-4  
 2.530000000000000E10   -1.110331737436354E-3  -3.250684239901602E-4  
 2.532000000000000E10   -3.122134075965732E-4   9.562595514580607E-4  
 2.534000000000000E10    8.542216382920742E-4   8.016023784875870E-4  
 2.536000000000000E10    3.901374002452940E-4  -4.857341118622571E-4  
 2.538000000000000E10   -6.635082536377013E-4   5.836412128701340E-6  
 2.540000000000000E10   -6.377059617079794E-4   4.595301870722324E-4  
 2.542000000000000E10   -2.446817816235125E-4   3.438314015511423E-4  
 2.544000000000000E10   -1.058149500750005E-4   4.668395558837801E-4  
 2.546000000000000E10    5.470113828778267E-4   1.727993803797290E-4  
 2.548000000000000E10    5.753198638558388E-5  -8.548402693122625E-4  
 2.550000000000000E10   -4.551403108052909E-4  -2.260550390928984E-4  
 2.552000000000000E10   -4.473254957702011E-4   5.616493290290237E-4  
 2.554000000000000E10    7.673619547858834E-4   6.978166056796908E-4  
 2.556000000000000E10    5.108456243760884E-4  -1.454823941458017E-4  
 2.558000000000000E10   -3.206750552635640E-4  -3.624877135735005E-4  
 2.560000000000000E10   -9.431976941414177E-4   3.096237196587026E-4  
 2.562000000000000E10   -2.084874722640961E-4   7.124275434762240E-4  
 2.564000000000000E10    4.403488419484347E-4   1.647414319450036E-4  
 2.566000000000000E10    4.387919325381517E-4  -4.157444636803120E-4  
 2.568000000000000E10   -2.358472993364558E-4  -7.318717543967068E-4  
 2.570000000000000E10   -2.779711794573814E-4  -1.034673259709962E-4  
 2.572000000000000E10   -2.038514357991517E-4   2.941376005765051E-4  
 2.574000000000000E10    5.166182527318597E-4   2.746944373939186E-4  
 2.576000000000000E10    5.144810420460999E-4   1.614846114534885E-4  
 2.578000000000000E10   -2.620123850647360E-4  -6.510514067485929E-4  
 2.580000000000000E10   -9.184601367451251E-4  -5.795946708531119E-5  
 2.582000000000000E10   -4.198804381303489E-4   5.203865002840757E-4  
 2.584000000000000E10    7.017201860435307E-4   6.002886220812798E-4  
 2.586000000000000E10    7.203002460300922E-4  -1.051389263011515E-3  
 2.588000000000000E10   -5.644446355290711E-4  -8.442971156910062E-4  
 2.590000000000000E10   -7.923735538497567E-4   2.251301630167291E-4  
 2.592000000000000E10    1.103726390283555E-4   7.294059032574296E-4  
 2.594000000000000E10    5.369456484913826E-4   9.982175834011287E-5  
 2.596000000000000E10    6.404082523658872E-4  -8.027428993955255E-4  
 2.598000000000000E10   -8.226278587244451E-4  -4.532068560365588E-4  
 2.600000000000000E10   -1.016795285977423E-3   3.373729705344886E-4  
 2.602000000000000E10    1.314832334173843E-4   8.531686034984887E-4  
 2.604000000000000E10    8.258403395302594E-4  -3.241444937884808E-4  
 2.606000000000000E10    3.464560722932220E-4  -8.411134476773441E-4  
 2.608000000000000E10   -5.636239075101912E-4  -2.253918937640265E-4  
 2.610000000000000E10   -6.077730795368552E-4   2.564605383668095E-4  
 2.612000000000000E10    1.988594740396366E-4   8.109827758744359E-4  
 2.614000000000000E10    4.714861279353499E-4   3.514720592647791E-4  
 2.616000000000000E10    3.197981568519026E-4  -8.449819288216531E-4  
 2.618000000000000E10   -9.903567843139172E-4  -1.639558904571459E-4  
 2.620000000000000E10   -8.589565404690802E-4   6.536290748044848E-4  
 2.622000000000000E10    1.781158352969214E-4   6.235629552975297E-4  
 2.624000000000000E10    3.343085700180382E-4  -6.205446552485228E-4  
 2.626000000000000E10   -4.565266408462776E-6  -2.342783409403637E-4  
 2.628000000000000E10   -6.884295144118369E-4  -6.359195685945451E-5  
 2.630000000000000E10   -9.292230970459059E-6   5.924786673858762E-4  
 2.632000000000000E10   -3.420037974137813E-4   4.070359282195568E-4  
 2.634000000000000E10    6.206847610883415E-4   1.851057313615456E-4  
 2.636000000000000E10   -3.876977643813007E-5  -2.302491047885269E-4  
 2.638000000000000E10   -3.182869695592672E-4  -1.047657133312896E-4  
 2.640000000000000E10   -7.114464533515275E-4   3.483321052044630E-4  
 2.642000000000000E10   -1.798242446966469E-4   5.464929854497314E-4  
 2.644000000000000E10    2.206047211075202E-4   3.282947000116110E-4  
 2.646000000000000E10    2.185673947678879E-4  -5.333911976777017E-4  
 2.648000000000000E10   -2.581437584012747E-4  -1.424025685992092E-4  
 2.650000000000000E10   -7.599496748298407E-4  -1.689969394647051E-5  
 2.652000000000000E10   -6.268811375775840E-6   9.220195352099836E-4  
 2.654000000000000E10    6.497678696177900E-4   2.049539762083441E-4  
 2.656000000000000E10    5.006860010325909E-4  -4.431464767549187E-4  
 2.658000000000000E10   -6.072077667340636E-4  -2.298115578014404E-4  
 2.660000000000000E10   -5.696675507351756E-4   8.421780075877905E-4  
 2.662000000000000E10   -1.866767124738544E-4   7.966992561705411E-4  
 2.664000000000000E10    7.270488422363997E-4   5.846485692018177E-6  
 2.666000000000000E10    1.704714522929862E-4  -6.971881375648081E-4  
 2.668000000000000E10   -5.069709150120616E-4  -4.751070810016245E-4  
 2.670000000000000E10   -9.754336206242442E-4   8.116557146422565E-4  
 2.672000000000000E10    5.779715720564127E-4   5.939110997132957E-4  
 2.674000000000000E10    9.184242808260024E-4   3.214759053662419E-4  
 2.676000000000000E10    8.417272329097614E-5  -9.617679170332849E-4  
 2.678000000000000E10   -7.913363515399396E-4   1.903703196148854E-5  
 2.680000000000000E10   -9.210967109538615E-4   7.205879082903266E-4  
 2.682000000000000E10    6.033186800777912E-4   1.137779676355422E-3  
 2.684000000000000E10    7.754207472316921E-4  -3.371281200088561E-4  
 2.686000000000000E10   -2.649537927936763E-4  -9.955100249499083E-4  
 2.688000000000000E10   -1.232809852808714E-3  -3.298724914202467E-5  
 2.690000000000000E10   -1.610766485100612E-4   1.108370837755501E-3  
 2.692000000000000E10    6.777446833439171E-4   5.089870537631214E-4  
 2.694000000000000E10    8.579978020861745E-4  -6.520575261674821E-4  
 2.696000000000000E10   -6.757230148650706E-4  -6.665195105597377E-4  
 2.698000000000000E10   -5.198369035497308E-4   4.976979689672589E-4  
 2.700000000000000E10   -3.406632749829441E-4   1.074026571586728E-3  
 2.702000000000000E10    9.840670973062515E-4   8.311861311085522E-4  
 2.704000000000000E10    5.222993204370141E-4  -2.563915040809661E-4  
 2.706000000000000E10   -5.019721575081348E-4  -6.495844572782517E-4  
 2.708000000000000E10   -8.209639927372336E-4   5.047749145887792E-4  
 2.710000000000000E10    3.180324856657535E-4   6.191547145135701E-4  
 2.712000000000000E10    5.148074124008417E-4   2.231156104244292E-4  
 2.714000000000000E10    2.329164271941409E-4  -9.282045648433268E-4  
 2.716000000000000E10    3.536490257829428E-4   1.130108794313856E-4  
 2.718000000000000E10   -6.105738575570285E-4   2.180764713557437E-4  
 2.720000000000000E10    6.332246121019125E-4   8.974209195002914E-4  
 2.722000000000000E10    3.444307367317379E-4   5.459577660076320E-4  
 2.724000000000000E10    3.539823228493333E-4  -3.107272495981306E-4  
 2.726000000000000E10   -3.191217256244272E-4   4.512652958510444E-5  
 2.728000000000000E10   -4.198797978460789E-4  -6.643359665758908E-5  
 2.730000000000000E10   -4.678050754591823E-4   4.128954315092415E-4  
 2.732000000000000E10    6.871090736240149E-4   6.744616257492453E-5  
 2.734000000000000E10    6.985505460761488E-4  -3.537064549163915E-5  
 2.736000000000000E10    4.398788951220922E-5  -8.867317228578031E-4  
 2.738000000000000E10   -2.268963726237416E-4   4.534962645266205E-4  
 2.740000000000000E10   -7.354967237915844E-5   1.131400698795915E-3  
 2.742000000000000E10    3.482707252260298E-4   6.138452445156872E-4  
 2.744000000000000E10    2.518100081942976E-4  -2.236208820249885E-4  
 2.746000000000000E10   -4.083912353962660E-4  -4.521418304648250E-4  
 2.748000000000000E10   -9.223447414115071E-4  -1.285685866605490E-4  
 2.750000000000000E10   -5.640846211463213E-5   8.997215190902352E-4  
 2.752000000000000E10    8.614968392066658E-4   6.220176583155990E-4  
 2.754000000000000E10    8.968902402557433E-4  -9.263630490750074E-4  
 2.756000000000000E10   -4.294590908102691E-4  -1.941281225299463E-4  
