#  HZ   S   RI   R     50.00 
! Rohde & Schwarz ZVA40 4Ports - Version 3.90 - 1145.1110k42 SN: 100403
! Date: 2023-10-04 11:29:36
! Measurement: S12 
! 
 2.200000000000000E10    3.934413252864033E-4  -1.376802247250453E-4  
 2.202000000000000E10   -1.350365928374231E-4   8.663302287459374E-5  
 2.204000000000000E10   -3.557254385668784E-4  -3.356328525114805E-4  
 2.206000000000000E10   -2.588456118246540E-5  -5.109899793751538E-4  
 2.208000000000000E10    1.851295091910288E-4   1.573977933730930E-4  
 2.210000000000000E10   -4.055730823893100E-5  -4.626364680007100E-4  
 2.212000000000000E10    7.927883998490870E-4  -2.548420743551105E-4  
 2.214000000000000E10   -5.054809153079987E-4  -5.332487053237855E-4  
 2.216000000000000E10   -1.313393295276910E-4  -2.557388870627619E-5  
 2.218000000000000E10    6.419693818315864E-5   9.215901955030859E-4  
 2.220000000000000E10    4.795519635081291E-4  -5.962720606476069E-4  
 2.222000000000000E10   -3.457407874520868E-4  -8.510991465300322E-4  
 2.224000000000000E10   -7.240176782943308E-4  -2.372916787862778E-4  
 2.226000000000000E10   -8.380032340937760E-6   2.310514682903886E-4  
 2.228000000000000E10    7.355340057983995E-4  -6.101862527430058E-4  
 2.230000000000000E10    2.632977557368577E-4  -2.934150397777557E-4  
 2.232000000000000E10   -3.052688552998006E-4  -7.878671749494970E-5  
 2.234000000000000E10    1.033281223499216E-4   5.001709796488285E-4  
 2.236000000000000E10   -4.869767290074378E-4   3.501606988720596E-5  
 2.238000000000000E10   -2.141976874554530E-4   1.863373909145594E-4  
 2.240000000000000E10    1.340735179837793E-4   3.414590537431650E-5  
 2.242000000000000E10   -4.391871916595846E-4  -3.677943313959986E-4  
 2.244000000000000E10   -8.578765555284917E-4  -4.511666193138808E-4  
 2.246000000000000E10   -1.286112365050940E-5   9.855780081124976E-5  
 2.248000000000000E10   -1.032043746818090E-5   3.047386417165399E-4  
 2.250000000000000E10    6.988400709815323E-4  -3.447220369707793E-4  
 2.252000000000000E10    2.630305243656039E-5   9.163297363556922E-5  
 2.254000000000000E10   -5.130200879648328E-4   2.010425814660266E-4  
 2.256000000000000E10   -1.166609363281168E-4   7.921175565570593E-4  
 2.258000000000000E10   -3.487692083581351E-6   3.826088795904070E-4  
 2.260000000000000E10   -8.463859558105469E-5  -3.826786123681814E-4  
 2.262000000000000E10   -3.155352314934135E-4  -1.076077205652837E-5  
 2.264000000000000E10   -1.491544680902734E-4   2.098385884892196E-4  
 2.266000000000000E10   -1.837241288740188E-4  -1.304478209931403E-4  
 2.268000000000000E10    1.798277953639627E-4  -1.066821205313318E-4  
 2.270000000000000E10    4.705575120169669E-4   4.098474746569991E-4  
 2.272000000000000E10    2.638274454511702E-4  -2.820192894432694E-4  
 2.274000000000000E10   -9.796280210139230E-5   2.596677222754806E-4  
 2.276000000000000E10   -5.420774105004966E-4   8.002443355508149E-4  
 2.278000000000000E10    4.259440174791962E-4   3.989153483416885E-4  
 2.280000000000000E10    5.079764523543418E-4  -7.396379078272730E-5  
 2.282000000000000E10    1.136483551817946E-4  -3.254991606809199E-4  
 2.284000000000000E10   -1.535409392090514E-4  -8.362560765817761E-5  
 2.286000000000000E10    1.369725941913202E-4   7.306169718503952E-4  
 2.288000000000000E10    8.182610035873950E-4   6.735713104717434E-4  
 2.290000000000000E10    9.307058062404394E-4  -2.060352126136422E-4  
 2.292000000000000E10    1.110330413212068E-4  -7.420223846565932E-5  
 2.294000000000000E10   -5.829221336171031E-4   3.589654515963048E-4  
 2.296000000000000E10   -1.041125578922220E-4   4.120694939047098E-4  
 2.298000000000000E10    4.390245012473315E-4   3.474711847957224E-4  
 2.300000000000000E10    2.168041391996667E-4  -5.499685066752136E-4  
 2.302000000000000E10    2.065103035420179E-4  -4.960554651916027E-4  
 2.304000000000000E10   -8.575726678827778E-5   6.801560812164098E-5  
 2.306000000000000E10    3.279441443737596E-5   9.277509525418282E-5  
 2.308000000000000E10    7.958561182022095E-4   3.157044993713498E-4  
 2.310000000000000E10    6.757222581654787E-4  -1.973071484826505E-4  
 2.312000000000000E10   -2.713403955567628E-4  -5.543433944694698E-4  
 2.314000000000000E10   -4.755737318191677E-4  -2.182990101573523E-5  
 2.316000000000000E10    3.754855788429268E-5   5.024823476560414E-4  
 2.318000000000000E10    9.383387514390051E-4   9.669367864262313E-5  
 2.320000000000000E10    7.089251885190606E-4  -1.247329637408257E-3  
 2.322000000000000E10   -1.695093087619171E-4  -5.696206353604794E-4  
 2.324000000000000E10   -5.606200429610908E-4   7.297601550817490E-4  
 2.326000000000000E10    4.515398468356580E-4   5.997850676067174E-4  
 2.328000000000000E10    5.180222215130925E-4  -2.114625240210444E-4  
 2.330000000000000E10   -4.070267605129629E-4  -8.334490703418851E-4  
 2.332000000000000E10   -4.866165982093662E-4  -4.899681662209332E-4  
 2.334000000000000E10   -2.050926850643009E-4   3.620547358877957E-4  
 2.336000000000000E10   -1.815276336856186E-4   4.111038579139859E-4  
 2.338000000000000E10    5.369856953620911E-4  -2.022473345277831E-4  
 2.340000000000000E10    2.384506660746411E-4  -6.734856870025396E-4  
 2.342000000000000E10   -8.024827111512423E-4  -6.646268884651363E-4  
 2.344000000000000E10   -4.768653889186680E-4   6.193398148752749E-4  
 2.346000000000000E10    1.470740098739043E-4   5.238382727839053E-4  
 2.348000000000000E10    7.329630316235125E-4  -4.663766303565353E-4  
 2.350000000000000E10   -2.787618141155690E-4  -1.167731010355055E-3  
 2.352000000000000E10   -6.416531978175044E-4  -1.540972443763167E-4  
 2.354000000000000E10   -5.319070769473910E-4   5.920219118706882E-4  
 2.356000000000000E10    6.374377990141511E-4   3.553486603777856E-4  
 2.358000000000000E10    1.183567874250002E-4  -7.970168371684849E-4  
 2.360000000000000E10   -2.683502680156380E-4  -1.056900247931480E-3  
 2.362000000000000E10   -6.774158100597560E-4   8.612992824055255E-4  
 2.364000000000000E10    9.112881343753543E-6  -1.816266740206629E-4  
 2.366000000000000E10    5.607298226095736E-4   2.088812761940062E-4  
 2.368000000000000E10    4.201971023576334E-5  -4.007761890534312E-4  
 2.370000000000000E10    1.470947336201789E-5  -1.329155202256516E-4  
 2.372000000000000E10   -6.907411152496934E-4  -1.886572499643080E-5  
 2.374000000000000E10   -3.151796408928931E-4   4.440165648702532E-4  
 2.376000000000000E10   -2.236290602013469E-4   6.814201478846371E-4  
 2.378000000000000E10    8.148612687364221E-4  -6.960977771086618E-5  
 2.380000000000000E10   -4.883799701929092E-4  -6.598352920264006E-4  
 2.382000000000000E10   -7.500188658013940E-4  -1.376253349008039E-4  
 2.384000000000000E10   -2.669679524842650E-4   1.202560844831169E-3  
 2.386000000000000E10    9.193539153784514E-4   1.439903644495644E-5  
 2.388000000000000E10    2.600666775833815E-4  -1.085424446500838E-4  
 2.390000000000000E10   -7.536370540037751E-4  -6.550992256961763E-4  
 2.392000000000000E10   -4.535068292170763E-4   1.022553886286914E-3  
 2.394000000000000E10   -3.510059614200145E-4   6.818684632889926E-4  
 2.396000000000000E10    3.373829240445048E-4   4.976703712600283E-5  
 2.398000000000000E10   -2.594839024823159E-4  -1.623447460588068E-4  
 2.400000000000000E10   -4.693781665991992E-4  -3.178202023264021E-4  
 2.402000000000000E10   -9.257547208108008E-4   6.412008951883763E-5  
 2.404000000000000E10   -4.944505053572357E-5   1.060996437445283E-3  
 2.406000000000000E10    4.475338791962713E-4   5.980119458399713E-4  
 2.408000000000000E10    5.395613261498511E-4  -6.267535500228405E-4  
 2.410000000000000E10   -1.040380215272307E-3  -1.506223925389350E-4  
 2.412000000000000E10   -1.028448110446334E-3   7.177604129537940E-4  
 2.414000000000000E10    2.959321136586368E-4   1.291070366278291E-3  
 2.416000000000000E10    7.612517802044749E-4  -5.218386650085449E-4  
 2.418000000000000E10   -8.897412044461817E-5  -7.349411607719958E-4  
 2.420000000000000E10   -6.656619952991605E-4  -1.480829960200936E-4  
 2.422000000000000E10    1.044657328748144E-4   4.416227457113564E-4  
 2.424000000000000E10    2.585568872746080E-4   7.452450226992369E-4  
 2.426000000000000E10    8.132453658618033E-4   2.150061918655410E-4  
 2.428000000000000E10   -6.685690459562466E-5  -1.825096987886354E-4  
 2.430000000000000E10   -5.339219933375716E-4  -3.252375754527748E-4  
 2.432000000000000E10   -4.935931647196412E-4   3.006836341228336E-4  
 2.434000000000000E10    7.333066605497152E-5   5.826932610943914E-4  
 2.436000000000000E10    1.150763011537492E-3   5.003272090107203E-4  
 2.438000000000000E10    3.582620993256569E-4  -7.287358748726547E-4  
 2.440000000000000E10   -7.965464610606432E-4  -1.698066334938631E-4  
 2.442000000000000E10   -6.112192641012371E-4   9.599409531801939E-4  
 2.444000000000000E10    8.870441815815866E-4   7.494377787224948E-4  
 2.446000000000000E10    6.024856120347977E-4  -6.032722885720432E-4  
 2.448000000000000E10   -4.253975930623710E-4  -6.786871817894280E-4  
 2.450000000000000E10   -7.844957290217280E-4   1.206923261634074E-4  
 2.452000000000000E10    2.093226794386283E-4   2.132114896085113E-4  
 2.454000000000000E10    6.275965715758503E-4   4.464115190785378E-4  
 2.456000000000000E10    4.548182478174567E-4  -2.500452101230621E-4  
 2.458000000000000E10    4.268998745828867E-4  -3.147902025375515E-4  
 2.460000000000000E10   -4.374183481559157E-4  -5.769156996393576E-5  
 2.462000000000000E10   -6.491148378700018E-4   4.984700353816152E-4  
 2.464000000000000E10    5.028462619520724E-4   8.244856144301593E-4  
 2.466000000000000E10    8.027795120142400E-4  -4.701825964730233E-4  
 2.468000000000000E10   -2.358168712817133E-4  -1.357787405140698E-3  
 2.470000000000000E10   -1.010925392620266E-3   1.872646498668473E-5  
 2.472000000000000E10   -1.657353423070163E-4   8.850779850035906E-4  
 2.474000000000000E10    1.091023092158139E-3   4.296246625017375E-4  
 2.476000000000000E10    4.297381674405187E-4  -8.204875048249960E-4  
 2.478000000000000E10   -8.234706474468112E-4  -5.571724032051861E-4  
 2.480000000000000E10   -8.026852156035602E-4   6.308078300207853E-4  
 2.482000000000000E10    3.219356294721365E-4   6.700929952785373E-4  
 2.484000000000000E10    5.354825407266617E-4   2.073608338832855E-4  
 2.486000000000000E10    3.061665629502386E-4  -8.032298646867275E-4  
 2.488000000000000E10   -1.126206825574627E-5  -5.075558437965810E-4  
 2.490000000000000E10   -7.020480697974563E-4   3.366579221619759E-6  
 2.492000000000000E10    1.001286727841944E-4   7.339579169638455E-4  
 2.494000000000000E10    6.737495423294604E-4   4.121423990000039E-4  
 2.496000000000000E10    6.103735649958253E-4  -1.250943168997765E-4  
 2.498000000000000E10   -6.283756811171770E-4  -6.500037270598114E-4  
 2.500000000000000E10   -6.662923260591924E-4   2.921289997175336E-4  
 2.502000000000000E10   -5.396140622906387E-4   1.001277705654502E-3  
 2.504000000000000E10    1.023059827275574E-3  -4.652712668757886E-4  
 2.506000000000000E10    3.076491411775351E-4  -5.688476958312094E-4  
 2.508000000000000E10   -6.606345414184034E-4  -7.091325242072344E-4  
 2.510000000000000E10   -1.898756745504215E-4   7.448254618793726E-4  
 2.512000000000000E10    3.706382995005697E-4   6.839139969088137E-4  
 2.514000000000000E10    9.030837099999189E-4   2.545565657783300E-4  
 2.516000000000000E10   -2.843131951522082E-4  -4.389769455883652E-4  
 2.518000000000000E10   -2.985440369229764E-4   3.042535390704870E-4  
 2.520000000000000E10   -8.424891275353730E-4   5.212147370912135E-4  
 2.522000000000000E10   -1.062366136466153E-4   1.469769340474159E-4  
 2.524000000000000E10    3.114824648946524E-4   3.172368742525578E-4  
 2.526000000000000E10    8.640429587103427E-4  -6.672503659501672E-4  
 2.528000000000000E10   -6.810811464674771E-5  -5.792208248749375E-4  
 2.530000000000000E10   -6.666750996373594E-4   6.087460787966847E-4  
 2.532000000000000E10    4.168101586401463E-4   1.330638653598726E-3  
 2.534000000000000E10    9.921416640281677E-4   6.385061715263873E-5  
 2.536000000000000E10   -3.001739678438753E-4  -8.465158753097057E-4  
 2.538000000000000E10   -1.113895559683442E-3  -3.356357337906957E-4  
 2.540000000000000E10   -4.330270166974515E-4   1.260179677046835E-3  
 2.542000000000000E10    6.134575232863426E-4   2.186682977480814E-4  
 2.544000000000000E10    9.619890479370952E-4  -7.314515532925725E-4  
 2.546000000000000E10   -2.503836294636130E-4  -2.255881845485419E-4  
 2.548000000000000E10   -5.713097052648664E-4   1.827094092732295E-5  
 2.550000000000000E10   -1.900708593893796E-4   1.090590725652874E-3  
 2.552000000000000E10    5.270977853797376E-4   2.628193760756403E-4  
 2.554000000000000E10    4.766410274896771E-4  -2.868840965675190E-5  
 2.556000000000000E10   -5.333707085810602E-4  -8.304354269057512E-4  
 2.558000000000000E10   -5.976932006888092E-4   7.509744318667799E-5  
 2.560000000000000E10   -2.123052836395800E-4   8.299410110339522E-4  
 2.562000000000000E10    9.622216457501054E-4   2.838959335349500E-4  
 2.564000000000000E10    5.722568603232503E-4  -6.847396725788713E-4  
 2.566000000000000E10   -3.447669441811740E-4  -1.034377957694233E-3  
 2.568000000000000E10   -4.020263440907002E-4   6.882370216771960E-4  
 2.570000000000000E10    1.137642902904190E-5   6.223306409083307E-4  
 2.572000000000000E10    6.462948513217270E-4   1.954939943971112E-5  
 2.574000000000000E10   -1.554433983983472E-4  -6.584461079910398E-4  
 2.576000000000000E10   -2.463398559484631E-4  -4.798437876161188E-4  
 2.578000000000000E10   -1.782096514943987E-4   4.898120532743633E-4  
 2.580000000000000E10    3.480532905086875E-5   2.228085504611954E-4  
 2.582000000000000E10    3.563884238246828E-4   1.971358287846670E-4  
 2.584000000000000E10   -1.584170240676031E-4  -3.681339439935982E-4  
 2.586000000000000E10   -2.727982973738108E-5  -3.225153777748346E-4  
 2.588000000000000E10   -5.372002488002181E-4  -6.213776941876859E-6  
 2.590000000000000E10   -1.210881382576190E-4   4.953404422849417E-4  
 2.592000000000000E10    1.470265269745141E-4  -1.652195714996196E-5  
 2.594000000000000E10    2.286720555275679E-4  -4.172718327026814E-4  
 2.596000000000000E10   -3.744876594282687E-4  -7.339733419939876E-4  
 2.598000000000000E10   -6.549719837494195E-4   1.804226340027526E-4  
 2.600000000000000E10   -2.768546983134002E-4   4.305857000872493E-4  
 2.602000000000000E10    7.475988240912557E-4  -2.964568193419837E-5  
 2.604000000000000E10   -4.430350236361846E-5  -2.858654188457876E-4  
 2.606000000000000E10   -4.246754688210785E-4  -6.513094995170832E-4  
 2.608000000000000E10   -4.621173720806837E-4  -5.083201176603325E-5  
 2.610000000000000E10    2.955898162326776E-5   5.024413694627583E-4  
 2.612000000000000E10    5.704500363208354E-4   5.689159734174609E-4  
 2.614000000000000E10    6.423018057830632E-4  -6.670976290479302E-4  
 2.616000000000000E10   -6.703272229060531E-4  -6.343296263366938E-4  
 2.618000000000000E10   -9.924772894009948E-4   3.526029177010059E-4  
 2.620000000000000E10   -1.266265098820441E-5   1.226370688527823E-3  
 2.622000000000000E10    4.877797618974000E-4   5.207587673794478E-5  
 2.624000000000000E10    1.871864224085584E-4  -8.742914651520550E-4  
 2.626000000000000E10   -9.483696194365621E-4  -3.418373235035688E-4  
 2.628000000000000E10   -5.534045048989356E-4   4.771833482664079E-4  
 2.630000000000000E10    3.285344282630831E-4   8.954243385232985E-4  
 2.632000000000000E10    1.063501462340355E-3  -1.289997453568503E-4  
 2.634000000000000E10    5.235922344581923E-6  -7.701512658968568E-4  
 2.636000000000000E10   -7.186997681856155E-4  -2.566575421951711E-4  
 2.638000000000000E10   -3.505368949845433E-4   1.082220580428839E-3  
 2.640000000000000E10    7.247895118780434E-4   6.061412277631462E-4  
 2.642000000000000E10    4.815836728084832E-4  -2.555408282205463E-4  
 2.644000000000000E10   -4.034163139294833E-4  -5.867329309694469E-4  
 2.646000000000000E10   -7.086376426741481E-4   1.998027437366545E-5  
 2.648000000000000E10   -2.506022283341736E-4   3.502056933939457E-4  
 2.650000000000000E10    5.687155062332749E-4   5.994974635541439E-4  
 2.652000000000000E10    5.271797417663038E-4  -5.697983433492482E-4  
 2.654000000000000E10    1.304503894061782E-5  -7.498732302337885E-4  
 2.656000000000000E10   -1.002711127512157E-3   1.534187176730484E-4  
 2.658000000000000E10    4.394528878037818E-5   5.338605842553079E-4  
 2.660000000000000E10    3.574562142603099E-4   3.559373726602644E-4  
 2.662000000000000E10    2.808419521898031E-4  -3.906670608557761E-4  
 2.664000000000000E10   -3.568744868971407E-4  -7.989630830707029E-5  
 2.666000000000000E10   -6.651225266978145E-4  -2.035050856648013E-4  
 2.668000000000000E10    1.391147670801729E-4   6.361016421578825E-4  
 2.670000000000000E10    2.549261262174696E-4   1.638992398511618E-4  
 2.672000000000000E10    3.670271253213286E-4  -3.131504054181278E-4  
 2.674000000000000E10   -1.811924448702484E-4  -1.078421191778034E-4  
 2.676000000000000E10   -3.801802522502840E-4   2.109357446897775E-4  
 2.678000000000000E10   -5.391703452914953E-4   5.153038073331118E-4  
 2.680000000000000E10    1.483834203099832E-4   5.027616862207651E-4  
 2.682000000000000E10    1.122459070757031E-4  -1.286889710172545E-5  
 2.684000000000000E10   -1.123384718084708E-4  -5.635865381918848E-4  
 2.686000000000000E10   -8.828713325783610E-4  -2.749174018390477E-4  
 2.688000000000000E10   -4.747086786665022E-4   5.236867000348866E-4  
 2.690000000000000E10    6.896128179505467E-4   7.809327216818929E-4  
 2.692000000000000E10    6.546434015035629E-4  -1.148016963270493E-4  
 2.694000000000000E10   -2.360243670409545E-4  -4.915270255878568E-4  
 2.696000000000000E10   -5.160276778042316E-4   1.889675768325105E-4  
 2.698000000000000E10   -4.501868388615549E-4   1.163205597549677E-3  
 2.700000000000000E10    8.177266572602093E-4   5.539691192097962E-4  
 2.702000000000000E10    4.357229627203196E-4   3.260491939727217E-5  
 2.704000000000000E10   -4.662751744035631E-4  -1.010873005725443E-3  
 2.706000000000000E10   -9.138681343756616E-4   4.284204624127597E-4  
 2.708000000000000E10   -1.308175706071779E-4   1.159009872935712E-3  
 2.710000000000000E10    9.528273949399591E-4   2.506105811335146E-4  
 2.712000000000000E10    5.559880519285798E-4  -5.178793217055500E-4  
 2.714000000000000E10   -8.659550803713501E-4  -2.452258486300707E-4  
 2.716000000000000E10   -7.650706102140248E-4   3.197057521902025E-4  
 2.718000000000000E10    3.116103180218488E-4   1.211984083056450E-3  
 2.720000000000000E10    9.135114378295839E-4   2.654968702699989E-4  
 2.722000000000000E10    5.597284762188792E-4  -7.991011952981353E-4  
 2.724000000000000E10   -8.309991681016982E-4  -4.741125740110874E-4  
 2.726000000000000E10   -1.146149355918169E-3   7.450206321664155E-4  
 2.728000000000000E10    6.751437322236598E-4   8.007257711142302E-4  
 2.730000000000000E10    1.274707494303584E-3  -1.730491817397706E-6  
 2.732000000000000E10    6.713283801218495E-5  -1.024033175781369E-3  
 2.734000000000000E10   -2.802511735353619E-4  -2.262644848087803E-4  
 2.736000000000000E10   -2.503176801837981E-4   1.149104558862746E-3  
 2.738000000000000E10    6.563047645613551E-4   1.121019362471998E-3  
 2.740000000000000E10    1.099250745028257E-3  -3.957496082875878E-4  
 2.742000000000000E10   -3.367633908055723E-4  -2.955892414320260E-4  
 2.744000000000000E10   -1.289600972086191E-3   2.145975122402888E-5  
 2.746000000000000E10    1.213550785905682E-4   6.485512712970376E-4  
 2.748000000000000E10    3.862023004330695E-4   2.902751439251006E-4  
 2.750000000000000E10    5.224025808274746E-4  -7.669072365388274E-4  
 2.752000000000000E10    5.790787981823087E-4  -3.596932510845363E-4  
 2.754000000000000E10   -5.507193855009973E-4   1.282467565033585E-4  
 2.756000000000000E10   -1.369501551380381E-4   6.527056684717536E-4  
