#  HZ   S   RI   R     50.00 
! Rohde & Schwarz ZVA40 4Ports - Version 3.90 - 1145.1110k42 SN: 100403
! Date: 2023-10-04 11:29:03
! Measurement: S12 
! 
 2.200000000000000E10    1.658901601331309E-4  -5.028230953030288E-4  
 2.202000000000000E10   -7.284514722414315E-4  -2.204621559940279E-4  
 2.204000000000000E10    1.340069866273552E-4   8.226321660913527E-4  
 2.206000000000000E10    1.072593840945046E-5   3.523782652337104E-5  
 2.208000000000000E10   -9.104266646318138E-4  -2.275895822094753E-4  
 2.210000000000000E10   -2.827237185556442E-4   7.082062074914575E-4  
 2.212000000000000E10    4.098476492799819E-4   9.983404197555501E-6  
 2.214000000000000E10    1.434977457392961E-4  -1.356911845505238E-3  
 2.216000000000000E10   -8.831236627884209E-4   1.882613432826474E-4  
 2.218000000000000E10    8.526321471435949E-5   1.130580436438322E-3  
 2.220000000000000E10    7.165061542764306E-4   7.607083534821868E-5  
 2.222000000000000E10   -4.036053724121302E-4  -1.918866291816812E-5  
 2.224000000000000E10   -8.965497254393995E-4   8.382897067349404E-5  
 2.226000000000000E10   -2.969583147205412E-4   4.739748546853662E-4  
 2.228000000000000E10    9.924487676471472E-5   2.301094064023346E-4  
 2.230000000000000E10   -4.705577448476106E-4  -3.888576757162809E-4  
 2.232000000000000E10    2.162007440347225E-4   6.380923878168687E-5  
 2.234000000000000E10    1.562848046887666E-4  -3.549488974385895E-5  
 2.236000000000000E10   -8.571335638407618E-5  -5.179969011805952E-4  
 2.238000000000000E10   -2.105575113091618E-4   4.609745228663087E-4  
 2.240000000000000E10   -2.138930576620624E-4   5.026052822358906E-4  
 2.242000000000000E10    8.860899251885712E-4  -1.270218490390107E-4  
 2.244000000000000E10   -4.859960754401982E-4  -5.089119076728821E-4  
 2.246000000000000E10   -1.087622251361609E-3  -5.593635432887822E-5  
 2.248000000000000E10    6.226866389624775E-5   5.405441042967141E-4  
 2.250000000000000E10    9.397552348673344E-4  -4.176293441560119E-4  
 2.252000000000000E10   -1.429101394023746E-4  -1.054221764206886E-3  
 2.254000000000000E10   -2.723327779676765E-4  -2.083446597680450E-4  
 2.256000000000000E10    2.228110533906147E-4   2.791327424347401E-4  
 2.258000000000000E10    9.547898662276566E-5  -6.390470662154257E-5  
 2.260000000000000E10    3.168073890265077E-4   1.548387081129476E-4  
 2.262000000000000E10    1.911093131639063E-4  -1.092068705474958E-4  
 2.264000000000000E10    5.622618846246041E-5  -5.266275256872177E-4  
 2.266000000000000E10   -2.393816685071215E-4   1.159692910732701E-4  
 2.268000000000000E10   -2.430091171845561E-6   8.988882473204285E-5  
 2.270000000000000E10    3.964765637647361E-4  -4.128320724703372E-4  
 2.272000000000000E10    6.716495263390243E-4  -2.874451456591487E-4  
 2.274000000000000E10   -1.506586122559384E-4  -4.923369269818068E-4  
 2.276000000000000E10   -1.758301950758323E-4   1.367698132526130E-4  
 2.278000000000000E10    5.002049147151411E-4   4.393814888317138E-4  
 2.280000000000000E10    3.454363904893398E-4  -4.012352292193100E-5  
 2.282000000000000E10    5.903629935346544E-4  -4.612479242496193E-4  
 2.284000000000000E10   -7.531903684139252E-4  -2.181503805331886E-4  
 2.286000000000000E10   -2.328774426132441E-4   4.195987421553582E-4  
 2.288000000000000E10    4.401742771733552E-4  -1.235828822245821E-4  
 2.290000000000000E10    5.885778136871522E-6  -2.866754366550595E-4  
 2.292000000000000E10   -1.366390206385404E-4  -2.476979861967266E-4  
 2.294000000000000E10    2.772930893115699E-4  -5.950966733507812E-4  
 2.296000000000000E10   -4.631651681847870E-4   8.325993985636160E-5  
 2.298000000000000E10   -4.844579962082207E-4   4.749208455905318E-4  
 2.300000000000000E10    6.169361877255142E-4   1.919401402119547E-4  
 2.302000000000000E10    4.971816906618187E-6  -6.465463666245341E-4  
 2.304000000000000E10   -9.908435167744756E-4  -5.141227156855166E-4  
 2.306000000000000E10   -6.841227877885103E-4   4.481607174966484E-4  
 2.308000000000000E10    2.458964590914547E-4   2.989357162732631E-4  
 2.310000000000000E10    2.660644531715661E-4  -5.020345561206341E-4  
 2.312000000000000E10    1.279011194128543E-4  -3.871683147735894E-4  
 2.314000000000000E10   -8.537634275853634E-4  -4.468364058993757E-4  
 2.316000000000000E10   -5.853965994901955E-4   6.215416942723095E-4  
 2.318000000000000E10    2.564601600170136E-4   4.833830171264708E-4  
 2.320000000000000E10    2.227172954007983E-4  -4.995329654775560E-4  
 2.322000000000000E10   -4.857527674175799E-4  -5.758557817898691E-4  
 2.324000000000000E10   -4.359061131253839E-4  -3.682473034132272E-4  
 2.326000000000000E10   -2.004506095545366E-4   7.182093686424196E-4  
 2.328000000000000E10    3.569402033463121E-4  -9.935690468410030E-5  
 2.330000000000000E10    2.676174335647374E-4   1.312955864705145E-4  
 2.332000000000000E10   -2.925713779404759E-4  -7.043726509436965E-4  
 2.334000000000000E10   -6.256531924009323E-4  -6.949606176931411E-5  
 2.336000000000000E10   -4.786966310348362E-4   2.799056237563491E-4  
 2.338000000000000E10    6.098505109548569E-4   3.393826773390174E-4  
 2.340000000000000E10    1.081972586689517E-4  -1.910827704705298E-4  
 2.342000000000000E10   -1.128719450207427E-4  -5.673901177942753E-4  
 2.344000000000000E10   -7.466553943231702E-4   2.598124847281724E-4  
 2.346000000000000E10   -1.459701452404261E-4   5.821050726808608E-4  
 2.348000000000000E10    4.624857101589441E-4   6.143243517726660E-4  
 2.350000000000000E10    3.647920384537429E-4  -4.611413751263171E-4  
 2.352000000000000E10   -6.374577060341835E-4  -9.074369882000610E-5  
 2.354000000000000E10   -6.870674551464617E-4   3.351248451508582E-4  
 2.356000000000000E10    3.379630506969988E-4   1.095442683435977E-3  
 2.358000000000000E10    6.644775276072323E-4  -2.919469261541963E-4  
 2.360000000000000E10    4.383802588563412E-4  -5.709634860977531E-4  
 2.362000000000000E10   -8.932444034144282E-4  -3.795179945882410E-4  
 2.364000000000000E10   -1.609886967344210E-4   8.803722448647022E-4  
 2.366000000000000E10   -1.514723862783285E-5   7.273365627042949E-4  
 2.368000000000000E10    6.674767937511206E-4  -2.607565838843584E-4  
 2.370000000000000E10   -9.056526323547587E-5  -4.666080640163273E-4  
 2.372000000000000E10   -6.790940533392131E-4  -4.823315830435604E-4  
 2.374000000000000E10   -4.971799789927900E-4   1.104318187572062E-3  
 2.376000000000000E10    5.551575450226665E-4   6.116364384070039E-4  
 2.378000000000000E10    6.349263712763786E-4  -7.479151099687442E-5  
 2.380000000000000E10   -2.265804650960490E-4  -7.482917862944305E-4  
 2.382000000000000E10   -8.400300284847617E-4  -1.448807688575471E-5  
 2.384000000000000E10   -3.833293740171939E-4   8.815193432383239E-4  
 2.386000000000000E10    9.127405937761068E-4   5.426777061074972E-4  
 2.388000000000000E10    5.916666705161333E-4  -4.888007533736527E-4  
 2.390000000000000E10   -1.701709697954357E-4  -4.797494329977781E-4  
 2.392000000000000E10   -4.592260520439595E-4   4.813485429622233E-4  
 2.394000000000000E10    3.301590913906694E-4   4.552023892756552E-4  
 2.396000000000000E10    3.197980986442417E-4   1.970315352082253E-4  
 2.398000000000000E10    1.042088551912457E-4  -1.358995941700414E-4  
 2.400000000000000E10    1.126643910538405E-4  -4.820460162591189E-5  
 2.402000000000000E10   -2.290262782480568E-4  -2.606572816148400E-4  
 2.404000000000000E10   -1.031903375405818E-4   2.777587505988777E-4  
 2.406000000000000E10    7.576581556349993E-4   4.813614068552852E-4  
 2.408000000000000E10    1.002037315629423E-3  -7.738733984297141E-5  
 2.410000000000000E10   -1.767677313182503E-4  -6.456615519709885E-4  
 2.412000000000000E10   -6.801932468079031E-4   3.316973743494600E-4  
 2.414000000000000E10   -6.086375651648268E-5   1.187522313557565E-3  
 2.416000000000000E10    1.050459104590118E-3   1.874604204203934E-4  
 2.418000000000000E10    3.490014059934765E-4  -7.432290585711598E-4  
 2.420000000000000E10   -5.178759456612170E-4  -5.414267070591450E-4  
 2.422000000000000E10   -3.835186071228236E-4   7.902118959464133E-4  
 2.424000000000000E10    4.007922543678433E-4   6.759040406905115E-4  
 2.426000000000000E10    9.908140636980534E-4  -7.756951526971534E-5  
 2.428000000000000E10    2.423712139716372E-4  -2.215020213043317E-4  
 2.430000000000000E10   -1.144595298683271E-4  -2.626598579809070E-4  
 2.432000000000000E10   -4.716471012216061E-4   2.041413681581616E-4  
 2.434000000000000E10   -1.192403360619210E-4   7.586893625557423E-4  
 2.436000000000000E10    1.003321027383208E-3   4.288189666112885E-5  
 2.438000000000000E10    4.940264625474811E-4  -1.212055445648730E-3  
 2.440000000000000E10   -5.317889736033976E-4  -6.949014496058226E-4  
 2.442000000000000E10   -4.888516268692911E-4   6.362408748827875E-4  
 2.444000000000000E10    7.175512728281319E-4   1.049149082973599E-3  
 2.446000000000000E10    9.503954206593335E-4  -4.819380992557854E-4  
 2.448000000000000E10   -6.350306648528203E-5  -8.649521623738110E-4  
 2.450000000000000E10   -7.878912147134543E-4   1.748366776155308E-4  
 2.452000000000000E10   -1.884877710836008E-4   5.028613959439099E-4  
 2.454000000000000E10    2.136618568329141E-4   1.231290370924398E-4  
 2.456000000000000E10    7.685726741328836E-4   1.702995505183935E-4  
 2.458000000000000E10   -2.414375558146276E-5  -4.111733287572861E-4  
 2.460000000000000E10   -1.663255388848484E-4  -4.260383429937065E-4  
 2.462000000000000E10   -6.623987574130297E-4   6.770730251446366E-4  
 2.464000000000000E10    1.764511835062876E-4   5.404855473898351E-4  
 2.466000000000000E10    7.335440604947507E-4  -5.275741932564415E-5  
 2.468000000000000E10   -3.190377028658986E-4  -9.120171307586134E-4  
 2.470000000000000E10   -8.813131134957075E-4  -2.874209021683782E-4  
 2.472000000000000E10   -4.383986524771899E-4   4.528262652456760E-4  
 2.474000000000000E10    1.101376372389495E-3   7.195810903795064E-4  
 2.476000000000000E10    8.522616117261350E-4  -6.424371968023479E-4  
 2.478000000000000E10   -1.281147706322372E-5  -5.472628399729729E-4  
 2.480000000000000E10   -8.441581157967448E-4   5.010360036976636E-4  
 2.482000000000000E10   -1.725350011838600E-4   5.948508623987436E-4  
 2.484000000000000E10    3.106782678514719E-4   4.167177539784461E-4  
 2.486000000000000E10    3.810378257185221E-4  -5.254905554465950E-4  
 2.488000000000000E10   -4.626878944691271E-4  -4.401881597004831E-4  
 2.490000000000000E10   -5.223342450335622E-4  -3.677205531857908E-4  
 2.492000000000000E10   -2.783731360977981E-6   9.164145449176431E-4  
 2.494000000000000E10    8.461422403343022E-4   2.871046308428049E-4  
 2.496000000000000E10    1.065083080902696E-3  -3.641494258772582E-4  
 2.498000000000000E10   -2.547613694332540E-4  -8.617856656201184E-4  
 2.500000000000000E10   -8.489331230521202E-4   7.712963270023465E-4  
 2.502000000000000E10   -2.749063605733682E-5   1.034059445373714E-3  
 2.504000000000000E10    9.600057383067906E-4   3.610540297813714E-4  
 2.506000000000000E10   -3.342513446114026E-5  -9.165812516584992E-4  
 2.508000000000000E10   -1.844074722612277E-4  -7.690303027629852E-4  
 2.510000000000000E10   -6.295727216638625E-4   6.672984454780817E-4  
 2.512000000000000E10    6.806935998611152E-4   4.111934104003012E-4  
 2.514000000000000E10    9.627781691960990E-4   2.061003178823739E-4  
 2.516000000000000E10   -2.859483720385470E-5  -4.847412928938866E-4  
 2.518000000000000E10   -4.026352835353464E-4   3.574544389266521E-4  
 2.520000000000000E10   -5.417711799964309E-4   3.232064191251993E-4  
 2.522000000000000E10   -1.250094210263342E-4   4.098729114048183E-4  
 2.524000000000000E10    2.921529230661690E-4  -3.586947786970995E-5  
 2.526000000000000E10    3.506968205329031E-4  -6.094514392316341E-4  
 2.528000000000000E10   -3.737893130164594E-4  -8.564936579205096E-4  
 2.530000000000000E10   -3.156038874294609E-4   5.886260623810813E-5  
 2.532000000000000E10    1.996900537051261E-4   8.972492069005966E-4  
 2.534000000000000E10    1.101801288314164E-3   3.145848097574344E-7  
 2.536000000000000E10    4.219044058118016E-4  -3.979356843046844E-4  
 2.538000000000000E10   -7.481999928131700E-4   1.279650605283678E-4  
 2.540000000000000E10   -6.091215182095766E-4   6.302379188127816E-4  
 2.542000000000000E10    3.475669946055859E-4   1.183360291179270E-4  
 2.544000000000000E10    5.164231988601387E-4  -4.439618496689946E-4  
 2.546000000000000E10    3.631293948274106E-4  -9.176431340165436E-4  
 2.548000000000000E10   -2.714114998525474E-5  -5.158683634363115E-4  
 2.550000000000000E10   -1.607765443623066E-4   4.115113697480410E-4  
 2.552000000000000E10    8.591146324761212E-4   4.915079334750772E-4  
 2.554000000000000E10    8.847517310641706E-4   1.131445096689276E-4  
 2.556000000000000E10    1.743462780723348E-4  -7.020945777185261E-4  
 2.558000000000000E10   -7.605779683217406E-4  -2.663317427504808E-4  
 2.560000000000000E10   -7.958289352245629E-4   6.035547121427953E-4  
 2.562000000000000E10    6.776989321224392E-4   6.960656610317528E-4  
 2.564000000000000E10    1.178767182864249E-3  -6.370994378812611E-4  
 2.566000000000000E10   -3.622514486778528E-4  -1.346410834230483E-3  
 2.568000000000000E10   -9.834206430241466E-4   2.948692417703569E-4  
 2.570000000000000E10    2.705281076487154E-4   8.616358391009271E-4  
 2.572000000000000E10    9.991819970309734E-4   1.981073291972280E-4  
 2.574000000000000E10    3.747503797058016E-4  -7.137405918911099E-4  
 2.576000000000000E10   -9.485390037298203E-4  -4.626651061698794E-4  
 2.578000000000000E10   -6.100864266045392E-4  -3.168744660797529E-5  
 2.580000000000000E10    5.143515300005674E-4   5.212649120949209E-4  
 2.582000000000000E10    6.806851597502828E-4  -2.146225306205452E-4  
 2.584000000000000E10    3.737430088222027E-4  -8.839971851557493E-4  
 2.586000000000000E10   -7.972041494213045E-4  -4.536603228189051E-4  
 2.588000000000000E10   -3.046990314032883E-4   1.352093095192686E-4  
 2.590000000000000E10    5.240715108811855E-4   6.846776232123375E-4  
 2.592000000000000E10    6.620132480747998E-4   6.388694600900635E-5  
 2.594000000000000E10   -4.873942089034244E-5  -8.742524078115821E-4  
 2.596000000000000E10   -6.111150141805410E-4  -3.370253834873438E-4  
 2.598000000000000E10   -2.860086387954652E-4   6.472374661825597E-4  
 2.600000000000000E10    7.729957578703761E-4   3.481520107015967E-4  
 2.602000000000000E10    2.795179025270045E-4  -1.909709244500846E-4  
 2.604000000000000E10   -8.712196722626686E-5  -4.856379237025976E-4  
 2.606000000000000E10   -3.700393717736006E-4   1.606326986802742E-4  
 2.608000000000000E10   -5.809839931316674E-4   6.077225552871823E-4  
 2.610000000000000E10    7.376661233138293E-5   2.630343660712242E-4  
 2.612000000000000E10    2.303031214978546E-4   2.629947266541421E-4  
 2.614000000000000E10   -3.362637362442911E-4  -1.642050629016012E-4  
 2.616000000000000E10   -4.388025263324380E-4  -3.647239645943046E-4  
 2.618000000000000E10   -2.624812186695635E-4   3.709318698383868E-4  
 2.620000000000000E10   -1.002356657409109E-4   3.059676673728973E-4  
 2.622000000000000E10    2.821174857672304E-4   1.695513492450118E-4  
 2.624000000000000E10   -1.215827069245279E-4  -1.321391609963030E-4  
 2.626000000000000E10   -4.570142191369087E-4  -4.074780154041946E-4  
 2.628000000000000E10   -5.169176729395986E-4   2.311889547854662E-4  
 2.630000000000000E10   -8.542100840713829E-5   7.375243585556746E-4  
 2.632000000000000E10    6.140519981272519E-4  -1.614487555343658E-4  
 2.634000000000000E10    4.339072329457849E-4  -6.306746508926153E-4  
 2.636000000000000E10   -8.774305460974574E-4  -1.277665578527376E-4  
 2.638000000000000E10   -2.388960856478661E-4   2.865891437977552E-4  
 2.640000000000000E10    3.636681940406561E-4   1.021499512717128E-3  
 2.642000000000000E10    4.413676215335727E-4  -7.182496483437717E-5  
 2.644000000000000E10    1.220291378558613E-4  -6.790214101783931E-4  
 2.646000000000000E10   -6.363830761983991E-4  -2.018003142438829E-4  
 2.648000000000000E10   -4.210074839647859E-4   6.294173654168844E-4  
 2.650000000000000E10    6.723118713125587E-4   7.244114531204104E-4  
 2.652000000000000E10    9.511259268037975E-4  -1.465696550440043E-4  
 2.654000000000000E10   -4.526057164184749E-4  -8.916188962757587E-4  
 2.656000000000000E10   -5.636286805383861E-4  -3.282520708580705E-7  
 2.658000000000000E10   -1.010109626804479E-4   1.175864832475781E-3  
 2.660000000000000E10    9.350844193249941E-4   4.878524341620505E-4  
 2.662000000000000E10    9.792121127247810E-4  -4.103691899217665E-4  
 2.664000000000000E10   -4.750358639284968E-4  -6.543605704791844E-4  
 2.666000000000000E10   -1.009186380542815E-3   4.434500006027520E-4  
 2.668000000000000E10    1.281328150071204E-4   7.009676774032414E-4  
 2.670000000000000E10    5.718334577977657E-4   2.660571453816374E-6  
 2.672000000000000E10    5.278743337839842E-4  -7.483760709874332E-4  
 2.674000000000000E10   -6.757429218851030E-4  -5.764833767898381E-4  
 2.676000000000000E10   -5.255296127870679E-4   1.634781656321138E-4  
 2.678000000000000E10    4.878021427430213E-4   8.264607749879360E-4  
 2.680000000000000E10    8.374330936931074E-4  -7.789014489389956E-5  
 2.682000000000000E10    4.971356829628348E-4  -6.241002702154219E-4  
 2.684000000000000E10   -7.172271143645048E-4  -3.056537243537605E-4  
 2.686000000000000E10   -9.633069566916674E-5   5.008224397897720E-4  
 2.688000000000000E10    3.429643402341753E-4   4.153122135903686E-4  
 2.690000000000000E10    3.353935317136347E-4  -1.328757061855868E-4  
 2.692000000000000E10    2.992798981722444E-4  -5.771234864369035E-4  
 2.694000000000000E10   -1.883632212411612E-4  -1.611032494110987E-4  
 2.696000000000000E10   -2.670011017471552E-4   4.371675822767429E-5  
 2.698000000000000E10    3.010973741766065E-4   5.787787958979607E-4  
 2.700000000000000E10    4.652735660783947E-4   3.635580069385469E-4  
 2.702000000000000E10    6.026877090334892E-4  -5.790395080111921E-4  
 2.704000000000000E10   -5.642562755383551E-4  -1.702271838439629E-4  
 2.706000000000000E10   -5.959401023574174E-4   3.237412893213332E-4  
 2.708000000000000E10    2.123507292708382E-4   4.717888659797609E-4  
 2.710000000000000E10    9.002201841212809E-4  -3.079420275753364E-5  
 2.712000000000000E10    1.231528440257534E-4  -7.728275959379971E-4  
 2.714000000000000E10   -2.245048381155357E-4  -4.412943671923131E-4  
 2.716000000000000E10   -3.452301898505539E-4   5.564545863308013E-4  
 2.718000000000000E10    8.267283556051552E-5   2.385990082984790E-4  
 2.720000000000000E10    1.215775730088353E-3   2.416986535536125E-4  
 2.722000000000000E10    9.645125101087615E-5  -5.503090796992183E-4  
 2.724000000000000E10   -5.143827293068171E-4  -5.973387160338461E-4  
 2.726000000000000E10   -5.038600647822022E-4   6.212968146428466E-4  
 2.728000000000000E10    2.715992450248450E-4   7.236170349642634E-4  
 2.730000000000000E10    8.239682065322995E-4  -2.810882288031280E-4  
 2.732000000000000E10    6.146375671960414E-4  -1.060704234987497E-3  
 2.734000000000000E10   -1.094890292733908E-3  -4.100816731806845E-4  
 2.736000000000000E10   -5.203527980484068E-4   5.883325939066708E-4  
 2.738000000000000E10    9.659953648224473E-4   1.113667967729271E-3  
 2.740000000000000E10    1.062680617906153E-3  -6.866170442663133E-4  
 2.742000000000000E10   -2.875016652978957E-4  -9.373294305987656E-4  
 2.744000000000000E10   -7.741659646853805E-4   4.041671345476061E-4  
 2.746000000000000E10   -3.204341337550432E-4   9.033472742885351E-4  
 2.748000000000000E10    8.463273989036679E-4  -7.933220331324264E-5  
 2.750000000000000E10    8.548236801289022E-4  -4.234556108713150E-4  
 2.752000000000000E10   -6.307897274382412E-4  -1.096413354389370E-3  
 2.754000000000000E10   -5.593434325419366E-4   2.030961695709266E-5  
 2.756000000000000E10    1.307409820583416E-5   1.355149084702134E-3  
