#  HZ   S   RI   R     50.00 
! Rohde & Schwarz ZVA40 4Ports - Version 3.90 - 1145.1110k42 SN: 100403
! Date: 2023-10-04 11:28:44
! Measurement: S12 
! 
 2.200000000000000E10    7.529067224822938E-4  -7.601118413731456E-4  
 2.202000000000000E10   -7.151446188800037E-4   1.567158033140004E-4  
 2.204000000000000E10    1.686535833869129E-4   1.634766085771844E-4  
 2.206000000000000E10    2.582155866548419E-4   2.382992533966899E-5  
 2.208000000000000E10   -6.477984716184437E-4  -1.014780500554480E-4  
 2.210000000000000E10   -1.180510516860522E-4   7.703165756538510E-4  
 2.212000000000000E10    3.471184754744172E-4  -2.491265186108649E-4  
 2.214000000000000E10   -9.540159226162359E-5  -6.233673193491995E-4  
 2.216000000000000E10   -6.256605265662074E-4  -1.933470484800637E-4  
 2.218000000000000E10    5.982988514006138E-4   9.476402774453163E-4  
 2.220000000000000E10    1.000631600618362E-3   6.235882028704509E-5  
 2.222000000000000E10    2.789351565297693E-4  -9.486975031904876E-4  
 2.224000000000000E10   -9.898033458739519E-4   3.721607499755919E-4  
 2.226000000000000E10   -2.794702013488859E-4   9.831666247919202E-4  
 2.228000000000000E10    7.208465831354260E-4  -5.285386214382015E-5  
 2.230000000000000E10   -8.794291352387518E-5  -6.978427991271019E-4  
 2.232000000000000E10   -5.559905548579991E-4   5.236954893916845E-5  
 2.234000000000000E10    2.294825681019574E-4   2.464552526362240E-4  
 2.236000000000000E10    3.421991423238069E-4   9.539148595649749E-5  
 2.238000000000000E10   -7.290353096323088E-5   3.031254163943231E-4  
 2.240000000000000E10    2.161301963496953E-4   5.217173020355403E-4  
 2.242000000000000E10    4.018894687760621E-4  -2.229522360721603E-4  
 2.244000000000000E10   -5.947007448412478E-4  -4.174660425633192E-4  
 2.246000000000000E10   -5.352270673029125E-4   6.340767140500248E-4  
 2.248000000000000E10    1.057980334735476E-4   5.773389711976051E-4  
 2.250000000000000E10    6.259863148443401E-4  -5.158438580110669E-4  
 2.252000000000000E10   -2.269503747811541E-4  -5.566952750086784E-4  
 2.254000000000000E10   -4.639519902411848E-4   1.759076549205929E-4  
 2.256000000000000E10   -8.924581197788939E-5   3.779832622967660E-4  
 2.258000000000000E10    6.574653671123087E-4   3.470672818366438E-4  
 2.260000000000000E10   -2.948292058135849E-5  -3.549279645085335E-4  
 2.262000000000000E10   -5.600049044005573E-4  -7.833866984583437E-4  
 2.264000000000000E10   -2.817391650751233E-4   2.752241853158921E-4  
 2.266000000000000E10   -1.872439606813714E-4  -7.842575723771006E-5  
 2.268000000000000E10    1.918633788591251E-4  -1.300868025282398E-4  
 2.270000000000000E10    1.986305869650096E-5   1.620067487237975E-4  
 2.272000000000000E10    2.940269478131086E-4  -7.211046759039164E-4  
 2.274000000000000E10   -3.628595150075853E-4  -5.450209719128907E-4  
 2.276000000000000E10   -8.370131254196167E-4   5.704148788936436E-4  
 2.278000000000000E10    3.784703731071204E-4   3.416861582081765E-4  
 2.280000000000000E10    4.343741456978023E-4  -6.012298981659114E-4  
 2.282000000000000E10   -2.419616212137044E-4  -1.210383488796651E-3  
 2.284000000000000E10   -6.484519108198583E-4  -1.217127282870933E-4  
 2.286000000000000E10    4.784448537975550E-4   3.206893452443183E-4  
 2.288000000000000E10    3.937650762964040E-4  -4.814312269445509E-4  
 2.290000000000000E10   -2.312925789738074E-4  -5.185964400880039E-4  
 2.292000000000000E10   -1.629383914405480E-4   2.590996737126261E-4  
 2.294000000000000E10   -5.999362911097705E-4   1.670423225732520E-4  
 2.296000000000000E10   -1.450152049073950E-4  -3.644877288024873E-4  
 2.298000000000000E10    1.368397497572005E-4   1.606583682587370E-4  
 2.300000000000000E10    3.545256331562996E-4  -4.399065801408142E-4  
 2.302000000000000E10   -9.777740342542529E-5  -7.927729166112840E-4  
 2.304000000000000E10   -4.647749301511794E-4  -2.027724258368835E-5  
 2.306000000000000E10   -3.176124591846019E-4   1.301489101024345E-4  
 2.308000000000000E10    7.270463975146413E-4   6.837430555606261E-5  
 2.310000000000000E10    7.626276783412322E-5  -3.777854435611516E-4  
 2.312000000000000E10   -1.067609060555697E-3  -5.113378283567727E-4  
 2.314000000000000E10   -4.147533909417689E-4   4.683230072259903E-4  
 2.316000000000000E10   -3.482662723399699E-4   7.929555140435696E-4  
 2.318000000000000E10    4.445752419997007E-4  -2.590320364106447E-4  
 2.320000000000000E10   -3.448014031164348E-4  -4.553355101961643E-4  
 2.322000000000000E10   -9.192079887725413E-4  -1.936611661221832E-4  
 2.324000000000000E10   -1.074296305887401E-4   2.505667216610164E-4  
 2.326000000000000E10   -3.800301346927881E-4   5.772302974946797E-4  
 2.328000000000000E10    2.100636484101415E-4   3.646590921562165E-4  
 2.330000000000000E10    2.472578489687294E-5  -1.671681529842317E-4  
 2.332000000000000E10   -9.682438103482127E-4  -2.713792491704226E-4  
 2.334000000000000E10   -5.737013998441398E-4   5.659901653416455E-4  
 2.336000000000000E10    4.965382395312190E-4   7.890454726293683E-4  
 2.338000000000000E10    4.588511365000159E-4  -4.393713606987149E-4  
 2.340000000000000E10   -3.013458626810461E-4  -5.683563067577779E-4  
 2.342000000000000E10   -7.681764545850456E-4   5.538837285712361E-4  
 2.344000000000000E10   -3.987689342466183E-5   8.799942443147302E-4  
 2.346000000000000E10    3.809104964602739E-4   7.884394726715982E-4  
 2.348000000000000E10    3.642512601800263E-4  -1.625832956051454E-4  
 2.350000000000000E10   -5.979924462735653E-4  -2.099439006997272E-4  
 2.352000000000000E10   -1.055410481058061E-3   4.701983707491309E-4  
 2.354000000000000E10    2.925764129031450E-4   1.169707858934999E-3  
 2.356000000000000E10    2.518291585147381E-4   2.014152123592794E-4  
 2.358000000000000E10    3.899930452462286E-4  -3.421450674068183E-4  
 2.360000000000000E10   -3.301660472061485E-4  -5.222410254646093E-5  
 2.362000000000000E10   -1.353220723103732E-4   2.956130192615092E-4  
 2.364000000000000E10   -6.905863847350702E-5   8.246003417298198E-4  
 2.366000000000000E10    8.364851237274706E-4   3.564501821529120E-4  
 2.368000000000000E10    3.713164769578725E-4  -7.311272202059627E-5  
 2.370000000000000E10   -8.156913681887090E-4  -5.120770074427128E-4  
 2.372000000000000E10   -2.553049416746944E-4   7.693220395594835E-4  
 2.374000000000000E10    1.614412904018536E-4   1.544847036711872E-4  
 2.376000000000000E10    7.954736938700080E-4  -4.778511356562376E-5  
 2.378000000000000E10    2.220994938397780E-4  -1.922102092066780E-4  
 2.380000000000000E10    2.214566484326497E-4  -5.901173572055996E-4  
 2.382000000000000E10   -6.519255111925304E-4   4.272459773346782E-4  
 2.384000000000000E10    2.579683496151120E-4   8.753518341109157E-4  
 2.386000000000000E10    8.884952403604984E-4   1.792533294064924E-4  
 2.388000000000000E10    1.118003128794953E-4  -1.012347871437669E-3  
 2.390000000000000E10   -5.109321209602058E-4   4.991049354430288E-5  
 2.392000000000000E10   -3.563740465324372E-4   8.233480621129274E-4  
 2.394000000000000E10    7.600214448757470E-4   4.973375471308827E-4  
 2.396000000000000E10    8.141417638398707E-4  -4.913554294034839E-4  
 2.398000000000000E10   -9.286704880651087E-5  -3.166570386383683E-4  
 2.400000000000000E10   -6.927970680408180E-4   2.195746928919107E-4  
 2.402000000000000E10    2.250344987260178E-4   6.735050119459629E-4  
 2.404000000000000E10    3.682078677229583E-4   2.236617774542538E-6  
 2.406000000000000E10    5.777446203865111E-4  -5.098955007269979E-4  
 2.408000000000000E10    7.391302642645314E-5  -4.027396498713642E-4  
 2.410000000000000E10   -4.315412079449743E-4  -1.125386334024370E-4  
 2.412000000000000E10    3.140886838082224E-4   5.111537175253034E-4  
 2.414000000000000E10    7.585628773085773E-4   4.717466363217682E-4  
 2.416000000000000E10    8.508207974955440E-4  -4.700377467088401E-4  
 2.418000000000000E10   -2.480190014466643E-4  -6.502281175926328E-4  
 2.420000000000000E10   -8.160836878232658E-4   2.798653440549970E-4  
 2.422000000000000E10    2.361544029554352E-4   8.241340401582420E-4  
 2.424000000000000E10    1.298316870816052E-3  -1.423956928192638E-5  
 2.426000000000000E10    1.801208418328315E-5  -9.861200815066695E-4  
 2.428000000000000E10   -7.614459609612823E-4  -3.110101679340005E-4  
 2.430000000000000E10   -4.226295277476311E-4   5.845177802257240E-4  
 2.432000000000000E10    1.596895453985781E-4  -2.561402216088027E-4  
 2.434000000000000E10    2.604914770927280E-4   1.121466266340576E-4  
 2.436000000000000E10    2.901265979744494E-4  -4.093663010280579E-4  
 2.438000000000000E10    4.906157118966803E-5  -9.865008760243654E-4  
 2.440000000000000E10   -7.717935950495303E-4   1.708798954496160E-4  
 2.442000000000000E10    1.276501134270802E-4   1.098290784284473E-3  
 2.444000000000000E10    1.063156640157104E-3  -9.814859367907047E-6  
 2.446000000000000E10    5.695454892702401E-4  -8.610296645201743E-4  
 2.448000000000000E10   -8.786602411419153E-4  -2.557846892159432E-4  
 2.450000000000000E10   -7.382344338111579E-4   2.762612130027264E-4  
 2.452000000000000E10    6.993910064920783E-4   9.597330354154110E-4  
 2.454000000000000E10    7.054992020130158E-4  -5.158004350960255E-4  
 2.456000000000000E10   -4.306474511395209E-5  -1.173482742160559E-3  
 2.458000000000000E10   -6.657764897681773E-4  -1.520327441539848E-5  
 2.460000000000000E10   -2.670015092007816E-4   1.124251401051879E-3  
 2.462000000000000E10    6.211678846739233E-4   3.117127344012260E-4  
 2.464000000000000E10    6.060703890398145E-4   3.514299351081718E-6  
 2.466000000000000E10   -5.316163878887892E-4  -4.746764898300171E-4  
 2.468000000000000E10   -5.274378927424550E-4  -1.595945795997977E-4  
 2.470000000000000E10   -3.253525355830789E-4   7.752045639790595E-4  
 2.472000000000000E10    4.787488433066756E-4   5.723212379962206E-4  
 2.474000000000000E10    7.028328254818916E-4  -3.089770034421235E-4  
 2.476000000000000E10   -3.576543240342289E-4  -8.630058146081865E-4  
 2.478000000000000E10   -1.050158520229161E-3   2.317055914318189E-4  
 2.480000000000000E10    1.613889471627772E-4   1.169617520645261E-3  
 2.482000000000000E10    9.539982420392335E-4   4.749322251882404E-4  
 2.484000000000000E10    2.768858103081584E-4  -8.425985579378903E-4  
 2.486000000000000E10   -8.449735469184816E-4  -3.074887499678880E-4  
 2.488000000000000E10   -4.436526796780527E-4   2.262556954519823E-4  
 2.490000000000000E10    2.422441903036088E-4   7.371546234935522E-4  
 2.492000000000000E10    6.401282735168934E-4   1.227151369675994E-5  
 2.494000000000000E10    7.074110326357186E-4  -4.659384430851787E-4  
 2.496000000000000E10   -4.970366135239601E-4  -1.198972040583612E-5  
 2.498000000000000E10   -2.826081181410700E-4   3.599150222726166E-4  
 2.500000000000000E10    2.232840342912823E-4   1.000746036879718E-3  
 2.502000000000000E10    6.716559873893857E-4   7.186112634371966E-5  
 2.504000000000000E10    5.260313628241420E-4  -4.291129298508167E-4  
 2.506000000000000E10   -1.523228856967762E-4  -4.286220937501639E-4  
 2.508000000000000E10   -5.502661224454641E-4   2.491687482688576E-4  
 2.510000000000000E10    3.733000776264817E-4   4.986961139366031E-4  
 2.512000000000000E10    1.268608961254358E-3   3.110984980594367E-4  
 2.514000000000000E10    5.062909331172705E-4  -9.093969129025936E-4  
 2.516000000000000E10   -2.697479503694922E-4  -2.852372417692095E-4  
 2.518000000000000E10   -4.443357465788722E-4   1.023859833367169E-3  
 2.520000000000000E10    5.297502502799034E-4   3.280296805314720E-4  
 2.522000000000000E10    6.427188636735082E-4  -2.660750178620219E-4  
 2.524000000000000E10   -5.660710667143576E-5  -5.445808637887240E-4  
 2.526000000000000E10   -1.299794384976849E-4  -1.980420347535983E-4  
 2.528000000000000E10   -1.826642401283607E-4   2.162846940336749E-4  
 2.530000000000000E10    6.951956893317401E-4   6.063458276912570E-4  
 2.532000000000000E10    1.078333007171750E-3  -3.028689825441688E-4  
 2.534000000000000E10    2.448545710649341E-4  -3.495188138913363E-4  
 2.536000000000000E10   -9.137862361967564E-4  -2.091676578857005E-4  
 2.538000000000000E10   -9.186756506096572E-5   6.905447226017714E-4  
 2.540000000000000E10    4.022951761726290E-4   8.334170561283827E-4  
 2.542000000000000E10    6.372017669491470E-4  -7.986376294866204E-4  
 2.544000000000000E10   -4.527768469415605E-4  -8.954785298556089E-4  
 2.546000000000000E10   -7.703088340349495E-4  -9.816863894229755E-5  
 2.548000000000000E10    3.883762983605266E-4   4.014436271972954E-4  
 2.550000000000000E10    1.112762605771422E-3  -1.392127887811512E-4  
 2.552000000000000E10    6.084531778469682E-4  -3.813960938714445E-4  
 2.554000000000000E10   -3.846071776933968E-4  -2.859914966393262E-4  
 2.556000000000000E10   -7.803998596500605E-5   5.987228360027075E-4  
 2.558000000000000E10   -1.101882662624121E-4   2.245157083962113E-4  
 2.560000000000000E10    3.088437661062926E-4  -1.788487497833557E-5  
 2.562000000000000E10    4.578888474497944E-4  -2.672111149877310E-4  
 2.564000000000000E10    1.123296824516729E-4  -8.919983520172536E-4  
 2.566000000000000E10   -5.581119912676513E-4  -3.794883377850056E-4  
 2.568000000000000E10    1.800717436708510E-4   6.955650751478970E-4  
 2.570000000000000E10    1.120698871091008E-3   1.208414978464134E-4  
 2.572000000000000E10    1.812995178624988E-4  -7.300497964024544E-4  
 2.574000000000000E10   -5.137200932949781E-4  -1.855990994954482E-4  
 2.576000000000000E10   -7.004873477853835E-4  -2.242612026748247E-5  
 2.578000000000000E10   -3.129847755189985E-4   5.400422960519791E-4  
 2.580000000000000E10    5.433402257040143E-4  -3.416715771891177E-4  
 2.582000000000000E10    3.270430897828192E-4  -7.603767444379628E-4  
 2.584000000000000E10   -4.885699017904699E-4  -7.054024608805776E-4  
 2.586000000000000E10   -4.280926077626646E-4   3.753367345780134E-4  
 2.588000000000000E10    8.410363807342947E-5   5.138535634614527E-4  
 2.590000000000000E10    7.828741217963398E-4   2.178429276682437E-4  
 2.592000000000000E10    9.636417962610722E-5  -4.779485170729458E-4  
 2.594000000000000E10   -8.823013049550355E-4  -6.399345584213734E-4  
 2.596000000000000E10   -9.560996550135315E-4   6.044321344234049E-4  
 2.598000000000000E10    4.926997935399413E-4   6.931717507541180E-4  
 2.600000000000000E10    7.284975727088749E-4  -4.294979153200984E-4  
 2.602000000000000E10   -7.961887604324147E-5  -1.152929733507335E-3  
 2.604000000000000E10   -9.609828121028841E-4   1.828692256822251E-5  
 2.606000000000000E10   -2.202554896939546E-4   7.825652137398720E-4  
 2.608000000000000E10    7.811349933035672E-4   5.955870728939772E-4  
 2.610000000000000E10    8.485431317240000E-4  -5.291520501486957E-4  
 2.612000000000000E10   -6.123451748862863E-4  -9.076150017790496E-4  
 2.614000000000000E10   -9.700285154394805E-4   1.746963098412380E-4  
 2.616000000000000E10   -5.658089139615186E-5   1.142267603427172E-3  
 2.618000000000000E10    6.508412188850343E-4  -9.519069863017649E-5  
 2.620000000000000E10    6.380984559655190E-4  -7.791246171109378E-4  
 2.622000000000000E10   -7.015932933427393E-4  -6.091421237215400E-4  
 2.624000000000000E10   -3.982678172178567E-4   3.587462997529656E-4  
 2.626000000000000E10    1.498149504186586E-4   1.103624817915261E-3  
 2.628000000000000E10    9.699701913632453E-4  -2.935857446573209E-5  
 2.630000000000000E10    5.719311957363971E-5  -4.538003122434020E-4  
 2.632000000000000E10   -3.070952952839434E-4   7.074460881995037E-5  
 2.634000000000000E10   -4.641279228962958E-4   4.956605844199657E-4  
 2.636000000000000E10    4.306588089093566E-4   2.498594403732568E-4  
 2.638000000000000E10    4.605760041158646E-4   1.722776360111311E-4  
 2.640000000000000E10    9.230995055986568E-5  -9.267384302802384E-4  
 2.642000000000000E10   -2.819515357259661E-4  -1.194838550873101E-4  
 2.644000000000000E10   -4.100868827663362E-4   4.541055823210627E-4  
 2.646000000000000E10    7.858870667405427E-4   3.336891822982580E-4  
 2.648000000000000E10    5.984129384160042E-4  -1.773085532477126E-4  
 2.650000000000000E10    2.551995748945046E-6  -3.664914984256029E-4  
 2.652000000000000E10   -1.052093139151111E-4  -3.182653745170683E-4  
 2.654000000000000E10   -8.081241503532510E-6   1.599253882886842E-4  
 2.656000000000000E10   -1.639736437937245E-4   4.559547523967922E-4  
 2.658000000000000E10    4.693071823567152E-4  -1.497707562521100E-4  
 2.660000000000000E10    2.698967873584479E-4  -5.632783868350089E-4  
 2.662000000000000E10   -5.142941954545677E-4  -6.603522342629731E-4  
 2.664000000000000E10   -3.658542700577527E-4   1.563798577990383E-4  
 2.666000000000000E10    2.150157379219309E-4   1.683705049799755E-4  
 2.668000000000000E10    3.988221578765661E-4   1.232832000823692E-4  
 2.670000000000000E10    4.047812399221584E-5  -7.636469090357423E-4  
 2.672000000000000E10   -4.496914043556899E-4  -7.178714149631560E-4  
 2.674000000000000E10   -5.502928979694843E-4   2.143774036085233E-4  
 2.676000000000000E10    1.799374331312720E-5   7.330959779210389E-4  
 2.678000000000000E10    6.624090019613504E-4  -2.878206141758710E-4  
 2.680000000000000E10    2.265421062475070E-4  -6.264816038310528E-4  
 2.682000000000000E10   -7.763886824250221E-4  -5.271348054520786E-4  
 2.684000000000000E10   -1.826674561016262E-4   5.240767495706677E-4  
 2.686000000000000E10    2.974259550683200E-4   7.237790268845856E-4  
 2.688000000000000E10    8.427576394751668E-4  -5.879090167582035E-4  
 2.690000000000000E10   -2.173574757762253E-4  -7.124829571694136E-4  
 2.692000000000000E10   -1.128095085732639E-3   8.880521636456251E-5  
 2.694000000000000E10   -1.997638755710796E-4   9.485321934334934E-4  
 2.696000000000000E10    6.940956227481365E-4   2.591832890175283E-4  
 2.698000000000000E10    4.794923879671842E-4  -2.972191723529249E-4  
 2.700000000000000E10   -4.202894342597574E-4  -5.548180197365582E-4  
 2.702000000000000E10   -1.020632218569517E-3   3.654815664049238E-4  
 2.704000000000000E10   -9.822910942602903E-5   5.336236790753901E-4  
 2.706000000000000E10    6.905102054588497E-4   5.731395212933421E-4  
 2.708000000000000E10    4.135744238737971E-4  -5.663427291437984E-4  
 2.710000000000000E10   -2.531207865104079E-4  -6.490556988865137E-4  
 2.712000000000000E10   -8.519491530023515E-4   7.677743560634553E-4  
 2.714000000000000E10    1.015293819364160E-4   9.646167163737118E-4  
 2.716000000000000E10    8.746743551455438E-4   1.641276467125863E-4  
 2.718000000000000E10    2.743860241025686E-4  -6.932285032235086E-4  
 2.720000000000000E10   -9.477189742028713E-4  -5.218085134401918E-4  
 2.722000000000000E10   -2.139527496183291E-4   5.281387129798532E-4  
 2.724000000000000E10    4.887012764811516E-4   6.781433476135135E-4  
 2.726000000000000E10    6.449196371249855E-4  -3.557206073310226E-4  
 2.728000000000000E10    2.670205431059003E-4  -6.708286236971617E-4  
 2.730000000000000E10   -6.707167485728860E-4  -1.082842281903140E-4  
 2.732000000000000E10   -4.228963516652584E-4   1.480577629990876E-4  
 2.734000000000000E10    5.428708973340690E-4   5.838810466229916E-4  
 2.736000000000000E10    3.025812038686127E-4   6.965581269469112E-5  
 2.738000000000000E10    2.906821318902075E-4  -8.524133590981364E-4  
 2.740000000000000E10   -3.902879252564162E-4  -1.844667276600376E-4  
 2.742000000000000E10   -5.072243511676788E-4   5.101488786749542E-4  
 2.744000000000000E10    4.637428792193532E-4   7.410138496197760E-4  
 2.746000000000000E10    1.265024882741272E-3  -2.208584191976115E-4  
 2.748000000000000E10   -2.722757344599813E-4  -5.571416695602238E-4  
 2.750000000000000E10   -8.232791442424059E-4  -3.963680355809629E-4  
 2.752000000000000E10   -2.890323521569371E-4   9.215938043780625E-4  
 2.754000000000000E10    3.726266440935433E-4   1.966365089174360E-4  
 2.756000000000000E10    8.740427438169718E-4  -3.905816411133856E-4  
