#  HZ   S   RI   R     50.00 
! Rohde & Schwarz ZVA40 4Ports - Version 3.90 - 1145.1110k42 SN: 100403
! Date: 2023-10-04 11:28:28
! Measurement: S12 
! 
 2.200000000000000E10   -5.365222750697285E-5  -4.574954218696803E-4  
 2.202000000000000E10   -5.602041710517369E-5  -4.377804289106280E-4  
 2.204000000000000E10    6.566069205291569E-4   1.115431077778339E-4  
 2.206000000000000E10   -4.096019438293297E-6  -5.131504149176180E-4  
 2.208000000000000E10   -1.579169620526955E-4  -4.078139609191567E-4  
 2.210000000000000E10   -1.066206241375767E-4   8.855904452502728E-4  
 2.212000000000000E10    6.602236535400152E-4  -8.455384522676468E-5  
 2.214000000000000E10    2.150012151105329E-4  -1.092893769964576E-3  
 2.216000000000000E10   -1.092635211534798E-3  -5.247223307378590E-4  
 2.218000000000000E10   -8.671831164974719E-5   8.024385315366089E-4  
 2.220000000000000E10    7.824509521014988E-4  -2.894010976888239E-4  
 2.222000000000000E10    3.523891791701317E-4  -1.040416769683361E-3  
 2.224000000000000E10   -8.568138582631946E-4  -4.838169552385807E-4  
 2.226000000000000E10   -2.571532058937009E-5   4.538091598078609E-4  
 2.228000000000000E10    4.650185583159328E-4   4.378552257549018E-4  
 2.230000000000000E10   -9.008342021843419E-5  -4.249463090673089E-4  
 2.232000000000000E10   -7.194308273028582E-5   2.217483561253175E-4  
 2.234000000000000E10   -2.564400783739984E-4  -5.164246977074072E-5  
 2.236000000000000E10   -2.534414124966133E-5  -4.212626954540610E-4  
 2.238000000000000E10   -4.441516939550638E-4   2.868103911168873E-4  
 2.240000000000000E10    3.058300935663283E-4   2.834604820236564E-4  
 2.242000000000000E10    7.199844112619758E-4  -2.265797083964571E-4  
 2.244000000000000E10   -5.727673415094614E-4  -6.405657622963190E-4  
 2.246000000000000E10   -8.171905647031963E-4   3.522631013765931E-4  
 2.248000000000000E10    3.476457277429290E-5   8.304312359541655E-4  
 2.250000000000000E10    6.809835322201252E-4   5.281370249576867E-5  
 2.252000000000000E10   -7.668235339224339E-4  -8.371116709895432E-4  
 2.254000000000000E10   -7.062258082441986E-4  -2.228790690423921E-4  
 2.256000000000000E10    1.733038370730355E-4   9.193135192617774E-4  
 2.258000000000000E10    1.855692826211453E-4  -2.242449118057266E-4  
 2.260000000000000E10   -5.538022378459573E-5  -2.460823743604124E-4  
 2.262000000000000E10   -4.869571130257100E-4   3.185647074133158E-4  
 2.264000000000000E10   -4.216993984300643E-4   2.166816120734438E-4  
 2.266000000000000E10   -3.937449946533889E-4   1.135949642048217E-4  
 2.268000000000000E10   -5.154483369551599E-4   2.711599809117615E-4  
 2.270000000000000E10    2.763085358310491E-4   6.067429421818815E-5  
 2.272000000000000E10    8.709785470273346E-5  -1.109228978748433E-4  
 2.274000000000000E10   -1.646805758355185E-4  -1.044791351887398E-4  
 2.276000000000000E10   -2.675584401004016E-4   4.225596203468740E-4  
 2.278000000000000E10    7.519565406255424E-4   9.571784758009017E-4  
 2.280000000000000E10    4.731826775241643E-4  -9.750594472279772E-5  
 2.282000000000000E10   -1.607315789442509E-4  -4.762132884934545E-4  
 2.284000000000000E10   -4.790047532878816E-4   7.807415095157921E-4  
 2.286000000000000E10   -1.595278154127300E-4   7.563706021755934E-4  
 2.288000000000000E10    3.888666979037225E-4  -1.588699087733403E-4  
 2.290000000000000E10    1.763973123161122E-4   2.594501129351556E-4  
 2.292000000000000E10    2.175257031922229E-5  -4.931941293762066E-5  
 2.294000000000000E10    5.696865991922095E-5   3.207684494554997E-4  
 2.296000000000000E10    1.398643653374165E-4   6.489040679298341E-4  
 2.298000000000000E10    1.599452079972252E-4   6.414894014596939E-4  
 2.300000000000000E10    4.037853504996747E-4   2.320115454494953E-4  
 2.302000000000000E10   -3.369878395460546E-4   4.249743069522083E-4  
 2.304000000000000E10   -6.232486921362579E-4   4.774597982759588E-5  
 2.306000000000000E10    2.602559980005026E-4   6.903204484842718E-4  
 2.308000000000000E10    6.985711515881121E-4   6.079751183278859E-4  
 2.310000000000000E10    5.642754258587956E-4  -6.558136665262282E-4  
 2.312000000000000E10    1.036837420542724E-5  -1.580722746439278E-4  
 2.314000000000000E10   -2.796714834403247E-4   8.255865541286767E-4  
 2.316000000000000E10    6.414276431314647E-4   1.062343944795430E-4  
 2.318000000000000E10    9.791653137654066E-4   4.276152467355132E-4  
 2.320000000000000E10   -1.111098827095702E-4  -1.595810463186353E-4  
 2.322000000000000E10    4.697316035162658E-5  -1.897835682029836E-5  
 2.324000000000000E10   -3.076224820688367E-4   5.432769539766014E-4  
 2.326000000000000E10    3.875335096381605E-4   6.148712127469480E-4  
 2.328000000000000E10    8.123622974380851E-4  -1.703275484032929E-4  
 2.330000000000000E10    3.074466658290476E-4  -4.206837038509548E-4  
 2.332000000000000E10   -9.959091403288767E-5   4.117664957448142E-6  
 2.334000000000000E10   -1.100458175642416E-4   2.600307052489370E-4  
 2.336000000000000E10    7.101454539224505E-4   1.064873649738729E-3  
 2.338000000000000E10    9.566757944412530E-4  -1.757314603310078E-4  
 2.340000000000000E10    5.337932379916310E-4  -2.343976084375754E-4  
 2.342000000000000E10   -6.885603652335703E-4  -7.222825661301613E-5  
 2.344000000000000E10    2.015537465922535E-4   5.228142254054546E-4  
 2.346000000000000E10    6.186512764543295E-4   1.180089093395509E-4  
 2.348000000000000E10    6.187396356835961E-4  -8.752053836360574E-4  
 2.350000000000000E10    3.087769800913520E-5  -5.742149078287184E-4  
 2.352000000000000E10   -2.212460967712104E-4  -2.906470908783376E-4  
 2.354000000000000E10   -1.000717838905985E-5   2.881424734368920E-4  
 2.356000000000000E10    7.203986169770360E-4  -1.153348930529319E-4  
 2.358000000000000E10    6.313677295111120E-4  -3.177999678882770E-5  
 2.360000000000000E10   -1.191223709611222E-4  -9.457257692702115E-4  
 2.362000000000000E10   -1.719224819680676E-4  -6.612524884985760E-5  
 2.364000000000000E10   -2.205786404374521E-5   6.074177799746394E-4  
 2.366000000000000E10    9.541804320178926E-4  -2.602190070319921E-4  
 2.368000000000000E10    2.283099165651947E-4  -7.195686339400709E-4  
 2.370000000000000E10   -1.763059990480542E-4  -6.576376617886126E-4  
 2.372000000000000E10   -2.033335476880893E-4   3.744033747352660E-4  
 2.374000000000000E10    3.890176594723016E-4   1.445288071408868E-4  
 2.376000000000000E10    4.440358316060156E-4  -1.590529573149979E-4  
 2.378000000000000E10    2.486745652277023E-4  -8.135824464261532E-4  
 2.380000000000000E10   -1.859295880421996E-4  -4.811463295482099E-4  
 2.382000000000000E10   -3.428344789426774E-4   1.119309454225004E-4  
 2.384000000000000E10    2.766652614809573E-4   4.576908831950277E-4  
 2.386000000000000E10    7.782247848808765E-4  -2.214711857959628E-4  
 2.388000000000000E10   -2.132514418917708E-5  -7.509205024689436E-4  
 2.390000000000000E10   -8.981716819107533E-4  -4.089750000275672E-4  
 2.392000000000000E10   -5.451416363939643E-4   3.152058052364737E-4  
 2.394000000000000E10    3.111393016297370E-4   2.292322169523686E-4  
 2.396000000000000E10    4.237625689711422E-4  -5.961826536804438E-4  
 2.398000000000000E10   -3.542648628354073E-4  -1.168467453680933E-3  
 2.400000000000000E10   -5.068207974545658E-4  -2.055559307336807E-4  
 2.402000000000000E10   -1.318107752013020E-5   7.609897293150425E-4  
 2.404000000000000E10    3.938844020012766E-4  -1.143628251156770E-4  
 2.406000000000000E10    1.390149118378758E-4   3.101170295849443E-5  
 2.408000000000000E10   -2.607747737783939E-4  -7.330165244638920E-4  
 2.410000000000000E10   -8.769962587393820E-4  -3.809621848631650E-4  
 2.412000000000000E10   -7.817990845069289E-4   7.540038786828518E-4  
 2.414000000000000E10    6.976787117309868E-4   4.593139456119388E-4  
 2.416000000000000E10    5.574964452534914E-4  -9.059931035153568E-4  
 2.418000000000000E10   -9.169193217530847E-4  -1.021890202537179E-3  
 2.420000000000000E10   -8.662393665872514E-4   4.885694361291826E-4  
 2.422000000000000E10    5.113675724714994E-4   7.525240653194487E-4  
 2.424000000000000E10    4.621419066097587E-4  -1.574757625348866E-4  
 2.426000000000000E10    8.489083120366558E-5  -9.976483415812254E-4  
 2.428000000000000E10   -8.106050081551075E-4  -1.341470342595130E-4  
 2.430000000000000E10   -4.277792177163065E-4   7.735093095107004E-5  
 2.432000000000000E10    3.810167545452714E-4   3.786791057791561E-4  
 2.434000000000000E10    4.743534373119474E-4  -1.451787247788161E-4  
 2.436000000000000E10    3.642300143837929E-4  -5.398164503276348E-4  
 2.438000000000000E10   -7.045999518595636E-4  -4.122132959309965E-4  
 2.440000000000000E10   -4.414140421431512E-4   2.155832917196676E-4  
 2.442000000000000E10    1.983200309041422E-5   6.878814310766757E-4  
 2.444000000000000E10    1.077616703696549E-3   6.331608892651275E-5  
 2.446000000000000E10   -3.140943590551615E-4  -1.090695383027196E-3  
 2.448000000000000E10   -1.112641766667366E-3  -6.830256897956133E-4  
 2.450000000000000E10   -1.765839115250856E-4   9.455028921365738E-4  
 2.452000000000000E10    6.069199298508465E-4   1.028035840135999E-4  
 2.454000000000000E10    6.842673756182194E-4  -8.174374816007912E-4  
 2.456000000000000E10   -1.804424537112936E-4  -6.487017381004989E-4  
 2.458000000000000E10   -5.387627752497792E-4  -1.073068688128842E-6  
 2.460000000000000E10   -1.820373472583015E-5   1.464876695536077E-4  
 2.462000000000000E10    6.439089775085449E-4   2.881935215555131E-4  
 2.464000000000000E10    2.732775465119630E-4  -4.368812660686672E-4  
 2.466000000000000E10    2.532828366383910E-4  -6.293751648627222E-4  
 2.468000000000000E10   -8.083602879196405E-4  -2.644719206728041E-4  
 2.470000000000000E10   -3.405676397960633E-4   2.197555586462840E-4  
 2.472000000000000E10    6.675863987766206E-4   5.785461980849505E-4  
 2.474000000000000E10    9.323576814495027E-4  -6.421259604394436E-4  
 2.476000000000000E10   -3.591557615436614E-4  -8.303821668960154E-4  
 2.478000000000000E10   -7.831338443793356E-4   4.115829651709646E-4  
 2.480000000000000E10    1.707610208541155E-4   1.122258836403489E-3  
 2.482000000000000E10    7.724672905169427E-4   1.090204968932085E-4  
 2.484000000000000E10    6.884416798129678E-4  -8.440119563601911E-4  
 2.486000000000000E10   -8.039202657528222E-4  -4.117914941161871E-4  
 2.488000000000000E10   -4.938235506415367E-4   3.137681924272329E-4  
 2.490000000000000E10    6.232943851500750E-4   6.577724707312882E-4  
 2.492000000000000E10    1.002860837616026E-3  -4.046409158036113E-4  
 2.494000000000000E10    1.160172832896933E-4  -8.071078336797655E-4  
 2.496000000000000E10   -3.799513797275722E-4  -3.416661638766527E-4  
 2.498000000000000E10   -3.064906341023743E-4   5.693118437193334E-4  
 2.500000000000000E10    2.332809090148658E-4   2.536659303586930E-4  
 2.502000000000000E10    7.906927494332194E-4   9.415565727977082E-5  
 2.504000000000000E10   -5.379159119911492E-5  -1.043089432641864E-3  
 2.506000000000000E10   -5.703194183297455E-4  -7.151018944568932E-4  
 2.508000000000000E10   -4.532741149887443E-4   5.763100925832987E-4  
 2.510000000000000E10    6.537190638482571E-4   2.541900903452188E-5  
 2.512000000000000E10    8.841126691550016E-4  -5.099913687445223E-4  
 2.514000000000000E10   -3.877314156852663E-5  -1.071583246812224E-3  
 2.516000000000000E10   -5.809340509586036E-4  -6.076474164729007E-6  
 2.518000000000000E10   -1.202242201543413E-4   1.893536827992648E-4  
 2.520000000000000E10    3.529685491230339E-4   2.781501098070294E-4  
 2.522000000000000E10    3.090217942371965E-4  -7.903028163127601E-4  
 2.524000000000000E10   -3.859127900796011E-5  -5.329091218300164E-4  
 2.526000000000000E10   -8.977076504379511E-4  -1.505120890215039E-4  
 2.528000000000000E10    7.550072041340172E-5   2.504522271919996E-4  
 2.530000000000000E10    2.213500265497714E-4   1.666631869738922E-4  
 2.532000000000000E10    3.784466534852982E-4  -7.304238388314843E-4  
 2.534000000000000E10    8.275883010355756E-5  -7.364610792137682E-4  
 2.536000000000000E10   -5.785809480585158E-4  -4.513596941251308E-4  
 2.538000000000000E10   -7.627010199939832E-5   9.128274396061897E-4  
 2.540000000000000E10    4.472428408917040E-4   1.693597296252847E-4  
 2.542000000000000E10    5.252490518614650E-4  -5.173173849470913E-4  
 2.544000000000000E10   -8.500004187226296E-4  -7.253433577716351E-4  
 2.546000000000000E10   -1.098185428418219E-3   2.657776931300759E-4  
 2.548000000000000E10   -2.590757321740966E-5   9.141229675151408E-4  
 2.550000000000000E10    8.482053526677191E-4  -9.716405475046486E-5  
 2.552000000000000E10   -1.453289150958881E-4  -1.210205955430865E-3  
 2.554000000000000E10   -5.968893528915942E-4  -4.402547783683986E-4  
 2.556000000000000E10   -5.904400604777038E-4   5.372812156565487E-4  
 2.558000000000000E10    4.174589703325182E-4   1.570987078594044E-4  
 2.560000000000000E10    3.589771513361484E-4   1.914174208650366E-4  
 2.562000000000000E10   -1.949275974766351E-5  -7.818744052201510E-4  
 2.564000000000000E10   -1.121619250625372E-3  -2.132639492629096E-4  
 2.566000000000000E10   -5.416019703261554E-4   7.100249058566988E-4  
 2.568000000000000E10    6.478742579929531E-4   9.578449680702761E-5  
 2.570000000000000E10    2.283339999848977E-4  -9.140761685557663E-4  
 2.572000000000000E10   -2.751118445303291E-4  -6.832749349996448E-4  
 2.574000000000000E10   -5.534344236366451E-4   1.152883996837772E-4  
 2.576000000000000E10   -2.732336288318038E-4   3.953917766921222E-4  
 2.578000000000000E10    6.479239673353732E-4   1.608471939107403E-4  
 2.580000000000000E10    3.087075310759246E-4  -5.761577049270272E-4  
 2.582000000000000E10   -7.316800183616579E-4  -3.928492951672524E-4  
 2.584000000000000E10   -2.773360465653241E-4   2.796726184897125E-4  
 2.586000000000000E10   -1.982206158572808E-4  -4.740117674373323E-6  
 2.588000000000000E10    3.302206459920853E-4  -4.285899558453821E-5  
 2.590000000000000E10    5.657967994920909E-5  -2.253682177979499E-4  
 2.592000000000000E10    1.741152373142541E-4  -7.346912752836943E-4  
 2.594000000000000E10   -4.974175826646388E-4  -1.341047172900289E-4  
 2.596000000000000E10   -1.060517679434270E-4   7.556892815046012E-4  
 2.598000000000000E10    2.619359584059566E-4   3.316344227641821E-4  
 2.600000000000000E10    2.838427026290447E-4  -7.753117242828012E-4  
 2.602000000000000E10   -3.383662842679769E-4  -4.326810303609818E-4  
 2.604000000000000E10   -8.349397685378790E-4  -4.580196982715279E-4  
 2.606000000000000E10    2.476633926562499E-5   6.071981042623520E-4  
 2.608000000000000E10    1.071639562724158E-4   4.147355866734870E-5  
 2.610000000000000E10    7.729015778750181E-4  -3.734789497684687E-4  
 2.612000000000000E10   -5.171559751033783E-4  -6.069791852496564E-4  
 2.614000000000000E10   -4.944115644320846E-4  -7.672319043194875E-5  
 2.616000000000000E10   -1.693553203949705E-4   8.027975563891232E-4  
 2.618000000000000E10    8.720894693396986E-4   6.035252008587122E-4  
 2.620000000000000E10    2.294633450219408E-4  -7.208958850242198E-4  
 2.622000000000000E10   -7.020805496722460E-4  -7.191453478299081E-4  
 2.624000000000000E10   -1.059357542544603E-3   5.655015702359378E-4  
 2.626000000000000E10    2.133522502845153E-4   5.617327406071127E-4  
 2.628000000000000E10    9.413790539838374E-4   1.172308184322901E-4  
 2.630000000000000E10    2.884104906115681E-4  -1.232004258781672E-3  
 2.632000000000000E10   -7.685181335546076E-4  -3.927445213776082E-4  
 2.634000000000000E10   -6.414221716113389E-4   6.870898650959134E-4  
 2.636000000000000E10    7.057553739286959E-4   8.426888962276280E-4  
 2.638000000000000E10    7.296047988347709E-4  -7.122442475520074E-4  
 2.640000000000000E10   -6.830765414633788E-6  -9.202960063703358E-4  
 2.642000000000000E10   -1.256398507393897E-3   2.435039496049285E-4  
 2.644000000000000E10   -7.672970968997106E-5   6.071589305065572E-4  
 2.646000000000000E10    6.268850411288440E-4   3.151366836391389E-4  
 2.648000000000000E10    5.422085523605347E-4  -9.246487752534449E-4  
 2.650000000000000E10   -6.009728531353176E-4  -6.476731505244970E-4  
 2.652000000000000E10   -6.289823213592172E-4   1.317727292189375E-4  
 2.654000000000000E10    6.573057180503383E-5   9.209702839143574E-4  
 2.656000000000000E10    6.907205097377300E-4   5.836151103721932E-5  
 2.658000000000000E10    4.810999089386314E-4  -6.266889977268875E-4  
 2.660000000000000E10   -8.069963660091162E-4  -3.749196475837380E-4  
 2.662000000000000E10   -5.407469579949975E-4   3.749033785425127E-4  
 2.664000000000000E10    3.081262111663818E-4   8.058891398832202E-4  
 2.666000000000000E10    3.320394898764789E-4  -2.241317997686565E-4  
 2.668000000000000E10    2.274195285281166E-4  -5.351423751562834E-4  
 2.670000000000000E10   -8.920168620534241E-4  -4.153321788180620E-5  
 2.672000000000000E10   -5.949157275608741E-5   5.252145929262042E-4  
 2.674000000000000E10    3.310735046397895E-4   5.218519363552332E-4  
 2.676000000000000E10    6.082344334572554E-4  -4.593372577801347E-4  
 2.678000000000000E10    6.970818503759801E-6  -2.687886881176382E-4  
 2.680000000000000E10   -4.595899954438210E-4  -2.923797583207488E-4  
 2.682000000000000E10   -1.789763337001205E-4   3.975735453423113E-4  
 2.684000000000000E10   -1.691225334070623E-4   2.955771633423865E-4  
 2.686000000000000E10    5.572134978137910E-4   2.534409286454320E-4  
 2.688000000000000E10   -2.332701697014272E-4  -4.287771298550069E-4  
 2.690000000000000E10   -3.175444726366550E-4  -6.086600478738546E-4  
 2.692000000000000E10   -5.687903030775487E-4   3.682757087517530E-4  
 2.694000000000000E10    2.538092667236924E-4   3.264900587964803E-4  
 2.696000000000000E10    5.879231612198055E-4  -1.243269362021238E-4  
 2.698000000000000E10   -1.012994562188396E-5  -5.027776933275163E-4  
 2.700000000000000E10   -2.195771376136690E-4  -1.569240266690031E-4  
 2.702000000000000E10   -4.723360179923475E-4   2.544365706853569E-4  
 2.704000000000000E10    2.847230935003609E-4   7.550831651315093E-4  
 2.706000000000000E10    9.061247692443430E-4  -1.479145430494100E-4  
 2.708000000000000E10    5.292479763738811E-4  -9.198761545121670E-4  
 2.710000000000000E10   -8.250654791481793E-4  -5.769515992142260E-4  
 2.712000000000000E10   -5.027870065532625E-4   7.915046298876405E-4  
 2.714000000000000E10    8.630148367956281E-4   7.586257415823638E-4  
 2.716000000000000E10    9.865276515483856E-4  -3.144093789160252E-4  
 2.718000000000000E10   -2.082671853713691E-4  -8.528993930667639E-4  
 2.720000000000000E10   -7.282132282853127E-4   1.680665736785159E-4  
 2.722000000000000E10   -5.422104150056839E-4   1.105235540308058E-3  
 2.724000000000000E10    6.910680676810443E-4   1.982841968128923E-5  
 2.726000000000000E10    4.816827713511884E-4  -7.016162853688002E-4  
 2.728000000000000E10   -7.313266978599131E-4  -8.495979709550738E-4  
 2.730000000000000E10   -6.752605549991131E-4   5.040174582973123E-4  
 2.732000000000000E10    1.972187747014687E-4   8.463702979497612E-4  
 2.734000000000000E10    8.511706837452948E-4   2.291694545419887E-4  
 2.736000000000000E10    1.512332964921370E-4  -5.478005623444915E-4  
 2.738000000000000E10   -6.733505288138986E-4  -3.448668867349625E-4  
 2.740000000000000E10   -8.894441998563707E-4   2.931040071416646E-4  
 2.742000000000000E10   -1.336592395091429E-4   6.696124328300357E-4  
 2.744000000000000E10    5.794776952825487E-4  -7.307085616048425E-5  
 2.746000000000000E10    1.612857595318928E-4  -1.301646581850946E-3  
 2.748000000000000E10   -8.103007567115128E-4  -5.036890506744385E-4  
 2.750000000000000E10   -4.438433970790356E-4   8.863115799613297E-4  
 2.752000000000000E10    6.323966081254184E-4   7.920791977085173E-4  
 2.754000000000000E10    7.147736032493413E-4  -2.942882420029491E-4  
 2.756000000000000E10   -3.448740462772548E-4  -7.549587171524763E-4  
