#  HZ   S   RI   R     50.00 
! Rohde & Schwarz ZVA40 4Ports - Version 3.90 - 1145.1110k42 SN: 100403
! Date: 2023-10-04 11:28:08
! Measurement: S12 
! 
 2.200000000000000E10   -1.370901736663654E-4  -4.564081027638167E-4  
 2.202000000000000E10   -4.523543175309897E-4   2.944094885606319E-4  
 2.204000000000000E10    2.594164398033172E-4   9.431052603758872E-5  
 2.206000000000000E10    4.513369640335441E-4  -4.336870042607188E-4  
 2.208000000000000E10   -2.762786461971700E-4  -9.233467608282808E-6  
 2.210000000000000E10   -6.522215699078515E-5  -2.860928070731461E-4  
 2.212000000000000E10    2.345344255445525E-4   2.384059771429747E-4  
 2.214000000000000E10   -3.379022527951747E-4  -1.279324642382562E-4  
 2.216000000000000E10    5.512127972906455E-5  -1.613985805306584E-4  
 2.218000000000000E10   -2.211354149039835E-4   4.347726644482464E-4  
 2.220000000000000E10    5.418125656433404E-4  -3.954410494770855E-4  
 2.222000000000000E10   -2.032198681263253E-4  -3.153123252559453E-4  
 2.224000000000000E10   -5.530366906896234E-4  -8.009478915482760E-5  
 2.226000000000000E10    4.045571549795568E-4   7.251529605127871E-4  
 2.228000000000000E10    2.851371828000993E-4  -2.863589616026729E-4  
 2.230000000000000E10   -1.848924002842978E-4  -4.740479344036430E-4  
 2.232000000000000E10   -5.960147245787084E-4   1.786882494343445E-4  
 2.234000000000000E10    3.290154563728720E-4   2.146023762179539E-4  
 2.236000000000000E10   -6.184396916069090E-4   2.529846969991922E-4  
 2.238000000000000E10   -1.644435251364484E-4  -2.475392539054155E-4  
 2.240000000000000E10    6.591453711735085E-5   2.910022740252316E-4  
 2.242000000000000E10   -5.848630098626018E-4  -2.255529398098588E-4  
 2.244000000000000E10   -4.077299963682890E-4   4.137997748330236E-4  
 2.246000000000000E10   -5.075228273199173E-6   4.473315784707665E-4  
 2.248000000000000E10    3.020942676812410E-4   2.513577346689999E-4  
 2.250000000000000E10   -2.047031739493832E-4  -3.996614541392773E-4  
 2.252000000000000E10   -4.397541633807123E-4  -9.547983790980652E-5  
 2.254000000000000E10   -4.667841712944210E-4   8.809384307824075E-4  
 2.256000000000000E10    7.603673730045557E-4   4.179648531135172E-4  
 2.258000000000000E10    3.127315721940249E-4  -2.525767195038497E-4  
 2.260000000000000E10   -3.799155820161104E-4  -4.027494287583977E-4  
 2.262000000000000E10   -5.259535391815007E-4   5.955220549367368E-4  
 2.264000000000000E10   -8.113563126244117E-6   9.875393006950617E-4  
 2.266000000000000E10    3.699890512507409E-4  -2.920419865404256E-5  
 2.268000000000000E10   -2.582052547950298E-4  -4.769256338477135E-4  
 2.270000000000000E10   -6.235914770513773E-4   2.085442538373172E-4  
 2.272000000000000E10    7.616095535922796E-5   1.351215323666111E-4  
 2.274000000000000E10    1.866772508947179E-4   4.602882545441389E-4  
 2.276000000000000E10   -5.232710100244731E-5   6.795851513743401E-4  
 2.278000000000000E10    6.072407704778016E-4   4.434199945535511E-5  
 2.280000000000000E10   -2.251377154607326E-4  -5.043220589868724E-4  
 2.282000000000000E10   -9.454323444515467E-4  -3.504312189761549E-5  
 2.284000000000000E10    4.548444412648678E-4   9.302666876465082E-4  
 2.286000000000000E10    1.012801076285541E-3   1.028507467708550E-4  
 2.288000000000000E10   -1.992782636079937E-4  -5.494993529282510E-4  
 2.290000000000000E10   -4.098457575310022E-4   9.137544111581519E-5  
 2.292000000000000E10    5.316449096426368E-5   5.586562328971922E-4  
 2.294000000000000E10    3.020247968379408E-4   5.263504572212696E-4  
 2.296000000000000E10    4.966521519236267E-4  -2.375875774305314E-4  
 2.298000000000000E10    1.749060465954244E-4  -5.463738925755024E-4  
 2.300000000000000E10   -6.551306578330696E-4   2.739388437476009E-4  
 2.302000000000000E10    4.939173813909292E-4   5.743542569689453E-4  
 2.304000000000000E10    4.548776487354189E-4   3.749925526790321E-4  
 2.306000000000000E10    2.242455229861662E-4  -5.176085978746414E-4  
 2.308000000000000E10    4.719528078567237E-5  -9.604881051927805E-5  
 2.310000000000000E10   -3.295021597296000E-4   1.486427354393527E-4  
 2.312000000000000E10   -1.061194197973236E-4   5.119053530506790E-4  
 2.314000000000000E10    5.919713294133544E-4   1.811061374610290E-4  
 2.316000000000000E10    7.916661561466754E-4  -5.879949894733727E-4  
 2.318000000000000E10   -2.424861886538565E-4  -4.313700774218887E-4  
 2.320000000000000E10   -2.367352135479450E-4   2.516445529181510E-4  
 2.322000000000000E10    3.798051911871880E-4   1.025780453346670E-3  
 2.324000000000000E10    1.188023947179318E-3  -1.044142991304398E-4  
 2.326000000000000E10    3.081123868469149E-4  -8.476107177557424E-5  
 2.328000000000000E10   -4.800329916179180E-4  -1.973585021914914E-4  
 2.330000000000000E10   -1.248123007826507E-4   5.369603168219328E-4  
 2.332000000000000E10    2.762334479484707E-4   2.702557248994708E-4  
 2.334000000000000E10    8.612843812443316E-4  -2.710574481170625E-4  
 2.336000000000000E10    4.591957258526236E-5  -1.840358600020409E-4  
 2.338000000000000E10   -3.660558650153689E-5  -3.874425019603223E-4  
 2.340000000000000E10    2.076012460747734E-4   5.161403096280992E-4  
 2.342000000000000E10    6.313738413155079E-4   5.349184502847493E-4  
 2.344000000000000E10    5.088949692435563E-4  -1.981691275432240E-5  
 2.346000000000000E10    2.249362441943958E-4  -3.787762543652207E-4  
 2.348000000000000E10   -6.501983152702451E-4   1.997055514948443E-4  
 2.350000000000000E10    3.344475408084691E-5   1.543531288916711E-5  
 2.352000000000000E10    8.682855404913425E-4   4.039157065562904E-4  
 2.354000000000000E10    1.449225237593055E-4  -3.070950042456389E-4  
 2.356000000000000E10    1.111667734221555E-4  -7.732515223324299E-4  
 2.358000000000000E10   -7.556050550192595E-4   4.071004877914675E-5  
 2.360000000000000E10   -6.685431799269281E-6   3.234363393858075E-4  
 2.362000000000000E10    5.640828749164939E-4   1.528479915577918E-4  
 2.364000000000000E10    3.859436837956309E-4  -6.364047876559198E-4  
 2.366000000000000E10    9.025750478031114E-5  -1.879295450635254E-4  
 2.368000000000000E10   -7.010478875599802E-4  -2.895186480600387E-4  
 2.370000000000000E10    1.408523821737617E-4   5.660955212078989E-4  
 2.372000000000000E10    4.004948423244059E-4   2.886917500291020E-4  
 2.374000000000000E10    3.965314244851470E-4  -7.924588280729950E-4  
 2.376000000000000E10   -6.726175779476762E-4  -5.429749726317823E-4  
 2.378000000000000E10   -6.160848424769938E-4   2.802654344122857E-4  
 2.380000000000000E10    1.274200476473197E-4   3.090616955887526E-4  
 2.382000000000000E10    5.081761046312749E-4  -4.635910154320300E-4  
 2.384000000000000E10    1.876188325695694E-4  -4.289573116693646E-4  
 2.386000000000000E10   -1.905665412778035E-4  -5.601657321676612E-4  
 2.388000000000000E10   -3.972685663029552E-4   1.765958586474881E-4  
 2.390000000000000E10   -4.123273174627684E-5   5.256544100120664E-4  
 2.392000000000000E10    5.399704677984119E-4  -1.354649284621701E-4  
 2.394000000000000E10   -8.011596946744248E-5  -8.978518308140338E-4  
 2.396000000000000E10   -7.759224972687662E-4  -2.060396072920412E-4  
 2.398000000000000E10   -5.537208053283393E-4   5.165779148228467E-4  
 2.400000000000000E10    7.421187474392355E-4   7.046454993542284E-5  
 2.402000000000000E10    3.260155208408833E-4  -4.976984346285462E-4  
 2.404000000000000E10   -4.147950385231525E-4  -8.187069324776530E-4  
 2.406000000000000E10   -6.145999068394303E-4   2.336988254683092E-4  
 2.408000000000000E10    2.608452632557601E-6   7.221784908324480E-4  
 2.410000000000000E10    9.365842561237514E-5   2.054685755865648E-4  
 2.412000000000000E10    5.173832760192454E-4  -6.609364645555615E-4  
 2.414000000000000E10   -4.620113468263298E-4  -2.884778659790754E-4  
 2.416000000000000E10   -6.347272428683937E-4  -2.150449727196246E-4  
 2.418000000000000E10    6.146363739389926E-5   7.373565458692610E-4  
 2.420000000000000E10    3.421407600399107E-4   2.522530485293828E-5  
 2.422000000000000E10    4.959484213031828E-4  -8.320695487782359E-4  
 2.424000000000000E10   -5.194248515181243E-4  -6.399462581612170E-4  
 2.426000000000000E10   -8.007088326849043E-4   3.095995925832540E-4  
 2.428000000000000E10   -9.862524893833324E-5   7.340325391851366E-4  
 2.430000000000000E10    7.748109637759626E-4   4.679083212977275E-5  
 2.432000000000000E10   -8.627060742583126E-5  -1.226813998073340E-3  
 2.434000000000000E10   -3.694847400765866E-4  -3.801696293521673E-4  
 2.436000000000000E10   -4.948636051267386E-4   6.564231007359922E-4  
 2.438000000000000E10    5.400842637754977E-4   2.725808881223202E-4  
 2.440000000000000E10    3.111952391918749E-4   2.931649505626410E-4  
 2.442000000000000E10    5.512133066076785E-5  -4.479892668314278E-4  
 2.444000000000000E10   -4.947303095832467E-4  -4.980171433999203E-5  
 2.446000000000000E10   -5.063749849796295E-4   4.344452172517777E-4  
 2.448000000000000E10    2.130886277882382E-4   1.157941296696663E-3  
 2.450000000000000E10    8.542929426766932E-4  -3.962552582379431E-4  
 2.452000000000000E10    1.671654754318297E-4  -7.262201979756355E-4  
 2.454000000000000E10   -9.031526278704405E-4  -1.547461724840105E-4  
 2.456000000000000E10    3.558707248885185E-5   9.074124391190708E-4  
 2.458000000000000E10    6.200523930601776E-4   5.268185632303357E-4  
 2.460000000000000E10    6.231843144632876E-4  -2.771197760012001E-4  
 2.462000000000000E10   -8.139705751091242E-4  -6.466942722909153E-4  
 2.464000000000000E10   -6.545113283209503E-4   1.610942417755723E-4  
 2.466000000000000E10   -3.998490283265710E-4   8.829763391986489E-4  
 2.468000000000000E10    9.513468248769641E-4  -4.191923944745213E-4  
 2.470000000000000E10    1.504345418652520E-4  -2.439651434542611E-4  
 2.472000000000000E10   -5.726158269681037E-4  -6.727322470396757E-4  
 2.474000000000000E10   -3.068051883019507E-4   5.329298437573016E-4  
 2.476000000000000E10    1.286207316297805E-5   7.598128868266940E-4  
 2.478000000000000E10    7.901978096924722E-4   1.777662255335599E-4  
 2.480000000000000E10    1.784296327969059E-4  -4.319858853705227E-4  
 2.482000000000000E10   -5.672389524988830E-4  -6.357113015837967E-4  
 2.484000000000000E10   -6.961609469726682E-4   3.954218118451536E-4  
 2.486000000000000E10    6.567125092260540E-4   5.524492589756846E-4  
 2.488000000000000E10    1.262822188436985E-3  -1.024713274091482E-4  
 2.490000000000000E10   -2.722333010751754E-5  -8.708455134183168E-4  
 2.492000000000000E10   -1.339039590675384E-4  -1.552912144688889E-4  
 2.494000000000000E10   -2.710785192903131E-4   7.359753362834454E-4  
 2.496000000000000E10    8.561657741665840E-4   6.674409378319979E-4  
 2.498000000000000E10    4.988774308003485E-4  -2.573545498307794E-4  
 2.500000000000000E10   -1.748079375829548E-4  -7.884911028668284E-4  
 2.502000000000000E10   -6.002761074341834E-4   1.580946554895490E-4  
 2.504000000000000E10    6.690032751066610E-5   1.950430450960994E-4  
 2.506000000000000E10    5.120366695336998E-4   2.516788663342595E-4  
 2.508000000000000E10    7.532208110205829E-4  -5.132220103405416E-4  
 2.510000000000000E10    1.340039161732420E-4  -2.942425489891321E-4  
 2.512000000000000E10   -6.807520985603333E-4  -1.143072076956742E-4  
 2.514000000000000E10    1.681274006841704E-4   5.733369034714997E-4  
 2.516000000000000E10    4.046010726597160E-4   1.315828558290377E-4  
 2.518000000000000E10    7.559392834082246E-4  -6.458801799453795E-4  
 2.520000000000000E10   -2.800329530145973E-4  -7.290676003322005E-4  
 2.522000000000000E10   -6.339657702483237E-4  -5.418737055151723E-5  
 2.524000000000000E10    7.699403067817912E-5   6.722137331962585E-4  
 2.526000000000000E10    1.165386522188783E-3   7.351597741944715E-5  
 2.528000000000000E10    1.766019413480535E-4  -9.569554240442812E-4  
 2.530000000000000E10   -2.563635935075581E-4  -4.470762214623392E-4  
 2.532000000000000E10   -4.195101791992784E-4   5.394252948462963E-4  
 2.534000000000000E10    2.804886316880584E-4   5.362591400626116E-5  
 2.536000000000000E10    5.052560591138899E-4  -2.781786897685379E-4  
 2.538000000000000E10    1.034278320730664E-4  -8.174612303264439E-4  
 2.540000000000000E10   -1.113137113861740E-4  -4.451632557902485E-4  
 2.542000000000000E10   -1.077874767361209E-4   2.590741496533155E-4  
 2.544000000000000E10    4.962961538694799E-4   5.220272578299046E-4  
 2.546000000000000E10    7.797361467964947E-4  -3.626251418609172E-4  
 2.548000000000000E10    2.392802707618102E-4  -4.347235662862659E-4  
 2.550000000000000E10   -5.341066280379891E-4  -4.421754565555602E-4  
 2.552000000000000E10   -3.584837249945849E-4   2.879197709262371E-4  
 2.554000000000000E10    1.689034543232992E-4   2.199607988586649E-4  
 2.556000000000000E10    7.651175255887210E-4  -6.285828421823680E-4  
 2.558000000000000E10   -3.545837535057217E-4  -6.402282742783427E-4  
 2.560000000000000E10   -6.133191054686904E-4  -4.529033030848950E-4  
 2.562000000000000E10   -5.027493898523971E-6   5.912148044444621E-4  
 2.564000000000000E10    6.208221893757582E-4  -8.591064397478476E-5  
 2.566000000000000E10    7.242472493089736E-4  -5.232283147051930E-4  
 2.568000000000000E10   -6.374918302753940E-5  -8.624454494565725E-4  
 2.570000000000000E10   -6.664647953584790E-4  -8.284636351163499E-6  
 2.572000000000000E10   -2.563636808190495E-4   4.594261117745191E-4  
 2.574000000000000E10    7.982439128682017E-4   2.319207123946399E-4  
 2.576000000000000E10    3.511498216539621E-4  -6.514415726996958E-4  
 2.578000000000000E10   -5.373932071961463E-4  -9.083289769478142E-4  
 2.580000000000000E10   -9.003389277495444E-4   5.761695501860231E-5  
 2.582000000000000E10    2.849151496775448E-4   9.493104298599064E-4  
 2.584000000000000E10    8.750746492296457E-4  -1.789321395335719E-4  
 2.586000000000000E10    1.721909939078614E-4  -1.269801636226475E-3  
 2.588000000000000E10   -1.082111732102931E-3  -2.511538623366505E-4  
 2.590000000000000E10   -6.688439316349104E-5   8.155549876391888E-4  
 2.592000000000000E10    4.005270311608911E-4   4.562778340186924E-4  
 2.594000000000000E10    3.643321106210351E-4  -3.258660435676575E-4  
 2.596000000000000E10   -4.106370615772903E-4  -7.874821894802153E-4  
 2.598000000000000E10   -6.898621213622391E-4  -3.278564545325935E-4  
 2.600000000000000E10   -4.761483287438750E-4   9.513183031231165E-4  
 2.602000000000000E10    6.060610176064074E-4   1.718071434879676E-4  
 2.604000000000000E10    4.493446613196284E-4  -3.641735820565373E-4  
 2.606000000000000E10   -8.217193535529077E-4  -6.882425514049828E-4  
 2.608000000000000E10   -4.046344547532499E-4   4.514302709139884E-4  
 2.610000000000000E10   -3.543957136571407E-4   6.861629080958664E-4  
 2.612000000000000E10    4.896431346423924E-4   8.701247861608863E-5  
 2.614000000000000E10    5.495371806318872E-5  -5.520205595530570E-4  
 2.616000000000000E10   -5.347053520381451E-4  -6.768297171220183E-4  
 2.618000000000000E10   -5.299563053995371E-4   4.754328983835876E-4  
 2.620000000000000E10    5.283479113131762E-4   1.914812019094825E-4  
 2.622000000000000E10    5.182374152354896E-4  -5.923353455727920E-5  
 2.624000000000000E10   -9.271375893149525E-5  -4.270909121260047E-4  
 2.626000000000000E10   -8.007994438230526E-6  -3.841841316898353E-5  
 2.628000000000000E10   -2.236504224129021E-4  -2.363635430810973E-4  
 2.630000000000000E10   -2.355416800128296E-4   9.576680895406753E-5  
 2.632000000000000E10    3.232532471884042E-4   1.685746974544600E-4  
 2.634000000000000E10    6.272292812354863E-4  -3.046256315428764E-4  
 2.636000000000000E10   -7.427670061588287E-5  -5.756583414040506E-4  
 2.638000000000000E10   -5.688752862624824E-4  -8.811640873318538E-5  
 2.640000000000000E10   -1.390626857755706E-4   6.994350114837289E-4  
 2.642000000000000E10    6.753402412869036E-4   4.191674452158622E-5  
 2.644000000000000E10    2.577705017756671E-4  -5.835316842421889E-4  
 2.646000000000000E10   -2.903807326219976E-4  -6.287797586992383E-4  
 2.648000000000000E10   -8.036315557546914E-4   1.079241774277762E-4  
 2.650000000000000E10    3.086971701122820E-4   5.409076693467796E-4  
 2.652000000000000E10    4.461551725398749E-4   9.393318032380194E-5  
 2.654000000000000E10    3.113815328106284E-4  -6.090229726396501E-4  
 2.656000000000000E10   -7.777669816277921E-4  -5.735780578106642E-4  
 2.658000000000000E10   -5.060537951067090E-4   2.988483465742320E-4  
 2.660000000000000E10    3.839505079668015E-4   7.955431356094778E-4  
 2.662000000000000E10    8.682774496264756E-4  -3.145892987959087E-4  
 2.664000000000000E10   -9.212323675455991E-6  -1.017980976030231E-3  
 2.666000000000000E10   -9.064843179658055E-4  -3.765875590033829E-4  
 2.668000000000000E10   -8.042858680710197E-4   7.002822239883244E-4  
 2.670000000000000E10    7.554062176495791E-4   7.185332942754030E-4  
 2.672000000000000E10    9.258631034754217E-4  -4.785577475558966E-4  
 2.674000000000000E10   -3.876374685205519E-4  -1.468339469283819E-3  
 2.676000000000000E10   -1.425429247319698E-3   2.571694785729051E-4  
 2.678000000000000E10   -3.952038605348207E-5   8.175598923116922E-4  
 2.680000000000000E10    1.207161811180413E-3   2.440743410261348E-4  
 2.682000000000000E10    3.304687270428985E-4  -1.183510757982731E-3  
 2.684000000000000E10   -6.812042556703091E-4  -6.954238051548600E-4  
 2.686000000000000E10   -1.086759148165584E-3   6.965462816879153E-4  
 2.688000000000000E10    5.392486928030849E-4   7.536736084148288E-4  
 2.690000000000000E10    7.162056281231344E-4  -1.938466448336840E-5  
 2.692000000000000E10    2.356670302106068E-4  -1.166233094409108E-3  
 2.694000000000000E10   -8.842480019666255E-4  -3.975423460360616E-4  
 2.696000000000000E10   -5.920030525885522E-4   3.485564957372844E-4  
 2.698000000000000E10    4.466896061785519E-4   6.802712450735271E-4  
 2.700000000000000E10    7.753622485324740E-4  -1.720100262900814E-4  
 2.702000000000000E10    1.099693836295046E-4  -5.487196031026542E-4  
 2.704000000000000E10   -8.317391620948911E-4  -2.447753504384309E-4  
 2.706000000000000E10   -4.344831977505237E-4   8.244192576967180E-4  
 2.708000000000000E10    3.762419510167092E-4   2.944942971225828E-4  
 2.710000000000000E10    8.156387484632433E-4  -5.429503507912159E-4  
 2.712000000000000E10   -6.775868823751807E-4  -5.381642840802670E-4  
 2.714000000000000E10   -6.634519086219370E-4   5.918376700719819E-6  
 2.716000000000000E10    8.561278082197532E-5   6.754864007234573E-4  
 2.718000000000000E10    5.126406904309988E-4   1.926309050759301E-4  
 2.720000000000000E10    5.294671282172203E-4   1.281057575397426E-5  
 2.722000000000000E10   -4.453486471902579E-4  -5.766208632849157E-4  
 2.724000000000000E10   -4.728663479909301E-4   1.851842389442027E-4  
 2.726000000000000E10   -3.870207292493433E-4   4.355778219178319E-4  
 2.728000000000000E10    3.694774059113115E-4   3.488930815365166E-4  
 2.730000000000000E10    6.626787362620235E-4  -2.105947351083159E-4  
 2.732000000000000E10   -8.350302960025147E-5  -5.820911028422415E-4  
 2.734000000000000E10   -1.178508042357862E-3   6.964371423237026E-4  
 2.736000000000000E10   -4.849304241361097E-5   9.056843118742108E-4  
 2.738000000000000E10    5.616162088699639E-4   3.731198085006326E-4  
 2.740000000000000E10    2.172600070480257E-4  -8.217202848754823E-4  
 2.742000000000000E10   -3.442890883889049E-4  -3.593000874388963E-4  
 2.744000000000000E10   -9.474514517933130E-4   4.241014539729804E-4  
 2.746000000000000E10    3.790780901908875E-4   7.210407638922334E-4  
 2.748000000000000E10    8.285924559459090E-4   4.474781162571162E-4  
 2.750000000000000E10    3.826597821898758E-4  -9.853015653789043E-4  
 2.752000000000000E10   -4.806590150110424E-4  -1.772871764842421E-4  
 2.754000000000000E10   -7.186604198068380E-4   6.523569463752210E-4  
 2.756000000000000E10    2.527208998799324E-4   8.862356771714985E-4  
