#  HZ   S   RI   R     50.00 
! Rohde & Schwarz ZVA40 4Ports - Version 3.90 - 1145.1110k42 SN: 100403
! Date: 2023-10-04 11:27:18
! Measurement: S12 
! 
 2.200000000000000E10    1.371362741338089E-4  -5.272153648547828E-4  
 2.202000000000000E10   -4.814392887055874E-4  -6.236038461793214E-5  
 2.204000000000000E10    7.102559902705252E-5   3.313155903015286E-4  
 2.206000000000000E10    5.968377445242368E-5   8.387526031583548E-5  
 2.208000000000000E10   -3.984365903306752E-4  -1.329047227045521E-4  
 2.210000000000000E10    2.044564898824319E-4   5.649076774716377E-4  
 2.212000000000000E10    1.056859255186282E-4  -1.317549758823589E-4  
 2.214000000000000E10   -6.071244133636355E-4  -4.197496746201068E-4  
 2.216000000000000E10   -2.743234799709171E-4   4.052803560625762E-4  
 2.218000000000000E10   -1.494706375524402E-4   2.335950266569853E-4  
 2.220000000000000E10    4.578729567583650E-4  -5.059688701294363E-4  
 2.222000000000000E10   -4.332293465267867E-4   8.745805826038122E-5  
 2.224000000000000E10    5.501637861016206E-5   4.727882042061538E-4  
 2.226000000000000E10   -6.041713277227245E-6   3.930015664082021E-4  
 2.228000000000000E10    1.937726483447477E-4  -1.787405926734209E-4  
 2.230000000000000E10   -3.268915752414614E-4   1.631119812373072E-4  
 2.232000000000000E10    8.734653965802863E-5  -2.654005656950176E-4  
 2.234000000000000E10    1.380341564072296E-5   2.178351278416812E-4  
 2.236000000000000E10    9.102011517825304E-7  -2.234751445939764E-4  
 2.238000000000000E10    8.383661770494655E-5  -2.999784328494570E-6  
 2.240000000000000E10    1.081332229659893E-4   6.386319000739604E-5  
 2.242000000000000E10    4.239664704073221E-4  -7.977692293934524E-4  
 2.244000000000000E10   -4.308072675485164E-5  -4.989746958017349E-5  
 2.246000000000000E10   -4.659451951738447E-4  -8.455434908682946E-6  
 2.248000000000000E10    7.969489670358598E-4   6.980389007367194E-4  
 2.250000000000000E10    3.399845445528626E-4  -4.132833855692297E-4  
 2.252000000000000E10    4.798363443114795E-5  -7.623168639838696E-4  
 2.254000000000000E10   -6.099413149058819E-4   3.221989609301090E-4  
 2.256000000000000E10    6.493706605397165E-4   1.169157549156807E-4  
 2.258000000000000E10    3.896069538313896E-4   1.565038110129535E-4  
 2.260000000000000E10    9.815382509259507E-5  -1.764893968356773E-4  
 2.262000000000000E10    3.574862494133413E-4  -1.762333849910647E-4  
 2.264000000000000E10    1.398788735968992E-4   4.758569502882892E-6  
 2.266000000000000E10    2.084421284962446E-4   1.990903838304803E-4  
 2.268000000000000E10    4.784422053489834E-4   3.854143433272839E-4  
 2.270000000000000E10    2.495307999197394E-4  -8.729731198400259E-4  
 2.272000000000000E10    1.075329637387767E-4  -5.143134621903300E-4  
 2.274000000000000E10   -2.810204168781638E-4   1.099491200875491E-4  
 2.276000000000000E10    6.035942933522165E-4   1.923929376062006E-4  
 2.278000000000000E10    4.668347537517548E-4  -6.832952203694731E-5  
 2.280000000000000E10    3.430708311498165E-4  -4.916649777442217E-4  
 2.282000000000000E10    3.310149986646138E-5  -7.602658006362617E-4  
 2.284000000000000E10   -4.969418514519930E-4   7.012872374616563E-4  
 2.286000000000000E10    2.678296295925975E-4   2.093117218464613E-4  
 2.288000000000000E10    6.865642499178648E-4  -7.669988553971052E-4  
 2.290000000000000E10   -3.611561260186136E-4  -8.683205815032125E-4  
 2.292000000000000E10   -2.090945490635932E-4  -3.341415140312165E-5  
 2.294000000000000E10    2.449110033921897E-4  -2.057300589513034E-4  
 2.296000000000000E10    4.689364577643573E-4   3.037475289602298E-5  
 2.298000000000000E10    1.621299306862056E-4  -5.980140122119337E-5  
 2.300000000000000E10    2.217666769865900E-4  -5.421960959210992E-4  
 2.302000000000000E10   -7.499729399569333E-4  -4.036313912365586E-4  
 2.304000000000000E10   -5.738638574257493E-4   1.844475045800209E-4  
 2.306000000000000E10    6.851212237961590E-4   2.297994069522247E-4  
 2.308000000000000E10   -4.132321191718802E-5  -6.221111398190260E-4  
 2.310000000000000E10   -1.031870706356131E-4  -1.200979226268828E-3  
 2.312000000000000E10   -5.901404656469822E-4   5.397817003540695E-4  
 2.314000000000000E10    3.143527428619564E-4   1.969112199731171E-4  
 2.316000000000000E10    5.216259160079062E-4   1.953070313902572E-4  
 2.318000000000000E10    1.299178693443537E-4  -7.257087272591889E-4  
 2.320000000000000E10   -7.309266948141158E-4  -9.165823576040566E-5  
 2.322000000000000E10   -6.719104130752385E-4  -9.723931725602597E-5  
 2.324000000000000E10    2.342727566428948E-5   3.075966669712216E-4  
 2.326000000000000E10    6.516076973639429E-4  -5.775285535492003E-4  
 2.328000000000000E10    9.424900054000318E-5  -6.273472681641579E-4  
 2.330000000000000E10   -4.553842009045184E-4  -1.688740303507075E-4  
 2.332000000000000E10    1.163863198598847E-4   1.967156276805326E-4  
 2.334000000000000E10    2.920458791777492E-4   4.392583505250514E-4  
 2.336000000000000E10   -1.236071402672678E-4  -4.882679786533117E-4  
 2.338000000000000E10    3.283232508692890E-4  -8.299842593260109E-4  
 2.340000000000000E10   -1.225709449499846E-3  -7.753483805572614E-5  
 2.342000000000000E10   -3.947142977267504E-4   2.079736004816368E-4  
 2.344000000000000E10    5.640053423121572E-4   2.807201235555112E-4  
 2.346000000000000E10    5.320341442711651E-4  -7.400052854791284E-4  
 2.348000000000000E10   -6.111690890975297E-4  -8.448931621387601E-4  
 2.350000000000000E10   -1.807650405680761E-4   3.453939280007035E-4  
 2.352000000000000E10   -2.513402141630650E-4   5.443892441689968E-4  
 2.354000000000000E10    4.575192288029939E-4  -2.138827112503350E-4  
 2.356000000000000E10    9.575581498211250E-5  -3.960283356718719E-4  
 2.358000000000000E10   -5.910825566388667E-4  -3.772512136492878E-4  
 2.360000000000000E10   -6.487893406301737E-4  -2.875859354389831E-5  
 2.362000000000000E10   -4.390750837046653E-5   3.705352428369224E-4  
 2.364000000000000E10    3.526401706039906E-4  -2.258994645671919E-4  
 2.366000000000000E10   -5.648694423143752E-5  -7.056540925987065E-4  
 2.368000000000000E10   -8.588969358243048E-4  -1.105647243093699E-4  
 2.370000000000000E10   -1.415317528881133E-4   5.391443264670670E-4  
 2.372000000000000E10    7.824233034625650E-5   7.547474069724558E-6  
 2.374000000000000E10    3.092144615948200E-4   3.476624842733145E-4  
 2.376000000000000E10   -3.947800723835826E-4  -2.913028001785278E-4  
 2.378000000000000E10   -3.037679125554860E-4   9.935902926372364E-5  
 2.380000000000000E10   -5.620960728265345E-4   2.595037803985179E-4  
 2.382000000000000E10    3.394653904251754E-4   7.735904655419290E-4  
 2.384000000000000E10   -5.126018550072331E-6  -4.712718655355275E-4  
 2.386000000000000E10   -1.507089182268828E-4  -4.825348732993007E-4  
 2.388000000000000E10   -8.426340064033866E-4  -2.473941713105887E-4  
 2.390000000000000E10   -4.224065050948411E-4   1.132263685576618E-3  
 2.392000000000000E10    4.347657086327672E-4   2.760256174951792E-4  
 2.394000000000000E10    6.374064250849187E-4  -1.287435588892549E-4  
 2.396000000000000E10   -6.324264104478061E-4  -6.831153878010809E-4  
 2.398000000000000E10   -5.046111764386296E-4   6.581597262993455E-4  
 2.400000000000000E10   -1.956282067112625E-4   9.521369938738644E-4  
 2.402000000000000E10    5.683332565240562E-4  -1.253384198207641E-5  
 2.404000000000000E10   -4.930445356876589E-5  -6.841197027824819E-4  
 2.406000000000000E10   -2.882278058677912E-4   3.193250086042099E-5  
 2.408000000000000E10   -1.850155604188331E-5   1.922208757605404E-4  
 2.410000000000000E10   -1.022191281663254E-5   8.056774386204779E-4  
 2.412000000000000E10    5.193475517444313E-4   2.827343123499304E-4  
 2.414000000000000E10    5.233044503256679E-4  -3.111585392616689E-4  
 2.416000000000000E10   -5.186157068237662E-4  -7.955596665851772E-4  
 2.418000000000000E10   -9.321914403699338E-4   1.005844213068485E-3  
 2.420000000000000E10    9.283653344027698E-4   7.741849985904992E-4  
 2.422000000000000E10    8.723787032067776E-4  -4.514167812885717E-5  
 2.424000000000000E10   -1.173905111500062E-4  -8.755437447689474E-4  
 2.426000000000000E10   -6.062686443328857E-4   5.790573195554316E-4  
 2.428000000000000E10    3.862252469843952E-6   5.806079716421664E-4  
 2.430000000000000E10    4.706554173026234E-4   5.037090159021318E-4  
 2.432000000000000E10    2.643211046233773E-4  -5.076868692412973E-4  
 2.434000000000000E10   -6.562930648215115E-4  -1.996737555600703E-4  
 2.436000000000000E10   -5.177714629098773E-4  -3.833921509794891E-4  
 2.438000000000000E10   -2.790001162793487E-4   1.066406024619937E-3  
 2.440000000000000E10    7.329705404117703E-4  -1.602519623702392E-4  
 2.442000000000000E10    2.264958602609113E-4  -1.421261840732768E-4  
 2.444000000000000E10   -1.526263949926943E-4  -5.162187153473496E-4  
 2.446000000000000E10   -5.200332379899919E-4   7.314872618735535E-6  
 2.448000000000000E10   -5.022736149840057E-4   6.353777716867626E-4  
 2.450000000000000E10    5.487935850396752E-4   5.258550518192351E-4  
 2.452000000000000E10    9.943781333277002E-5  -5.857719224877656E-4  
 2.454000000000000E10   -6.876666448079050E-4  -8.995305397547782E-4  
 2.456000000000000E10   -7.406002259813249E-4   5.578000564128161E-4  
 2.458000000000000E10    4.531760641839355E-4   4.249086778145284E-4  
 2.460000000000000E10    9.240166400559247E-4   6.960111204534769E-5  
 2.462000000000000E10   -1.380382600473240E-4  -7.690520142205060E-4  
 2.464000000000000E10   -2.776297624222934E-4   1.710321230348200E-4  
 2.466000000000000E10   -8.593517704866827E-4  -5.817619603476487E-5  
 2.468000000000000E10    5.182216991670430E-4   5.963848670944572E-4  
 2.470000000000000E10    1.515557378297672E-4  -6.639349885517731E-5  
 2.472000000000000E10    6.469391519203782E-4  -8.019726374186575E-4  
 2.474000000000000E10   -9.499946609139442E-4  -4.895746824331582E-4  
 2.476000000000000E10   -2.428361622150987E-4   3.657432971522212E-4  
 2.478000000000000E10    6.043586763553321E-4   9.129837271757424E-4  
 2.480000000000000E10    1.133121782913804E-3  -5.067051388323307E-4  
 2.482000000000000E10   -3.796087985392660E-4  -5.308797117322683E-4  
 2.484000000000000E10   -1.057007350027561E-3  -1.449324045097455E-4  
 2.486000000000000E10   -9.511649113846943E-5   5.714169819839299E-4  
 2.488000000000000E10    4.563614202197641E-4   1.582252443768084E-4  
 2.490000000000000E10    4.358023288659751E-4  -9.159324690699577E-4  
 2.492000000000000E10   -1.040316637954675E-4  -4.746914200950414E-4  
 2.494000000000000E10   -5.400375812314451E-4  -9.901284647639841E-5  
 2.496000000000000E10    1.942535600392148E-4   9.988037636503577E-4  
 2.498000000000000E10    5.379074136726558E-4  -2.024952555075288E-4  
 2.500000000000000E10    3.437444684095681E-4  -2.989000058732927E-4  
 2.502000000000000E10   -9.519370505586267E-4  -1.044745557010174E-3  
 2.504000000000000E10   -6.104771746322513E-4   3.002600278705359E-4  
 2.506000000000000E10   -3.365146403666586E-4   4.772820684593171E-4  
 2.508000000000000E10    5.645442870445550E-4  -2.336951147299260E-4  
 2.510000000000000E10    2.813799947034568E-4  -8.971325587481260E-4  
 2.512000000000000E10   -5.324327503331006E-4  -6.814886000938714E-4  
 2.514000000000000E10   -6.717953365296125E-4   5.755382589995861E-4  
 2.516000000000000E10    5.225191125646234E-4   7.001152844168246E-4  
 2.518000000000000E10    6.194472662173212E-4  -1.964895200217143E-4  
 2.520000000000000E10   -5.162815796211362E-4  -6.994337309151888E-4  
 2.522000000000000E10   -1.006737700663507E-3  -8.869434532243758E-5  
 2.524000000000000E10   -5.298077012412250E-4   6.294904742389917E-4  
 2.526000000000000E10    5.758439074270427E-4  -6.671627488685772E-6  
 2.528000000000000E10    2.721690398175269E-4  -5.313575966283679E-4  
 2.530000000000000E10   -3.026763733942062E-4  -7.852358976379037E-4  
 2.532000000000000E10   -5.609939689747989E-4  -9.724210394779220E-5  
 2.534000000000000E10   -1.072898157872260E-4   7.771758828312159E-4  
 2.536000000000000E10   -2.189857041230425E-4   3.613057779148221E-4  
 2.538000000000000E10    3.659997892100364E-4  -1.861590426415205E-4  
 2.540000000000000E10   -8.608388598076999E-4  -4.203410935588181E-4  
 2.542000000000000E10   -1.057152752764523E-3   9.943830264091957E-6  
 2.544000000000000E10   -4.996448988094926E-4   6.008537020534277E-4  
 2.546000000000000E10    7.354179397225380E-4  -1.995768434426282E-5  
 2.548000000000000E10   -5.364482422010042E-5  -5.295763839967549E-4  
 2.550000000000000E10   -7.688348414376378E-4  -4.944340325891972E-4  
 2.552000000000000E10   -9.771066252142191E-4   8.936132653616369E-4  
 2.554000000000000E10    6.366685847751796E-4   7.932782755233347E-4  
 2.556000000000000E10    3.232424787711352E-4  -1.204685540869832E-4  
 2.558000000000000E10   -1.408122770953924E-4  -6.237401394173503E-4  
 2.560000000000000E10   -3.773098287638277E-4   3.545557847246528E-4  
 2.562000000000000E10    3.522160477587022E-5   1.998867373913527E-4  
 2.564000000000000E10    7.321429438889027E-5   2.572513476479799E-4  
 2.566000000000000E10    1.498427009209991E-4   9.214575402438641E-5  
 2.568000000000000E10    1.466501271352172E-4  -3.216910408809781E-4  
 2.570000000000000E10   -3.668004646897316E-4  -2.381961239734665E-4  
 2.572000000000000E10   -4.901734064333141E-4   5.926100420765579E-4  
 2.574000000000000E10    1.818145683500916E-4   6.234477041289210E-4  
 2.576000000000000E10    3.568070533219725E-4  -1.652008359087631E-4  
 2.578000000000000E10   -1.805997308110818E-4  -7.482089567929506E-4  
 2.580000000000000E10   -8.162619196809828E-4   5.180836069484940E-6  
 2.582000000000000E10   -3.951629914809018E-4   6.016300758346915E-4  
 2.584000000000000E10    4.979915102012456E-4   3.053706896025688E-4  
 2.586000000000000E10    3.065930795855820E-4  -5.600603763014078E-4  
 2.588000000000000E10   -4.420203913468868E-4  -8.723562932573259E-4  
 2.590000000000000E10   -6.317789084278047E-4   2.906344016082585E-4  
 2.592000000000000E10   -1.350105303572491E-4   3.472414391580969E-4  
 2.594000000000000E10    9.409390040673316E-4   6.951496470719576E-4  
 2.596000000000000E10    1.787582441465929E-4  -5.478882230818272E-4  
 2.598000000000000E10   -4.553183680400252E-4  -2.244869392598048E-4  
 2.600000000000000E10   -1.040667761117220E-3   5.283997961669229E-5  
 2.602000000000000E10    8.999315468827263E-5   9.594021830707789E-4  
 2.604000000000000E10    8.277440210804343E-4   1.607778976904228E-4  
 2.606000000000000E10    4.153954796493053E-4  -1.142950844950974E-3  
 2.608000000000000E10   -1.068022917024791E-3  -4.471652209758759E-4  
 2.610000000000000E10   -5.331587162800133E-4   1.072246232070029E-3  
 2.612000000000000E10    7.818533922545612E-4   8.952756761573255E-4  
 2.614000000000000E10    7.254974334500730E-4  -5.752159049734473E-4  
 2.616000000000000E10   -4.561707901302725E-4  -6.725422572344542E-4  
 2.618000000000000E10   -9.051250526681542E-4   2.137774135917425E-4  
 2.620000000000000E10   -3.148386022076011E-4   7.108772988431156E-4  
 2.622000000000000E10    7.896818569861352E-4   4.740935401059687E-4  
 2.624000000000000E10    7.123012328520417E-4  -5.450290045700967E-4  
 2.626000000000000E10   -4.574625636450946E-4  -3.238742356188595E-4  
 2.628000000000000E10   -7.841750048100948E-4   4.323322500567883E-4  
 2.630000000000000E10   -3.781507257372141E-5   6.852528313174844E-4  
 2.632000000000000E10    7.328555802814663E-4  -3.039753437406034E-6  
 2.634000000000000E10    3.672923048725352E-5  -3.184328961651772E-4  
 2.636000000000000E10   -4.526778357103467E-4  -3.782257845159620E-4  
 2.638000000000000E10   -5.253416020423174E-4   4.759622970595956E-4  
 2.640000000000000E10    3.223309759050608E-4   5.364223034121096E-4  
 2.642000000000000E10    3.226519329473376E-4  -9.951838728738949E-5  
 2.644000000000000E10   -5.904473800910637E-5  -5.437578656710684E-4  
 2.646000000000000E10   -7.683228468522430E-4  -4.803067349712364E-5  
 2.648000000000000E10   -2.928360481746495E-4   4.964062245562673E-4  
 2.650000000000000E10   -4.704128878074698E-5   1.615331566426903E-4  
 2.652000000000000E10    2.206263598054647E-4  -4.061391227878630E-4  
 2.654000000000000E10   -2.315629826625809E-4   1.512905582785606E-4  
 2.656000000000000E10   -2.942766286651022E-6  -3.047120699193329E-4  
 2.658000000000000E10   -3.441189473960549E-4   2.682091726455838E-4  
 2.660000000000000E10   -2.992884255945683E-4   4.980047815479338E-4  
 2.662000000000000E10    4.045568348374218E-4   6.905574700795114E-4  
 2.664000000000000E10    2.587331982795149E-4  -3.707165888044983E-4  
 2.666000000000000E10   -5.020136013627052E-4  -4.131800378672779E-4  
 2.668000000000000E10   -7.348399958573282E-4   4.915627650916576E-4  
 2.670000000000000E10    1.035733512253501E-4   7.430547266267240E-4  
 2.672000000000000E10    6.613801815547049E-4   1.106088602682576E-4  
 2.674000000000000E10    4.675435411627404E-5  -7.998245419003069E-4  
 2.676000000000000E10   -6.069114897400141E-4   3.286502396804281E-5  
 2.678000000000000E10   -6.244789110496640E-4   7.338731084018946E-4  
 2.680000000000000E10    5.281544290482998E-4   5.619184812530875E-4  
 2.682000000000000E10    6.536298897117376E-4  -1.298226125072688E-4  
 2.684000000000000E10   -1.416981740476331E-5  -7.312720990739763E-4  
 2.686000000000000E10   -5.255001597106457E-4  -2.429517771815881E-4  
 2.688000000000000E10   -1.823049533413723E-4   1.086300122551620E-3  
 2.690000000000000E10    7.157635991461575E-4   5.151735385879874E-4  
 2.692000000000000E10    8.905455470085144E-4  -1.550878223497421E-4  
 2.694000000000000E10   -2.764478849712759E-4  -7.419543107971549E-4  
 2.696000000000000E10   -9.832157520577312E-4   1.659705303609371E-4  
 2.698000000000000E10   -3.481441235635430E-4   1.035055727697909E-3  
 2.700000000000000E10    1.320488634519279E-3   4.791905230376869E-4  
 2.702000000000000E10    4.052456060890108E-4  -1.271081157028675E-3  
 2.704000000000000E10   -1.040220726281405E-3  -9.942047763615847E-4  
 2.706000000000000E10   -8.191841770894826E-4   1.016326597891748E-3  
 2.708000000000000E10    4.320879816077650E-4   9.880029829218984E-4  
 2.710000000000000E10    1.288048224523664E-3  -7.778974832035601E-4  
 2.712000000000000E10   -2.604074870760087E-5  -8.437184733338654E-4  
 2.714000000000000E10   -9.559819009155035E-4  -8.496458758600056E-5  
 2.716000000000000E10   -2.559372223913670E-4   9.012307855300605E-4  
 2.718000000000000E10    5.286189261823893E-4   4.382438783068210E-4  
 2.720000000000000E10    5.282350466586649E-4  -7.310077198781073E-4  
 2.722000000000000E10    8.795731991995126E-5  -7.190330652520061E-4  
 2.724000000000000E10   -9.706824785098434E-4   2.901464758906514E-4  
 2.726000000000000E10    2.446303369652014E-5   6.088152877055109E-4  
 2.728000000000000E10    7.409239769913256E-4   5.114166415296495E-4  
 2.730000000000000E10    3.484941844362766E-4  -8.033929625526071E-4  
 2.732000000000000E10   -4.583253466989845E-4  -8.740518242120743E-4  
 2.734000000000000E10   -6.132530979812145E-4   7.718627603026107E-5  
 2.736000000000000E10   -1.181917250505649E-4   8.806479745544493E-4  
 2.738000000000000E10    1.046636840328574E-3   2.444526180624962E-4  
 2.740000000000000E10    2.399133081780747E-4  -7.029250846244395E-4  
 2.742000000000000E10   -7.500159554183483E-4  -5.157723790034652E-4  
 2.744000000000000E10   -3.774774377234280E-4   5.063893622718751E-4  
 2.746000000000000E10    8.073559001786634E-5   5.203089676797390E-4  
 2.748000000000000E10    7.132383179850876E-4  -4.698174307122827E-4  
 2.750000000000000E10    3.787933092098683E-4  -2.901445841416717E-4  
 2.752000000000000E10   -6.780658732168376E-4  -5.240138852968812E-4  
 2.754000000000000E10   -2.996013790834695E-4   4.699359706137329E-4  
 2.756000000000000E10    4.638976824935526E-4   1.021042698994279E-3  
