#  HZ   S   RI   R     50.00 
! Rohde & Schwarz ZVA40 4Ports - Version 3.90 - 1145.1110k42 SN: 100403
! Date: 2023-10-04 11:26:54
! Measurement: S12 
! 
 2.200000000000000E10    2.970265086332802E-5   3.663038296508603E-5  
 2.202000000000000E10   -2.093515649903566E-4   5.755336023867130E-4  
 2.204000000000000E10    3.184925008099526E-4  -5.404319017543457E-5  
 2.206000000000000E10    2.864434791263193E-4  -1.299960422329605E-4  
 2.208000000000000E10    2.674396382644773E-4  -9.533636621199548E-4  
 2.210000000000000E10   -8.397959754802287E-5   2.487399615347385E-4  
 2.212000000000000E10    2.470491454005241E-4   1.275809918297455E-4  
 2.214000000000000E10    1.218460267409682E-3  -5.470923497341573E-5  
 2.216000000000000E10   -4.537628556136042E-4  -4.470006097108126E-4  
 2.218000000000000E10   -1.575904898345470E-4   9.605386730981991E-5  
 2.220000000000000E10    1.989247248275206E-4   3.422977169975638E-4  
 2.222000000000000E10   -1.143264016718604E-4  -6.667085108347237E-4  
 2.224000000000000E10    1.998091756831855E-4   1.325011835433543E-4  
 2.226000000000000E10    4.219502443447709E-6  -4.795609856955707E-4  
 2.228000000000000E10    2.295439189765602E-4  -1.634001237107441E-4  
 2.230000000000000E10   -3.076156426686794E-4  -3.649300488177687E-4  
 2.232000000000000E10    5.825586267746985E-4   4.097525670658797E-4  
 2.234000000000000E10   -1.565767743159086E-4   5.689607860404067E-5  
 2.236000000000000E10    9.971058898372576E-5  -4.232459832564928E-5  
 2.238000000000000E10   -4.152764158789069E-4   4.472672299016267E-4  
 2.240000000000000E10    2.866365539375693E-4  -2.827327698469162E-4  
 2.242000000000000E10   -4.373297269921750E-4   4.424317921802867E-6  
 2.244000000000000E10   -3.645339529612102E-5  -3.035763802472502E-4  
 2.246000000000000E10    8.483551937388256E-5  -3.136861778330058E-5  
 2.248000000000000E10    8.144358787376405E-8  -4.262227448634803E-4  
 2.250000000000000E10   -2.371938608121127E-4   6.246646080398932E-5  
 2.252000000000000E10   -1.872993161669001E-4   3.627956903073937E-4  
 2.254000000000000E10   -7.190456381067634E-5   4.953851021127775E-5  
 2.256000000000000E10   -7.099492358975112E-5   2.051685150945559E-4  
 2.258000000000000E10   -3.108888922724873E-4  -4.392043920233846E-4  
 2.260000000000000E10   -6.341930711641908E-4  -2.224243507953361E-5  
 2.262000000000000E10   -4.161336401011795E-4   1.824192440835759E-4  
 2.264000000000000E10    5.037253140471876E-4   7.113765459507704E-4  
 2.266000000000000E10    5.851240712217987E-5  -5.772540462203324E-4  
 2.268000000000000E10   -5.102578434161842E-4  -1.125647031585686E-4  
 2.270000000000000E10   -8.128238841891289E-4   7.296585245057941E-4  
 2.272000000000000E10    2.193896652897820E-4   4.478893533814699E-4  
 2.274000000000000E10    1.467617403250188E-4  -2.808120334520936E-4  
 2.276000000000000E10   -4.908327828161418E-4  -8.415643242187798E-5  
 2.278000000000000E10   -6.946927169337869E-4  -2.315135934622958E-4  
 2.280000000000000E10   -1.515470212325454E-4   3.451243683230132E-4  
 2.282000000000000E10   -1.798507437342778E-4   5.988253396935761E-4  
 2.284000000000000E10    4.949001595377922E-4  -5.321604548953474E-4  
 2.286000000000000E10    2.040280814981088E-4  -4.698206030298024E-4  
 2.288000000000000E10   -9.178133914247155E-4   4.880279302597046E-4  
 2.290000000000000E10   -8.608266944065690E-5   8.353251614607871E-4  
 2.292000000000000E10    3.159052866976708E-4   5.415007472038269E-4  
 2.294000000000000E10   -9.131714614341036E-5  -1.564827689435333E-4  
 2.296000000000000E10   -7.632102933712304E-4  -2.653153496794403E-4  
 2.298000000000000E10   -3.020422300323844E-4   3.116563675575890E-5  
 2.300000000000000E10   -7.572895810881164E-6   7.585959392599762E-4  
 2.302000000000000E10    7.269261986948550E-4  -1.807422231649980E-4  
 2.304000000000000E10    5.022091791033745E-4  -1.251753274118528E-4  
 2.306000000000000E10   -6.470751832239330E-4  -1.215642168972408E-5  
 2.308000000000000E10   -3.000758588314056E-4   7.068754057399929E-4  
 2.310000000000000E10    1.334385888185352E-5   8.223784971050918E-4  
 2.312000000000000E10    3.336453664815053E-5  -2.688645618036389E-4  
 2.314000000000000E10    4.113415707251988E-5  -1.600416580913588E-4  
 2.316000000000000E10   -6.192984874360263E-4  -4.265936149749905E-4  
 2.318000000000000E10   -5.302199278958142E-4   3.325559955555946E-4  
 2.320000000000000E10    9.168670658254996E-5   9.052549721673131E-4  
 2.322000000000000E10    8.827037527225912E-4  -3.659217327367514E-4  
 2.324000000000000E10   -4.637532401829958E-4  -3.053674590773881E-4  
 2.326000000000000E10   -3.967068914789707E-4   4.424011567607522E-4  
 2.328000000000000E10   -4.563181719277054E-4   9.801571723073721E-4  
 2.330000000000000E10    4.537219356279820E-4  -5.773706288891845E-5  
 2.332000000000000E10    2.210587626905181E-5  -2.508797915652394E-4  
 2.334000000000000E10   -6.375166703946888E-4  -2.787958364933729E-4  
 2.336000000000000E10    8.458949196210597E-6   3.928442311007530E-4  
 2.338000000000000E10    1.087539840227692E-5   8.778807241469622E-4  
 2.340000000000000E10    4.942071391269565E-4   2.968703920487315E-4  
 2.342000000000000E10    6.204565288498998E-4   5.441082976176404E-5  
 2.344000000000000E10   -6.063015316613019E-4   3.270740271545947E-4  
 2.346000000000000E10   -2.775611064862460E-4   3.520561149343848E-4  
 2.348000000000000E10    2.285633381688967E-4   6.999556208029389E-4  
 2.350000000000000E10    3.146894450765103E-4   5.537177275982685E-5  
 2.352000000000000E10    4.802359326276928E-4  -3.189849958289415E-4  
 2.354000000000000E10   -2.418746589682996E-4   1.176542209577747E-4  
 2.356000000000000E10   -2.217846340499818E-4   1.696715771686286E-4  
 2.358000000000000E10    6.344246794469655E-4   8.401101804338396E-4  
 2.360000000000000E10    5.478748353198171E-4  -1.076684711733833E-4  
 2.362000000000000E10    6.890295480843633E-5  -4.584902490023524E-4  
 2.364000000000000E10   -5.336445756256580E-4   6.092451440053992E-5  
 2.366000000000000E10    1.042196890921332E-4   3.113637212663889E-4  
 2.368000000000000E10    2.236346626887098E-4   3.223860985599458E-4  
 2.370000000000000E10    5.015766946598887E-4   1.460758503526449E-4  
 2.372000000000000E10    2.212466351920739E-4   4.540204099612311E-5  
 2.374000000000000E10   -3.493961703497917E-4  -3.177885082550347E-4  
 2.376000000000000E10   -4.006509261671454E-4   4.575437633320689E-4  
 2.378000000000000E10    3.512594557832927E-4   8.444423438049853E-4  
 2.380000000000000E10    9.946580976247788E-4  -6.857561529614031E-4  
 2.382000000000000E10   -3.597082977648825E-4  -7.572422036901116E-4  
 2.384000000000000E10   -6.270293961279094E-4   2.660819445736706E-4  
 2.386000000000000E10    4.553088219836354E-4   1.017377362586558E-3  
 2.388000000000000E10    8.132582297548652E-4  -3.452902892604470E-4  
 2.390000000000000E10    2.991612418554723E-4  -2.935287484433502E-4  
 2.392000000000000E10   -3.813166695181280E-4  -2.503373834770173E-4  
 2.394000000000000E10   -4.280371358618140E-4   1.207963759952691E-5  
 2.396000000000000E10    1.385386131005362E-4   3.060330345761031E-4  
 2.398000000000000E10    6.429810309782624E-4   4.638458995032124E-5  
 2.400000000000000E10    3.043784818146378E-4  -9.760672692209482E-4  
 2.402000000000000E10   -5.788029520772398E-4  -4.485041426960379E-4  
 2.404000000000000E10   -4.596114158630371E-4   2.310959825990722E-4  
 2.406000000000000E10    4.242478753440082E-4   6.128757377155125E-4  
 2.408000000000000E10    1.125663751736283E-3  -5.041856202296913E-4  
 2.410000000000000E10   -3.234689938835800E-4  -1.032316125929356E-3  
 2.412000000000000E10   -8.944230503402650E-4  -3.242678358219564E-4  
 2.414000000000000E10   -4.612614793586545E-5   1.236371812410653E-3  
 2.416000000000000E10    7.678061374463141E-4   3.811217538896017E-5  
 2.418000000000000E10    6.185810780152679E-4  -8.242681506089866E-4  
 2.420000000000000E10   -1.000362564809620E-3  -6.696499767713249E-4  
 2.422000000000000E10   -5.781251238659024E-4   3.930381790269166E-4  
 2.424000000000000E10    2.461675903759897E-4   2.418678777758032E-4  
 2.426000000000000E10    5.412836326286197E-4  -5.189338698983192E-4  
 2.428000000000000E10    3.429295029491186E-4  -3.108862729277462E-4  
 2.430000000000000E10   -2.145361795555800E-4  -2.190956292906776E-4  
 2.432000000000000E10   -5.818814388476312E-4   1.465291570639238E-4  
 2.434000000000000E10   -2.270016375405248E-5   8.341747452504933E-4  
 2.436000000000000E10    8.145957253873348E-4   7.998792716534808E-5  
 2.438000000000000E10    4.648488811653806E-6  -1.100566820241511E-3  
 2.440000000000000E10   -6.888238713145256E-4  -1.735134428599849E-4  
 2.442000000000000E10   -8.134751697070897E-4   5.221628234721720E-4  
 2.444000000000000E10    1.130391494370997E-3   3.031011146958917E-4  
 2.446000000000000E10    3.754234348889440E-4  -5.754451267421246E-4  
 2.448000000000000E10    4.241596252541058E-5  -6.987380911596119E-4  
 2.450000000000000E10   -6.222702795639634E-4   4.790569073520601E-5  
 2.452000000000000E10   -4.224759322823957E-6   1.756706624291837E-4  
 2.454000000000000E10    1.462524814996868E-4   2.870520984288305E-4  
 2.456000000000000E10    1.177678677777294E-5  -7.371473475359380E-4  
 2.458000000000000E10   -2.578026033006609E-4  -3.535619471222162E-4  
 2.460000000000000E10   -3.475025005172938E-4  -1.013019718811847E-4  
 2.462000000000000E10   -2.408222280791961E-5   1.968050200957805E-4  
 2.464000000000000E10    4.909368362859823E-5   3.965896612498909E-4  
 2.466000000000000E10    6.201786454766989E-4  -8.665371751703788E-6  
 2.468000000000000E10    5.302059435052797E-5   8.959405386121944E-5  
 2.470000000000000E10   -6.392754730768502E-4  -2.494261716492474E-4  
 2.472000000000000E10   -3.871892986353487E-4   1.431831391528249E-3  
 2.474000000000000E10    3.863649326376617E-4   3.758583916351199E-4  
 2.476000000000000E10    2.927300229202956E-4  -4.410123219713569E-4  
 2.478000000000000E10   -6.572820711880922E-4  -7.774336263537407E-4  
 2.480000000000000E10   -1.106621493818238E-4   4.401896439958364E-4  
 2.482000000000000E10    3.314822242828086E-5   4.307229537516832E-4  
 2.484000000000000E10    7.303447346203029E-4   2.984875172842294E-4  
 2.486000000000000E10    1.359558227704838E-4   7.511164585594088E-5  
 2.488000000000000E10   -3.316563379485160E-4  -4.890278214588761E-4  
 2.490000000000000E10   -5.419023218564689E-4   7.436356972903013E-4  
 2.492000000000000E10   -8.751765562919900E-5   8.277621818706393E-4  
 2.494000000000000E10    8.323301444761455E-4  -3.297326111351140E-5  
 2.496000000000000E10    1.448078546673060E-4  -9.846594184637070E-4  
 2.498000000000000E10   -5.780898500233889E-4  -2.305230154888704E-4  
 2.500000000000000E10   -5.572822410613298E-4   4.793865373358131E-4  
 2.502000000000000E10    1.107344753108919E-3   7.839540485292673E-4  
 2.504000000000000E10    6.038580904714763E-4   3.083332558162510E-4  
 2.506000000000000E10    1.292503147851676E-4  -5.379024660214782E-4  
 2.508000000000000E10   -9.518130100332201E-4   1.803691848181188E-4  
 2.510000000000000E10   -3.729293239302933E-4   9.933710098266602E-4  
 2.512000000000000E10    5.796268233098090E-4   5.904780700802803E-4  
 2.514000000000000E10    6.839341367594898E-4  -6.695901392959058E-4  
 2.516000000000000E10   -3.441660664975643E-4  -6.935841520316899E-4  
 2.518000000000000E10   -5.088800680823624E-4   5.113657607580535E-5  
 2.520000000000000E10    3.170100098941475E-4   1.222154474817216E-3  
 2.522000000000000E10    9.984995704144239E-4   2.611851668916643E-4  
 2.524000000000000E10    6.235420005396009E-4  -4.095777985639870E-4  
 2.526000000000000E10   -5.641694879159331E-4  -2.852626494131982E-4  
 2.528000000000000E10   -1.049399725161493E-3   3.658380883280188E-4  
 2.530000000000000E10    5.159830325283110E-4   7.698304834775627E-4  
 2.532000000000000E10    9.219569037668407E-4   2.541484136600047E-4  
 2.534000000000000E10    1.909254788188264E-4  -1.213779556564987E-3  
 2.536000000000000E10   -8.060861146077514E-4  -2.375685871811584E-4  
 2.538000000000000E10   -3.174007870256901E-4   1.181145664304495E-3  
 2.540000000000000E10    9.968683589249849E-4   7.253752555698156E-4  
 2.542000000000000E10    9.023708989843726E-4  -2.333296433789656E-4  
 2.544000000000000E10   -3.810699563473463E-4  -6.153047434054315E-4  
 2.546000000000000E10   -7.935477187857032E-4   3.316153306514025E-4  
 2.548000000000000E10    1.158843042503577E-5   1.018709735944867E-3  
 2.550000000000000E10    9.620396886020899E-4   3.451911034062505E-4  
 2.552000000000000E10    4.098397403140552E-5  -9.974116692319512E-4  
 2.554000000000000E10   -5.179977742955089E-4   9.671744010120165E-6  
 2.556000000000000E10   -3.262726822867990E-4   4.658647812902927E-4  
 2.558000000000000E10    4.636771045625210E-4   3.964922798331827E-4  
 2.560000000000000E10    1.183981585199945E-4   6.972405390115455E-5  
 2.562000000000000E10    4.884325317107141E-4  -1.982054527616128E-4  
 2.564000000000000E10   -5.092579522170126E-4  -2.388605498708785E-4  
 2.566000000000000E10   -5.665261996909976E-4   3.516145516186953E-4  
 2.568000000000000E10    1.389669196214527E-4   4.258021945133805E-4  
 2.570000000000000E10    8.419204968959093E-4   3.272914909757674E-5  
 2.572000000000000E10   -1.040074203046970E-4  -7.312887464649975E-4  
 2.574000000000000E10   -4.659357946366072E-4  -1.381907495670021E-4  
 2.576000000000000E10   -5.049572791904211E-5   4.232423671055585E-4  
 2.578000000000000E10    7.518192287534475E-4   2.530151687096804E-4  
 2.580000000000000E10    2.458486414980143E-4  -2.162028831662610E-4  
 2.582000000000000E10    2.199646987719461E-4  -2.746429163380526E-5  
 2.584000000000000E10   -7.328880542445404E-7   5.284338112687692E-5  
 2.586000000000000E10    6.114490815889440E-7   6.186383689055219E-5  
 2.588000000000000E10   -5.363298623706214E-5   5.395946209318936E-4  
 2.590000000000000E10    6.433043163269758E-4   1.618710521142930E-4  
 2.592000000000000E10    4.505779652390629E-4  -2.004662674153224E-4  
 2.594000000000000E10   -7.724402821622789E-4  -3.360658301971853E-4  
 2.596000000000000E10   -6.023967871442437E-4   7.287819753400981E-4  
 2.598000000000000E10    3.056393470615149E-4   6.288098520599306E-4  
 2.600000000000000E10    9.687939891591668E-4  -2.613971882965416E-4  
 2.602000000000000E10   -1.027922335197218E-4  -7.995475316420198E-4  
 2.604000000000000E10   -8.055206853896380E-4   4.540067311609164E-5  
 2.606000000000000E10   -4.335960838943720E-4   1.284808502532542E-3  
 2.608000000000000E10    1.024334924295545E-3   2.088276960421354E-4  
 2.610000000000000E10    3.389658231753856E-4  -1.041108160279691E-3  
 2.612000000000000E10   -5.894770147278905E-4  -7.582842954434454E-4  
 2.614000000000000E10   -5.414644256234169E-4   1.004174584522843E-3  
 2.616000000000000E10    1.189864415209740E-4   3.845048777293414E-4  
 2.618000000000000E10    4.959793877787888E-4   4.152926849201322E-4  
 2.620000000000000E10    1.608265738468617E-4  -8.539453847333789E-4  
 2.622000000000000E10   -5.330833373591304E-4  -5.595278344117105E-4  
 2.624000000000000E10   -7.333626272156835E-4   3.825845778919756E-4  
 2.626000000000000E10    7.548101129941642E-4   1.002570148557425E-3  
 2.628000000000000E10    1.046627992764115E-3  -5.236939177848399E-4  
 2.630000000000000E10    1.106410854845308E-4  -9.685225086286664E-4  
 2.632000000000000E10   -9.493346442468464E-4  -1.754875265760347E-4  
 2.634000000000000E10    1.910162100102752E-4   9.871264919638634E-4  
 2.636000000000000E10    7.316259434446693E-4   2.830629236996174E-4  
 2.638000000000000E10    7.647689781151712E-4  -7.612970657646656E-4  
 2.640000000000000E10   -3.250523877795786E-4  -4.990871530026197E-4  
 2.642000000000000E10   -5.709505057893693E-4  -4.273444119462511E-6  
 2.644000000000000E10    5.060228868387640E-4   7.054626476019621E-4  
 2.646000000000000E10    8.287358214147389E-4   1.691552461124957E-4  
 2.648000000000000E10    4.518603673204780E-4  -6.578441825695336E-4  
 2.650000000000000E10   -3.744800924323499E-4  -1.300570293096826E-4  
 2.652000000000000E10   -1.195030999951996E-4   3.455380792729557E-4  
 2.654000000000000E10    2.851772296708077E-4   1.835705043049529E-4  
 2.656000000000000E10    5.922220880165696E-4   4.877867831964977E-5  
 2.658000000000000E10    2.127696352545172E-4  -2.997190749738365E-4  
 2.660000000000000E10   -2.128909254679456E-4  -4.300624132156372E-4  
 2.662000000000000E10   -5.237606819719076E-4   1.669852354098111E-4  
 2.664000000000000E10    2.731019922066480E-4   3.210624854546040E-4  
 2.666000000000000E10    6.138415192253888E-4   3.435619510128163E-5  
 2.668000000000000E10    2.118897391483188E-4  -4.920956562273204E-4  
 2.670000000000000E10   -5.137848784215748E-4  -3.722983237821609E-4  
 2.672000000000000E10   -1.215151351061650E-4   1.081543814507313E-4  
 2.674000000000000E10    9.509656956652179E-5   2.466969017405063E-4  
 2.676000000000000E10    5.380968214012682E-4   7.290084613487124E-5  
 2.678000000000000E10    3.120245237369090E-4  -4.461736534722149E-4  
 2.680000000000000E10    6.067803769838065E-5  -5.818963982164860E-4  
 2.682000000000000E10   -6.726218271069229E-4   3.237887867726386E-4  
 2.684000000000000E10    2.670065441634506E-4   6.935900892131031E-4  
 2.686000000000000E10    7.572663598693907E-4   4.394648130983114E-4  
 2.688000000000000E10   -7.123349496396259E-5  -8.701398619450629E-4  
 2.690000000000000E10   -6.090036476962268E-4  -5.271740956231952E-4  
 2.692000000000000E10   -7.182615227065980E-4   7.704866002313793E-4  
 2.694000000000000E10    4.974241601303220E-4   4.648549074772745E-4  
 2.696000000000000E10    1.097670057788491E-3  -3.358718240633607E-4  
 2.698000000000000E10   -1.568019506521523E-4  -9.643850498832762E-4  
 2.700000000000000E10   -1.160384621471167E-3   3.089218807872385E-5  
 2.702000000000000E10   -3.026215126737952E-4   1.054360414855182E-3  
 2.704000000000000E10    1.328377402387559E-3   7.729986682534218E-4  
 2.706000000000000E10    5.064929719083011E-4  -1.185187255032361E-3  
 2.708000000000000E10   -5.830564186908305E-4  -8.827776764519513E-4  
 2.710000000000000E10   -9.845498716458678E-4   4.220574628561735E-4  
 2.712000000000000E10    3.816885000560433E-4   9.685223340056837E-4  
 2.714000000000000E10    1.099012792110443E-3  -4.199319300823845E-5  
 2.716000000000000E10    3.920368908438832E-4  -9.164968505501747E-4  
 2.718000000000000E10   -9.199454216286540E-4  -6.604342488572002E-4  
 2.720000000000000E10   -8.534499793313444E-4   8.609005017206073E-4  
 2.722000000000000E10    4.441646160557866E-4   1.108289114199579E-3  
 2.724000000000000E10    1.215924625284970E-3  -7.040153141133487E-4  
 2.726000000000000E10   -1.180323088192381E-4  -8.347196271643043E-4  
 2.728000000000000E10   -1.068233978003264E-3  -1.459552877349779E-4  
 2.730000000000000E10   -2.062195126200095E-4   9.498569997958839E-4  
 2.732000000000000E10    1.002313219942153E-3   6.279083900153637E-4  
 2.734000000000000E10    5.430363817140460E-4  -8.660891326144338E-4  
 2.736000000000000E10   -5.315441521815956E-4  -6.513743428513408E-4  
 2.738000000000000E10   -8.607826312072575E-4   6.186558166518807E-4  
 2.740000000000000E10    1.046283578034490E-4   8.843867108225822E-4  
 2.742000000000000E10    1.306105521507561E-3   2.839255612343550E-4  
 2.744000000000000E10   -6.222625961527228E-5  -8.993985247798264E-4  
 2.746000000000000E10   -1.824782957555726E-4  -6.036458653397858E-4  
 2.748000000000000E10   -6.066518835723400E-4   9.067581850104034E-4  
 2.750000000000000E10    1.720797299640253E-4   4.462806973606348E-4  
 2.752000000000000E10    8.333242149092257E-4  -9.826054883887991E-5  
 2.754000000000000E10    2.483615535311401E-4  -6.509951781481504E-4  
 2.756000000000000E10   -5.110762431286275E-4  -4.769108491018415E-4  
