#  HZ   S   RI   R     50.00 
! Rohde & Schwarz ZVA40 4Ports - Version 3.90 - 1145.1110k42 SN: 100403
! Date: 2023-10-04 11:26:36
! Measurement: S12 
! 
 2.200000000000000E10    1.050418941304088E-4   3.105412906734273E-5  
 2.202000000000000E10    5.678462912328541E-4   1.842197234509513E-4  
 2.204000000000000E10    4.546408308669925E-4  -5.486459704115987E-4  
 2.206000000000000E10   -1.963346876436845E-4  -6.169096450321376E-4  
 2.208000000000000E10   -2.902172564063221E-4   2.248901873826981E-4  
 2.210000000000000E10    7.787008653394878E-4   8.101061102934182E-4  
 2.212000000000000E10    6.128640379756689E-4  -4.303564201109111E-4  
 2.214000000000000E10   -3.615911700762808E-4  -4.457862814888358E-4  
 2.216000000000000E10   -2.568699710536748E-4   3.057407157029957E-4  
 2.218000000000000E10   -2.594924444565550E-5   4.578569496516138E-4  
 2.220000000000000E10    3.852314257528633E-4  -9.418454283149913E-5  
 2.222000000000000E10   -2.448063605697826E-5  -4.550715093500912E-4  
 2.224000000000000E10   -2.728761464823037E-4  -1.675827807048336E-4  
 2.226000000000000E10    1.977872743736953E-4  -5.297594179864973E-5  
 2.228000000000000E10    1.865723170340061E-4  -2.738713919825386E-5  
 2.230000000000000E10    1.871207496151328E-4  -2.437916191411205E-5  
 2.232000000000000E10    4.019484622403979E-4  -3.281785757280886E-5  
 2.234000000000000E10    1.675552193773910E-4  -3.392213839106262E-4  
 2.236000000000000E10   -5.207196227274835E-4   5.966301978332922E-5  
 2.238000000000000E10   -2.659986203070730E-4   4.634255601558834E-4  
 2.240000000000000E10    5.673518171533942E-4   3.283621845184825E-5  
 2.242000000000000E10    2.546506293583661E-4  -8.248164667747915E-4  
 2.244000000000000E10   -8.245364297181368E-4  -3.609702689573169E-4  
 2.246000000000000E10   -1.991554890992120E-4   5.696803564205766E-4  
 2.248000000000000E10    4.194705688860267E-4   6.284259143285453E-4  
 2.250000000000000E10    1.835890288930386E-4  -7.467064424417913E-4  
 2.252000000000000E10   -6.874545360915363E-4  -3.383094153832644E-4  
 2.254000000000000E10   -5.401202943176031E-4   4.170522151980549E-4  
 2.256000000000000E10    3.816609969362617E-4   2.322989021195099E-4  
 2.258000000000000E10    8.042019908316433E-5  -1.942152302945033E-4  
 2.260000000000000E10   -3.232496674172580E-4  -3.438352723605931E-4  
 2.262000000000000E10   -3.645139076979831E-5   2.271702214784455E-5  
 2.264000000000000E10    8.962857828009874E-5  -4.050637653563172E-4  
 2.266000000000000E10   -1.870243431767449E-4   2.477973175700754E-4  
 2.268000000000000E10   -3.348598838783801E-4   5.647915531881154E-4  
 2.270000000000000E10    3.267007414251566E-4  -1.208008507092018E-5  
 2.272000000000000E10   -2.904909779317677E-4  -7.426175579894334E-5  
 2.274000000000000E10   -8.301751222461462E-4  -3.320978721603751E-4  
 2.276000000000000E10    1.527214044472203E-4   4.410110414028168E-4  
 2.278000000000000E10   -2.119519740517717E-5   1.573517074575648E-4  
 2.280000000000000E10   -5.725334267481230E-5  -8.251222316175699E-4  
 2.282000000000000E10   -2.413468173472211E-4  -1.934291067300364E-4  
 2.284000000000000E10   -3.592001157812774E-4   1.267246552743018E-4  
 2.286000000000000E10    1.866253296611831E-4  -9.704657486508950E-7  
 2.288000000000000E10   -8.707148663233966E-5   1.478546328144148E-4  
 2.290000000000000E10   -5.804625106975436E-5  -1.013002565741772E-5  
 2.292000000000000E10   -5.752618744736537E-5  -1.934450556291267E-4  
 2.294000000000000E10   -2.287514071213082E-4  -8.791977597866207E-5  
 2.296000000000000E10   -3.933802945539355E-4   1.845127699198201E-4  
 2.298000000000000E10    5.914770299568772E-4   3.372694773133844E-4  
 2.300000000000000E10    3.298642404843122E-4  -6.306279101409018E-5  
 2.302000000000000E10   -6.436952971853316E-4  -4.604096175171435E-4  
 2.304000000000000E10   -5.817781202495098E-4   3.262838581576943E-4  
 2.306000000000000E10    7.538165664300323E-5   4.981898819096386E-4  
 2.308000000000000E10    4.122294194530696E-4   1.809605055314023E-5  
 2.310000000000000E10   -2.665364590939134E-4  -5.725699011236429E-4  
 2.312000000000000E10   -7.835921715013683E-4   1.069129939423874E-4  
 2.314000000000000E10   -3.999475156888366E-4   5.157817213330418E-5  
 2.316000000000000E10    7.594930357299745E-4   1.240856072399765E-4  
 2.318000000000000E10   -1.563013065606356E-4  -4.101511731278151E-4  
 2.320000000000000E10   -1.542124227853492E-4  -4.276401305105537E-4  
 2.322000000000000E10   -1.623049502086360E-5   1.121644436352653E-5  
 2.324000000000000E10   -5.385820986703038E-4   2.511405000404920E-5  
 2.326000000000000E10   -1.402266934746876E-5   7.739214925095439E-4  
 2.328000000000000E10    3.174197336193174E-4   4.216029992676340E-5  
 2.330000000000000E10   -1.222502323798835E-4  -5.243166233412921E-4  
 2.332000000000000E10   -9.559233440086246E-4   2.739607771218289E-5  
 2.334000000000000E10   -2.569978241808713E-4   8.079444523900747E-4  
 2.336000000000000E10    8.079205290414393E-4   3.802830760832876E-4  
 2.338000000000000E10    3.589864063542336E-4  -5.283282953314483E-4  
 2.340000000000000E10   -1.123328926041722E-3  -7.241068669827655E-5  
 2.342000000000000E10   -5.305800004862249E-4   7.213777862489224E-4  
 2.344000000000000E10    4.819555324502289E-4   5.818782374262810E-4  
 2.346000000000000E10    3.347881720401347E-4  -1.882760843727738E-4  
 2.348000000000000E10   -9.889473585644737E-5  -5.651571700582281E-5  
 2.350000000000000E10   -4.580951062962413E-4   3.458345599938184E-4  
 2.352000000000000E10   -3.422651207074523E-4   2.286240778630599E-4  
 2.354000000000000E10    9.956816211342812E-5   7.358978036791086E-4  
 2.356000000000000E10    1.565997954457998E-4   1.939845969900489E-5  
 2.358000000000000E10    2.751949359662831E-4  -6.786159356124699E-4  
 2.360000000000000E10   -5.147788906469941E-4  -8.200498996302486E-5  
 2.362000000000000E10   -3.852371301036328E-4   9.468876523897052E-4  
 2.364000000000000E10    8.627481875009835E-4   5.854758201166987E-4  
 2.366000000000000E10    8.374807657673955E-4  -4.570186429191381E-4  
 2.368000000000000E10   -6.084861815907061E-4  -3.624908276833594E-4  
 2.370000000000000E10   -8.427847060374916E-4   9.790319018065929E-4  
 2.372000000000000E10    2.850951859727502E-4   9.871399961411953E-4  
 2.374000000000000E10    6.351652555167675E-4  -2.361554361414164E-4  
 2.376000000000000E10   -2.658317098394036E-4  -8.409075671806932E-4  
 2.378000000000000E10   -4.850620171055198E-4   9.726162534207106E-5  
 2.380000000000000E10   -5.946225428488106E-5   4.967731074430049E-4  
 2.382000000000000E10    4.951136070303619E-4   2.213290135841817E-4  
 2.384000000000000E10    2.395108167547733E-4   9.236393816536292E-5  
 2.386000000000000E10    2.146229089703411E-4  -2.847850555554032E-4  
 2.388000000000000E10   -2.194917033193633E-4  -4.266876203473657E-5  
 2.390000000000000E10   -7.712429214734584E-5   4.142583929933608E-4  
 2.392000000000000E10    4.673633957281709E-4   8.489557076245546E-4  
 2.394000000000000E10    4.746601916849613E-4  -1.657214161241427E-4  
 2.396000000000000E10   -1.667732140049338E-4  -6.775218644179404E-4  
 2.398000000000000E10   -3.656296175904572E-4   2.740047639235854E-4  
 2.400000000000000E10    1.489097630837932E-4   7.490802672691643E-4  
 2.402000000000000E10    8.390118600800633E-4   2.168657811125740E-4  
 2.404000000000000E10    1.716557599138469E-4  -5.078669055365026E-4  
 2.406000000000000E10   -3.143648209515959E-4  -4.576299397740513E-5  
 2.408000000000000E10   -3.322309567010962E-5   4.341652675066143E-4  
 2.410000000000000E10    4.484728851821274E-4   2.885978901758790E-4  
 2.412000000000000E10    1.953531173057854E-4  -3.420932262088172E-5  
 2.414000000000000E10    1.594913919689134E-4  -2.091476053465158E-4  
 2.416000000000000E10    1.011756030493416E-4  -4.499320639297366E-4  
 2.418000000000000E10   -4.834478022530675E-4   2.835838531609625E-4  
 2.420000000000000E10    2.428268489893526E-4   7.379066082648933E-4  
 2.422000000000000E10    7.561997626908124E-4  -2.511094498913735E-5  
 2.424000000000000E10    2.029678289545700E-4  -8.163992315530777E-4  
 2.426000000000000E10   -5.720485933125019E-4  -3.734505444299430E-4  
 2.428000000000000E10    4.390836329548620E-5   4.700029967352748E-4  
 2.430000000000000E10    5.621054442599416E-4   4.922408843412995E-4  
 2.432000000000000E10    6.123925559222698E-4  -5.282832426019013E-4  
 2.434000000000000E10    5.305871673044749E-5  -1.224383886437863E-4  
 2.436000000000000E10   -2.898154489230365E-4  -1.611253392184153E-4  
 2.438000000000000E10    6.490771920653060E-5   4.146471910644323E-4  
 2.440000000000000E10    3.697763604577631E-4   3.943442134186626E-4  
 2.442000000000000E10    4.825877258554101E-4  -1.296772188652540E-5  
 2.444000000000000E10   -1.297423586947843E-4  -6.923141190782189E-4  
 2.446000000000000E10   -9.050162043422461E-4  -7.990158337634057E-6  
 2.448000000000000E10   -3.891986270900816E-4   7.293761591427028E-4  
 2.450000000000000E10    1.205052016302943E-3   2.401425590505824E-4  
 2.452000000000000E10    6.013109232299030E-4  -6.119292229413986E-4  
 2.454000000000000E10   -4.742764285765588E-4  -9.985208744183183E-4  
 2.456000000000000E10   -7.983476389199495E-4   5.812374874949455E-4  
 2.458000000000000E10    2.056910743704066E-4   8.025373681448400E-4  
 2.460000000000000E10    9.924826445057988E-4  -1.964879484148696E-4  
 2.462000000000000E10    2.384351682849228E-5  -9.804689325392246E-4  
 2.464000000000000E10   -8.665925706736744E-4  -2.414315240457654E-4  
 2.466000000000000E10   -4.925811081193388E-4   5.249200039543212E-4  
 2.468000000000000E10    8.001837413758040E-4   3.710429009515792E-4  
 2.470000000000000E10    7.046288228593767E-4  -7.252268842421472E-4  
 2.472000000000000E10   -2.539707347750664E-4  -7.782083703204989E-4  
 2.474000000000000E10   -4.865784139838070E-4  -2.148360727005638E-5  
 2.476000000000000E10   -2.819376531988382E-4   5.745464004576206E-4  
 2.478000000000000E10    3.918850270565599E-4   4.715601971838623E-4  
 2.480000000000000E10    4.495712346397340E-4  -9.784650756046176E-4  
 2.482000000000000E10   -3.243668761570007E-4  -7.474913145415485E-4  
 2.484000000000000E10   -9.364311699755490E-4   2.504186704754829E-4  
 2.486000000000000E10    4.618686507456005E-4   7.994148181751370E-4  
 2.488000000000000E10    6.785937584936619E-4  -2.015461068367586E-4  
 2.490000000000000E10    7.397248555207625E-5  -9.608831605874002E-4  
 2.492000000000000E10   -6.498625734820962E-4   3.078378722420894E-5  
 2.494000000000000E10   -2.773157320916653E-4   1.994374179048464E-4  
 2.496000000000000E10    3.887975180987269E-4   6.265509873628616E-4  
 2.498000000000000E10    2.278105530422181E-4  -5.283373175188899E-4  
 2.500000000000000E10   -1.326026249444112E-4  -4.341397434473038E-4  
 2.502000000000000E10   -6.940417806617916E-4  -4.620134131982923E-4  
 2.504000000000000E10   -2.206115459557623E-4   3.090343961957842E-4  
 2.506000000000000E10    4.389780588098802E-5  -3.911676685675047E-6  
 2.508000000000000E10    6.874146056361496E-4  -4.790649400092661E-4  
 2.510000000000000E10   -1.617953384993598E-4  -3.153832221869379E-4  
 2.512000000000000E10   -2.943403669632971E-4  -1.210932532558218E-4  
 2.514000000000000E10   -1.274060341529548E-4   3.738817176781595E-4  
 2.516000000000000E10   -1.426211674697697E-4   1.906315010273829E-4  
 2.518000000000000E10   -5.269794928608462E-5  -3.165238013025373E-4  
 2.520000000000000E10   -2.111061185132712E-4  -3.497134312056005E-4  
 2.522000000000000E10   -6.352466880343854E-4   6.370882329065353E-5  
 2.524000000000000E10   -3.087534569203854E-4  -5.646132194669917E-5  
 2.526000000000000E10    2.930199261754751E-4   6.224498501978815E-4  
 2.528000000000000E10   -1.228381152031943E-4  -2.646472421474755E-4  
 2.530000000000000E10   -5.135387618793175E-5  -9.195248130708933E-4  
 2.532000000000000E10   -4.960524383932352E-4   9.977092122426257E-5  
 2.534000000000000E10   -6.023469031788409E-4   3.974550636485219E-4  
 2.536000000000000E10    4.544198745861650E-4   3.393252263776958E-4  
 2.538000000000000E10    1.636071033317421E-6  -4.039456835016608E-4  
 2.540000000000000E10   -6.358096143230796E-4  -7.708608754910529E-4  
 2.542000000000000E10   -8.287080563604832E-4   2.791339065879583E-4  
 2.544000000000000E10   -1.648645411478356E-5   7.005722145549953E-4  
 2.546000000000000E10    4.800411406904459E-4   5.789901115349494E-5  
 2.548000000000000E10    8.375429752049968E-5  -5.387078854255378E-4  
 2.550000000000000E10   -6.967369699850678E-4  -1.894528395496309E-4  
 2.552000000000000E10   -8.149082423187792E-4   3.017628623638302E-4  
 2.554000000000000E10    2.814644249156117E-4   1.102043665014207E-3  
 2.556000000000000E10    7.762206369079649E-4  -2.375833719270304E-4  
 2.558000000000000E10   -2.380463993176818E-4  -9.048355277627707E-4  
 2.560000000000000E10   -1.613244763575494E-3   8.015363710001111E-5  
 2.562000000000000E10    6.162189674796537E-5   1.073318067938089E-3  
 2.564000000000000E10    7.528637070208788E-4   4.248326877132058E-4  
 2.566000000000000E10    3.302701516076922E-4  -8.382031228393316E-4  
 2.568000000000000E10   -5.446370341815054E-4  -4.565375274978578E-4  
 2.570000000000000E10   -1.117947045713663E-3   4.262712027411908E-4  
 2.572000000000000E10    1.069911813829094E-4   8.955898811109364E-4  
 2.574000000000000E10    1.029840903356671E-3  -2.505003940314055E-4  
 2.576000000000000E10    1.208004687214270E-4  -7.828708039596677E-4  
 2.578000000000000E10   -8.901240653358400E-4  -3.081060422118753E-4  
 2.580000000000000E10   -6.017476553097367E-4   6.420738063752651E-4  
 2.582000000000000E10    4.637468082364649E-4   8.584316237829626E-4  
 2.584000000000000E10    9.046347113326192E-4  -3.059471491724253E-4  
 2.586000000000000E10   -4.355424316599965E-4  -9.306857828050852E-4  
 2.588000000000000E10   -1.130804535932839E-3   3.752360353246331E-4  
 2.590000000000000E10   -2.339567872695625E-4   1.164931571111083E-3  
 2.592000000000000E10    1.032703672535718E-3   4.248971235938370E-4  
 2.594000000000000E10   -1.864337100414559E-4  -8.660526946187019E-4  
 2.596000000000000E10   -5.526561290025711E-4  -5.284118815325201E-4  
 2.598000000000000E10   -4.428972024470568E-4   6.411799695342779E-4  
 2.600000000000000E10    1.132394245360047E-4   2.269605320179835E-4  
 2.602000000000000E10    4.645669541787356E-4  -4.368229565443471E-5  
 2.604000000000000E10   -4.063934284204152E-6  -4.176477959845215E-4  
 2.606000000000000E10   -2.711698762141168E-4   2.108727348968387E-4  
 2.608000000000000E10   -4.432619898580015E-4   2.825912670232356E-4  
 2.610000000000000E10    1.335409324383363E-4   3.665121621452272E-4  
 2.612000000000000E10    3.018287825398147E-4   4.649556285585277E-5  
 2.614000000000000E10    3.386166936252266E-4  -4.109061555936933E-4  
 2.616000000000000E10   -4.950913134962320E-4  -2.200489689130336E-4  
 2.618000000000000E10   -3.090459504164755E-4   1.978989894269034E-4  
 2.620000000000000E10    2.503847645130009E-4   7.032594876363874E-4  
 2.622000000000000E10    6.736852228641510E-4  -4.930219729430974E-4  
 2.624000000000000E10    3.762778214877471E-5  -4.917141050100327E-4  
 2.626000000000000E10   -4.554004408419132E-4   7.461833592969924E-5  
 2.628000000000000E10   -4.820453614229336E-5   5.907438462600112E-4  
 2.630000000000000E10    2.623235341161490E-4   4.961053491570056E-4  
 2.632000000000000E10    5.056803929619491E-4  -1.228764449479058E-5  
 2.634000000000000E10    2.213257685070857E-4  -4.129044536966831E-4  
 2.636000000000000E10   -8.069876930676401E-4  -1.679362030699849E-4  
 2.638000000000000E10    1.293937384616584E-5   3.237576747778803E-4  
 2.640000000000000E10    2.032404299825430E-4   5.150426295585930E-4  
 2.642000000000000E10    3.667660348583013E-4  -2.952370268758386E-4  
 2.644000000000000E10    4.048440314363688E-5  -3.408252377994359E-4  
 2.646000000000000E10   -7.170485332608223E-4  -4.061943618580699E-4  
 2.648000000000000E10   -2.094865631079301E-4   8.742834907025099E-4  
 2.650000000000000E10    1.852174318628386E-4   5.540301208384335E-4  
 2.652000000000000E10    6.842374568805099E-4  -6.443836609832943E-4  
 2.654000000000000E10   -8.936367230489850E-4  -9.130581747740507E-4  
 2.656000000000000E10   -9.594637667760253E-4   1.631089107831940E-4  
 2.658000000000000E10    2.550378849264234E-4   1.119795138947666E-3  
 2.660000000000000E10    9.626740938983858E-4  -3.614946035668254E-5  
 2.662000000000000E10   -3.680051304399967E-5  -7.567918510176241E-4  
 2.664000000000000E10   -1.154570723883808E-3  -2.950483176391572E-4  
 2.666000000000000E10   -3.798218967858702E-4   6.528610829263926E-4  
 2.668000000000000E10    1.943187235156074E-4   4.843322676606476E-4  
 2.670000000000000E10    5.725806695409119E-4  -3.677940403576940E-4  
 2.672000000000000E10   -8.980136772152036E-5  -6.715443450957537E-4  
 2.674000000000000E10   -9.706433047540486E-4  -3.697565698530525E-4  
 2.676000000000000E10   -1.788476947695017E-4   6.308292504400015E-4  
 2.678000000000000E10    6.116551230661571E-4   5.154907703399658E-4  
 2.680000000000000E10    6.176907336339355E-4  -5.172311211936176E-4  
 2.682000000000000E10   -3.677915083244443E-4  -5.271869013085961E-4  
 2.684000000000000E10   -9.670763392932713E-4   2.223925548605621E-4  
 2.686000000000000E10   -1.187698435387574E-4   9.128747042268515E-4  
 2.688000000000000E10    7.775113917887211E-4  -6.786308404116426E-6  
 2.690000000000000E10    3.253554168622941E-4  -7.571506430394948E-4  
 2.692000000000000E10   -5.590426153503358E-4  -3.932912368327379E-4  
 2.694000000000000E10   -7.877690368331969E-4   6.555168656632304E-4  
 2.696000000000000E10    4.266985633876175E-4   4.765775520354509E-4  
 2.698000000000000E10    6.959838792681694E-4  -6.886735354783014E-5  
 2.700000000000000E10    7.794306293362752E-5  -4.720461147371680E-4  
 2.702000000000000E10   -5.357771879062057E-4  -1.612929372640792E-5  
 2.704000000000000E10   -2.843862166628242E-4   4.965880652889609E-4  
 2.706000000000000E10    3.662359958980233E-4   6.194541347213090E-4  
 2.708000000000000E10    5.211087991483510E-4  -1.830414112191647E-4  
 2.710000000000000E10    1.679271372267976E-4  -3.928268270101398E-4  
 2.712000000000000E10   -6.476301350630820E-4  -1.473246811656281E-4  
 2.714000000000000E10   -2.868249139282852E-4   4.902755608782172E-4  
 2.716000000000000E10    2.448110608384013E-4   2.863687986973673E-4  
 2.718000000000000E10    7.807388901710510E-4  -2.003047993639484E-4  
 2.720000000000000E10    5.608280844171532E-5  -3.862306475639343E-4  
 2.722000000000000E10   -4.938209312967956E-4  -1.079628509614850E-5  
 2.724000000000000E10   -1.996446953853592E-4   6.748457672074437E-4  
 2.726000000000000E10    4.046132962685078E-4   5.361663643270731E-4  
 2.728000000000000E10    3.774760116357356E-4   5.848791261087172E-5  
 2.730000000000000E10   -2.748192309809383E-5  -9.926221100613475E-4  
 2.732000000000000E10   -6.271741003729403E-4   1.260230346815661E-4  
 2.734000000000000E10   -5.130978533998132E-4   4.613003402482718E-4  
 2.736000000000000E10    1.172299147583544E-3   4.062658408656716E-4  
 2.738000000000000E10    3.660905349534005E-4  -4.643709689844400E-4  
 2.740000000000000E10   -2.572768134996295E-4  -7.622101693414152E-4  
 2.742000000000000E10   -8.144901948980987E-4   4.524355754256249E-4  
 2.744000000000000E10    4.601722685038112E-5   7.139236549846828E-4  
 2.746000000000000E10    9.309941669926047E-4  -9.543065971229225E-5  
 2.748000000000000E10    3.183583903592080E-4  -9.001151775009930E-4  
 2.750000000000000E10   -8.725502411834896E-4  -7.522808737121522E-4  
 2.752000000000000E10   -5.115573294460774E-4   5.863652331754565E-4  
 2.754000000000000E10    7.751866942271590E-4   8.673372212797403E-4  
 2.756000000000000E10    8.578450651839376E-4  -4.180604009889066E-4  
