#  HZ   S   RI   R     50.00 
! Rohde & Schwarz ZVA40 4Ports - Version 3.90 - 1145.1110k42 SN: 100403
! Date: 2023-10-04 11:26:15
! Measurement: S12 
! 
 2.200000000000000E10   -5.106099415570498E-4   2.421440149191767E-4  
 2.202000000000000E10    6.875278195366263E-4  -3.194776363670826E-4  
 2.204000000000000E10    5.672679617418908E-5  -6.287134019657970E-4  
 2.206000000000000E10   -4.584657435771078E-4  -7.599957752972841E-4  
 2.208000000000000E10   -5.964970914646983E-4   6.310717435553670E-4  
 2.210000000000000E10    5.490286857821047E-4   1.380249887006357E-4  
 2.212000000000000E10    5.476948572322726E-4  -1.792510156519711E-4  
 2.214000000000000E10   -2.204405755037442E-4  -8.066114387474954E-4  
 2.216000000000000E10   -5.478943930938840E-4   6.207447731867433E-4  
 2.218000000000000E10   -8.405283006140962E-5   2.296080056112260E-4  
 2.220000000000000E10    8.552853832952678E-4  -2.330235001863912E-4  
 2.222000000000000E10   -3.494344709906727E-4  -7.642035488970578E-4  
 2.224000000000000E10   -6.466258491855115E-5   1.176738514914177E-4  
 2.226000000000000E10    3.244245599489659E-4   5.206336500123143E-4  
 2.228000000000000E10    1.031942374538630E-4  -2.954937517642975E-4  
 2.230000000000000E10   -3.641341172624379E-4  -1.081919908756390E-4  
 2.232000000000000E10    6.814791122451425E-4   6.682971725240350E-4  
 2.234000000000000E10    3.932719992008060E-4  -6.114316638559103E-4  
 2.236000000000000E10   -6.469789659604430E-4  -3.761929110623896E-4  
 2.238000000000000E10   -4.785419150721282E-4   7.267781184054911E-4  
 2.240000000000000E10    7.906659157015383E-4   2.229492092737928E-4  
 2.242000000000000E10    9.167648386210203E-5  -9.044506005011499E-4  
 2.244000000000000E10   -9.511995012871921E-4  -4.928242415189743E-4  
 2.246000000000000E10   -1.927260309457779E-4   6.213066517375410E-4  
 2.248000000000000E10    6.051456439308822E-4   8.287761011160910E-5  
 2.250000000000000E10    2.481105912011117E-4  -3.626206889748573E-4  
 2.252000000000000E10   -6.287258001975715E-4  -2.570400538388640E-4  
 2.254000000000000E10   -1.339209029538324E-5   2.492139537935145E-5  
 2.256000000000000E10    2.790013786579948E-5   1.903401280287653E-4  
 2.258000000000000E10   -2.005038913921453E-5  -1.500700018368661E-4  
 2.260000000000000E10   -2.884919522330165E-4  -2.430517051834613E-4  
 2.262000000000000E10    3.103961644228548E-4  -2.156997506972402E-4  
 2.264000000000000E10   -2.574237296357751E-4  -3.460909065324813E-4  
 2.266000000000000E10   -1.882084907265380E-4  -1.252725196536630E-4  
 2.268000000000000E10   -1.130316886701621E-4   5.896789953112602E-4  
 2.270000000000000E10    8.618839201517403E-4   7.209175237221643E-6  
 2.272000000000000E10   -3.291016910225153E-4  -8.855515043251216E-4  
 2.274000000000000E10   -8.342171204276383E-4   2.856981591321528E-4  
 2.276000000000000E10   -1.916484034154564E-4   1.079421839676797E-3  
 2.278000000000000E10    1.280160038731992E-3  -2.342942316317931E-4  
 2.280000000000000E10   -9.290153684560210E-5  -4.383434134069830E-4  
 2.282000000000000E10   -7.002849597483873E-4  -6.865269970148802E-4  
 2.284000000000000E10    3.480440354906023E-4   6.848070188425481E-4  
 2.286000000000000E10    5.903716664761305E-4   3.710938617587090E-4  
 2.288000000000000E10   -1.424421789124608E-4  -2.069524489343166E-4  
 2.290000000000000E10   -3.119186294497922E-5   4.743589379359037E-4  
 2.292000000000000E10    1.199110120069236E-4   2.495693042874336E-4  
 2.294000000000000E10   -1.532147871330380E-4  -1.350235688732937E-4  
 2.296000000000000E10   -2.250912802992389E-4   2.426240826025605E-4  
 2.298000000000000E10    8.985726890387014E-5   2.152793167624623E-4  
 2.300000000000000E10    2.640282036736608E-4  -3.962394839618355E-4  
 2.302000000000000E10   -1.583274279255420E-4   5.033532579545863E-5  
 2.304000000000000E10   -3.511165559757501E-4   3.419258282519877E-4  
 2.306000000000000E10    5.951834027655423E-4   4.803377960342914E-4  
 2.308000000000000E10    2.937653334811330E-4  -2.210966922575608E-4  
 2.310000000000000E10   -2.361598890274763E-4  -1.701626606518403E-4  
 2.312000000000000E10   -8.480870164930821E-4   4.317633574828506E-4  
 2.314000000000000E10    1.758993457769975E-4   5.300844786688685E-4  
 2.316000000000000E10    3.582319186534733E-4  -1.115646864491282E-5  
 2.318000000000000E10   -7.185022695921361E-5  -2.669793611858040E-4  
 2.320000000000000E10   -3.641981165856123E-4   4.852077108807862E-4  
 2.322000000000000E10    2.344920067116618E-4   7.617652590852231E-5  
 2.324000000000000E10   -1.040660354192369E-4   2.717166498769075E-4  
 2.326000000000000E10   -3.103646158706397E-4   3.339922113809735E-4  
 2.328000000000000E10    7.913609151728451E-4   8.750645065447316E-6  
 2.330000000000000E10   -1.867913524620235E-4  -9.357050294056535E-5  
 2.332000000000000E10   -6.702323444187641E-4   1.288399071199819E-4  
 2.334000000000000E10   -1.256739924428985E-4   1.017749425955117E-3  
 2.336000000000000E10    6.036129780113697E-4  -6.419403234758647E-6  
 2.338000000000000E10    1.299181167269126E-4  -6.735977949574590E-4  
 2.340000000000000E10   -3.094392304774374E-4   1.176095538539812E-4  
 2.342000000000000E10   -3.253625181969255E-4   9.958085138350725E-4  
 2.344000000000000E10    5.206664209254086E-4  -1.837820018408820E-4  
 2.346000000000000E10    4.460389318410307E-4  -5.700824840459973E-5  
 2.348000000000000E10   -2.325506793567911E-4  -1.777570723788813E-4  
 2.350000000000000E10    3.254104231018573E-4   1.851594570325688E-4  
 2.352000000000000E10    3.966504664276727E-5   6.864357856102288E-4  
 2.354000000000000E10    1.577192961121909E-5   1.758098223945126E-4  
 2.356000000000000E10    5.233329138718545E-4   1.899229682749137E-4  
 2.358000000000000E10    2.907087400672026E-5  -2.065061707980931E-4  
 2.360000000000000E10   -1.140660024248064E-4  -4.502075607888401E-4  
 2.362000000000000E10   -5.038158269599080E-4   7.234707591123879E-4  
 2.364000000000000E10    8.574412204325199E-4   4.406259977258742E-4  
 2.366000000000000E10    9.797333041206002E-4  -8.668566588312388E-4  
 2.368000000000000E10   -5.332685541361570E-4  -5.747592658735812E-4  
 2.370000000000000E10   -8.671178366057575E-4   6.300510140135884E-4  
 2.372000000000000E10    8.883724221959710E-4   1.182468957267702E-3  
 2.374000000000000E10    7.529447320848703E-4  -3.058766596950591E-4  
 2.376000000000000E10   -3.677028289530426E-4  -7.896194001659751E-4  
 2.378000000000000E10   -7.107852143235505E-4   6.658340862486512E-5  
 2.380000000000000E10    5.690070101991296E-4   3.373085055500269E-4  
 2.382000000000000E10    1.184957727673464E-4   2.037509984802455E-4  
 2.384000000000000E10    7.823897758498788E-4  -3.125512448605150E-4  
 2.386000000000000E10   -3.082272087340243E-5  -1.487329718656838E-4  
 2.388000000000000E10   -2.403684047749266E-4  -4.292759695090354E-4  
 2.390000000000000E10   -3.536957665346563E-4   9.763284469954670E-4  
 2.392000000000000E10    6.538118468597531E-4   4.270749923307449E-4  
 2.394000000000000E10    4.490129649639130E-4  -5.148485652171075E-4  
 2.396000000000000E10   -7.681744755245745E-4  -1.055818167515099E-3  
 2.398000000000000E10   -1.009339001029730E-3   4.659804399125278E-4  
 2.400000000000000E10    2.930019982159138E-4   6.381471757777035E-4  
 2.402000000000000E10    1.095805200748146E-3  -1.791243994375691E-4  
 2.404000000000000E10   -4.487173573579639E-4  -1.023607794195414E-3  
 2.406000000000000E10   -5.636251298710704E-4   8.423029612458777E-6  
 2.408000000000000E10   -1.062026349245571E-4   7.342731114476919E-4  
 2.410000000000000E10    3.979179018642753E-4   2.828747674357146E-4  
 2.412000000000000E10    5.189349758438766E-4  -4.516017797868699E-4  
 2.414000000000000E10   -2.202011528424919E-4  -5.501045961864293E-4  
 2.416000000000000E10   -8.113349904306233E-4   2.376314951106906E-4  
 2.418000000000000E10    2.035442776104901E-6   4.942390951327980E-4  
 2.420000000000000E10    5.773246521130204E-4   3.555976436473429E-4  
 2.422000000000000E10    3.617709735408425E-4  -5.730595439672470E-4  
 2.424000000000000E10   -6.091437899158336E-5  -1.403854257659987E-4  
 2.426000000000000E10   -9.669364662840962E-4   2.284238289576024E-4  
 2.428000000000000E10   -8.631197852082551E-5   4.990739398635924E-4  
 2.430000000000000E10    8.222691249102354E-4  -9.118141315411776E-5  
 2.432000000000000E10    6.558399181813002E-4  -6.097609875723720E-4  
 2.434000000000000E10   -1.133097219280899E-3  -3.998349420726299E-4  
 2.436000000000000E10   -1.598503295099363E-4   4.721590375993401E-4  
 2.438000000000000E10    4.017105384264141E-4   2.844639529939741E-4  
 2.440000000000000E10    5.467263399623334E-4  -5.405877600423992E-4  
 2.442000000000000E10    1.700079883448780E-4  -3.817758697550744E-4  
 2.444000000000000E10   -3.348618920426816E-4  -1.972637546714395E-4  
 2.446000000000000E10   -4.095600161235780E-4   4.829407771467231E-5  
 2.448000000000000E10    1.965495466720313E-4   3.551439440343529E-4  
 2.450000000000000E10    4.721638688351959E-4  -2.213122061220929E-4  
 2.452000000000000E10    4.850747700402280E-6  -6.644493550993502E-4  
 2.454000000000000E10   -7.457159226760268E-4  -1.552447356516495E-4  
 2.456000000000000E10   -4.090231086593121E-4   6.903680623508990E-4  
 2.458000000000000E10    3.770955372601748E-4   7.302727317437530E-5  
 2.460000000000000E10    9.203397348755971E-5  -6.182870129123330E-4  
 2.462000000000000E10   -4.479897615965456E-4  -5.364803946577013E-4  
 2.464000000000000E10   -4.576477804221213E-4   2.825487754307687E-4  
 2.466000000000000E10   -3.434019163250923E-4   2.528523909859359E-4  
 2.468000000000000E10    3.768279566429555E-4   2.455078938510269E-4  
 2.470000000000000E10    1.194685391965322E-4  -3.805137530434877E-4  
 2.472000000000000E10   -1.936565531650558E-4  -6.679153302684426E-4  
 2.474000000000000E10   -8.200956508517265E-4   3.311179534648545E-5  
 2.476000000000000E10   -8.123099541990086E-5   7.543606334365904E-4  
 2.478000000000000E10    6.683249957859516E-4   6.471619417425245E-5  
 2.480000000000000E10    3.063995973207057E-4  -7.421012269333005E-4  
 2.482000000000000E10   -5.781331565231085E-4  -6.325507420115173E-4  
 2.484000000000000E10   -6.318336818367243E-4   6.008084747008979E-4  
 2.486000000000000E10    6.797895184718072E-4   1.046260818839073E-3  
 2.488000000000000E10    7.950916769914329E-4  -5.511396011570469E-5  
 2.490000000000000E10   -3.510585520416498E-4  -8.799139177426696E-4  
 2.492000000000000E10   -1.028443570248783E-3   1.232097274623811E-4  
 2.494000000000000E10   -2.262910711579025E-4   9.916040580719709E-4  
 2.496000000000000E10    3.839502169284970E-4   2.681952610146254E-4  
 2.498000000000000E10    4.374057753011584E-4  -6.086271023377776E-4  
 2.500000000000000E10   -3.839042328763753E-4  -3.285402199253440E-4  
 2.502000000000000E10   -6.508883670903742E-4   9.684402175480500E-5  
 2.504000000000000E10   -9.379666153108701E-5   8.740370976738632E-4  
 2.506000000000000E10    8.794307941570878E-4   1.445875095669180E-4  
 2.508000000000000E10    2.113698719767854E-4  -7.077456684783101E-4  
 2.510000000000000E10   -8.502522250637412E-4  -8.610982331447303E-4  
 2.512000000000000E10   -6.662831874564290E-4   9.746649302542210E-4  
 2.514000000000000E10    4.587770672515035E-4   7.673727232031524E-4  
 2.516000000000000E10    7.631234475411475E-4  -6.455498514696956E-4  
 2.518000000000000E10   -1.608729508006945E-4  -6.991352420300245E-4  
 2.520000000000000E10   -6.947108195163310E-4   1.333632189925993E-5  
 2.522000000000000E10    1.111454639612930E-5   7.361621828749776E-4  
 2.524000000000000E10    3.868511703331024E-4   4.250996862538159E-4  
 2.526000000000000E10    4.267195763532072E-4  -5.090201739221811E-4  
 2.528000000000000E10   -5.590360378846526E-4  -2.163128519896418E-4  
 2.530000000000000E10   -7.070573046803474E-4   3.807912289630622E-4  
 2.532000000000000E10   -2.664513885974884E-4   6.916719139553607E-4  
 2.534000000000000E10    8.132884977385402E-4   1.618677342776209E-4  
 2.536000000000000E10    6.564975774381310E-5  -4.846375959459692E-4  
 2.538000000000000E10   -4.300334840081632E-4  -4.365551285445690E-4  
 2.540000000000000E10   -5.261151236481965E-4   8.795785834081471E-4  
 2.542000000000000E10    4.683132574427873E-4   2.724139194469899E-4  
 2.544000000000000E10    3.301639226265252E-4   1.455961901228875E-4  
 2.546000000000000E10   -1.066287077264860E-4  -1.827317028073594E-4  
 2.548000000000000E10    1.003774559649173E-5   2.096712996717542E-4  
 2.550000000000000E10   -2.138181735062972E-4   1.701811561360955E-4  
 2.552000000000000E10    3.042494936380535E-4   3.375521919224411E-4  
 2.554000000000000E10    2.923211723100394E-4   2.233541599707678E-4  
 2.556000000000000E10    2.989160748256836E-5  -3.528154047671706E-4  
 2.558000000000000E10   -1.935270993271843E-4   8.213055116357282E-5  
 2.560000000000000E10   -3.159685293212533E-4   3.885015903506428E-4  
 2.562000000000000E10    3.474402183201164E-4   4.626587033271790E-4  
 2.564000000000000E10    5.895684007555246E-4  -3.393489168956876E-4  
 2.566000000000000E10    1.599860843271017E-4  -1.117301944759674E-4  
 2.568000000000000E10   -5.224097403697670E-4  -1.338452275376767E-4  
 2.570000000000000E10   -4.758953000418842E-4   3.437282284721732E-4  
 2.572000000000000E10   -1.561323879286647E-4   3.472525277175009E-4  
 2.574000000000000E10    5.759358173236251E-4  -5.600553704425693E-4  
 2.576000000000000E10   -1.668532204348594E-4  -7.803880725987256E-4  
 2.578000000000000E10   -5.661572795361280E-4  -1.897752554214094E-5  
 2.580000000000000E10   -2.227446384495124E-4   2.672044502105564E-4  
 2.582000000000000E10    7.986537530086935E-4   4.379021120257676E-4  
 2.584000000000000E10    5.517247482202947E-4  -5.576825933530927E-4  
 2.586000000000000E10   -2.811230660881847E-4  -8.656556019559503E-4  
 2.588000000000000E10   -1.273545552976430E-3   7.376309367828071E-4  
 2.590000000000000E10    3.063723270315677E-4   7.977694622240961E-4  
 2.592000000000000E10    8.857510401867330E-4  -1.007134487736039E-4  
 2.594000000000000E10   -1.481347571825609E-4  -1.139822416007519E-3  
 2.596000000000000E10   -8.715517469681799E-4  -3.646454715635628E-4  
 2.598000000000000E10   -3.941035247407854E-4   9.311626199632883E-4  
 2.600000000000000E10    6.914613186381757E-4   7.170424796640873E-4  
 2.602000000000000E10    7.262030849233270E-4  -5.955941742286086E-4  
 2.604000000000000E10   -4.608174494933337E-4  -9.643613011576235E-4  
 2.606000000000000E10   -9.809636976569891E-4   4.144078411627561E-4  
 2.608000000000000E10   -1.050010541803204E-5   1.162028522230685E-3  
 2.610000000000000E10    6.638796185143292E-4   2.393785398453474E-4  
 2.612000000000000E10    3.082269395235926E-4  -9.169790428131819E-4  
 2.614000000000000E10   -8.601528825238347E-4  -6.129801622591913E-4  
 2.616000000000000E10   -8.293582941405475E-4   5.571598885580897E-4  
 2.618000000000000E10    4.625250294338912E-4   6.673082825727761E-4  
 2.620000000000000E10    9.132302948273718E-4   4.462320794118568E-5  
 2.622000000000000E10   -1.709613861748949E-4  -8.765785605646670E-4  
 2.624000000000000E10   -8.530843770131469E-4  -2.928234171122313E-4  
 2.626000000000000E10   -5.705596413463354E-4   8.998703560791910E-4  
 2.628000000000000E10    7.806182838976383E-4   3.865006146952510E-4  
 2.630000000000000E10    7.478463230654597E-4  -3.906522470060736E-4  
 2.632000000000000E10   -4.609879106283188E-4  -6.803198484703898E-4  
 2.634000000000000E10   -6.487192586064339E-4   1.567340659676120E-4  
 2.636000000000000E10    2.977195545099676E-4   6.761261611245573E-4  
 2.638000000000000E10    2.760342613328248E-4   2.109905326506123E-4  
 2.640000000000000E10    2.639482845552266E-4  -3.378405526746064E-4  
 2.642000000000000E10   -2.740662021096796E-4  -5.818867794005200E-5  
 2.644000000000000E10   -2.270912082167342E-4   8.787099795881659E-5  
 2.646000000000000E10    2.646731445565820E-4   2.577209961600602E-4  
 2.648000000000000E10    3.191875002812594E-4   3.009879728779197E-4  
 2.650000000000000E10    4.617407394107431E-4  -3.427761257626116E-4  
 2.652000000000000E10   -2.507661702111363E-4  -4.262293514329940E-4  
 2.654000000000000E10   -4.562567628454417E-4   3.375209344085306E-4  
 2.656000000000000E10   -7.214280049083754E-5   5.155235412530601E-4  
 2.658000000000000E10    5.947705940343440E-4   1.883375662146136E-4  
 2.660000000000000E10    3.081571776419878E-4  -1.589064049767330E-4  
 2.662000000000000E10   -3.505287750158459E-4  -4.611269396264106E-4  
 2.664000000000000E10   -4.581839311867952E-4   3.572890127543360E-4  
 2.666000000000000E10   -7.428882236126810E-5   5.165291368030012E-4  
 2.668000000000000E10    5.579204880632460E-4   1.078710556612350E-4  
 2.670000000000000E10   -7.499799539800733E-5  -5.420382367447019E-4  
 2.672000000000000E10   -6.707921857014298E-4  -3.570873814169318E-4  
 2.674000000000000E10   -5.490439943969250E-4   1.295708643738180E-4  
 2.676000000000000E10    1.529091387055814E-4   7.143471884774044E-5  
 2.678000000000000E10    7.231731433421373E-4  -1.604605640750378E-4  
 2.680000000000000E10    2.707144303712994E-4  -6.462138262577355E-4  
 2.682000000000000E10   -3.954434068873525E-4  -2.884087443817407E-4  
 2.684000000000000E10   -5.839541554450989E-4   6.751505425199866E-4  
 2.686000000000000E10    7.066793041303754E-4   6.137056043371558E-4  
 2.688000000000000E10    7.062628283165395E-4  -5.381309310905635E-4  
 2.690000000000000E10   -5.599039723165333E-4  -7.961678202264011E-4  
 2.692000000000000E10   -8.926267037168145E-4   3.313816268928349E-4  
 2.694000000000000E10    4.721097502624616E-5   9.537703590467572E-4  
 2.696000000000000E10    8.348741102963686E-4   1.191542251035571E-4  
 2.698000000000000E10    6.558013265021145E-4  -8.970304625108838E-4  
 2.700000000000000E10   -5.506071611307561E-4  -4.752819368150085E-4  
 2.702000000000000E10   -7.366574136540294E-4   6.036064587533474E-4  
 2.704000000000000E10    5.156972911208868E-4   8.144184248521924E-4  
 2.706000000000000E10    8.021059329621494E-4  -1.409755495842546E-4  
 2.708000000000000E10   -2.857994559235522E-6  -1.110178651288152E-3  
 2.710000000000000E10   -8.926235605031252E-4  -1.136211503762752E-4  
 2.712000000000000E10   -1.827207161113620E-4   9.940956952050328E-4  
 2.714000000000000E10    4.530753940343857E-4   3.431768564041704E-4  
 2.716000000000000E10    6.189987179823220E-4  -5.739355692639947E-4  
 2.718000000000000E10   -7.151412428356707E-4  -8.436414063908160E-4  
 2.720000000000000E10   -5.837079370394349E-4  -1.648407342145219E-4  
 2.722000000000000E10   -1.106337876990438E-4   1.026363926939666E-3  
 2.724000000000000E10    5.168063798919320E-4   1.452264550607652E-4  
 2.726000000000000E10    4.398394958116114E-4  -6.798342801630497E-4  
 2.728000000000000E10   -6.375915254466236E-4  -3.362764546182007E-4  
 2.730000000000000E10   -7.876620511524379E-4   3.851816873066127E-4  
 2.732000000000000E10    4.890565178357065E-4   4.748940700665116E-4  
 2.734000000000000E10    6.649567512795329E-4   3.718303196365014E-5  
 2.736000000000000E10   -1.317986316280440E-4  -8.724912768229842E-4  
 2.738000000000000E10   -3.408930206205696E-4  -2.919162216130644E-4  
 2.740000000000000E10   -7.069809362292290E-4   6.144425133243203E-4  
 2.742000000000000E10    5.338382907211781E-4   2.979624550789595E-4  
 2.744000000000000E10    5.233640549704433E-4   1.484156528022140E-4  
 2.746000000000000E10   -9.493860852671787E-5  -5.387396086007357E-4  
 2.748000000000000E10   -6.323491688817740E-4  -2.597568673081696E-4  
 2.750000000000000E10   -3.731618635356426E-4   9.467786294408143E-4  
 2.752000000000000E10    3.313249326311052E-4   2.905517758335918E-4  
 2.754000000000000E10    5.379174253903329E-4  -3.355703665874898E-4  
 2.756000000000000E10   -4.660736303776503E-4  -1.372564001940191E-4  
