#  HZ   S   RI   R     50.00 
! Rohde & Schwarz ZVA40 4Ports - Version 3.90 - 1145.1110k42 SN: 100403
! Date: 2023-10-04 11:25:20
! Measurement: S12 
! 
 2.200000000000000E10   -1.518570788903162E-4  -4.890234049526043E-5  
 2.202000000000000E10    1.901731884572655E-4   8.793592569418252E-4  
 2.204000000000000E10    4.927568952552974E-4  -2.207365614594892E-4  
 2.206000000000000E10   -1.866772508947179E-4  -7.564165280200541E-4  
 2.208000000000000E10   -9.795579826459289E-4   6.777520175091922E-4  
 2.210000000000000E10    5.729808472096920E-4   8.884074632078409E-4  
 2.212000000000000E10    7.346132770180702E-4  -7.707248441874981E-4  
 2.214000000000000E10   -7.646949961781502E-4  -7.405892829410732E-4  
 2.216000000000000E10   -7.629085448570550E-4   5.013245972804725E-4  
 2.218000000000000E10    7.507436093874276E-4   2.119738637702540E-4  
 2.220000000000000E10    1.002848075586371E-4  -2.183138421969488E-4  
 2.222000000000000E10   -1.510384317953140E-4  -1.396432635374367E-4  
 2.224000000000000E10   -3.363891300978139E-5   3.531271649990231E-4  
 2.226000000000000E10    2.952152499346994E-5  -3.946506767533720E-4  
 2.228000000000000E10   -3.243155078962445E-4   3.083108458667994E-5  
 2.230000000000000E10    1.144847628893331E-4   3.036140697076917E-4  
 2.232000000000000E10    3.480085870251060E-4  -1.201997511088848E-4  
 2.234000000000000E10   -2.699139586184174E-4  -3.892073291353881E-4  
 2.236000000000000E10   -4.977553035132587E-4   2.867313451133668E-4  
 2.238000000000000E10   -3.543760249158368E-5   7.885497761890292E-4  
 2.240000000000000E10    7.895315065979958E-4   2.212673571193591E-4  
 2.242000000000000E10    9.423377196071670E-5  -4.704294551629573E-4  
 2.244000000000000E10   -7.296810508705676E-4  -4.743464523926377E-5  
 2.246000000000000E10   -2.198485017288476E-4   6.637631449848414E-4  
 2.248000000000000E10    3.248254070058465E-4   2.622060128487647E-4  
 2.250000000000000E10    1.795967837097123E-4  -4.323313769418746E-4  
 2.252000000000000E10   -6.992195267230272E-4   6.449264765251428E-5  
 2.254000000000000E10   -6.824874435551465E-5   4.098828940186650E-4  
 2.256000000000000E10    6.995771545916796E-4  -3.647436460596509E-5  
 2.258000000000000E10   -5.676462315022945E-4   2.726446255110204E-4  
 2.260000000000000E10    4.974938565283082E-5   7.169015007093549E-4  
 2.262000000000000E10    5.350382998585701E-4   3.599679039325565E-4  
 2.264000000000000E10   -5.053071072325110E-4  -1.062095630913973E-3  
 2.266000000000000E10   -5.692025879397988E-4   2.805930562317371E-4  
 2.268000000000000E10    2.547853218857199E-4   7.689382764510810E-4  
 2.270000000000000E10    1.120397355407476E-3  -6.065268535166979E-4  
 2.272000000000000E10   -1.523631653981283E-4  -8.006510324776173E-4  
 2.274000000000000E10   -1.088623888790608E-3   3.180263447575271E-4  
 2.276000000000000E10    8.318295585922897E-4   8.162545855157077E-4  
 2.278000000000000E10    8.122963481582701E-4   1.630000188015401E-4  
 2.280000000000000E10   -4.487019905354828E-4  -5.062260315753520E-4  
 2.282000000000000E10   -4.234280204400420E-4  -2.231102553196251E-5  
 2.284000000000000E10   -4.274211823940277E-4   4.130437737330794E-4  
 2.286000000000000E10    6.219872739166021E-4  -3.766276904570987E-6  
 2.288000000000000E10    1.194829674204812E-4  -3.431962395552546E-4  
 2.290000000000000E10   -1.116312923841178E-4  -4.099661309737712E-4  
 2.292000000000000E10    1.509051362518221E-4   4.797427682206035E-4  
 2.294000000000000E10    2.072023198707029E-4  -3.898574213963002E-4  
 2.296000000000000E10    1.793049304978922E-4   5.958905094303191E-4  
 2.298000000000000E10    8.959928527474403E-5   3.284035192336887E-4  
 2.300000000000000E10    8.322397479787469E-4  -2.156647096853703E-4  
 2.302000000000000E10   -6.869889912195504E-4  -3.780322440434247E-4  
 2.304000000000000E10   -1.442881330149248E-4   4.660675185732544E-4  
 2.306000000000000E10    7.410963880829513E-4   5.736396415159106E-4  
 2.308000000000000E10    8.334237500093877E-4  -1.392045989632607E-3  
 2.310000000000000E10   -4.013584111817181E-4  -3.732566256076098E-4  
 2.312000000000000E10   -3.552648122422397E-4   5.097741959616542E-4  
 2.314000000000000E10    1.161918975412846E-3   3.662584640551359E-4  
 2.316000000000000E10    1.366238720947877E-4  -4.602812405209988E-4  
 2.318000000000000E10   -2.248144846817013E-5  -6.948566442588344E-5  
 2.320000000000000E10   -4.144743797951378E-5   5.425782874226570E-4  
 2.322000000000000E10    1.440335763618350E-4  -1.791344257071614E-4  
 2.324000000000000E10   -1.419628970324993E-4   1.115187333198264E-4  
 2.326000000000000E10    4.750234365928918E-4   3.005744947586209E-4  
 2.328000000000000E10    4.611492331605405E-4  -2.449605926813092E-5  
 2.330000000000000E10   -2.783985109999776E-4  -6.340661202557385E-4  
 2.332000000000000E10   -3.173922232235782E-5   3.396326210349798E-4  
 2.334000000000000E10   -1.030954717862187E-5   5.197533173486590E-4  
 2.336000000000000E10    6.485717021860182E-4  -4.069884016644210E-4  
 2.338000000000000E10   -1.194975557154976E-4  -6.539461901411414E-4  
 2.340000000000000E10   -5.067733000032604E-4  -1.225844171131030E-4  
 2.342000000000000E10    1.294851681450382E-4   6.441719597205520E-4  
 2.344000000000000E10    8.159292046912015E-4   2.056186349363998E-4  
 2.346000000000000E10    2.419995144009590E-4  -7.836519507691264E-4  
 2.348000000000000E10   -3.732180339284241E-4  -1.324299519183114E-4  
 2.350000000000000E10   -1.657189422985539E-4   7.231005001813173E-4  
 2.352000000000000E10    4.611456533893943E-4  -3.050845989491791E-4  
 2.354000000000000E10   -6.982421473367140E-5   1.075364343705587E-4  
 2.356000000000000E10    2.416799106867984E-4  -1.430272968718782E-4  
 2.358000000000000E10    3.899382427334786E-4  -4.451827262528241E-4  
 2.360000000000000E10   -6.856595864519477E-4  -2.101552818203345E-4  
 2.362000000000000E10   -3.812211798503995E-5   5.827323766425252E-4  
 2.364000000000000E10    5.855881609022617E-4   2.627782814670354E-4  
 2.366000000000000E10    5.042692646384239E-4  -1.026067300699651E-3  
 2.368000000000000E10   -1.024875440634787E-3  -6.191976717673242E-4  
 2.370000000000000E10   -2.544702147133648E-4   5.845943815074861E-4  
 2.372000000000000E10    4.289309144951403E-4   4.754001856781542E-4  
 2.374000000000000E10    1.531225570943207E-4  -6.109669338911772E-4  
 2.376000000000000E10   -5.142400623299182E-4  -3.797075478360057E-4  
 2.378000000000000E10   -3.691327292472124E-4  -1.133264959207736E-4  
 2.380000000000000E10    3.232061280868948E-4   2.271712291985750E-4  
 2.382000000000000E10    2.654563868418336E-4  -1.393884158460423E-4  
 2.384000000000000E10    2.093627263093367E-4  -2.458805684000254E-4  
 2.386000000000000E10   -1.947408891282976E-4  -5.211792886257172E-4  
 2.388000000000000E10   -2.387600980000570E-4  -2.086503227474168E-4  
 2.390000000000000E10   -2.558955748099834E-4   7.123491959646344E-4  
 2.392000000000000E10    5.778449121862650E-4   1.833987334975973E-4  
 2.394000000000000E10    6.171810091473162E-4  -3.800480408244766E-5  
 2.396000000000000E10   -5.506346351467073E-4  -9.066690690815449E-4  
 2.398000000000000E10   -8.088682661764324E-4   3.164448426105082E-4  
 2.400000000000000E10    4.563391848932952E-4   8.272347040474415E-4  
 2.402000000000000E10    9.649604908190668E-4  -1.803571212803945E-4  
 2.404000000000000E10   -1.576236390974373E-4  -1.068269019015133E-3  
 2.406000000000000E10   -1.011569751426578E-3   2.280520420754328E-4  
 2.408000000000000E10    1.278435520362109E-4   9.290442103520036E-4  
 2.410000000000000E10    7.902262150309980E-4  -1.042858712025918E-4  
 2.412000000000000E10    2.458350209053606E-4  -4.828531236853451E-4  
 2.414000000000000E10   -3.680173540487886E-4  -2.771142753772438E-4  
 2.416000000000000E10   -1.985501439776272E-4   2.554779348429292E-4  
 2.418000000000000E10   -2.406412531854585E-4   5.148687632754445E-4  
 2.420000000000000E10    5.949493497610092E-4   2.636521239764988E-4  
 2.422000000000000E10    6.472461973316968E-4  -4.135249473620206E-4  
 2.424000000000000E10   -5.374303436838090E-4  -4.622408014256507E-4  
 2.426000000000000E10   -9.523695334792137E-4   3.911320527549833E-4  
 2.428000000000000E10    3.494287375360727E-4   6.814890075474978E-4  
 2.430000000000000E10    1.162647618912160E-3  -3.939737798646092E-4  
 2.432000000000000E10    1.320974934060359E-5  -1.380495843477547E-3  
 2.434000000000000E10   -5.426276475191116E-4   1.793207484297454E-4  
 2.436000000000000E10   -1.816130679799244E-4   8.769016130827367E-4  
 2.438000000000000E10    3.868491330649704E-4   2.518536930438131E-4  
 2.440000000000000E10    3.433823003433645E-4  -3.317279042676091E-4  
 2.442000000000000E10   -2.671653055585921E-4  -8.318951004184783E-4  
 2.444000000000000E10   -8.288976387120783E-4   4.072659794474021E-5  
 2.446000000000000E10   -3.575738228391856E-4   6.431411602534354E-4  
 2.448000000000000E10    8.860157686285675E-4   3.045714111067355E-4  
 2.450000000000000E10    2.478364622220397E-4  -7.158015505410731E-4  
 2.452000000000000E10   -7.168708834797144E-4  -7.124861585907638E-4  
 2.454000000000000E10   -5.399573128670454E-4   6.864813040010631E-4  
 2.456000000000000E10    2.773594169411808E-4   6.051771342754364E-4  
 2.458000000000000E10    5.224555497989059E-4  -1.342552423011512E-4  
 2.460000000000000E10    4.482970689423382E-5  -7.977212080731988E-4  
 2.462000000000000E10   -6.028937059454620E-4  -2.113907976308838E-4  
 2.464000000000000E10   -2.461829571984708E-4   6.016627885401249E-4  
 2.466000000000000E10    6.631988217122853E-4   3.510191163513809E-4  
 2.468000000000000E10    2.308400144102052E-4  -2.442444092594087E-4  
 2.470000000000000E10   -1.845769584178925E-4  -5.377269699238241E-4  
 2.472000000000000E10   -2.557075640652329E-4   3.757996892090887E-4  
 2.474000000000000E10   -2.199353039031848E-4   4.983601393178105E-4  
 2.476000000000000E10    3.453339741099626E-4   7.412765407934785E-4  
 2.478000000000000E10    2.259834291180596E-4  -3.281274402979761E-4  
 2.480000000000000E10   -4.130135348532349E-4  -6.872173980809748E-4  
 2.482000000000000E10   -1.014681067317724E-3  -2.304233785253018E-4  
 2.484000000000000E10    3.358890535309911E-4   8.083440479822457E-4  
 2.486000000000000E10    7.067925180308521E-4   1.712551311356947E-4  
 2.488000000000000E10   -4.718705167761073E-5  -7.042344659566879E-4  
 2.490000000000000E10   -4.551679012365639E-4   4.379176243674010E-4  
 2.492000000000000E10   -1.572625915287063E-4   4.449650878086686E-4  
 2.494000000000000E10    3.066458157263696E-4   1.639902475290000E-4  
 2.496000000000000E10    1.733388344291598E-4  -9.145021613221616E-5  
 2.498000000000000E10    1.960877489182167E-5   1.405612274538726E-4  
 2.500000000000000E10   -1.599165552761406E-4  -7.727355114184320E-4  
 2.502000000000000E10   -1.672374928602949E-4   9.099746239371598E-5  
 2.504000000000000E10   -1.426751405233517E-4   7.485045935027301E-4  
 2.506000000000000E10    8.633496472612023E-4   4.413738133735023E-5  
 2.508000000000000E10   -3.641142393462360E-5  -6.707697175443173E-4  
 2.510000000000000E10   -7.650025072507560E-4  -1.220040576299653E-4  
 2.512000000000000E10   -5.099475383758545E-4   6.369922193698585E-4  
 2.514000000000000E10    5.881089018657804E-4   3.420675639063120E-4  
 2.516000000000000E10    5.912792985327542E-4  -2.019503008341417E-4  
 2.518000000000000E10   -2.944902225863189E-4  -9.443153976462781E-4  
 2.520000000000000E10   -9.901602752506733E-4   2.861800312530249E-4  
 2.522000000000000E10   -4.333895049057901E-4   6.454403046518564E-4  
 2.524000000000000E10    1.048452919349074E-3   2.215125859947875E-4  
 2.526000000000000E10    2.432910114293918E-4  -5.897475057281554E-4  
 2.528000000000000E10   -7.594528142362833E-4  -5.368104903027415E-4  
 2.530000000000000E10   -9.741795947775245E-4   7.558673387393355E-4  
 2.532000000000000E10    4.321691230870783E-4   1.002794248051941E-3  
 2.534000000000000E10    7.240062695927918E-4  -3.467671631369740E-4  
 2.536000000000000E10    2.158398820029106E-5  -6.674649775959551E-4  
 2.538000000000000E10   -9.808524046093226E-4   1.511882292106748E-4  
 2.540000000000000E10   -1.408162206644192E-4   9.758382220752537E-4  
 2.542000000000000E10    6.758749368600547E-4   7.957104244269431E-4  
 2.544000000000000E10    5.208605434745550E-4  -9.009442874230444E-4  
 2.546000000000000E10   -2.376827760599554E-4  -5.106744356453419E-4  
 2.548000000000000E10   -9.901330340653658E-4   6.599634652957320E-4  
 2.550000000000000E10    4.232484207022935E-4   1.189464586786926E-3  
 2.552000000000000E10    7.761023589409888E-4   7.409474346786737E-5  
 2.554000000000000E10    1.855493756011128E-4  -8.662085165269673E-4  
 2.556000000000000E10   -7.406446384266019E-4   9.978598973248154E-5  
 2.558000000000000E10   -2.236274158349261E-4   8.144094608724117E-4  
 2.560000000000000E10    6.927676149643958E-4   5.300800548866391E-4  
 2.562000000000000E10    6.806193268857896E-4  -6.536180153489113E-4  
 2.564000000000000E10   -4.815820429939777E-4  -4.068188718520105E-4  
 2.566000000000000E10   -4.148264124523848E-4   3.066437493544072E-4  
 2.568000000000000E10    5.851730820722878E-4   1.030329614877701E-3  
 2.570000000000000E10    3.740137035492808E-4  -6.453713285736740E-5  
 2.572000000000000E10    3.696050553116947E-4  -3.932453691959381E-4  
 2.574000000000000E10   -6.798476097173989E-4   6.529909296659753E-5  
 2.576000000000000E10    5.964007141301408E-5   1.237480464624241E-4  
 2.578000000000000E10    7.696637476328760E-5   2.479413524270058E-4  
 2.580000000000000E10    1.705118484096602E-4  -7.556778291473165E-5  
 2.582000000000000E10    2.031616313615814E-4  -5.369003702071495E-5  
 2.584000000000000E10    1.157362858066335E-4  -3.329014580231160E-4  
 2.586000000000000E10   -6.141984340501949E-5   2.150829095626250E-4  
 2.588000000000000E10    3.583889920264483E-4   2.571985824033618E-4  
 2.590000000000000E10    2.946986351162195E-4   3.256482305005193E-4  
 2.592000000000000E10   -1.167334630736150E-4  -2.693612259463407E-5  
 2.594000000000000E10   -4.737944254884496E-5  -2.146787883248180E-4  
 2.596000000000000E10   -1.555316121084616E-4  -2.378925728407921E-6  
 2.598000000000000E10   -2.606174966786057E-4   5.082627176307142E-4  
 2.600000000000000E10    8.316577877849340E-4   3.188103146385402E-4  
 2.602000000000000E10    3.163793007843196E-4  -4.625692672561854E-4  
 2.604000000000000E10   -1.650844205869362E-4  -6.070478702895343E-4  
 2.606000000000000E10   -5.014901398681104E-4   4.445738450158387E-4  
 2.608000000000000E10    1.553964539198205E-4   5.139086279086769E-4  
 2.610000000000000E10    8.209641091525555E-4   3.056561399716884E-4  
 2.612000000000000E10    1.349873200524598E-4  -5.940725095570087E-4  
 2.614000000000000E10   -4.895924357697368E-4  -3.367227327544242E-4  
 2.616000000000000E10   -5.947972531430423E-4   5.677370354533196E-4  
 2.618000000000000E10    5.018507945351303E-4   7.742510060779750E-4  
 2.620000000000000E10    7.158183143474162E-4  -2.583401219453663E-4  
 2.622000000000000E10   -1.876165770227090E-4  -7.816015277057886E-4  
 2.624000000000000E10   -1.475494704209268E-3  -3.819366247626022E-5  
 2.626000000000000E10    1.015764573821798E-4   1.167189911939204E-3  
 2.628000000000000E10    1.093962462618947E-3   3.114552819170058E-4  
 2.630000000000000E10    3.840186691377312E-4  -1.294504501856864E-3  
 2.632000000000000E10   -7.590549066662788E-4  -3.490721283014864E-4  
 2.634000000000000E10   -7.584008853882551E-4   7.350833038799465E-4  
 2.636000000000000E10    5.294798174872994E-4   8.028898737393320E-4  
 2.638000000000000E10    9.781154803931713E-4  -4.831846745219082E-4  
 2.640000000000000E10   -1.883841032395139E-4  -7.774406694807112E-4  
 2.642000000000000E10   -1.074443920515478E-3  -3.454309771768749E-4  
 2.644000000000000E10   -5.723028880311176E-5   1.107709249481559E-3  
 2.646000000000000E10    7.096216431818903E-4   6.025533366482705E-5  
 2.648000000000000E10    9.602880454622209E-4  -7.075798930600286E-4  
 2.650000000000000E10   -6.787411402910948E-4  -5.863929400220513E-4  
 2.652000000000000E10   -9.253782336600125E-4   2.585449547041208E-4  
 2.654000000000000E10    5.390421210904606E-5   1.011876272968948E-3  
 2.656000000000000E10    6.598673644475639E-4  -1.058898124028929E-4  
 2.658000000000000E10    3.344494325574487E-5  -8.707409724593163E-4  
 2.660000000000000E10   -6.617960752919316E-4  -3.515833814162761E-4  
 2.662000000000000E10   -8.670878596603870E-4   7.869022083468735E-4  
 2.664000000000000E10    5.976995453238487E-4   4.544939438346773E-4  
 2.666000000000000E10    5.182205932214856E-4  -2.358225319767371E-4  
 2.668000000000000E10   -4.598992527462542E-4  -7.687701145187020E-4  
 2.670000000000000E10   -5.488592432811856E-4   2.293996367370710E-4  
 2.672000000000000E10   -9.669559221947566E-5   4.949079593643546E-4  
 2.674000000000000E10    1.608475286047906E-4  -7.704710878897458E-5  
 2.676000000000000E10    1.960852969205007E-4   4.893930599791929E-5  
 2.678000000000000E10   -2.303206565557048E-4  -4.517357156146318E-4  
 2.680000000000000E10   -5.757016479037702E-4  -8.551553764846176E-5  
 2.682000000000000E10   -1.689766504568979E-4   6.189972627907991E-4  
 2.684000000000000E10    4.917953629046679E-4   4.399710742291063E-4  
 2.686000000000000E10    3.151231503579766E-4  -3.564913640730083E-4  
 2.688000000000000E10   -4.014460137113929E-4  -6.549789104610682E-4  
 2.690000000000000E10   -3.934484848286957E-4   1.472028088755906E-4  
 2.692000000000000E10   -9.842361760092899E-5   5.147837218828499E-4  
 2.694000000000000E10    5.148988566361368E-4  -6.784272409277037E-5  
 2.696000000000000E10    1.255450479220599E-4  -3.209213609807193E-4  
 2.698000000000000E10   -1.712939701974392E-4  -4.829749814234674E-4  
 2.700000000000000E10   -4.869856347795576E-4   1.868927938630804E-4  
 2.702000000000000E10    1.193375865113922E-4   5.608399515040219E-4  
 2.704000000000000E10    8.743832586333156E-4   3.118799941148609E-4  
 2.706000000000000E10    1.814211864257231E-4  -9.560725302435458E-4  
 2.708000000000000E10   -7.482664659619331E-4  -4.208267200738192E-4  
 2.710000000000000E10   -4.181163967587054E-4   5.261284532025456E-4  
 2.712000000000000E10    8.170747896656394E-4   1.020756200887263E-3  
 2.714000000000000E10    6.813545478507876E-4  -1.433350644219900E-5  
 2.716000000000000E10    2.384802428423427E-5  -7.487019756808877E-4  
 2.718000000000000E10   -8.376925834454596E-4  -7.294008810276864E-6  
 2.720000000000000E10   -5.160166765563190E-4   7.009851979091764E-4  
 2.722000000000000E10    8.322193170897663E-4   4.985783016309142E-4  
 2.724000000000000E10    6.721292738802731E-4  -7.131150923669338E-4  
 2.726000000000000E10   -8.634921396151185E-4  -1.024886150844395E-3  
 2.728000000000000E10   -6.661651423200965E-4   4.001747001893818E-4  
 2.730000000000000E10    2.053851058008149E-4   1.158382627181709E-3  
 2.732000000000000E10    8.181196753866971E-4  -9.841385326581076E-5  
 2.734000000000000E10    4.087030829396099E-4  -6.194866728037596E-4  
 2.736000000000000E10   -7.544800755567849E-4  -4.094004980288446E-4  
 2.738000000000000E10   -6.719553493894637E-4   5.804778775200248E-4  
 2.740000000000000E10    1.749640359776095E-4   9.153003920800984E-4  
 2.742000000000000E10    9.975002612918615E-4  -1.943129173014313E-4  
 2.744000000000000E10   -1.574843772687018E-4  -1.040335162542760E-3  
 2.746000000000000E10   -8.328074472956359E-4   1.013389701256529E-4  
 2.748000000000000E10   -5.549070192500949E-4   1.027144608087838E-3  
 2.750000000000000E10    1.298280782066286E-3   1.038095215335488E-4  
 2.752000000000000E10    5.619238945655525E-4  -3.388821496628225E-4  
 2.754000000000000E10   -6.368611357174814E-4  -8.236535941250622E-4  
 2.756000000000000E10   -6.455687107518315E-4   4.516178451012820E-4  
