#  HZ   S   RI   R     50.00 
! Rohde & Schwarz ZVA40 4Ports - Version 3.90 - 1145.1110k42 SN: 100403
! Date: 2023-10-04 11:24:55
! Measurement: S12 
! 
 2.200000000000000E10   -4.255696549080312E-4   8.515844820067287E-5  
 2.202000000000000E10   -4.515474720392376E-4   7.165440474636853E-4  
 2.204000000000000E10    3.272553731221706E-4   2.300235937582329E-4  
 2.206000000000000E10    1.060440481523983E-4  -1.137734725489281E-4  
 2.208000000000000E10   -5.013438640162349E-4  -3.094021813012660E-4  
 2.210000000000000E10    1.508454588474706E-4   4.441111523192376E-4  
 2.212000000000000E10    1.640810223761946E-4   2.518852124921978E-4  
 2.214000000000000E10    4.267141048330814E-4  -1.634659274714068E-4  
 2.216000000000000E10   -4.164720303378999E-4   4.154528724029660E-4  
 2.218000000000000E10    4.873001598753035E-4   4.981804522685707E-4  
 2.220000000000000E10    2.627331923577003E-5  -7.413072307826951E-5  
 2.222000000000000E10   -7.923266384750605E-4  -2.167812053812668E-4  
 2.224000000000000E10    2.635459895827808E-5   7.005254155956209E-4  
 2.226000000000000E10    9.153035935014486E-4  -5.297125899232924E-4  
 2.228000000000000E10    3.640079057731782E-6  -9.647841216064990E-4  
 2.230000000000000E10   -1.272083376534283E-3   4.312654782552272E-4  
 2.232000000000000E10    6.845567259006202E-4   1.040595467202365E-3  
 2.234000000000000E10    7.757506100460887E-4  -2.397322823526338E-4  
 2.236000000000000E10   -5.631666281260550E-4  -6.777461385354400E-4  
 2.238000000000000E10   -8.476685034111142E-4   6.086321081966162E-4  
 2.240000000000000E10    5.093055660836399E-4   6.315126083791256E-4  
 2.242000000000000E10    3.879822324961424E-4  -4.823739873245359E-4  
 2.244000000000000E10   -6.252817111089826E-4  -3.094956337008625E-4  
 2.246000000000000E10   -1.771642564563081E-4  -1.699661661405116E-4  
 2.248000000000000E10    1.842741912696511E-4   1.996334613068029E-4  
 2.250000000000000E10    1.410633558407426E-4  -2.621177409309894E-4  
 2.252000000000000E10   -1.297653507208452E-4   3.042618045583367E-4  
 2.254000000000000E10    3.631823055911809E-4   1.682263391558081E-4  
 2.256000000000000E10   -1.415218430338427E-4  -3.248124266974628E-4  
 2.258000000000000E10   -3.238397475797683E-4  -3.335021901875734E-4  
 2.260000000000000E10   -4.287172050680965E-4   4.843159404117614E-4  
 2.262000000000000E10    4.278829728718847E-4  -2.213114203186706E-4  
 2.264000000000000E10    7.045361562632024E-4  -1.857980823842809E-4  
 2.266000000000000E10   -8.764584781602025E-4  -3.778495010919869E-4  
 2.268000000000000E10   -3.337274247314781E-4   6.035195547156036E-4  
 2.270000000000000E10    6.245517870411277E-4   7.958199712447822E-4  
 2.272000000000000E10    1.767051289789379E-4  -7.616698276251555E-4  
 2.274000000000000E10   -8.266704971902072E-4  -5.384808900998905E-5  
 2.276000000000000E10   -2.916422381531447E-4   3.394632076378912E-4  
 2.278000000000000E10    2.900159452110529E-4  -1.925971155287698E-4  
 2.280000000000000E10   -2.659790916368365E-4  -4.417572927195579E-4  
 2.282000000000000E10   -2.708923420868814E-4   2.407925203442574E-4  
 2.284000000000000E10    6.254406762309372E-4  -1.685107708908618E-4  
 2.286000000000000E10    2.501312701497227E-5  -4.180881951469928E-4  
 2.288000000000000E10   -8.425475680269301E-4   3.887458587996662E-4  
 2.290000000000000E10    2.581567969173193E-4   7.110239239409566E-4  
 2.292000000000000E10    3.723062691278756E-4  -2.005772112170234E-4  
 2.294000000000000E10   -4.000861081294715E-4  -9.673003805801272E-4  
 2.296000000000000E10   -8.017361979000270E-4   4.758166032843292E-4  
 2.298000000000000E10   -1.058037014445290E-5   4.560755915008485E-4  
 2.300000000000000E10    6.734001217409968E-4   1.599288953002542E-5  
 2.302000000000000E10   -3.715586499311030E-4  -6.087769288569689E-4  
 2.304000000000000E10   -3.335556248202920E-4   1.661309361224994E-4  
 2.306000000000000E10    3.598315379349515E-5   4.282963636796922E-4  
 2.308000000000000E10    4.632501222658902E-4  -2.773722371784970E-6  
 2.310000000000000E10   -2.163457393180579E-4  -4.617142549250275E-4  
 2.312000000000000E10   -4.409343819133937E-4  -2.052984636975452E-4  
 2.314000000000000E10   -2.794474712572992E-4   2.628010988701135E-4  
 2.316000000000000E10    1.637427340028808E-4  -6.438644486479461E-4  
 2.318000000000000E10   -2.600643783807755E-4   2.933082869276404E-4  
 2.320000000000000E10    2.903299355239142E-5   2.805923577398062E-4  
 2.322000000000000E10    6.916335551068187E-4  -4.292445955798030E-4  
 2.324000000000000E10   -8.978955447673798E-4  -6.900770822539926E-4  
 2.326000000000000E10   -7.445324445143342E-4   7.675890810787678E-4  
 2.328000000000000E10    4.890771815553308E-4   4.971772432327271E-4  
 2.330000000000000E10    5.776631878688932E-4  -1.016835914924741E-3  
 2.332000000000000E10   -1.218301709741354E-3  -6.672218441963196E-4  
 2.334000000000000E10   -4.459336632862687E-4   4.231767961755395E-4  
 2.336000000000000E10    6.365925073623657E-4   7.491513970308006E-4  
 2.338000000000000E10    1.913382438942790E-4  -7.158915395848453E-4  
 2.340000000000000E10   -2.886124129872769E-4  -1.271079090656713E-4  
 2.342000000000000E10   -4.702320147771388E-4   3.472898679319769E-4  
 2.344000000000000E10    1.768027432262898E-4   2.432947221677750E-4  
 2.346000000000000E10   -3.656737972050905E-4   3.796699165832251E-4  
 2.348000000000000E10    3.029250947292894E-4   8.976264507509768E-5  
 2.350000000000000E10    1.041719806380570E-4  -3.812816576100886E-4  
 2.352000000000000E10   -5.258020828478038E-4  -2.619627630338073E-4  
 2.354000000000000E10   -6.080314633436501E-4   1.155256322817877E-4  
 2.356000000000000E10    4.850303812418133E-4   2.391720045125112E-4  
 2.358000000000000E10    5.328119150362909E-4  -3.336370282340795E-4  
 2.360000000000000E10   -3.702620160765946E-4  -6.871987716294825E-4  
 2.362000000000000E10   -9.208574774675071E-4   2.530937490519136E-4  
 2.364000000000000E10    9.011675138026476E-5   6.930690724402666E-4  
 2.366000000000000E10    8.322054636664689E-4  -9.190542186843231E-5  
 2.368000000000000E10   -1.479316269978881E-4  -5.070159095339477E-4  
 2.370000000000000E10   -7.184075075201690E-4   8.818472997518256E-5  
 2.372000000000000E10    4.371944214653922E-6   4.634087381418794E-4  
 2.374000000000000E10    3.481651947367936E-4   2.740643685683608E-4  
 2.376000000000000E10   -1.670771016506478E-4  -2.528018085286021E-4  
 2.378000000000000E10   -3.837802214547992E-4  -2.467245794832707E-4  
 2.380000000000000E10   -2.454500354360789E-4  -3.234875330235809E-4  
 2.382000000000000E10   -2.202771865995601E-4   2.285919763380662E-4  
 2.384000000000000E10   -1.067692210199311E-4   4.090454604011029E-4  
 2.386000000000000E10    5.096569075249136E-4   7.776159327477217E-5  
 2.388000000000000E10   -1.660772395553067E-4  -6.783362478017807E-4  
 2.390000000000000E10   -4.750704101752490E-4   7.856138836359605E-5  
 2.392000000000000E10   -3.564351936802268E-4   9.653390152379870E-4  
 2.394000000000000E10    4.387595108710229E-4   1.535090450488497E-5  
 2.396000000000000E10   -3.450326039455831E-5  -5.222671316005290E-4  
 2.398000000000000E10   -6.540714530274272E-4  -6.000005305395462E-5  
 2.400000000000000E10   -5.970904021523893E-4   3.089504607487470E-4  
 2.402000000000000E10    1.576674694661051E-4   3.673782630357891E-4  
 2.404000000000000E10    2.465761208441109E-4   5.603909085039049E-5  
 2.406000000000000E10    2.650489914231002E-4  -3.508664085529745E-4  
 2.408000000000000E10   -4.284197348169982E-4  -1.508296190877445E-5  
 2.410000000000000E10   -6.445224862545729E-4   4.431428096722812E-4  
 2.412000000000000E10    3.427592746447772E-4   6.114948773756623E-4  
 2.414000000000000E10    6.164823425933719E-4  -1.650518242968246E-4  
 2.416000000000000E10   -1.219507903442718E-4  -6.449769134633243E-4  
 2.418000000000000E10   -8.031430188566446E-4  -4.491807885642629E-7  
 2.420000000000000E10   -7.898887270130217E-5   6.521642790175974E-4  
 2.422000000000000E10    5.328952684067190E-4   1.318253198405728E-4  
 2.424000000000000E10    8.023124537430704E-4  -5.483285640366375E-4  
 2.426000000000000E10   -4.183292330708355E-4  -3.300262906122953E-4  
 2.428000000000000E10   -9.178261389024556E-4   4.917883197776973E-4  
 2.430000000000000E10    2.215728745795786E-4   1.020140480250120E-3  
 2.432000000000000E10    7.676397799514234E-4  -1.876161695690826E-4  
 2.434000000000000E10   -2.754603629000485E-4  -7.570559973828495E-4  
 2.436000000000000E10   -6.344151333905757E-4  -1.239684061147273E-4  
 2.438000000000000E10   -2.861661196220666E-4   4.786900826729834E-4  
 2.440000000000000E10    6.411138456314802E-4   4.692755755968392E-4  
 2.442000000000000E10    8.496365044265986E-4   4.628133610822260E-4  
 2.444000000000000E10    3.522197075653821E-4  -7.950222352519631E-4  
 2.446000000000000E10   -6.400982965715230E-4  -5.870111999684013E-5  
 2.448000000000000E10   -6.556651205755770E-4   9.307058644481003E-4  
 2.450000000000000E10    5.770535790361464E-4   2.736349415499717E-4  
 2.452000000000000E10    5.674764397554100E-4  -6.960584432817996E-4  
 2.454000000000000E10   -7.697906694374979E-4  -6.492655375041068E-4  
 2.456000000000000E10   -5.924387369304895E-4   1.793772244127467E-4  
 2.458000000000000E10    4.324867913965136E-4   5.957853863947094E-4  
 2.460000000000000E10    6.916230195201933E-4   5.284898725221865E-5  
 2.462000000000000E10    2.661880862433463E-4  -4.654851509258151E-4  
 2.464000000000000E10   -3.078022273257375E-4  -3.963492927141488E-4  
 2.466000000000000E10   -8.499575196765363E-4   5.150792421773076E-4  
 2.468000000000000E10    3.613323788158596E-4   6.996969459578395E-4  
 2.470000000000000E10    9.258299251087010E-4  -1.546026760479435E-4  
 2.472000000000000E10   -6.280904926825315E-5  -1.085378229618073E-3  
 2.474000000000000E10   -7.292681839317083E-4  -1.224856532644481E-4  
 2.476000000000000E10   -4.931451371703588E-7   1.082626287825406E-3  
 2.478000000000000E10    1.027481863275170E-3   3.247453423682600E-4  
 2.480000000000000E10    5.295380251482129E-4  -5.568182095885277E-4  
 2.482000000000000E10   -4.634140059351921E-4  -5.439916858449578E-4  
 2.484000000000000E10   -8.402522653341293E-4   3.999361360911280E-4  
 2.486000000000000E10    4.948545829392970E-4   2.958519035018981E-4  
 2.488000000000000E10    7.536526536568999E-4   1.020295621856349E-5  
 2.490000000000000E10    8.249060192611069E-5  -8.966191671788693E-4  
 2.492000000000000E10   -2.192756801377982E-4  -2.193299005739391E-4  
 2.494000000000000E10   -1.287947234231979E-4   6.286118295975030E-4  
 2.496000000000000E10    4.212629864923656E-4   3.902052703779191E-4  
 2.498000000000000E10    2.679193567018956E-4   1.468791597289965E-4  
 2.500000000000000E10    4.216787056066096E-5   1.491136117692804E-5  
 2.502000000000000E10   -6.053986726328731E-4  -2.223126066382974E-4  
 2.504000000000000E10   -4.224428557790816E-4   3.022943565156311E-4  
 2.506000000000000E10    4.745944752357900E-4   6.684320978820324E-4  
 2.508000000000000E10    7.339761941693723E-4  -5.093481740914285E-4  
 2.510000000000000E10    4.270537829142995E-5  -4.494249878916889E-4  
 2.512000000000000E10   -6.470081862062216E-4  -3.225329783163033E-5  
 2.514000000000000E10    3.948897938244045E-4   8.363380329683423E-4  
 2.516000000000000E10    4.663727886509150E-4  -2.720664633670822E-5  
 2.518000000000000E10    1.884036028059200E-4  -2.980502904392779E-4  
 2.520000000000000E10   -3.804802254308015E-4  -8.344199159182608E-5  
 2.522000000000000E10    2.639977719809394E-5  -1.369253732264042E-4  
 2.524000000000000E10   -3.994186408817768E-4   2.504677104298025E-4  
 2.526000000000000E10    4.171870823483914E-4   9.207359107676894E-5  
 2.528000000000000E10    6.150167318992317E-4   1.463627268094569E-4  
 2.530000000000000E10   -4.296569386497140E-4  -7.482990040443838E-4  
 2.532000000000000E10   -5.729460972361267E-4   4.577056970447302E-4  
 2.534000000000000E10   -3.048200742341578E-4   7.595575298182666E-4  
 2.536000000000000E10    7.597270305268467E-4  -2.201124334533233E-5  
 2.538000000000000E10    2.119688724633306E-4  -7.946375990286470E-4  
 2.540000000000000E10   -5.117550608702004E-4  -6.020616856403649E-4  
 2.542000000000000E10   -7.495266618207097E-4   4.583222325891256E-4  
 2.544000000000000E10    8.087398600764573E-4   7.705775205977261E-4  
 2.546000000000000E10    8.049733587540686E-4  -5.258750752545893E-4  
 2.548000000000000E10   -5.835273259435780E-5  -1.128955627791584E-3  
 2.550000000000000E10   -1.009306870400906E-3   2.432097098790109E-4  
 2.552000000000000E10   -1.153733683167957E-4   8.345859241671860E-4  
 2.554000000000000E10    9.703758987598121E-4   4.021112690679729E-4  
 2.556000000000000E10   -4.010037446278147E-5  -1.249022781848908E-3  
 2.558000000000000E10   -8.156055700965226E-4  -6.119151948951185E-4  
 2.560000000000000E10   -7.092440500855446E-4   6.264693802222610E-4  
 2.562000000000000E10    6.675085751339793E-4   6.548677920363843E-4  
 2.564000000000000E10    8.826675475575030E-4  -4.773299733642489E-4  
 2.566000000000000E10   -1.299792784266174E-4  -7.135078194551170E-4  
 2.568000000000000E10   -1.055213739164174E-3  -1.411760022165254E-4  
 2.570000000000000E10   -5.119646175444359E-6   8.419023361057043E-4  
 2.572000000000000E10    4.876778111793101E-4   4.532239690888673E-4  
 2.574000000000000E10    3.875765250995755E-4  -9.271833114326000E-4  
 2.576000000000000E10   -9.146217489615083E-4  -4.241147544234991E-4  
 2.578000000000000E10   -8.662905893288553E-4   3.460512962192297E-4  
 2.580000000000000E10    4.830867983400822E-4   5.129108321852982E-4  
 2.582000000000000E10    6.173765286803246E-4  -3.598882758524269E-4  
 2.584000000000000E10    1.336384229944088E-5  -1.053695916198194E-3  
 2.586000000000000E10   -5.594905233010650E-4  -5.137277184985578E-4  
 2.588000000000000E10   -3.536075819283724E-4   1.019602641463280E-3  
 2.590000000000000E10    2.154035028070211E-4   2.558022970333695E-4  
 2.592000000000000E10    5.006536375731230E-4  -5.162472953088582E-4  
 2.594000000000000E10   -9.018484852276743E-4  -2.960437559522688E-4  
 2.596000000000000E10   -5.146398325450718E-4   1.851453416747972E-4  
 2.598000000000000E10    3.200389910489321E-4   9.258862701244652E-5  
 2.600000000000000E10   -9.374593355460092E-5  -3.647203557193279E-4  
 2.602000000000000E10   -4.206252924632281E-4  -4.850472032558173E-5  
 2.604000000000000E10    4.887236718786880E-5   6.132796988822520E-5  
 2.606000000000000E10   -7.932822336442769E-5  -2.379676443524659E-4  
 2.608000000000000E10   -8.992851508082822E-5   3.798267280217260E-4  
 2.610000000000000E10    2.940858939837199E-5   5.950140184722841E-4  
 2.612000000000000E10    2.285788214066997E-4   2.882101762224920E-5  
 2.614000000000000E10   -3.352545900270343E-5  -4.093805036973208E-4  
 2.616000000000000E10   -6.800653645768762E-4  -2.621193998493254E-4  
 2.618000000000000E10   -4.015179583802819E-4   3.423436137381941E-4  
 2.620000000000000E10    3.861618752125651E-4   3.616816247813404E-4  
 2.622000000000000E10    5.864131380803883E-4  -3.639508213382214E-4  
 2.624000000000000E10   -2.153369132429361E-4  -5.391059094108641E-4  
 2.626000000000000E10   -5.053440108895302E-4   4.912271469947882E-5  
 2.628000000000000E10    6.308974843705073E-5   5.761160864494741E-4  
 2.630000000000000E10    5.518580437637866E-4   3.463500179350376E-4  
 2.632000000000000E10    3.255023038946092E-4  -5.635393899865449E-4  
 2.634000000000000E10   -2.726616803556681E-4  -4.442928766366094E-4  
 2.636000000000000E10   -4.750511143356562E-4   2.962361031677574E-4  
 2.638000000000000E10    3.160597407259047E-4   5.067561869509518E-4  
 2.640000000000000E10    8.825770928524435E-4   2.249257886433043E-5  
 2.642000000000000E10    2.878173254430294E-4  -5.849401932209730E-4  
 2.644000000000000E10   -8.528124890290201E-4  -5.029026651754975E-4  
 2.646000000000000E10   -5.640793824568391E-4   1.053264946676791E-3  
 2.648000000000000E10    6.164751248434186E-4   7.337076822295785E-4  
 2.650000000000000E10    9.901151061058044E-4  -7.695516687817872E-4  
 2.652000000000000E10   -5.959616391919553E-4  -7.346938946284354E-4  
 2.654000000000000E10   -1.057932619005442E-3   2.260484616272152E-4  
 2.656000000000000E10    2.879065577872098E-4   8.919297833926976E-4  
 2.658000000000000E10    1.273406785912812E-3  -1.463083463022485E-4  
 2.660000000000000E10    1.776029093889520E-4  -9.512235992588103E-4  
 2.662000000000000E10   -6.303252885118127E-4  -3.185451787430793E-4  
 2.664000000000000E10   -5.608925130218267E-4   7.607330335304141E-4  
 2.666000000000000E10    6.360473926179111E-4   3.813839866779745E-4  
 2.668000000000000E10    9.879672434180975E-4  -1.831904082791880E-4  
 2.670000000000000E10   -3.120511246379465E-4  -9.997427696362138E-4  
 2.672000000000000E10   -7.843865314498544E-4   6.293318165262463E-6  
 2.674000000000000E10   -4.635426739696413E-4   1.133192912675440E-3  
 2.676000000000000E10    7.344570476561785E-4  -9.229296847479418E-5  
 2.678000000000000E10    3.514541895128787E-4  -4.658096586354077E-4  
 2.680000000000000E10   -7.883125799708068E-4  -5.402329261414707E-4  
 2.682000000000000E10   -3.414595266804099E-4   3.551770641934127E-4  
 2.684000000000000E10    5.940678602200933E-5   6.536280270665884E-4  
 2.686000000000000E10    8.110555936582387E-4   1.034284578054212E-4  
 2.688000000000000E10    1.524573890492320E-4  -7.346529746428132E-4  
 2.690000000000000E10   -8.752230787649751E-4  -3.515012213028967E-4  
 2.692000000000000E10   -6.611634162254632E-4   5.184406763873994E-4  
 2.694000000000000E10    5.000844248570502E-4   4.787262587342411E-4  
 2.696000000000000E10    3.633458982221782E-4  -4.362947656773031E-4  
 2.698000000000000E10   -1.140592867159285E-4  -6.419303826987743E-4  
 2.700000000000000E10   -6.775025976821780E-4   3.287736399215646E-5  
 2.702000000000000E10   -1.935057807713747E-4   1.562793477205560E-4  
 2.704000000000000E10    1.262013684026897E-4   3.648851125035435E-4  
 2.706000000000000E10    4.536022315733135E-4  -3.584278747439385E-4  
 2.708000000000000E10   -1.432882127119228E-4  -5.710051627829671E-4  
 2.710000000000000E10   -9.618052281439304E-4  -5.698293534805998E-6  
 2.712000000000000E10   -9.592215792508796E-5   5.084607400931418E-4  
 2.714000000000000E10    6.166059174574912E-4   1.177053636638448E-4  
 2.716000000000000E10    2.826604177244008E-4  -8.568089688196778E-4  
 2.718000000000000E10   -3.450627264101058E-4  -5.133400554768741E-4  
 2.720000000000000E10   -5.031395121477544E-4   2.066157758235931E-4  
 2.722000000000000E10    3.792647839873098E-5   8.131667273119092E-4  
 2.724000000000000E10    3.212457813788205E-4  -2.261368717881851E-5  
 2.726000000000000E10    3.174936573486775E-4  -4.073185846209526E-4  
 2.728000000000000E10   -5.498018581420183E-4  -4.188413731753826E-4  
 2.730000000000000E10   -7.195766083896160E-4   1.285793550778180E-4  
 2.732000000000000E10    3.921351744793356E-4   7.176783983595669E-4  
 2.734000000000000E10    8.669435628689826E-4  -3.262739337515086E-4  
 2.736000000000000E10    1.784395863069221E-4  -6.818873807787895E-4  
 2.738000000000000E10   -9.599057957530022E-4  -9.026682528201491E-5  
 2.740000000000000E10   -1.734718971420080E-4   8.801121730357409E-4  
 2.742000000000000E10    6.574007566086948E-4   6.906329654157162E-4  
 2.744000000000000E10    6.986042717471719E-4  -2.930896007455885E-4  
 2.746000000000000E10   -6.299277301877737E-4  -7.531998562626541E-4  
 2.748000000000000E10   -9.107153164222837E-4   6.219602073542774E-5  
 2.750000000000000E10    6.289491011557402E-6   1.129191135987639E-3  
 2.752000000000000E10    8.742086356505752E-4  -6.254166510188952E-5  
 2.754000000000000E10    3.568720130715519E-4  -6.222176598384976E-4  
 2.756000000000000E10   -9.404575102962554E-4  -8.342688670381904E-5  
