#  HZ   S   RI   R     50.00 
! Rohde & Schwarz ZVA40 4Ports - Version 3.90 - 1145.1110k42 SN: 100403
! Date: 2023-10-04 11:24:29
! Measurement: S12 
! 
 2.200000000000000E10   -6.380096310749650E-4  -4.176002985332161E-4  
 2.202000000000000E10    2.947811444755644E-4   8.884787093847990E-4  
 2.204000000000000E10    1.054049702361226E-3   8.774401794653386E-5  
 2.206000000000000E10   -1.085129260900430E-4  -7.341458112932742E-4  
 2.208000000000000E10   -5.833864561282098E-4   6.629167473874986E-4  
 2.210000000000000E10    4.185446887277067E-4   8.414085605181754E-4  
 2.212000000000000E10    2.371471055084840E-4  -7.007432868704200E-4  
 2.214000000000000E10   -2.950457273982465E-4  -5.568533088080585E-4  
 2.216000000000000E10   -4.859406617470086E-4   6.515412824228406E-4  
 2.218000000000000E10    1.119688502512872E-3   1.105583505704999E-4  
 2.220000000000000E10    3.797150566242635E-4  -6.039412692189217E-4  
 2.222000000000000E10   -3.697177162393928E-4  -2.644011110533029E-4  
 2.224000000000000E10   -4.746264312416315E-4   7.490579737350345E-4  
 2.226000000000000E10    6.764392601326108E-4   2.080685080727562E-4  
 2.228000000000000E10    2.936428063549101E-4  -6.908852956257761E-4  
 2.230000000000000E10   -7.480377098545432E-4  -6.236738408915699E-4  
 2.232000000000000E10    8.921208063839003E-6   2.878230297937989E-4  
 2.234000000000000E10    4.074392199981958E-4   3.223849926143885E-4  
 2.236000000000000E10    8.431749884039164E-4  -7.079133065417409E-4  
 2.238000000000000E10   -5.555930547416210E-4  -8.044797141337767E-5  
 2.240000000000000E10    2.152168599423021E-4   5.572608788497746E-4  
 2.242000000000000E10    9.327376028522849E-5  -5.016468276153319E-5  
 2.244000000000000E10   -2.940080012194812E-4  -2.911727351602167E-4  
 2.246000000000000E10   -1.014877270790748E-4   8.875801577232778E-4  
 2.248000000000000E10    4.213374340906739E-4  -3.628920821938664E-4  
 2.250000000000000E10   -3.047952668566722E-5  -8.139662677422166E-4  
 2.252000000000000E10   -7.918365881778300E-4   4.199123650323600E-4  
 2.254000000000000E10    7.562260725535452E-4   7.229608017951250E-4  
 2.256000000000000E10    8.360538049601018E-4  -3.877883718814701E-4  
 2.258000000000000E10   -6.461226148530841E-4  -6.663522217422724E-4  
 2.260000000000000E10   -1.223721192218363E-3   6.259419023990631E-4  
 2.262000000000000E10    4.642159910872579E-4   7.455147569999099E-4  
 2.264000000000000E10    1.469581329729408E-4  -5.739132175222039E-4  
 2.266000000000000E10   -1.960502122528851E-4  -9.872134542092681E-4  
 2.268000000000000E10   -4.543311079032719E-4   4.285940376576036E-4  
 2.270000000000000E10    1.851073029683903E-4  -1.711966033326462E-4  
 2.272000000000000E10    3.831601643469185E-4   1.417637977283448E-4  
 2.274000000000000E10    1.004401492536999E-4  -3.195173849235289E-5  
 2.276000000000000E10    5.750389391323552E-5   1.413054123986512E-4  
 2.278000000000000E10   -1.894870219985023E-4   5.417226202553138E-5  
 2.280000000000000E10   -2.802871167659760E-4   5.269013490760699E-5  
 2.282000000000000E10   -7.261032587848604E-4   1.079050562111661E-4  
 2.284000000000000E10    4.484674427658320E-4   1.582665281603113E-4  
 2.286000000000000E10    4.265704774297774E-4  -3.805995511356741E-4  
 2.288000000000000E10   -4.702567239291966E-4  -4.330102528911084E-4  
 2.290000000000000E10   -2.740245836321265E-4   6.964565254747868E-4  
 2.292000000000000E10    8.093097712844610E-4   5.963775329291821E-4  
 2.294000000000000E10    1.915738394018263E-4  -3.529337700456381E-4  
 2.296000000000000E10   -7.027009269222617E-4  -1.816048024920747E-4  
 2.298000000000000E10   -1.909604325192049E-4   6.943524349480867E-4  
 2.300000000000000E10    2.785524120554328E-4   1.662834256421775E-4  
 2.302000000000000E10    2.992030931636691E-4  -5.010138847865164E-4  
 2.304000000000000E10   -2.408604268566705E-5   2.627497597131878E-4  
 2.306000000000000E10    2.511279017198831E-4  -1.106660856748931E-4  
 2.308000000000000E10   -2.280207845615223E-4   1.062800874933600E-4  
 2.310000000000000E10   -3.110553370788693E-4   4.706472100224346E-4  
 2.312000000000000E10    6.247978308238089E-4   4.891338176093996E-4  
 2.314000000000000E10    1.927520497702062E-4  -2.790018916130066E-4  
 2.316000000000000E10   -5.769553245045245E-4  -6.255313055589795E-4  
 2.318000000000000E10   -5.539571866393089E-4   6.416979595087469E-4  
 2.320000000000000E10    5.467415903694928E-4   5.257034208625555E-4  
 2.322000000000000E10    5.633254186250269E-4  -2.504001313354820E-4  
 2.324000000000000E10   -1.913954038172960E-4  -3.667968558147550E-4  
 2.326000000000000E10   -5.553011433221400E-4   4.557534120976925E-4  
 2.328000000000000E10   -2.064424370473716E-5   9.103061747737229E-4  
 2.330000000000000E10    7.000333280302584E-4   4.994609844288789E-5  
 2.332000000000000E10   -3.410308272577822E-4  -5.209380760788918E-4  
 2.334000000000000E10   -7.320719887502492E-4   4.261950016370975E-5  
 2.336000000000000E10    6.192649016156793E-5   2.985685714520514E-4  
 2.338000000000000E10    2.115193055942655E-4  -1.118136933655478E-4  
 2.340000000000000E10    1.630477781873196E-4   1.249471824849024E-4  
 2.342000000000000E10    1.843715290306136E-4   3.083609335590154E-4  
 2.344000000000000E10   -6.450613727793098E-5  -8.790855645202100E-5  
 2.346000000000000E10   -3.515194403007627E-4   1.285790640395135E-4  
 2.348000000000000E10    7.661433869543544E-7   5.725880619138479E-4  
 2.350000000000000E10    5.631090607494116E-4   4.996235948055983E-4  
 2.352000000000000E10   -5.429701559478417E-5  -9.389339247718453E-4  
 2.354000000000000E10   -9.730016463436186E-4  -4.320720327086747E-4  
 2.356000000000000E10    1.378805754939094E-4   1.085534226149321E-3  
 2.358000000000000E10    1.227525877766311E-3   2.469605533406138E-4  
 2.360000000000000E10    1.469813869334757E-4  -9.588921675458551E-4  
 2.362000000000000E10   -4.782614705618471E-4  -1.909845013869926E-4  
 2.364000000000000E10   -3.504760388750583E-4   6.840779096819460E-4  
 2.366000000000000E10    4.110402951482683E-4   5.655834684148431E-4  
 2.368000000000000E10    3.273216134402901E-4  -2.579732972662896E-4  
 2.370000000000000E10   -5.050142135587521E-5  -4.152315959800035E-4  
 2.372000000000000E10   -3.323557612020522E-4   1.739136641845107E-4  
 2.374000000000000E10    2.222935836471152E-5   3.929302620235831E-4  
 2.376000000000000E10    5.041037220507860E-4   3.578884643502533E-4  
 2.378000000000000E10    5.250375834293664E-4  -2.417904470348731E-4  
 2.380000000000000E10   -3.738839586731046E-5  -2.158236602554098E-4  
 2.382000000000000E10   -5.559240235015750E-4  -1.715209509711713E-4  
 2.384000000000000E10   -9.211387077812105E-5   8.278728346340358E-4  
 2.386000000000000E10    3.326538717374206E-4   2.990472421515733E-4  
 2.388000000000000E10    5.043353303335607E-4  -7.867456297390163E-4  
 2.390000000000000E10   -3.687527787405998E-4  -4.492180305533111E-4  
 2.392000000000000E10   -3.204819222446531E-4   6.274810875765979E-4  
 2.394000000000000E10    6.410186178982258E-4   4.161629185546190E-4  
 2.396000000000000E10    5.945133161731064E-4  -6.730011955369264E-5  
 2.398000000000000E10   -4.975576885044575E-4  -5.121604190208018E-4  
 2.400000000000000E10   -2.392609312664717E-4   1.038602567859925E-4  
 2.402000000000000E10   -2.639862650539726E-4   3.381468995939940E-4  
 2.404000000000000E10    9.136144944932312E-5  -2.811598824337125E-4  
 2.406000000000000E10    3.845159953925759E-4   2.678957207535859E-5  
 2.408000000000000E10    1.429933035979047E-4  -3.745721769519150E-4  
 2.410000000000000E10   -4.670914131565951E-5  -6.395643140422180E-5  
 2.412000000000000E10   -5.885278733330779E-5   2.926236193161458E-4  
 2.414000000000000E10    3.602157521527261E-4   5.043536075390875E-4  
 2.416000000000000E10    5.269895773380995E-4  -2.127325424226001E-4  
 2.418000000000000E10   -2.439903619233519E-4  -1.127892101067118E-4  
 2.420000000000000E10   -6.267414428293705E-4  -9.612968278815970E-5  
 2.422000000000000E10    3.477125719655305E-4   2.935609081760049E-4  
 2.424000000000000E10    3.032243985217065E-4  -1.618386741029099E-4  
 2.426000000000000E10    4.464226076379418E-4  -5.163412424735725E-4  
 2.428000000000000E10    1.776911085471511E-4  -2.182047755923122E-4  
 2.430000000000000E10   -2.602371969260275E-4   5.635466368403286E-5  
 2.432000000000000E10   -1.953778992174193E-4   6.612617871724069E-4  
 2.434000000000000E10    9.494805708527565E-4   2.530617348384112E-4  
 2.436000000000000E10    1.014361041598022E-4  -7.195373182184994E-4  
 2.438000000000000E10   -7.961285300552845E-4  -7.080195937305689E-4  
 2.440000000000000E10   -4.522239905782044E-4   5.839640507474542E-4  
 2.442000000000000E10    5.482644774019718E-4   2.177670685341582E-4  
 2.444000000000000E10    1.128233852796257E-3  -6.630967254750431E-4  
 2.446000000000000E10   -3.180706698913127E-4  -6.339910323731601E-4  
 2.448000000000000E10   -6.649631541222334E-4   3.080701571889222E-4  
 2.450000000000000E10    1.412899873685092E-4   8.624230395071209E-4  
 2.452000000000000E10    5.594732356257737E-4   2.285990049131215E-4  
 2.454000000000000E10    1.746360358083621E-4  -7.108269492164254E-4  
 2.456000000000000E10   -4.812545957975090E-4  -3.832657821476460E-4  
 2.458000000000000E10   -5.498665850609541E-4   1.119853477575816E-4  
 2.460000000000000E10    2.296892926096916E-4   4.286237235646695E-4  
 2.462000000000000E10    8.480619289912283E-4   2.086872409563512E-4  
 2.464000000000000E10    1.326281198998913E-4  -8.249565726146102E-4  
 2.466000000000000E10   -8.184348698705435E-4  -3.285156708443537E-5  
 2.468000000000000E10   -9.209948475472629E-4   7.359512965194881E-4  
 2.470000000000000E10    5.161067238077521E-4   6.104620406404138E-4  
 2.472000000000000E10    8.877770742401481E-4  -6.923528853803873E-4  
 2.474000000000000E10   -4.134532355237752E-4  -1.359403948299587E-3  
 2.476000000000000E10   -1.108921365812421E-3   1.225729647558183E-4  
 2.478000000000000E10    2.435839705867693E-4   1.084097661077976E-3  
 2.480000000000000E10    1.191073562949896E-3  -7.875637493270915E-6  
 2.482000000000000E10    4.980970697943121E-5  -6.744967540726066E-4  
 2.484000000000000E10   -7.952752057462931E-4  -2.404143160674721E-4  
 2.486000000000000E10   -4.942300147376955E-4   6.947588408365846E-4  
 2.488000000000000E10    8.342303772224113E-5   2.886344154831022E-4  
 2.490000000000000E10    4.682717844843864E-4  -4.207830352243036E-4  
 2.492000000000000E10   -5.266761581879109E-5  -1.032284926623106E-3  
 2.494000000000000E10   -6.183796213008463E-4  -7.949247374199331E-4  
 2.496000000000000E10   -2.978350494231563E-5   6.423932500183582E-4  
 2.498000000000000E10    7.844284409657121E-4   4.131169989705086E-4  
 2.500000000000000E10    6.242989911697805E-4  -6.469823420047760E-4  
 2.502000000000000E10   -6.947686779312789E-4  -6.883386522531509E-4  
 2.504000000000000E10   -7.867147214710712E-4   2.052331401500851E-4  
 2.506000000000000E10    7.248525798786432E-5   2.651232352945954E-4  
 2.508000000000000E10    6.118259625509381E-4  -3.066227363888174E-4  
 2.510000000000000E10   -1.507399156253086E-5  -1.066286116838455E-3  
 2.512000000000000E10   -3.630442661233246E-4  -3.485484921839088E-4  
 2.514000000000000E10   -3.554156282916665E-4   6.619420018978417E-4  
 2.516000000000000E10    5.842832033522427E-4   4.109698056709021E-4  
 2.518000000000000E10    2.932440547738224E-4   1.264855382032692E-4  
 2.520000000000000E10   -3.487682843115181E-4  -3.869964857585728E-4  
 2.522000000000000E10   -5.150405922904611E-4   6.624620436923578E-5  
 2.524000000000000E10   -3.792101324506803E-6   1.817849260987714E-4  
 2.526000000000000E10    1.581896649440751E-4   2.632264804560691E-4  
 2.528000000000000E10    1.925712567754090E-4  -3.022880991920829E-4  
 2.530000000000000E10    2.962315047625452E-4  -4.021547647425905E-5  
 2.532000000000000E10   -3.690822341013700E-4  -2.870617026928812E-5  
 2.534000000000000E10   -1.983925612876192E-4   1.614100765436888E-4  
 2.536000000000000E10    5.012073233956471E-5   5.521065322682262E-4  
 2.538000000000000E10    4.887363757006824E-4  -1.625089680601377E-5  
 2.540000000000000E10   -6.490736850537360E-4  -4.642696876544505E-4  
 2.542000000000000E10   -4.863674403168261E-4  -2.418658114038408E-4  
 2.544000000000000E10   -1.199160105898045E-4   8.294450817629695E-4  
 2.546000000000000E10    5.268030217848718E-4   2.652739385666791E-5  
 2.548000000000000E10    2.593503159005195E-4  -2.644233463797718E-4  
 2.550000000000000E10   -2.665593347046524E-4  -5.419836961664259E-4  
 2.552000000000000E10   -5.090495687909424E-4   6.468406063504517E-4  
 2.554000000000000E10   -1.100045337807387E-4   4.365814966149628E-4  
 2.556000000000000E10    7.098136702552438E-4   1.596978399902582E-4  
 2.558000000000000E10   -1.364311756333336E-4  -5.552158690989018E-4  
 2.560000000000000E10   -5.688076489605010E-4  -5.149692296981812E-4  
 2.562000000000000E10   -5.394765175879002E-4   6.831495556980372E-4  
 2.564000000000000E10    1.639732363400981E-4   4.485519893933088E-4  
 2.566000000000000E10    9.648376144468784E-4  -4.606703005265445E-4  
 2.568000000000000E10   -1.371686521451920E-4  -9.104944765567780E-4  
 2.570000000000000E10   -1.034670625813305E-3  -1.638899993849918E-4  
 2.572000000000000E10   -3.264006954850629E-5   1.205378095619381E-3  
 2.574000000000000E10    9.420878486707807E-4   5.366645054891706E-4  
 2.576000000000000E10    4.735392285510898E-4  -1.360077760182321E-3  
 2.578000000000000E10   -1.161401043646038E-3  -2.846098795998842E-4  
 2.580000000000000E10   -9.077540598809719E-4   8.648227085359395E-4  
 2.582000000000000E10    9.920945158228278E-4   8.505991427227855E-4  
 2.584000000000000E10    7.924183155409992E-4  -6.043951725587249E-4  
 2.586000000000000E10   -6.505523924715817E-4  -8.949736948125064E-4  
 2.588000000000000E10   -5.465478170663118E-4   3.863927558995783E-4  
 2.590000000000000E10    2.699392207432538E-4   7.985694101080298E-4  
 2.592000000000000E10    6.787666934542358E-4   1.302059245062992E-4  
 2.594000000000000E10    2.417498762952164E-4  -4.583466507028788E-4  
 2.596000000000000E10   -7.052604923956096E-4  -3.287851868662983E-4  
 2.598000000000000E10   -4.138854856137186E-4   6.046413909643889E-4  
 2.600000000000000E10    1.528491702629253E-4   7.158479420468211E-4  
 2.602000000000000E10    7.102771196514368E-4  -1.838133175624535E-4  
 2.604000000000000E10   -1.649082114454359E-4  -8.470694301649928E-4  
 2.606000000000000E10   -7.206229493021965E-4  -1.130851014750078E-4  
 2.608000000000000E10   -1.196333978441544E-4   4.928951966576278E-4  
 2.610000000000000E10    4.537977220024914E-4   5.359978531487286E-4  
 2.612000000000000E10    2.213642874266952E-4  -1.486233377363533E-4  
 2.614000000000000E10    2.011138349189423E-5  -4.432192654348910E-4  
 2.616000000000000E10   -1.090811332687736E-3   2.367075067013502E-4  
 2.618000000000000E10   -1.355953718302771E-4   4.654245858546346E-4  
 2.620000000000000E10    5.388518329709768E-4  -7.249839836731553E-5  
 2.622000000000000E10    4.190757681499235E-5  -5.666952347382903E-4  
 2.624000000000000E10   -3.265985869802535E-4  -3.528629022184759E-4  
 2.626000000000000E10    1.115255581680685E-4   4.195368674118072E-4  
 2.628000000000000E10    2.397734060650691E-4   1.617709058336914E-4  
 2.630000000000000E10    1.310254301642999E-4  -3.037594724446535E-4  
 2.632000000000000E10    1.848937972681597E-4   3.512676921673119E-4  
 2.634000000000000E10   -1.311016676481813E-4  -7.181153341662139E-5  
 2.636000000000000E10    6.452736124629155E-5  -3.780197002924979E-4  
 2.638000000000000E10   -4.554070474114269E-4   2.495502412784845E-4  
 2.640000000000000E10    2.840629022102803E-4   3.570558037608862E-4  
 2.642000000000000E10    5.808683927170932E-4  -4.334570257924497E-4  
 2.644000000000000E10   -2.940042468253523E-4  -7.365355268120766E-4  
 2.646000000000000E10   -6.761614349670708E-4   2.884819114115089E-4  
 2.648000000000000E10    7.641101547051221E-5   6.140370969660580E-4  
 2.650000000000000E10    7.016632589511573E-4   2.896978403441608E-4  
 2.652000000000000E10    1.273812958970666E-4  -8.088138420134783E-4  
 2.654000000000000E10   -7.604878628626466E-4  -1.954092440428212E-4  
 2.656000000000000E10   -5.975033855065703E-4   2.915089426096529E-4  
 2.658000000000000E10    4.312461533118039E-4   5.465178983286023E-4  
 2.660000000000000E10    4.703679878730327E-4  -1.889699924504384E-4  
 2.662000000000000E10   -1.539301592856646E-4  -5.950286868028343E-4  
 2.664000000000000E10   -8.062662091106176E-4  -5.395125481300056E-5  
 2.666000000000000E10   -2.180966839659959E-4   7.299100980162621E-4  
 2.668000000000000E10    4.806501092389226E-4   5.021001561544836E-4  
 2.670000000000000E10    5.748625844717026E-4  -6.481672171503305E-4  
 2.672000000000000E10   -6.876685656607151E-4  -6.979462341405451E-4  
 2.674000000000000E10   -9.058287832885981E-4   7.093875319696963E-5  
 2.676000000000000E10    1.004547229968011E-4   1.301814569160342E-3  
 2.678000000000000E10    7.748413481749594E-4  -1.363006304018199E-4  
 2.680000000000000E10    4.293970996513963E-4  -1.252380199730396E-3  
 2.682000000000000E10   -1.311080995947123E-3   1.548895306768827E-5  
 2.684000000000000E10   -3.322843404021114E-4   6.610187701880932E-4  
 2.686000000000000E10    7.087757694534957E-4   5.683269118890166E-4  
 2.688000000000000E10    6.024581380188465E-4  -7.416701409965754E-4  
 2.690000000000000E10   -3.959143650718033E-4  -4.961707745678723E-4  
 2.692000000000000E10   -7.050794665701687E-4   1.479183993069455E-4  
 2.694000000000000E10   -4.986715066479519E-5   9.451572550460696E-4  
 2.696000000000000E10    6.873473757877946E-4   3.872486122418195E-4  
 2.698000000000000E10    4.136906063649803E-4  -5.941025447100401E-4  
 2.700000000000000E10   -5.540649872273207E-4  -5.068427999503911E-4  
 2.702000000000000E10   -4.077756602782756E-4   7.329714135266841E-4  
 2.704000000000000E10    5.089819896966219E-4   9.889155626296997E-4  
 2.706000000000000E10    8.045770809985697E-4  -3.328310558572412E-4  
 2.708000000000000E10   -3.618712362367660E-4  -7.628613966517150E-4  
 2.710000000000000E10   -7.011006237007678E-4  -1.860604243120179E-4  
 2.712000000000000E10   -2.679865574464202E-4   6.561595364473760E-4  
 2.714000000000000E10    2.274075814057142E-4   4.239566915202886E-4  
 2.716000000000000E10    7.042536162771285E-4  -4.942590021528304E-4  
 2.718000000000000E10   -2.113150694640353E-4  -7.207582239061594E-4  
 2.720000000000000E10   -5.932186613790691E-4   3.323032069602050E-5  
 2.722000000000000E10    1.929039572132751E-4   7.305823964998126E-4  
 2.724000000000000E10    7.259393460117281E-4   2.837212523445487E-4  
 2.726000000000000E10    1.296524715144187E-4  -6.818476831540465E-4  
 2.728000000000000E10   -5.734189180657268E-4  -1.742319436743856E-4  
 2.730000000000000E10   -6.193519802764058E-4   3.493449767120183E-4  
 2.732000000000000E10    5.541572318179533E-5   1.394990395056084E-4  
 2.734000000000000E10    3.841117431875318E-4   9.436590335099027E-5  
 2.736000000000000E10    3.773463831748813E-4  -4.634606593754143E-4  
 2.738000000000000E10   -4.121754318475723E-4  -8.635430713184178E-4  
 2.740000000000000E10   -7.620998076163232E-4   5.186009220778942E-4  
 2.742000000000000E10    3.974265418946743E-4   5.414559855125845E-4  
 2.744000000000000E10    7.329338695853949E-4  -6.042835593689233E-5  
 2.746000000000000E10   -3.255100455135107E-4  -8.812385494820774E-4  
 2.748000000000000E10   -8.996328688226640E-4  -1.100822373700794E-5  
 2.750000000000000E10   -2.933924843091518E-4   4.707138577941805E-4  
 2.752000000000000E10    7.591320900246501E-4   5.733003490604460E-4  
 2.754000000000000E10    5.777466576546431E-4  -5.654803826473653E-4  
 2.756000000000000E10   -1.020764466375113E-4  -6.199640338309109E-4  
