#  HZ   S   RI   R     50.00 
! Rohde & Schwarz ZVA40 4Ports - Version 3.90 - 1145.1110k42 SN: 100403
! Date: 2023-10-04 11:23:41
! Measurement: S12 
! 
 2.200000000000000E10   -1.503943785792217E-4  -6.674089818261564E-4  
 2.202000000000000E10   -3.005314792972058E-4  -1.521662197774276E-4  
 2.204000000000000E10   -9.307455184170976E-5   6.321800174191594E-4  
 2.206000000000000E10    6.881019216962159E-4  -9.242137457476929E-5  
 2.208000000000000E10   -4.884301597485319E-5  -3.727983857970685E-4  
 2.210000000000000E10   -4.868277464993298E-4   4.802219336852431E-5  
 2.212000000000000E10    2.310166601091623E-4   2.932668139692396E-4  
 2.214000000000000E10    2.600886364234611E-5  -6.296319770626724E-4  
 2.216000000000000E10   -5.818904028274119E-4  -5.128799821250141E-4  
 2.218000000000000E10    2.270491240778938E-4   6.198539631441236E-4  
 2.220000000000000E10    5.679999594576657E-4  -8.903687557904050E-5  
 2.222000000000000E10   -1.136304563260637E-4  -3.148701507598162E-4  
 2.224000000000000E10   -4.953654133714736E-4   4.735202819574624E-4  
 2.226000000000000E10    3.100394096691161E-4   4.347660287749022E-4  
 2.228000000000000E10    3.032727399840951E-4  -5.983210285194218E-4  
 2.230000000000000E10   -2.487929014023393E-4  -2.777371846605092E-4  
 2.232000000000000E10   -3.704638802446425E-4   2.320222265552729E-4  
 2.234000000000000E10    6.200077477842569E-4  -1.477538899052888E-4  
 2.236000000000000E10   -1.900829811347649E-4  -3.200097125954926E-4  
 2.238000000000000E10   -3.194896853528917E-4   2.299750922247767E-4  
 2.240000000000000E10    3.679177025333047E-4   5.983426235616207E-4  
 2.242000000000000E10    2.829865661624353E-5  -5.494659999385476E-4  
 2.244000000000000E10   -7.192385965026915E-4  -1.052826264640316E-4  
 2.246000000000000E10   -5.705256480723620E-4   4.610520845744759E-4  
 2.248000000000000E10    6.410133210010827E-4   2.904161519836634E-4  
 2.250000000000000E10    4.796670109499246E-4  -8.287363452836871E-4  
 2.252000000000000E10   -5.196625716052949E-4  -8.170385845005512E-4  
 2.254000000000000E10   -4.651949566323310E-4   6.724800914525986E-4  
 2.256000000000000E10    6.829974590800703E-4   6.946004577912390E-4  
 2.258000000000000E10    8.132757502608001E-4  -6.401226855814457E-4  
 2.260000000000000E10   -4.580455715768039E-4  -5.469652824103832E-4  
 2.262000000000000E10   -8.821965311653912E-4   7.645483128726482E-4  
 2.264000000000000E10    2.623537147883326E-4   8.212224929593504E-4  
 2.266000000000000E10    4.582938272505999E-4  -3.208572161383927E-4  
 2.268000000000000E10   -7.482530781999230E-4  -5.614645197056234E-4  
 2.270000000000000E10   -9.612726717023179E-5   5.263512721285224E-4  
 2.272000000000000E10    1.826091101975180E-5   2.976055293402169E-5  
 2.274000000000000E10   -2.486972107362817E-6   1.588741288287565E-4  
 2.276000000000000E10   -4.505521246755961E-6   3.068893274758011E-4  
 2.278000000000000E10    5.363795789889991E-4  -1.187292800750583E-4  
 2.280000000000000E10   -7.952639716677368E-4  -4.564783594105393E-4  
 2.282000000000000E10   -4.483040829654783E-4  -1.057855915860273E-4  
 2.284000000000000E10    5.251201801002026E-4   5.619560251943767E-4  
 2.286000000000000E10    5.929793696850538E-4  -8.088160539045930E-4  
 2.288000000000000E10   -1.647191384108737E-4  -5.027143633924425E-4  
 2.290000000000000E10   -7.089683786034584E-4   7.266419706866145E-4  
 2.292000000000000E10    5.027592414990068E-4   8.776496397331357E-4  
 2.294000000000000E10    8.960657869465649E-4   3.549970861058682E-4  
 2.296000000000000E10   -1.779567683115602E-4  -3.101800102740526E-4  
 2.298000000000000E10   -6.767234881408513E-4   4.536994310910814E-5  
 2.300000000000000E10   -6.939076411072165E-5   9.257439523935318E-4  
 2.302000000000000E10    5.318318653735332E-5   2.860736458387692E-5  
 2.304000000000000E10    3.266681160312146E-4  -7.024946971796453E-4  
 2.306000000000000E10   -1.904059608932585E-4   2.907229645643383E-4  
 2.308000000000000E10    1.428106043022126E-4   1.109334989450872E-4  
 2.310000000000000E10    1.429747953807237E-5   4.667846660595387E-4  
 2.312000000000000E10   -5.323956065694802E-5   3.318627714179456E-4  
 2.314000000000000E10    3.105703508481383E-4  -4.152732435613871E-5  
 2.316000000000000E10    9.480027802055702E-5  -3.366301825735718E-4  
 2.318000000000000E10   -7.633626228198409E-4   7.022317731752992E-5  
 2.320000000000000E10   -2.638358273543418E-4   4.467253747861832E-4  
 2.322000000000000E10    1.162527478300035E-3   3.448466304689646E-4  
 2.324000000000000E10   -3.215652759536170E-5  -6.473834509961307E-4  
 2.326000000000000E10   -5.910284817218781E-4  -5.468733434099704E-5  
 2.328000000000000E10   -1.774725678842515E-4   1.085523399524391E-3  
 2.330000000000000E10    3.246416454203427E-4   7.623514193255687E-6  
 2.332000000000000E10   -1.935948967002332E-4  -3.854380047414452E-4  
 2.334000000000000E10   -1.776327553670853E-4   1.742643362376839E-4  
 2.336000000000000E10    4.113084287382662E-6   8.500539115630090E-5  
 2.338000000000000E10   -6.140016921563074E-5  -2.682838530745357E-4  
 2.340000000000000E10   -8.357939077541232E-5   4.566722200252116E-4  
 2.342000000000000E10    5.932661006227136E-4   2.716658345889300E-4  
 2.344000000000000E10    2.559954882599413E-4  -1.831279514590278E-4  
 2.346000000000000E10   -4.960070946253836E-4   1.330632803728804E-4  
 2.348000000000000E10   -1.571192260598764E-4   4.837618907913566E-4  
 2.350000000000000E10    3.267611027695239E-4   6.515645072795451E-4  
 2.352000000000000E10    5.471245385706425E-4   1.374786079395562E-4  
 2.354000000000000E10   -3.665127442218363E-4  -5.689184181392193E-4  
 2.356000000000000E10   -5.831774906255305E-4   2.399379154667258E-4  
 2.358000000000000E10    4.281227884348482E-4   5.663551273755729E-4  
 2.360000000000000E10    7.640582043677568E-4   2.525807649362832E-4  
 2.362000000000000E10   -2.067240129690617E-4  -5.065849982202053E-4  
 2.364000000000000E10   -5.631357780657709E-4   6.425185711123049E-5  
 2.366000000000000E10   -4.560210509225726E-4   6.111317197792232E-4  
 2.368000000000000E10    4.786727949976921E-4   7.232843199744821E-5  
 2.370000000000000E10    4.259006891516037E-5  -1.931628794409335E-4  
 2.372000000000000E10    2.086493332171813E-4  -3.666924894787371E-4  
 2.374000000000000E10   -1.949088182300329E-4  -7.591007306473330E-5  
 2.376000000000000E10   -2.336790203116834E-4   1.917993504321203E-4  
 2.378000000000000E10    4.286143230274320E-4   8.954147924669087E-4  
 2.380000000000000E10    6.849436322227120E-4  -3.716165374498814E-4  
 2.382000000000000E10   -2.861712418962270E-4  -7.131327292881906E-4  
 2.384000000000000E10   -1.130269956775010E-3   2.697368036024272E-4  
 2.386000000000000E10    6.397109827958047E-4   1.026837388053536E-3  
 2.388000000000000E10    9.346680017188191E-4  -5.157724954187870E-4  
 2.390000000000000E10    1.615467481315136E-4  -8.826378616504371E-4  
 2.392000000000000E10   -8.799277129583061E-4   1.754077093210071E-4  
 2.394000000000000E10    8.910032192943618E-6   9.530919487588108E-4  
 2.396000000000000E10    5.457765655592084E-4   6.496193236671388E-4  
 2.398000000000000E10    4.352410905994475E-4  -4.686770844273269E-4  
 2.400000000000000E10   -5.186819471418858E-4  -3.429289790801704E-4  
 2.402000000000000E10   -6.618552724830806E-4   3.266884887125343E-4  
 2.404000000000000E10    2.179156872443855E-4   7.524547982029617E-4  
 2.406000000000000E10    6.365561275742948E-4  -4.373119445517659E-4  
 2.408000000000000E10    3.006419283337891E-4  -5.426068673841655E-4  
 2.410000000000000E10   -5.511457566171885E-4   4.130626257392578E-5  
 2.412000000000000E10   -2.738359216891695E-5   6.031673401594162E-4  
 2.414000000000000E10    4.363298357930034E-4   6.087722722440958E-4  
 2.416000000000000E10    3.587074752431363E-4  -2.230627869721502E-4  
 2.418000000000000E10   -4.025790549349040E-4  -7.761043962091208E-4  
 2.420000000000000E10   -5.352267180569470E-4  -2.114001399604604E-4  
 2.422000000000000E10   -1.213438226841390E-4   2.404760598437861E-4  
 2.424000000000000E10    4.605548165272921E-4   3.293767804279923E-4  
 2.426000000000000E10    1.429553958587349E-4  -3.803821164183319E-5  
 2.428000000000000E10   -3.380608686711639E-4  -4.460191994439811E-4  
 2.430000000000000E10   -3.735950449481607E-4   1.040490751620382E-4  
 2.432000000000000E10    2.955853960884269E-5   2.999444259330630E-4  
 2.434000000000000E10    3.035612462554127E-4  -1.078904315363616E-4  
 2.436000000000000E10    2.354523603571579E-4  -5.989813362248242E-4  
 2.438000000000000E10   -1.745858608046547E-4  -5.322003853507340E-4  
 2.440000000000000E10   -3.591148997657001E-4  -1.748625209074817E-6  
 2.442000000000000E10    1.708761410554871E-4   7.144383853301406E-4  
 2.444000000000000E10    9.724965784698725E-4   6.181840581120923E-5  
 2.446000000000000E10    3.216935874661431E-5  -5.275763105601072E-4  
 2.448000000000000E10   -7.755763945169747E-4  -1.311621308559552E-4  
 2.450000000000000E10    4.045468813274056E-5   6.366804591380060E-4  
 2.452000000000000E10    3.580213233362883E-4  -1.611525804037228E-4  
 2.454000000000000E10    2.824777911882848E-4  -5.667756777256727E-4  
 2.456000000000000E10   -3.674647814477794E-5  -1.888970291474834E-4  
 2.458000000000000E10    1.741416199365631E-4  -1.238026452483609E-4  
 2.460000000000000E10   -3.449526557233185E-4   2.528140030335635E-4  
 2.462000000000000E10    1.002186618279666E-4   4.481280338950455E-4  
 2.464000000000000E10    5.777708720415831E-4   1.324604672845453E-4  
 2.466000000000000E10   -2.079227415379137E-4  -7.734490209259093E-4  
 2.468000000000000E10   -8.473810739815235E-4   2.091811074933503E-5  
 2.470000000000000E10   -1.842078636400402E-4   5.661025643348694E-4  
 2.472000000000000E10    8.440106175839901E-4   1.584848650963977E-4  
 2.474000000000000E10    3.343111311551184E-4  -7.147545111365616E-4  
 2.476000000000000E10   -6.584938382729888E-4  -3.831960202660412E-4  
 2.478000000000000E10   -4.112047026865184E-4   8.735914598219097E-4  
 2.480000000000000E10    2.367465494899079E-4   6.609422271139920E-4  
 2.482000000000000E10    6.657157209701836E-4  -5.031211767345667E-4  
 2.484000000000000E10   -3.286344872321934E-4  -8.132012444548309E-4  
 2.486000000000000E10   -7.826318615116179E-4   6.020143337082118E-5  
 2.488000000000000E10    4.716336843557656E-5   6.141720223240554E-4  
 2.490000000000000E10    5.257133161649108E-4   1.711795484879986E-4  
 2.492000000000000E10    6.724023842252791E-4  -9.208478149957955E-5  
 2.494000000000000E10   -1.958957145689055E-4  -2.957154647447169E-4  
 2.496000000000000E10   -4.389424284454435E-4  -9.146458614850417E-5  
 2.498000000000000E10   -3.806653257925063E-4   8.183658355847001E-4  
 2.500000000000000E10    6.566912634298205E-4   2.731729182414711E-4  
 2.502000000000000E10    7.133086328394711E-4  -6.804343429394066E-4  
 2.504000000000000E10   -6.575024453923106E-4  -9.810975752770901E-4  
 2.506000000000000E10   -6.927030626684427E-4   5.269917892292142E-4  
 2.508000000000000E10    7.619456737302244E-4   9.357520029880106E-4  
 2.510000000000000E10    1.333509571850300E-3  -4.303757159505040E-4  
 2.512000000000000E10   -2.932072093244642E-4  -1.119886757805944E-3  
 2.514000000000000E10   -8.908578893169761E-4   2.219549351138994E-4  
 2.516000000000000E10   -2.869657182600349E-4   7.084276294335723E-4  
 2.518000000000000E10    9.834330994635820E-4  -1.058202979038470E-4  
 2.520000000000000E10    1.130472519434989E-4  -7.681070128455758E-4  
 2.522000000000000E10   -6.191674037836492E-4  -1.098155975341797E-3  
 2.524000000000000E10   -6.749143358319998E-4   4.906192189082503E-4  
 2.526000000000000E10    3.397831460461021E-4   6.457353592850268E-4  
 2.528000000000000E10    8.955448865890503E-4   7.987886056071147E-5  
 2.530000000000000E10   -3.131604535155930E-5  -1.088508171960712E-3  
 2.532000000000000E10   -8.827521232888103E-4   9.275502816308290E-5  
 2.534000000000000E10   -5.686951335519552E-4   6.639268831349909E-4  
 2.536000000000000E10    5.835335468873382E-4   2.948663895949721E-4  
 2.538000000000000E10    3.610650892369449E-4  -5.435199127532542E-4  
 2.540000000000000E10   -2.433615154586732E-4  -6.138633470982313E-4  
 2.542000000000000E10   -7.079071365296841E-4   1.597665250301361E-4  
 2.544000000000000E10    5.871610119356774E-5   5.245357169769704E-4  
 2.546000000000000E10    9.047667845152319E-4   2.416249917587265E-4  
 2.548000000000000E10    2.725345548242331E-4  -5.705354269593954E-4  
 2.550000000000000E10   -8.843470131978393E-4  -3.470736846793443E-4  
 2.552000000000000E10   -3.748055605683476E-4   9.444592287763953E-4  
 2.554000000000000E10    4.878856125287712E-4   3.135173756163567E-4  
 2.556000000000000E10    3.220097860321403E-4  -8.370529394596815E-4  
 2.558000000000000E10   -4.767302598338574E-4  -1.605948928045109E-4  
 2.560000000000000E10   -3.959455934818834E-4  -4.685856038122438E-5  
 2.562000000000000E10    2.809183497447521E-4   8.825520490063354E-5  
 2.564000000000000E10    3.453056851867586E-4  -3.491613824735396E-5  
 2.566000000000000E10    2.530984638724476E-4  -1.673988008406013E-4  
 2.568000000000000E10    1.956274645635858E-4  -1.344028714811429E-4  
 2.570000000000000E10   -1.529704022686929E-4   1.388567488902481E-5  
 2.572000000000000E10   -5.110027268528938E-4   5.878486263100058E-5  
 2.574000000000000E10    5.888440136914142E-5   2.367161068832502E-4  
 2.576000000000000E10    4.557722058962099E-5  -8.572123624617234E-5  
 2.578000000000000E10    1.763244799803942E-4  -9.494216646999121E-4  
 2.580000000000000E10   -6.906783673912287E-4   2.146492442989256E-5  
 2.582000000000000E10   -4.145289713051170E-4   5.457159713841975E-4  
 2.584000000000000E10    9.001380531117320E-4   3.203601227141917E-5  
 2.586000000000000E10    3.715460479725152E-4  -7.411584374494851E-4  
 2.588000000000000E10   -7.525052060373128E-4  -2.313820587005466E-4  
 2.590000000000000E10   -5.270334077067673E-4   4.427246458362788E-4  
 2.592000000000000E10    1.936829212354496E-4   6.800888804718852E-4  
 2.594000000000000E10    2.056512603303418E-4  -9.918533032760024E-5  
 2.596000000000000E10    9.263106039725244E-5  -6.121171754784882E-4  
 2.598000000000000E10   -5.079010734334588E-4  -3.855167597066611E-4  
 2.600000000000000E10   -4.759035946335644E-4   4.003795038443059E-4  
 2.602000000000000E10    3.433656238485128E-4   4.896009922958911E-4  
 2.604000000000000E10    4.746485501527786E-4  -1.172884658444673E-4  
 2.606000000000000E10   -1.378419838147238E-4  -9.458014974370599E-4  
 2.608000000000000E10   -1.187392394058406E-3   2.592918754089624E-4  
 2.610000000000000E10   -1.694546517683193E-4   1.180387102067471E-3  
 2.612000000000000E10    1.013308996334672E-3   4.716765834018588E-4  
 2.614000000000000E10    1.401807239744812E-4  -1.190793816931546E-3  
 2.616000000000000E10   -9.904080070555210E-4  -3.753097553271800E-4  
 2.618000000000000E10   -5.991778452880681E-4   7.438324391841888E-4  
 2.620000000000000E10    7.707537733949721E-4   6.713795592077076E-4  
 2.622000000000000E10    6.251884042285383E-4  -2.953791699837893E-4  
 2.624000000000000E10   -6.239300710149109E-4  -7.174990605562925E-4  
 2.626000000000000E10   -7.003595819696784E-4   2.799344656523317E-4  
 2.628000000000000E10   -1.886413519969210E-4   5.940798437222838E-4  
 2.630000000000000E10    7.714409148320556E-4   4.911730138701387E-5  
 2.632000000000000E10    2.568639756646007E-4  -6.368074100464582E-4  
 2.634000000000000E10   -3.561830671969801E-4  -2.014547499129549E-4  
 2.636000000000000E10   -3.834996896330267E-4   3.223594976589084E-4  
 2.638000000000000E10    4.923685337416828E-4   3.057380090467632E-4  
 2.640000000000000E10    2.926721062976867E-4   3.759669561986812E-5  
 2.642000000000000E10    2.805617696139962E-4  -4.478165064938366E-4  
 2.644000000000000E10   -2.737962640821934E-4  -3.610753992688842E-5  
 2.646000000000000E10   -5.688686505891383E-4   1.196925513795577E-4  
 2.648000000000000E10    3.947314980905503E-4   6.619620253331959E-4  
 2.650000000000000E10    6.263747927732766E-4  -1.364929921692237E-4  
 2.652000000000000E10   -2.619375591166318E-4  -6.447898340411484E-4  
 2.654000000000000E10   -2.564500318840146E-4   8.563385927118361E-5  
 2.656000000000000E10    7.520578947151080E-6   3.906149649992585E-4  
 2.658000000000000E10    3.355845110490918E-4   1.948511489899829E-4  
 2.660000000000000E10    1.935552136274055E-4   1.489988608227577E-5  
 2.662000000000000E10   -4.956590710207820E-4   7.663122960366309E-5  
 2.664000000000000E10   -1.441948552383110E-4  -2.210783859482035E-4  
 2.666000000000000E10   -2.013862977037206E-4   1.653370272833854E-4  
 2.668000000000000E10    9.555928954796400E-6   1.644157746341080E-4  
 2.670000000000000E10    4.420598852448165E-4  -2.502331335563213E-5  
 2.672000000000000E10    5.436647552414797E-5  -6.762576522305608E-4  
 2.674000000000000E10   -5.207525100558996E-4  -1.057658300851472E-5  
 2.676000000000000E10   -1.578277006046847E-4   5.868180887773633E-4  
 2.678000000000000E10    5.289111286401749E-4   7.413738057948649E-4  
 2.680000000000000E10    5.631395615637302E-4  -5.521819111891091E-4  
 2.682000000000000E10   -2.026421425398439E-4  -5.657067522406578E-4  
 2.684000000000000E10   -9.238157654181123E-4   2.540786517783999E-4  
 2.686000000000000E10    2.309737610630691E-4   8.729103719815612E-4  
 2.688000000000000E10    9.613742586225271E-4  -3.284164413344115E-4  
 2.690000000000000E10    1.084390169125982E-4  -9.004130843095481E-4  
 2.692000000000000E10   -1.056859269738197E-3   1.003659344860353E-4  
 2.694000000000000E10   -1.953396131284535E-4   6.148185930214822E-4  
 2.696000000000000E10    7.206840091384947E-4   5.846639396622777E-4  
 2.698000000000000E10    6.719138473272324E-4  -5.395152838900685E-4  
 2.700000000000000E10   -2.231478865724057E-4  -7.758011925034225E-4  
 2.702000000000000E10   -8.700767648406327E-4   3.525429638102651E-4  
 2.704000000000000E10   -8.721466656425037E-6   6.770543404854834E-4  
 2.706000000000000E10    5.904472200199962E-4   2.735741436481476E-4  
 2.708000000000000E10    4.246959288138896E-4  -6.132132257334888E-4  
 2.710000000000000E10   -7.934218738228083E-4  -1.096011372283101E-3  
 2.712000000000000E10   -7.608554442413151E-4   7.322772871702910E-4  
 2.714000000000000E10    4.210883344057947E-4   8.271487895399332E-4  
 2.716000000000000E10    1.170019037090242E-3  -5.047628073953092E-4  
 2.718000000000000E10   -3.649503050837666E-4  -1.121972687542439E-3  
 2.720000000000000E10   -1.302734250202775E-3  -1.439549523638561E-4  
 2.722000000000000E10   -8.965698361862451E-5   1.013132743537426E-3  
 2.724000000000000E10    7.483157678507268E-4   3.491068782750517E-4  
 2.726000000000000E10    2.509402693249285E-4  -7.947664707899094E-4  
 2.728000000000000E10   -2.505271695554256E-4  -8.379750652238727E-4  
 2.730000000000000E10   -1.163374399766326E-3   3.817519755102694E-4  
 2.732000000000000E10    3.128476382698864E-4   7.402995252050459E-4  
 2.734000000000000E10    8.719390025362372E-4  -1.252154906978831E-4  
 2.736000000000000E10   -3.585164449759759E-5  -1.027557300403714E-3  
 2.738000000000000E10   -9.772026678547263E-4  -3.241964441258460E-4  
 2.740000000000000E10   -3.802287974394858E-4   1.177476020529866E-3  
 2.742000000000000E10    5.149588105268776E-4   3.172720898874104E-4  
 2.744000000000000E10    6.566638476215303E-4  -6.068408838473260E-4  
 2.746000000000000E10   -4.001715278718621E-4  -4.366487846709788E-4  
 2.748000000000000E10   -7.463215733878315E-4  -3.840885765384883E-4  
 2.750000000000000E10   -8.159575372701511E-5   9.793991921469569E-4  
 2.752000000000000E10    6.199222407303751E-4   3.912987594958395E-4  
 2.754000000000000E10    6.534800631925464E-4  -7.174253114499152E-4  
 2.756000000000000E10   -7.801640313118696E-4  -4.812319530174136E-4  
