#  HZ   S   RI   R     50.00 
! Rohde & Schwarz ZVA40 4Ports - Version 3.90 - 1145.1110k42 SN: 100403
! Date: 2023-10-04 11:22:52
! Measurement: S12 
! 
 2.200000000000000E10   -5.577613046625629E-5  -3.968198434449732E-4  
 2.202000000000000E10   -8.818513597361744E-4   4.471382708288729E-4  
 2.204000000000000E10    3.021808224730194E-4   7.100052898749709E-4  
 2.206000000000000E10    3.991092671640217E-4  -2.887978625949472E-4  
 2.208000000000000E10   -4.157067451160401E-4  -8.083426509983838E-4  
 2.210000000000000E10   -2.672398986760527E-4   3.041084564756602E-4  
 2.212000000000000E10    2.741893986240029E-4   3.807459434028715E-4  
 2.214000000000000E10    6.283557158894837E-4  -2.233755658380687E-4  
 2.216000000000000E10   -1.802634506020695E-4   1.293438544962555E-4  
 2.218000000000000E10    5.737077444791794E-4   1.203280407935381E-5  
 2.220000000000000E10   -3.343809512443841E-4   1.579129457240924E-4  
 2.222000000000000E10   -2.807373821269721E-4   1.506321277702227E-4  
 2.224000000000000E10    2.337053738301620E-4   5.898703821003437E-4  
 2.226000000000000E10    2.043344284174964E-4  -4.278899577911943E-4  
 2.228000000000000E10   -2.767920668702573E-4  -2.862730470951647E-4  
 2.230000000000000E10   -4.413569695316255E-4  -1.095279949367978E-4  
 2.232000000000000E10    2.294556761626154E-4   3.539545286912471E-4  
 2.234000000000000E10    2.247049123980105E-4   2.605620466056280E-5  
 2.236000000000000E10    2.302062493981794E-4  -2.822244423441589E-4  
 2.238000000000000E10   -6.346956943161786E-4  -5.448672527563758E-5  
 2.240000000000000E10    1.478273770771921E-4   4.161501128692180E-4  
 2.242000000000000E10    3.222069062758237E-4   4.665240703616291E-4  
 2.244000000000000E10   -5.376440094551072E-5  -6.195249734446406E-4  
 2.246000000000000E10   -5.356966285035014E-4   9.370786574436352E-5  
 2.248000000000000E10    1.875889865914360E-4   4.010053235106170E-4  
 2.250000000000000E10    4.143751284573227E-4  -8.098249963950366E-5  
 2.252000000000000E10   -3.248383873142302E-4  -1.561237877467647E-4  
 2.254000000000000E10   -3.025753831025213E-4   2.961605205200613E-4  
 2.256000000000000E10    4.509489517658949E-4   3.725883434526622E-4  
 2.258000000000000E10    2.216114080511034E-4  -4.186849109828472E-4  
 2.260000000000000E10   -6.889521609991789E-4   3.133886202704161E-4  
 2.262000000000000E10    4.668852780014277E-4   7.209298782981932E-4  
 2.264000000000000E10    1.641118578845635E-4   3.799176556640305E-5  
 2.266000000000000E10   -1.633408828638494E-4  -4.493023443501443E-4  
 2.268000000000000E10   -5.232822149991989E-4   7.290935027413070E-4  
 2.270000000000000E10    2.680562320165336E-4  -8.200106094591320E-5  
 2.272000000000000E10    1.348156365565956E-4   4.058205522596836E-4  
 2.274000000000000E10   -2.368333516642451E-4   2.134682872565463E-4  
 2.276000000000000E10    3.083524352405220E-4  -2.469425635354128E-5  
 2.278000000000000E10   -3.602182550821453E-4  -5.760101703344844E-5  
 2.280000000000000E10   -4.399155441205949E-4   6.888490315759555E-5  
 2.282000000000000E10    1.020767522277311E-4   5.458485102280974E-4  
 2.284000000000000E10    5.680184694938362E-4  -3.558495664037764E-4  
 2.286000000000000E10   -1.951179874595255E-4   1.101834059227258E-4  
 2.288000000000000E10   -5.816685152240098E-4  -2.598783758003265E-4  
 2.290000000000000E10    2.471131156198680E-4   7.641269476152957E-4  
 2.292000000000000E10    1.810620597098023E-5   3.574132570065558E-4  
 2.294000000000000E10    3.917609865311533E-4  -4.197335802018642E-4  
 2.296000000000000E10   -6.298146327026188E-4   1.913696323754266E-4  
 2.298000000000000E10   -6.190030835568905E-4   6.277608335949481E-4  
 2.300000000000000E10    1.000978867523372E-3   5.734153673984110E-4  
 2.302000000000000E10    4.654224903788418E-4  -4.132858593948185E-4  
 2.304000000000000E10   -4.034798184875399E-4  -8.477387018501759E-4  
 2.306000000000000E10   -2.945666201412678E-4   5.402917740866542E-4  
 2.308000000000000E10    2.675556461326778E-4   8.133756346069276E-4  
 2.310000000000000E10    4.079074424225837E-4  -4.395823343656957E-4  
 2.312000000000000E10   -2.902566047850996E-4   6.068684524507262E-5  
 2.314000000000000E10   -2.431545872241259E-4   2.341839717701078E-4  
 2.316000000000000E10    6.851399666629732E-5  -2.447936858516187E-4  
 2.318000000000000E10   -2.185547054978088E-4   4.825645592063665E-4  
 2.320000000000000E10    3.880382282659411E-4   1.305939949816093E-4  
 2.322000000000000E10    3.839804267045111E-4  -5.063192220404744E-4  
 2.324000000000000E10   -1.025366131216288E-3  -2.168272621929646E-4  
 2.326000000000000E10   -2.028949529631063E-4   1.065535238012672E-3  
 2.328000000000000E10    7.645436562597752E-4   3.615520836319774E-4  
 2.330000000000000E10    2.180399460485205E-4  -6.172957946546376E-4  
 2.332000000000000E10   -6.303007830865681E-4  -1.065949036274105E-4  
 2.334000000000000E10   -3.178784681949765E-4   3.697774955071509E-4  
 2.336000000000000E10    4.040182102471590E-4   3.275355265941471E-4  
 2.338000000000000E10    5.556535907089710E-4   4.882340363110416E-5  
 2.340000000000000E10    2.474170469213277E-4  -1.270802458748221E-4  
 2.342000000000000E10   -1.002450473606587E-3   1.475094759371132E-4  
 2.344000000000000E10    1.629599719308317E-4   7.358673610724509E-4  
 2.346000000000000E10    2.201853349106386E-4   3.501498140394688E-4  
 2.348000000000000E10    2.537751861382276E-4  -4.152026376686990E-4  
 2.350000000000000E10   -5.941694253124297E-4  -2.333485754206777E-4  
 2.352000000000000E10   -2.208549267379567E-4  -1.174640856334008E-4  
 2.354000000000000E10   -8.374216122319922E-5   5.306728999130428E-4  
 2.356000000000000E10    6.048631621524692E-4   1.075286581908586E-5  
 2.358000000000000E10    4.981952952221036E-4  -7.023765647318214E-6  
 2.360000000000000E10   -3.051549720112234E-4  -4.466758109629154E-4  
 2.362000000000000E10   -5.448528099805117E-4   4.260936402715743E-4  
 2.364000000000000E10   -1.379051809635712E-5   7.068644626997411E-4  
 2.366000000000000E10    9.976220317184925E-4  -4.859147302340716E-4  
 2.368000000000000E10   -3.071133687626571E-4  -4.825691867154092E-4  
 2.370000000000000E10   -3.854479582514614E-4   1.224362349603325E-4  
 2.372000000000000E10    1.895903551485390E-4   7.121626986190677E-4  
 2.374000000000000E10    4.146191640757024E-4  -6.842405855422840E-5  
 2.376000000000000E10   -2.251541736768559E-4  -7.573181937914342E-5  
 2.378000000000000E10   -7.994985207915306E-5  -2.116646937793121E-4  
 2.380000000000000E10   -3.447844646871090E-4  -1.538472133688629E-4  
 2.382000000000000E10   -3.441827720962465E-4   4.440945922397077E-4  
 2.384000000000000E10    2.733872679527849E-4   3.020426083821803E-4  
 2.386000000000000E10    3.535163123160601E-4  -4.601422988343984E-4  
 2.388000000000000E10   -5.827679415233433E-4  -4.300450382288545E-4  
 2.390000000000000E10   -6.759876268915832E-4   2.334597375011072E-4  
 2.392000000000000E10    3.249973524361849E-4   5.342115182429552E-4  
 2.394000000000000E10    2.665152169356588E-5  -4.199892864562571E-4  
 2.396000000000000E10   -5.427815631264821E-5  -3.695403866004199E-4  
 2.398000000000000E10   -9.084835182875395E-4  -8.612244710093364E-5  
 2.400000000000000E10    1.942287490237504E-4   4.929228452965617E-4  
 2.402000000000000E10    6.378869875334203E-4   6.539030582644045E-4  
 2.404000000000000E10    4.426586092449725E-4  -5.027215229347348E-4  
 2.406000000000000E10   -2.201014431193471E-4  -1.710415526758879E-4  
 2.408000000000000E10   -9.679485228843987E-4   2.071624330710620E-4  
 2.410000000000000E10    2.082148785120808E-5   4.834703868255019E-4  
 2.412000000000000E10    3.028302453458309E-4   3.867220220854506E-5  
 2.414000000000000E10    1.224763982463628E-4  -4.075833712704480E-4  
 2.416000000000000E10   -3.191681462340057E-4  -4.001621855422854E-4  
 2.418000000000000E10   -3.865373728331178E-4   3.552732523530722E-4  
 2.420000000000000E10    4.424488579388708E-4   8.361561340279877E-4  
 2.422000000000000E10    7.737052510492504E-4   8.541056013200432E-5  
 2.424000000000000E10    2.794475876726210E-4  -8.894731290638447E-4  
 2.426000000000000E10   -1.244700164534152E-3  -2.382005914114416E-4  
 2.428000000000000E10   -3.515155985951424E-4   9.434144012629986E-4  
 2.430000000000000E10    1.149146817624569E-3  -2.387278254900593E-5  
 2.432000000000000E10    4.038020560983568E-4  -1.197644043713808E-3  
 2.434000000000000E10   -5.177626153454185E-4  -3.186894755344838E-4  
 2.436000000000000E10   -2.229907840956003E-4   5.266267689876258E-4  
 2.438000000000000E10    5.144279566593468E-4   3.703358524944633E-4  
 2.440000000000000E10    4.480462230276316E-4   2.019154198933393E-4  
 2.442000000000000E10    8.063797577051446E-5  -5.403947434388101E-4  
 2.444000000000000E10   -6.956231663934887E-4  -3.946557699237019E-4  
 2.446000000000000E10   -5.730966222472489E-4   1.033117150655016E-4  
 2.448000000000000E10    5.650904495269060E-4   6.176405004225671E-4  
 2.450000000000000E10    1.044173841364682E-3  -4.744751204270870E-4  
 2.452000000000000E10    2.796573062369134E-5  -7.807967485859990E-4  
 2.454000000000000E10   -6.425101310014725E-4   1.811396650737152E-4  
 2.456000000000000E10    2.540221030358225E-4   9.630498825572431E-4  
 2.458000000000000E10    7.821148028597236E-4   1.575147180119529E-4  
 2.460000000000000E10    4.117837306694128E-5  -6.736364448443055E-4  
 2.462000000000000E10   -6.033750833012164E-4  -3.067566722165793E-4  
 2.464000000000000E10   -1.762796746334061E-4   3.616550529841334E-4  
 2.466000000000000E10    2.133745729224756E-4   1.768690563039854E-4  
 2.468000000000000E10    8.234116830863059E-4   1.181125771836378E-4  
 2.470000000000000E10   -2.078207035083324E-4  -4.275293031241745E-4  
 2.472000000000000E10   -2.577874402049929E-4   2.363281237194315E-4  
 2.474000000000000E10   -2.919354883488268E-4   7.303844904527068E-4  
 2.476000000000000E10    1.063036543200724E-4   1.085334079107270E-4  
 2.478000000000000E10    4.017504761577584E-5   3.224821557523683E-5  
 2.480000000000000E10   -1.303345197811723E-4  -4.896589089185000E-4  
 2.482000000000000E10   -3.690823214128614E-4  -2.101799909723923E-4  
 2.484000000000000E10   -5.573494490818121E-5  -1.445315683668014E-5  
 2.486000000000000E10    9.093950502574444E-4   4.942756495438516E-4  
 2.488000000000000E10    5.269892862997949E-4  -4.340002487879247E-4  
 2.490000000000000E10   -3.224982647225261E-4  -5.231578834354878E-4  
 2.492000000000000E10   -5.458925152197480E-4   8.144104504026473E-4  
 2.494000000000000E10    4.277688276488334E-4   3.924701886717230E-4  
 2.496000000000000E10    4.975146148353815E-4  -5.595472757704556E-4  
 2.498000000000000E10   -3.193615702912211E-4  -3.656864573713392E-4  
 2.500000000000000E10   -9.576621232554317E-5  -5.160041837370955E-5  
 2.502000000000000E10    3.235539188608527E-4  -6.330735777737573E-5  
 2.504000000000000E10    2.989420499943662E-5   1.203231440740638E-4  
 2.506000000000000E10    2.596570411697030E-4   4.955716212862171E-5  
 2.508000000000000E10    5.207794602029026E-4  -1.380984758725390E-4  
 2.510000000000000E10   -4.204059659969062E-4  -3.853847738355398E-4  
 2.512000000000000E10   -4.305651818867773E-4   2.424592676106840E-4  
 2.514000000000000E10    4.207763704471290E-4   4.142296675127000E-4  
 2.516000000000000E10    4.426373343449086E-4  -4.376985889393836E-4  
 2.518000000000000E10   -4.096456541446969E-5  -8.540069102309644E-4  
 2.520000000000000E10   -2.403306571068242E-4   1.213792493217625E-4  
 2.522000000000000E10   -1.957262866199017E-4   6.327748997136951E-4  
 2.524000000000000E10    7.534308242611587E-4   1.989096344914287E-4  
 2.526000000000000E10    3.791333874687553E-4  -5.266334046609700E-4  
 2.528000000000000E10   -7.493034936487675E-4  -6.979862810112536E-4  
 2.530000000000000E10   -7.034993614070118E-4   6.424462771974504E-4  
 2.532000000000000E10    4.594580095726997E-4   4.178595845587552E-4  
 2.534000000000000E10    6.953813135623932E-4  -6.490920786745846E-4  
 2.536000000000000E10   -1.296093687415123E-4  -9.366559097543359E-4  
 2.538000000000000E10   -6.267075077630580E-4  -4.391444963403046E-5  
 2.540000000000000E10    1.979247172130272E-4   5.650131497532129E-4  
 2.542000000000000E10    3.952043771278113E-4   3.325646684970707E-4  
 2.544000000000000E10    2.813069440890104E-4  -4.660601262003183E-4  
 2.546000000000000E10   -1.219176283484558E-5  -5.315496819093823E-4  
 2.548000000000000E10   -6.168295512907207E-4   2.077604585792869E-5  
 2.550000000000000E10   -1.387177053402411E-5   5.865595885552466E-4  
 2.552000000000000E10    9.880188154056668E-4  -6.137956916063558E-6  
 2.554000000000000E10    1.810969843063504E-4  -1.170491217635572E-3  
 2.556000000000000E10   -9.305395069532096E-4  -6.476193084381521E-4  
 2.558000000000000E10   -3.468434733804315E-4   4.761266463901848E-4  
 2.560000000000000E10    8.331679273396730E-4   9.956001304090023E-4  
 2.562000000000000E10    7.622843259014189E-4  -9.614517330192030E-4  
 2.564000000000000E10   -5.197318387217820E-4  -8.764262893237174E-4  
 2.566000000000000E10   -1.138677704147995E-3   3.599883930291981E-4  
 2.568000000000000E10    5.210847593843937E-4   6.677178898826242E-4  
 2.570000000000000E10    7.300241268239915E-4  -1.398240710841492E-4  
 2.572000000000000E10   -5.984241943224333E-5  -1.312847016379237E-3  
 2.574000000000000E10   -8.426599088124931E-4   1.259806685993681E-5  
 2.576000000000000E10   -2.401564561296254E-4   9.281254024244845E-4  
 2.578000000000000E10    6.633217562921345E-4   1.803506602300331E-4  
 2.580000000000000E10    2.959831326734275E-4  -6.694549228996038E-4  
 2.582000000000000E10   -4.430559056345373E-4  -3.678587672766298E-4  
 2.584000000000000E10   -3.676914202515036E-4  -1.033552180160768E-4  
 2.586000000000000E10    1.662620525166858E-5   4.899865598417819E-4  
 2.588000000000000E10    2.745687670540065E-4   6.182684046507347E-6  
 2.590000000000000E10    6.034708349034190E-4  -6.450577639043331E-4  
 2.592000000000000E10   -3.821932186838239E-4  -6.763466517440975E-4  
 2.594000000000000E10   -6.939116283319891E-4   5.187055794522166E-4  
 2.596000000000000E10    6.337249651551247E-4   7.136847125366330E-4  
 2.598000000000000E10    7.210104959085584E-4  -2.611288509797305E-4  
 2.600000000000000E10   -3.722367109730840E-4  -5.154167301952839E-4  
 2.602000000000000E10   -6.984613137319684E-4   1.033097942126915E-4  
 2.604000000000000E10    2.188915914302925E-6   5.986515898257494E-4  
 2.606000000000000E10    3.157511528115720E-4  -3.148043469991535E-4  
 2.608000000000000E10   -4.753896973852534E-6  -1.209498586831614E-4  
 2.610000000000000E10   -2.483715361449868E-4  -2.627804933581501E-4  
 2.612000000000000E10    4.699676719610579E-5   8.007299766177312E-5  
 2.614000000000000E10   -2.382798556936905E-4  -1.952275124494918E-5  
 2.616000000000000E10    1.991126482607797E-4   5.719660548493266E-4  
 2.618000000000000E10    7.486755930585787E-5  -7.768694922560826E-5  
 2.620000000000000E10   -2.215840140706860E-5  -5.050675827078521E-4  
 2.622000000000000E10   -4.596301878336817E-4   1.669253688305616E-4  
 2.624000000000000E10   -3.470017691142857E-4   2.234740386484191E-4  
 2.626000000000000E10    2.401247766101733E-4   3.210043723811396E-5  
 2.628000000000000E10    3.128191165160388E-4   5.133008744451217E-5  
 2.630000000000000E10   -2.359868230996653E-4  -5.855433410033584E-4  
 2.632000000000000E10   -4.963696701452136E-4   8.426598651567474E-5  
 2.634000000000000E10   -1.066242330125533E-4   1.007401500828564E-3  
 2.636000000000000E10    9.130217949859798E-4  -1.011928252410144E-4  
 2.638000000000000E10    1.196786179207265E-4  -7.977939094416797E-4  
 2.640000000000000E10   -8.663813932798803E-4  -2.207557990914211E-4  
 2.642000000000000E10   -1.642948918743059E-4   5.629912484437227E-4  
 2.644000000000000E10    5.222566542215645E-4   3.465405607130379E-4  
 2.646000000000000E10    5.542984581552446E-4  -2.553803496994078E-4  
 2.648000000000000E10   -1.524008694104850E-4  -6.730080349370837E-4  
 2.650000000000000E10   -5.474392673932016E-4   1.449614355806261E-4  
 2.652000000000000E10   -3.212790761608630E-4   3.936297725886107E-4  
 2.654000000000000E10    7.738111889921129E-4   4.560546658467501E-4  
 2.656000000000000E10    4.073945747222751E-4  -8.345143287442625E-4  
 2.658000000000000E10   -3.781506384257227E-4  -6.339805549941957E-4  
 2.660000000000000E10   -6.309513119049370E-4   5.865649436600506E-4  
 2.662000000000000E10    3.375158994458616E-4   8.083169232122600E-4  
 2.664000000000000E10    6.798617541790009E-4  -2.939505211543292E-4  
 2.666000000000000E10   -2.118234697263688E-4  -8.578092674724758E-4  
 2.668000000000000E10   -9.055556729435921E-4   1.326266356045380E-4  
 2.670000000000000E10   -2.857112267520279E-4   5.240008467808366E-4  
 2.672000000000000E10    4.990924498997629E-4   2.760075731202960E-4  
 2.674000000000000E10    2.863306144718081E-4  -6.656206096522510E-4  
 2.676000000000000E10   -3.397391992621124E-4  -6.462361197918654E-4  
 2.678000000000000E10   -7.722234004177153E-4   3.705824783537537E-4  
 2.680000000000000E10    7.808760710759088E-5   7.167443982325494E-4  
 2.682000000000000E10    1.005345606245101E-3  -1.407275121891871E-4  
 2.684000000000000E10   -4.484131568460725E-5  -6.476355483755469E-4  
 2.686000000000000E10   -5.975218955427408E-4  -9.662462980486453E-5  
 2.688000000000000E10   -1.539138029329479E-4   5.050727631896734E-4  
 2.690000000000000E10    2.234104904346168E-4   1.113383859774331E-5  
 2.692000000000000E10    4.383704799693078E-4  -1.034542074194178E-4  
 2.694000000000000E10   -1.657923567108810E-4  -4.513364692684263E-4  
 2.696000000000000E10   -3.131640551146120E-4  -3.548496461007744E-4  
 2.698000000000000E10   -5.279697361402214E-4   7.044743397273123E-4  
 2.700000000000000E10    6.867282208986580E-4   3.229604335501790E-4  
 2.702000000000000E10    6.506859790533781E-4  -4.449314146768302E-4  
 2.704000000000000E10   -3.533828712534159E-4  -7.495902245864272E-4  
 2.706000000000000E10   -4.455276939552277E-4   2.815732441376895E-4  
 2.708000000000000E10   -3.491590905468911E-4   2.895487414207310E-4  
 2.710000000000000E10    4.389033420011401E-4   7.563957478851080E-5  
 2.712000000000000E10   -2.023655542870984E-5  -1.959125656867400E-4  
 2.714000000000000E10   -2.024341229116544E-4  -5.507529131136835E-4  
 2.716000000000000E10   -5.255119758658111E-4   3.048471080546733E-5  
 2.718000000000000E10    9.839286212809384E-5   5.095601663924754E-4  
 2.720000000000000E10    5.890969769097865E-4  -4.047716356581077E-5  
 2.722000000000000E10    1.009727930068038E-4  -9.879890130832791E-4  
 2.724000000000000E10   -7.004150538705289E-4  -1.601675758138299E-4  
 2.726000000000000E10   -6.477000424638391E-4   4.648654430638999E-4  
 2.728000000000000E10    6.149566615931690E-4   5.971972132101655E-4  
 2.730000000000000E10    5.099649424664676E-4  -9.278285870095715E-5  
 2.732000000000000E10    9.770251926966012E-5  -8.249392849393189E-4  
 2.734000000000000E10   -4.642888379748911E-4  -2.511112252250314E-4  
 2.736000000000000E10   -5.875356146134436E-4   6.117463926784694E-4  
 2.738000000000000E10    5.629814695566893E-4   6.536623113788664E-4  
 2.740000000000000E10    7.706459728069603E-4  -6.386385648511350E-4  
 2.742000000000000E10   -5.734141450375319E-4  -8.936958620324731E-4  
 2.744000000000000E10   -1.034097163937986E-3   4.086520348209888E-4  
 2.746000000000000E10    4.714934912044555E-4   1.147386385127902E-3  
 2.748000000000000E10    1.126040937379003E-3  -3.117053129244596E-4  
 2.750000000000000E10    3.116007137577981E-4  -1.221343991346657E-3  
 2.752000000000000E10   -1.141432905569673E-3   2.462711381667759E-5  
 2.754000000000000E10   -2.984294842462987E-4   6.867163465358317E-4  
 2.756000000000000E10    9.135048021562398E-4   7.701737340539694E-4  
