#  HZ   S   RI   R     50.00 
! Rohde & Schwarz ZVA40 4Ports - Version 3.90 - 1145.1110k42 SN: 100403
! Date: 2023-10-04 11:22:34
! Measurement: S12 
! 
 2.200000000000000E10    1.189430622616783E-4  -6.091817631386221E-4  
 2.202000000000000E10   -1.467820402467623E-4  -3.123765054624528E-4  
 2.204000000000000E10   -3.884229809045792E-4   4.736273331218399E-5  
 2.206000000000000E10    2.410733577562496E-4   5.295033915899694E-4  
 2.208000000000000E10    1.501019287388772E-4   1.118299478548579E-4  
 2.210000000000000E10   -4.760680021718144E-4   5.766434333054349E-5  
 2.212000000000000E10   -2.013200864894316E-4  -3.357809328008443E-5  
 2.214000000000000E10   -5.622265962301754E-5  -1.823431230150163E-4  
 2.216000000000000E10   -6.731929897796363E-5  -7.042347715469077E-5  
 2.218000000000000E10   -1.234345545526594E-4   4.196874506305903E-4  
 2.220000000000000E10    2.994947135448456E-4  -3.701826790347695E-4  
 2.222000000000000E10   -7.149217708501965E-5  -4.002647183369845E-4  
 2.224000000000000E10   -7.093078456819058E-4  -8.935972437029705E-5  
 2.226000000000000E10    7.345814374275506E-4   7.514440803788602E-4  
 2.228000000000000E10    5.982911679893732E-4  -5.477186641655862E-4  
 2.230000000000000E10   -4.057402838952839E-4  -5.312082939781249E-4  
 2.232000000000000E10   -3.794618241954595E-4   3.221211081836373E-4  
 2.234000000000000E10    2.169442450394854E-4   5.058198585174978E-4  
 2.236000000000000E10    4.174957284703851E-4  -2.994090900756419E-4  
 2.238000000000000E10    2.133712405338883E-4  -1.524956751381978E-4  
 2.240000000000000E10   -1.366224751109257E-4   2.975477545987815E-4  
 2.242000000000000E10   -1.751374657033011E-4  -2.486400771886110E-4  
 2.244000000000000E10   -1.165668727480806E-4   2.046103181783110E-4  
 2.246000000000000E10    3.007105260621756E-4   1.419233740307391E-4  
 2.248000000000000E10   -8.835611879476346E-6  -6.304138805717230E-4  
 2.250000000000000E10   -5.113647202961147E-4   1.511325826868415E-4  
 2.252000000000000E10   -2.130040957126766E-4   3.231354639865458E-4  
 2.254000000000000E10    5.587810301221907E-4  -6.366403249558061E-5  
 2.256000000000000E10    5.538146797334775E-5  -3.240930091124028E-4  
 2.258000000000000E10   -1.050810024025850E-4  -2.676872536540031E-4  
 2.260000000000000E10   -1.758860162226483E-4   2.412315807305276E-4  
 2.262000000000000E10   -1.108947617467493E-4   4.051454379805364E-5  
 2.264000000000000E10    2.109832566929981E-4   7.937806367408484E-5  
 2.266000000000000E10   -7.966514385771006E-5  -2.074697404168546E-4  
 2.268000000000000E10   -1.312584936385974E-4  -3.094235144089907E-4  
 2.270000000000000E10   -3.289773594588041E-4   3.672665916383266E-4  
 2.272000000000000E10    2.095986710628495E-4  -4.051496580359526E-5  
 2.274000000000000E10   -2.895967336371541E-4  -3.820558195002377E-4  
 2.276000000000000E10   -8.672638068674132E-5   4.292551602702588E-4  
 2.278000000000000E10    4.806684737559408E-4  -5.900633550481871E-5  
 2.280000000000000E10   -2.367978013353422E-4  -2.575886319391429E-4  
 2.282000000000000E10   -6.192823057062924E-4   1.217543758684769E-4  
 2.284000000000000E10    2.975841052830219E-4   3.240632358938456E-4  
 2.286000000000000E10    3.536974254529923E-4  -4.014744481537491E-4  
 2.288000000000000E10   -9.263164247386158E-5  -2.149894680769648E-5  
 2.290000000000000E10   -1.339146256214008E-4   2.251931437058374E-4  
 2.292000000000000E10    2.023005508817732E-4   4.130994493607432E-4  
 2.294000000000000E10    4.612108459696174E-4  -1.341695897281170E-4  
 2.296000000000000E10   -1.717558188829571E-4  -1.996766950469464E-4  
 2.298000000000000E10    3.107998418272473E-5   3.905541379936039E-4  
 2.300000000000000E10   -2.385724510531873E-4  -5.083173891762272E-5  
 2.302000000000000E10   -1.479595812270418E-4   1.949341822182760E-4  
 2.304000000000000E10    2.746259269770235E-4   1.531484303995967E-4  
 2.306000000000000E10    3.171000280417502E-4  -1.789796078810468E-4  
 2.308000000000000E10   -2.849300217349082E-4  -5.175280966795981E-4  
 2.310000000000000E10   -3.144673537462950E-4   9.004170424304903E-4  
 2.312000000000000E10    5.820423248223960E-4   1.876776877907105E-5  
 2.314000000000000E10    2.061860723188147E-4  -2.153439127141610E-4  
 2.316000000000000E10   -3.643393938546069E-5  -3.054078551940620E-4  
 2.318000000000000E10   -4.272552323527634E-4   2.539496344979852E-4  
 2.320000000000000E10    1.357405999442563E-4   5.038430681452155E-4  
 2.322000000000000E10    6.634012679569423E-4   2.524642914067954E-4  
 2.324000000000000E10    4.318807332310826E-4  -6.126307416707277E-4  
 2.326000000000000E10   -9.916775161400437E-4  -6.076366116758436E-5  
 2.328000000000000E10   -4.714948881883174E-4   8.078704122453928E-4  
 2.330000000000000E10    1.066376455128193E-3   3.168917319271714E-4  
 2.332000000000000E10    1.872268330771476E-4  -4.397785523906350E-4  
 2.334000000000000E10   -7.768301293253899E-4  -2.878601371776313E-4  
 2.336000000000000E10   -3.806830500252545E-4  -2.584075991762802E-5  
 2.338000000000000E10    1.581487886141986E-4  -2.336050820304081E-4  
 2.340000000000000E10    6.505097262561321E-4   1.752261887304485E-4  
 2.342000000000000E10    5.025130813010037E-4  -3.412353107705712E-4  
 2.344000000000000E10   -5.108243203721941E-4  -2.899703977163881E-4  
 2.346000000000000E10   -6.274182815104723E-4   5.759214982390404E-4  
 2.348000000000000E10    4.306089540477842E-4   7.305820472538471E-4  
 2.350000000000000E10    1.106864539906383E-3  -3.824725863523781E-4  
 2.352000000000000E10   -4.302657616790384E-4  -6.055388366803527E-4  
 2.354000000000000E10   -1.022378564812243E-3  -1.282667199120624E-5  
 2.356000000000000E10    3.567604289855808E-4   9.683105745352805E-4  
 2.358000000000000E10    9.020815487019718E-4  -3.113118145847693E-5  
 2.360000000000000E10    1.854067377280444E-4  -7.428466342389584E-4  
 2.362000000000000E10   -8.012339822016656E-4   1.470831193728373E-4  
 2.364000000000000E10   -4.047533002449200E-5   3.183458466082811E-4  
 2.366000000000000E10    1.844358921516687E-4   3.711277968250215E-4  
 2.368000000000000E10    7.077189511619508E-4  -2.552850928623229E-4  
 2.370000000000000E10   -3.063973272219300E-4  -4.389454261399806E-4  
 2.372000000000000E10   -4.932315205223858E-4  -4.101467857253738E-5  
 2.374000000000000E10    1.201442210003734E-4   8.528111502528191E-4  
 2.376000000000000E10    5.708064418286085E-4   4.526614532096573E-7  
 2.378000000000000E10    6.658093479927629E-5  -4.601342079695314E-4  
 2.380000000000000E10   -3.346000448800623E-4  -4.031924181617796E-4  
 2.382000000000000E10   -1.265730243176222E-4   1.973374019144103E-4  
 2.384000000000000E10    1.685899624135345E-4   2.404553088126704E-4  
 2.386000000000000E10    6.964010535739362E-4   2.835074847098440E-4  
 2.388000000000000E10    4.817222943529487E-4  -7.487696129828692E-4  
 2.390000000000000E10   -6.927057984285057E-4  -2.367831475567073E-4  
 2.392000000000000E10   -2.103735896525905E-4   7.801429601386190E-4  
 2.394000000000000E10    5.410474259406328E-4   6.228155689314008E-4  
 2.396000000000000E10   -2.607047499623150E-4  -8.305899682454765E-4  
 2.398000000000000E10   -5.731924902647734E-4  -2.668398665264249E-4  
 2.400000000000000E10   -3.244434483349323E-4   3.565922670532018E-4  
 2.402000000000000E10    2.244868956040591E-4  -3.376441891305149E-4  
 2.404000000000000E10    1.996840437641367E-4   4.341333624324761E-5  
 2.406000000000000E10    3.166220267303288E-4   1.248951011803001E-4  
 2.408000000000000E10    1.692437072051689E-4  -3.223744861315936E-4  
 2.410000000000000E10   -3.364393487572670E-4  -9.456053521716967E-5  
 2.412000000000000E10   -1.917749177664518E-4   9.079760638996959E-4  
 2.414000000000000E10    7.579731172882021E-4   3.318790404591709E-4  
 2.416000000000000E10    4.639966209651902E-5  -9.111358085647225E-4  
 2.418000000000000E10   -9.556086151860654E-4  -3.936188586521894E-4  
 2.420000000000000E10   -2.652829789440148E-5   5.823252722620964E-4  
 2.422000000000000E10    6.419679848477244E-4   2.869140589609742E-4  
 2.424000000000000E10    7.207683520391583E-4  -2.171450032619759E-4  
 2.426000000000000E10   -2.968977496493608E-4  -1.298111874348251E-5  
 2.428000000000000E10   -5.858103395439684E-4   9.890290675684810E-5  
 2.430000000000000E10   -1.656801905483007E-4   2.406877028988674E-4  
 2.432000000000000E10    2.146451006410644E-4   1.656506501603872E-4  
 2.434000000000000E10    3.802015562541783E-4  -6.913906545378268E-4  
 2.436000000000000E10   -3.135153674520552E-4  -4.271041834726930E-4  
 2.438000000000000E10   -6.580707267858088E-4   9.472125384490937E-5  
 2.440000000000000E10    5.891382461413741E-4   7.109901634976268E-4  
 2.442000000000000E10    7.447407115250826E-4  -5.047083050158108E-6  
 2.444000000000000E10    1.470264833187684E-4  -7.744020549580455E-4  
 2.446000000000000E10   -9.732624166645110E-4  -2.029836032306776E-4  
 2.448000000000000E10   -5.916031077504158E-4   5.386950215324760E-4  
 2.450000000000000E10    5.196249112486839E-4   4.955313052050769E-4  
 2.452000000000000E10    8.650839445181191E-4  -9.562501800246537E-4  
 2.454000000000000E10   -2.729416592046619E-4  -8.324598311446607E-4  
 2.456000000000000E10   -9.447186603210867E-4   2.870114403776825E-4  
 2.458000000000000E10    1.677007530815899E-4   1.053609303198755E-3  
 2.460000000000000E10    7.799012237228453E-4  -7.464714872185141E-5  
 2.462000000000000E10   -1.654144725762308E-4  -7.804288761690259E-4  
 2.464000000000000E10   -1.144872279837728E-3   2.199375740019605E-5  
 2.466000000000000E10   -2.557000552769750E-4   3.450168296694756E-4  
 2.468000000000000E10    3.624266828410327E-4   8.554967644158751E-5  
 2.470000000000000E10    7.232859497889876E-4  -4.972812603227794E-4  
 2.472000000000000E10    1.505155378254131E-4  -3.377854591235519E-4  
 2.474000000000000E10   -5.543913575820625E-4  -3.327015147078782E-4  
 2.476000000000000E10   -3.920065864804201E-5   1.117853447794914E-3  
 2.478000000000000E10    5.335650057531893E-4   4.232735664118081E-4  
 2.480000000000000E10    4.007424286101013E-4  -8.768889820203185E-4  
 2.482000000000000E10   -7.974014733918011E-4  -9.427870973013341E-4  
 2.484000000000000E10   -4.040059575345367E-4   4.363053594715893E-4  
 2.486000000000000E10    4.017237224616110E-4   4.068398266099393E-4  
 2.488000000000000E10    8.238885202445090E-4  -5.672395927831531E-4  
 2.490000000000000E10   -1.135203347075731E-4  -6.005386239849031E-4  
 2.492000000000000E10   -1.861577038653195E-4   4.911981159239076E-5  
 2.494000000000000E10   -1.247932232217863E-4   5.360941868275404E-4  
 2.496000000000000E10    5.642082542181015E-4   1.533605682197958E-4  
 2.498000000000000E10    1.735961268423125E-5  -5.566867184825242E-4  
 2.500000000000000E10   -3.777401871047914E-4  -7.140975794754922E-4  
 2.502000000000000E10   -3.726891591213644E-4   6.342671986203641E-5  
 2.504000000000000E10    5.396255291998386E-4   2.256461739307270E-4  
 2.506000000000000E10    3.928781370632350E-4  -3.075087734032422E-4  
 2.508000000000000E10   -1.768593065207824E-4   2.591030352050439E-5  
 2.510000000000000E10   -4.265569441486150E-5  -1.712208613753319E-4  
 2.512000000000000E10   -6.117586744949222E-4   1.022099822876044E-4  
 2.514000000000000E10   -8.491298649460077E-5   1.653882063692436E-4  
 2.516000000000000E10    3.061532916035503E-4   6.264007970457897E-5  
 2.518000000000000E10   -4.882674693362787E-5  -6.486578495241702E-4  
 2.520000000000000E10   -5.368628189899027E-4  -5.783508531749249E-4  
 2.522000000000000E10   -3.570181725081056E-4   5.160833243280649E-4  
 2.524000000000000E10    5.604831385426223E-4  -4.647663081414066E-5  
 2.526000000000000E10    2.075857082672883E-6  -6.776469945179997E-6  
 2.528000000000000E10   -1.905394892673940E-4  -2.307765389559791E-4  
 2.530000000000000E10   -5.353277083486319E-4   9.274587500840426E-5  
 2.532000000000000E10   -1.584574783919379E-4   2.975167299155146E-4  
 2.534000000000000E10   -6.602597568416968E-5  -2.430577587801963E-4  
 2.536000000000000E10   -1.530827648821287E-5  -1.970495031855535E-5  
 2.538000000000000E10    5.364377284422517E-4  -4.514072497840971E-4  
 2.540000000000000E10   -5.733385914936662E-4  -2.169442159356549E-4  
 2.542000000000000E10   -9.885241888696328E-5   4.278813139535487E-4  
 2.544000000000000E10    5.517923855222762E-4   5.659327143803239E-4  
 2.546000000000000E10    3.038491704501212E-4  -6.160379271022975E-4  
 2.548000000000000E10   -4.857572203036398E-4  -5.051697953604162E-4  
 2.550000000000000E10   -5.829987348988652E-4   5.359280039556325E-4  
 2.552000000000000E10    1.348141959169880E-4   1.642771676415578E-4  
 2.554000000000000E10    7.616141811013222E-4  -1.019854898913764E-4  
 2.556000000000000E10    9.360377930534014E-7  -9.222795488312841E-4  
 2.558000000000000E10   -9.069835068657994E-4  -1.186071967822500E-4  
 2.560000000000000E10   -1.169836104963906E-4   1.070799888111651E-3  
 2.562000000000000E10    1.033316832035780E-3   2.008919982472435E-4  
 2.564000000000000E10    1.762061438057572E-4  -9.145388030447066E-4  
 2.566000000000000E10   -4.363684856798500E-4  -6.288117729127407E-4  
 2.568000000000000E10   -7.460347260348499E-4   5.459754611365497E-4  
 2.570000000000000E10    5.048620369052514E-5   2.578996936790645E-4  
 2.572000000000000E10    4.339085135143250E-4  -1.823627389967442E-4  
 2.574000000000000E10   -1.586444850545377E-4  -5.608726060017943E-4  
 2.576000000000000E10   -1.943326642503962E-4  -7.122778333723545E-4  
 2.578000000000000E10   -8.824520627968013E-4   7.380662136711180E-4  
 2.580000000000000E10    6.667096167802811E-4   4.665440937969834E-4  
 2.582000000000000E10    8.116490789689124E-4  -5.063493154011667E-4  
 2.584000000000000E10   -6.387180183082819E-4  -1.049403566867113E-3  
 2.586000000000000E10   -1.137837651185691E-3   4.619024111889303E-4  
 2.588000000000000E10    3.636525798356161E-5   1.113039324991405E-3  
 2.590000000000000E10    1.104462658986449E-3  -2.135370887117460E-4  
 2.592000000000000E10   -2.432862529531121E-4  -1.066885073669255E-3  
 2.594000000000000E10   -7.259034318849444E-4  -1.881099742604420E-4  
 2.596000000000000E10   -5.773017182946205E-4   6.678784266114235E-4  
 2.598000000000000E10    9.071397362276912E-4   7.451110868714750E-4  
 2.600000000000000E10    6.623126682825387E-4  -7.839041063562036E-4  
 2.602000000000000E10   -8.706570370122790E-4  -6.796128000132740E-4  
 2.604000000000000E10   -5.999414715915918E-4   4.227815079502761E-4  
 2.606000000000000E10    5.407997377915308E-5   4.499019705690444E-4  
 2.608000000000000E10    7.698374683968723E-4  -4.838448148802854E-5  
 2.610000000000000E10    1.682733418419957E-4  -6.510411622002721E-4  
 2.612000000000000E10   -4.671651404350996E-4  -1.328016951447353E-4  
 2.614000000000000E10   -1.696703402558342E-4   5.153324455022812E-4  
 2.616000000000000E10    2.376543416175991E-4   1.274123205803335E-4  
 2.618000000000000E10    5.475362413562834E-4   1.345373220829060E-5  
 2.620000000000000E10   -1.255772222066298E-4  -3.036746056750417E-4  
 2.622000000000000E10   -5.373224848881364E-4  -2.977492113132030E-4  
 2.624000000000000E10   -2.266803785460070E-4   3.360802948009223E-4  
 2.626000000000000E10    3.171972348354757E-4   2.951229980681092E-4  
 2.628000000000000E10    7.751520606689155E-4  -5.064501310698688E-4  
 2.630000000000000E10   -8.224070916185156E-5  -7.014974253252149E-4  
 2.632000000000000E10   -5.582169396802783E-4   4.244832380209118E-4  
 2.634000000000000E10    2.447192673571408E-4   4.206355370115489E-4  
 2.636000000000000E10    4.138766671530902E-4  -1.328810903942213E-4  
 2.638000000000000E10    8.287362288683653E-5  -2.221275644842535E-4  
 2.640000000000000E10   -3.069307058467530E-5  -2.383714017923921E-4  
 2.642000000000000E10   -5.197896971367300E-4   5.209913797443733E-5  
 2.644000000000000E10    1.717802661005408E-4   2.056314406218007E-4  
 2.646000000000000E10    3.905138291884214E-4   9.288803994422779E-5  
 2.648000000000000E10    2.914636570494622E-4  -4.461417265702039E-4  
 2.650000000000000E10   -2.321983774891123E-4  -3.111618570983410E-4  
 2.652000000000000E10   -6.972322589717805E-4   3.172812866978347E-4  
 2.654000000000000E10    3.480298910290003E-4   4.825581854674965E-4  
 2.656000000000000E10    2.925710577983409E-4  -1.347792276646942E-4  
 2.658000000000000E10    2.458369708620012E-4  -5.953992367722094E-4  
 2.660000000000000E10   -5.777805345132947E-4  -2.284738002344966E-4  
 2.662000000000000E10   -4.532954480964690E-4   5.165669717825949E-4  
 2.664000000000000E10    8.198728901334107E-4   7.674823864363134E-4  
 2.666000000000000E10    5.368680576793850E-4  -4.288911004550755E-4  
 2.668000000000000E10   -4.981101374141872E-4  -7.493849843740463E-4  
 2.670000000000000E10   -9.406456956639886E-4   4.365726781543344E-4  
 2.672000000000000E10    3.079718735534698E-4   7.952586747705936E-4  
 2.674000000000000E10    5.370833096094430E-4  -1.340251474175602E-4  
 2.676000000000000E10    2.230774771305732E-5  -7.265339954756200E-4  
 2.678000000000000E10   -6.046509952284396E-4  -2.757201145868748E-4  
 2.680000000000000E10   -2.622965257614851E-4   5.453709163703024E-4  
 2.682000000000000E10    4.539565707091242E-4   5.243541672825813E-4  
 2.684000000000000E10    5.318732582964003E-4  -6.005749455653131E-4  
 2.686000000000000E10   -9.904390026349574E-5  -7.520693470723927E-4  
 2.688000000000000E10   -8.261313778348267E-4   2.721723649301566E-5  
 2.690000000000000E10   -4.662822902901098E-6   8.711112895980477E-4  
 2.692000000000000E10    7.445992087014020E-4   2.308039256604388E-4  
 2.694000000000000E10    2.730435808189213E-4  -8.277908782474697E-4  
 2.696000000000000E10   -3.765721630770713E-4  -2.748243568930775E-4  
 2.698000000000000E10   -4.203665012028068E-4   3.991615085396916E-4  
 2.700000000000000E10    1.132105098804459E-4   2.876134822145104E-4  
 2.702000000000000E10    4.334282130002976E-4   1.363925985060632E-4  
 2.704000000000000E10    2.505842421669513E-4  -6.279223016463220E-4  
 2.706000000000000E10   -6.114019779488444E-4  -4.679552512243390E-4  
 2.708000000000000E10   -2.537445689085871E-4   4.374603740870953E-4  
 2.710000000000000E10    8.413886534981430E-4   6.081421161070466E-4  
 2.712000000000000E10    4.872753634117544E-4  -5.392421153374016E-4  
 2.714000000000000E10   -3.338827518746257E-4  -5.125928437337279E-4  
 2.716000000000000E10   -5.973548977635801E-4   1.059450587490574E-4  
 2.718000000000000E10    2.119021955877543E-4   4.698758129961789E-4  
 2.720000000000000E10    7.258257246576250E-4  -7.926631224108860E-5  
 2.722000000000000E10    3.056375426240265E-4  -5.055395304225385E-4  
 2.724000000000000E10   -4.399069293867797E-4  -1.552773901494220E-4  
 2.726000000000000E10   -3.564730286598206E-4   3.184217712259851E-5  
 2.728000000000000E10   -7.634190114913508E-5   6.713528418913484E-4  
 2.730000000000000E10    5.459612002596259E-4  -2.749765699263662E-4  
 2.732000000000000E10    1.540829107398167E-4  -4.654988297261298E-4  
 2.734000000000000E10   -8.332277066074312E-4  -2.382389793638140E-4  
 2.736000000000000E10   -5.821888917125762E-4   3.403543378226459E-4  
 2.738000000000000E10    3.145013761240989E-4   5.438882508315146E-4  
 2.740000000000000E10    6.503094336949289E-4  -3.627711557783186E-4  
 2.742000000000000E10    4.892987999483012E-5  -7.002951460890472E-4  
 2.744000000000000E10   -6.947902147658169E-4  -2.267586387461051E-4  
 2.746000000000000E10   -1.524004183011130E-4   7.364327320829034E-4  
 2.748000000000000E10    6.976420409046114E-4   5.077093373984098E-4  
 2.750000000000000E10    4.040331405121833E-4  -7.613327470608056E-4  
 2.752000000000000E10   -4.930602153763175E-4  -8.045661961659789E-4  
 2.754000000000000E10   -7.406122167594731E-4   4.486023099161685E-4  
 2.756000000000000E10    6.759628886356950E-4   9.288858855143189E-4  
