#  HZ   S   RI   R     50.00 
! Rohde & Schwarz ZVA40 4Ports - Version 3.90 - 1145.1110k42 SN: 100403
! Date: 2023-10-04 11:22:06
! Measurement: S12 
! 
 2.200000000000000E10    4.373575502540916E-4  -6.752739136572927E-5  
 2.202000000000000E10    8.218242874136195E-5  -8.350793505087495E-4  
 2.204000000000000E10   -1.805409265216440E-4   2.491056802682579E-4  
 2.206000000000000E10    2.149657811969519E-4   1.002108256216161E-4  
 2.208000000000000E10   -7.159404049161822E-5   2.491567283868790E-4  
 2.210000000000000E10    2.646071952767670E-4  -1.017003705783282E-5  
 2.212000000000000E10    8.310632983921096E-5  -7.328264764510095E-4  
 2.214000000000000E10   -4.634542856365442E-4   5.954603329882957E-5  
 2.216000000000000E10   -1.188093301607296E-4   2.579118590801954E-4  
 2.218000000000000E10    9.288060246035457E-4   3.565614169929177E-4  
 2.220000000000000E10    1.566090213600546E-4  -3.654123574960977E-4  
 2.222000000000000E10   -3.887893981300294E-4  -3.095163265243173E-4  
 2.224000000000000E10   -5.411588062997907E-5   6.231208099052310E-4  
 2.226000000000000E10   -2.666917571332306E-4   6.459888390963897E-5  
 2.228000000000000E10    1.163333654403687E-4   5.064555921308056E-7  
 2.230000000000000E10   -1.907059049699456E-4  -1.714014651952311E-4  
 2.232000000000000E10   -5.217724828980863E-4  -5.282417405396700E-4  
 2.234000000000000E10   -2.163438512070570E-5   2.562523586675525E-4  
 2.236000000000000E10    1.547883875900880E-4   6.740069366060197E-4  
 2.238000000000000E10    5.804477841593325E-4  -4.010190023109317E-4  
 2.240000000000000E10   -2.268309908686206E-4  -1.882310170913115E-4  
 2.242000000000000E10   -3.980377223342657E-4   7.448302494594827E-5  
 2.244000000000000E10    1.171310032077599E-5   1.071309088729322E-4  
 2.246000000000000E10    2.017122169490904E-4   2.754829183686525E-4  
 2.248000000000000E10   -1.174999579234282E-5  -3.896756388712674E-4  
 2.250000000000000E10   -2.705982769839466E-4  -3.077827568631619E-4  
 2.252000000000000E10   -5.455483333207667E-4  -1.167519876617007E-4  
 2.254000000000000E10    1.203200372401625E-4   5.262222839519382E-4  
 2.256000000000000E10    7.970068836584687E-4   7.659341645194218E-5  
 2.258000000000000E10   -2.623953332658857E-4  -2.774453314486891E-4  
 2.260000000000000E10   -1.499377685831860E-4  -3.808635665336624E-5  
 2.262000000000000E10   -2.094552037306130E-4   4.756161943078041E-4  
 2.264000000000000E10    2.109741471940652E-4   1.084599352907389E-4  
 2.266000000000000E10    2.772749867290258E-4  -1.924078824231401E-4  
 2.268000000000000E10   -3.756155201699585E-4   1.193778443848714E-4  
 2.270000000000000E10    1.611362968105823E-4  -4.067702320753597E-5  
 2.272000000000000E10   -2.840863016899675E-4   2.841065870597959E-4  
 2.274000000000000E10    5.094125663163140E-5   3.826909523922950E-4  
 2.276000000000000E10    3.706301795318723E-4  -2.137327101081610E-4  
 2.278000000000000E10   -2.260211185785011E-4  -2.112012880388647E-4  
 2.280000000000000E10   -8.049251628108323E-4   1.354447304038331E-4  
 2.282000000000000E10    8.402817911701277E-6   3.490280068945140E-4  
 2.284000000000000E10    4.220099071972072E-4  -3.874666290357709E-4  
 2.286000000000000E10   -3.220943326596171E-4  -3.678759967442602E-4  
 2.288000000000000E10    2.259270404465497E-4   2.620044106151909E-4  
 2.290000000000000E10   -1.840443001128733E-4   4.959814250469208E-4  
 2.292000000000000E10    1.007714399747783E-5   1.675420026003849E-5  
 2.294000000000000E10    2.548871561884880E-4  -1.744068722473458E-4  
 2.296000000000000E10   -2.213605184806511E-4  -3.514312629704364E-5  
 2.298000000000000E10   -1.662759605096653E-4  -3.016402188222855E-4  
 2.300000000000000E10   -1.346743083558977E-4   8.431065361946821E-5  
 2.302000000000000E10    3.602586803026497E-4   1.181527331937105E-4  
 2.304000000000000E10    1.534701732452959E-4  -1.520053338026628E-4  
 2.306000000000000E10    2.484028809703887E-4   1.024809025693685E-4  
 2.308000000000000E10   -2.024839486693963E-4  -1.983194815693423E-4  
 2.310000000000000E10   -3.131397534161806E-4   5.735017475672066E-4  
 2.312000000000000E10    1.936722401296720E-4   4.255989915691316E-4  
 2.314000000000000E10    6.266357377171516E-5  -2.671363181434572E-4  
 2.316000000000000E10   -1.989086740650237E-4  -4.315092228353024E-4  
 2.318000000000000E10   -7.616956718266010E-4   6.671236769761890E-5  
 2.320000000000000E10    1.266613253392279E-4   4.741093434859067E-4  
 2.322000000000000E10    2.110893838107586E-4  -3.561715129762888E-4  
 2.324000000000000E10   -2.899151295423508E-4  -5.249368841759861E-4  
 2.326000000000000E10   -4.108786524739116E-4   1.987050782190636E-4  
 2.328000000000000E10    1.911210274556652E-4   4.257223627064377E-4  
 2.330000000000000E10   -8.746352250454947E-5  -1.517457712907344E-4  
 2.332000000000000E10   -4.361743922345340E-4   9.510842937743291E-5  
 2.334000000000000E10    1.979642111109570E-4  -1.302766904700548E-4  
 2.336000000000000E10   -1.910062128445134E-4  -6.077195284888148E-4  
 2.338000000000000E10   -5.952527862973511E-4   5.223607877269387E-5  
 2.340000000000000E10    5.286447121761739E-4   6.130993715487421E-4  
 2.342000000000000E10    4.625986039172858E-4  -2.342315710848197E-4  
 2.344000000000000E10   -4.345981869846582E-4  -7.140762172639370E-4  
 2.346000000000000E10   -4.136026254855096E-4   4.154478665441275E-4  
 2.348000000000000E10   -3.795502198045142E-5   3.636390028987080E-4  
 2.350000000000000E10    8.162987651303411E-4   1.804610801627860E-4  
 2.352000000000000E10    1.578928058734164E-4  -8.877743384800851E-4  
 2.354000000000000E10   -8.060762193053961E-4  -2.824832045007497E-4  
 2.356000000000000E10   -2.030022442340851E-4   5.788107519038022E-4  
 2.358000000000000E10    8.869765442796052E-4   7.210117182694376E-4  
 2.360000000000000E10    5.253037670627236E-4  -9.293633629567921E-4  
 2.362000000000000E10   -4.837258602492511E-4  -6.208731792867184E-4  
 2.364000000000000E10   -5.223879707045853E-4   6.618157494813204E-4  
 2.366000000000000E10    3.204652457498014E-4   1.268450432689861E-4  
 2.368000000000000E10    6.653750315308571E-4  -1.785451458999887E-4  
 2.370000000000000E10    2.006724535021931E-4  -6.365089211612940E-4  
 2.372000000000000E10   -2.316271711606532E-4  -5.899391908315010E-5  
 2.374000000000000E10   -4.542795359157026E-4   1.133593759732321E-4  
 2.376000000000000E10   -5.087917088530958E-5   5.257813609205186E-4  
 2.378000000000000E10    1.035523135215044E-3  -2.581398293841630E-4  
 2.380000000000000E10   -3.554522118065506E-4  -9.170409175567329E-4  
 2.382000000000000E10   -1.015250221826136E-3   5.492076161317527E-5  
 2.384000000000000E10    8.580539724789560E-5   9.248642600141466E-4  
 2.386000000000000E10    1.086130272597075E-3   3.438414751144592E-6  
 2.388000000000000E10    2.597516577225179E-4  -1.351892831735313E-3  
 2.390000000000000E10   -1.250331639312208E-3   6.905686313984916E-5  
 2.392000000000000E10   -5.886998769710772E-5   9.745248244144023E-4  
 2.394000000000000E10    5.042676348239183E-4   3.706666466314346E-4  
 2.396000000000000E10    4.453299916349351E-4  -5.836658529005945E-4  
 2.398000000000000E10   -8.638311410322785E-4  -8.663847111165524E-4  
 2.400000000000000E10   -3.143694775644690E-4   3.164073568768799E-4  
 2.402000000000000E10    4.839352041017264E-4   5.713048158213496E-4  
 2.404000000000000E10    3.184246888849884E-4  -2.971981666632928E-5  
 2.406000000000000E10    5.235155113041401E-4  -5.525231827050448E-4  
 2.408000000000000E10   -5.044734571129084E-4  -1.507613778812811E-4  
 2.410000000000000E10   -1.446995011065155E-4   4.457571194507182E-4  
 2.412000000000000E10    2.623882901389152E-4   5.447589210234582E-4  
 2.414000000000000E10    9.514249541098252E-5   1.126340794144198E-4  
 2.416000000000000E10    1.214416915900074E-4  -6.084339693188667E-4  
 2.418000000000000E10   -7.793401018716395E-4  -1.326073834206909E-4  
 2.420000000000000E10   -4.945156615576707E-5   4.528331919573247E-4  
 2.422000000000000E10    7.278312696143985E-4   3.015619877260178E-4  
 2.424000000000000E10    6.799874827265739E-4  -4.380395403131843E-4  
 2.426000000000000E10   -5.833451868966222E-4  -6.095650605857372E-4  
 2.428000000000000E10   -8.106132154352963E-4   2.836339699570090E-4  
 2.430000000000000E10    6.286418647505343E-4   2.955649397335947E-4  
 2.432000000000000E10    4.503181553445756E-4  -7.732782978564501E-4  
 2.434000000000000E10   -1.923995660035871E-5  -4.912806325592101E-4  
 2.436000000000000E10    1.082163653336465E-4   2.618760045152158E-4  
 2.438000000000000E10    2.204813790740445E-4  -3.233121606172063E-5  
 2.440000000000000E10    6.153537106001750E-5   2.540694258641452E-4  
 2.442000000000000E10    2.817492350004613E-4   5.839729565195739E-4  
 2.444000000000000E10    1.965236151590943E-4  -4.440454067662358E-4  
 2.446000000000000E10   -9.049141663126648E-4  -6.299928645603359E-4  
 2.448000000000000E10   -8.218869916163385E-4   3.587933606468141E-4  
 2.450000000000000E10    6.033923709765077E-4   1.399186439812183E-4  
 2.452000000000000E10    6.990115507505834E-4  -6.497442373074591E-4  
 2.454000000000000E10   -2.412989415461198E-4  -6.773655768483877E-4  
 2.456000000000000E10   -5.557953263632953E-4   3.054040425922722E-4  
 2.458000000000000E10    4.506067198235542E-4   7.845849031582475E-4  
 2.460000000000000E10    4.849278193432838E-4  -1.961651578312740E-4  
 2.462000000000000E10   -2.791298320516944E-4  -4.996229545213282E-4  
 2.464000000000000E10   -4.927794798277319E-4  -1.057595727615990E-4  
 2.466000000000000E10   -5.704524228349328E-4   3.985288276453503E-5  
 2.468000000000000E10    3.655905311461538E-4   4.171425825916231E-4  
 2.470000000000000E10    4.784607735928148E-4  -4.562082758639008E-4  
 2.472000000000000E10    4.038549668621272E-4  -3.617565089371055E-4  
 2.474000000000000E10   -4.141465760767460E-4  -1.361952163279057E-4  
 2.476000000000000E10   -4.639157850760967E-4   7.701031281612814E-4  
 2.478000000000000E10    2.396583731751889E-4   4.055087338201702E-4  
 2.480000000000000E10    1.900915958685800E-4  -7.995088817551732E-4  
 2.482000000000000E10   -2.761853102128953E-4  -8.027636213228107E-4  
 2.484000000000000E10   -5.255784490145743E-4  -2.126919571310282E-4  
 2.486000000000000E10    2.876963408198208E-4   8.318091277033091E-4  
 2.488000000000000E10    1.166504225693643E-3  -3.927326179109514E-5  
 2.490000000000000E10    4.923958331346512E-4  -1.050795312039554E-3  
 2.492000000000000E10   -9.559843456372619E-4  -2.210303064202890E-4  
 2.494000000000000E10   -3.365635930094868E-4   9.567086235620081E-4  
 2.496000000000000E10    7.792643737047911E-4   4.163303819950670E-4  
 2.498000000000000E10    1.934623142005876E-4  -8.549228659830988E-4  
 2.500000000000000E10   -3.018431307282299E-4  -7.706205942668021E-4  
 2.502000000000000E10   -4.005563969258219E-4   4.029221017844975E-4  
 2.504000000000000E10    5.723788053728640E-4   3.840585122816265E-4  
 2.506000000000000E10    5.986976320855320E-4  -1.688261399976909E-4  
 2.508000000000000E10    1.135807979153469E-4  -5.587859195657075E-4  
 2.510000000000000E10   -6.142850033938885E-4  -5.094230291433632E-4  
 2.512000000000000E10   -4.373835981823504E-4   3.707864088937640E-4  
 2.514000000000000E10    3.844416933134198E-4   4.709332424681634E-4  
 2.516000000000000E10    6.171149434521794E-4  -7.483999361284077E-4  
 2.518000000000000E10   -3.828786720987409E-4  -9.777521481737495E-4  
 2.520000000000000E10   -8.385532419197261E-4  -1.068092242348939E-4  
 2.522000000000000E10    5.475126672536135E-4   6.471966044045985E-4  
 2.524000000000000E10    6.713669863529503E-4  -1.441546628484502E-4  
 2.526000000000000E10    1.496571894676890E-5  -4.441179917193949E-4  
 2.528000000000000E10   -3.577411989681423E-4  -1.482806692365557E-4  
 2.530000000000000E10   -6.798709509894252E-4   2.983033191412687E-4  
 2.532000000000000E10    5.252080154605210E-4   1.856313610915095E-4  
 2.534000000000000E10    4.684988816734403E-4  -4.072572046425194E-4  
 2.536000000000000E10   -1.482288353145123E-4  -5.683324416168034E-4  
 2.538000000000000E10   -3.690548473969102E-4   1.641793351154774E-4  
 2.540000000000000E10    4.573910700855777E-5   6.654196768067777E-4  
 2.542000000000000E10    2.268061653012410E-4  -3.313679771963507E-4  
 2.544000000000000E10   -2.015077916439623E-4  -1.882022188510746E-4  
 2.546000000000000E10   -1.503177481936291E-4   1.515228650532663E-4  
 2.548000000000000E10   -2.614603727124631E-4  -3.617566835600883E-5  
 2.550000000000000E10   -2.100801211781800E-4   1.788596273399890E-4  
 2.552000000000000E10    1.046176403178833E-4   9.887375199468806E-5  
 2.554000000000000E10    4.651970521081239E-4  -3.266291751060635E-4  
 2.556000000000000E10    1.002527860691771E-4  -5.006018327549100E-4  
 2.558000000000000E10   -4.254461964592338E-4   2.458815870340914E-4  
 2.560000000000000E10    8.563493611291051E-5   2.011175238294527E-4  
 2.562000000000000E10    3.409556811675429E-4  -4.315575807822825E-8  
 2.564000000000000E10    1.301109587075189E-4  -2.162378950743005E-4  
 2.566000000000000E10   -1.470471761422232E-4  -2.941280545201153E-4  
 2.568000000000000E10   -2.603873144835234E-4   3.041472227778286E-4  
 2.570000000000000E10   -8.758948388276622E-5  -7.428043318213895E-5  
 2.572000000000000E10    2.295547601534054E-4   1.364786612612079E-6  
 2.574000000000000E10    2.826554118655622E-4  -5.586729384958744E-4  
 2.576000000000000E10   -5.095443339087069E-4  -2.778199268504977E-4  
 2.578000000000000E10   -4.001733614131808E-4   6.146878004074097E-4  
 2.580000000000000E10    2.748782862909138E-4   3.415447135921568E-4  
 2.582000000000000E10    3.686017589643598E-4  -5.681556649506092E-4  
 2.584000000000000E10   -4.940314101986587E-4  -7.542713428847492E-4  
 2.586000000000000E10   -7.095808396115899E-4   2.071587368845940E-4  
 2.588000000000000E10    9.846127795754001E-5   5.564194289036095E-4  
 2.590000000000000E10    5.224321503192186E-4  -1.212932420457946E-5  
 2.592000000000000E10    3.625008102972060E-4  -7.997667416930199E-4  
 2.594000000000000E10   -1.001032302156091E-3  -7.083674427121878E-4  
 2.596000000000000E10   -5.206011701375246E-4   7.101032533682883E-4  
 2.598000000000000E10    7.578082731924951E-4   7.079096976667643E-4  
 2.600000000000000E10    3.451695665717125E-4  -5.280572804622352E-4  
 2.602000000000000E10   -6.947039510123432E-4  -8.948620525188744E-4  
 2.604000000000000E10   -8.727710810489953E-4   4.350907693151385E-4  
 2.606000000000000E10   -5.450294793263311E-6   6.594085716642439E-4  
 2.608000000000000E10    6.275596679188311E-4  -1.039111812133342E-4  
 2.610000000000000E10    3.126020310446620E-4  -7.525949040427804E-4  
 2.612000000000000E10   -9.230489376932383E-4  -4.975930787622929E-4  
 2.614000000000000E10   -4.901367356069386E-4   6.989178364165127E-4  
 2.616000000000000E10    4.942312370985746E-4   4.350633244030178E-4  
 2.618000000000000E10    9.137948509305716E-4  -1.793040719348937E-4  
 2.620000000000000E10   -3.822442959062755E-4  -9.034542599692941E-4  
 2.622000000000000E10   -1.258370117284358E-3   1.595343928784132E-4  
 2.624000000000000E10   -9.586447413312271E-5   7.017950993031263E-4  
 2.626000000000000E10    1.004557707346976E-3   8.234598681156058E-6  
 2.628000000000000E10    1.783648331183940E-4  -9.038830175995827E-4  
 2.630000000000000E10   -7.614779751747847E-4  -4.703765152953565E-4  
 2.632000000000000E10   -3.062066971324384E-4   4.700593999586999E-4  
 2.634000000000000E10    4.631593183148652E-4   4.994122427888215E-4  
 2.636000000000000E10    5.018613883294165E-4  -1.782538456609473E-4  
 2.638000000000000E10   -5.231141585682053E-6  -9.848411427810788E-4  
 2.640000000000000E10   -8.080028928816319E-4   3.112850390607491E-5  
 2.642000000000000E10   -1.621752890059725E-4   5.079475813545287E-4  
 2.644000000000000E10    7.562027894891799E-4  -1.002686258289032E-4  
 2.646000000000000E10    1.497808261774480E-4  -5.101042916066945E-4  
 2.648000000000000E10   -3.051829116884619E-4  -5.204760236665607E-4  
 2.650000000000000E10   -5.420183879323304E-4   2.162533201044425E-4  
 2.652000000000000E10    2.444106503389776E-4   4.584119014907628E-4  
 2.654000000000000E10    3.697469946928322E-4  -3.037494607269764E-4  
 2.656000000000000E10    2.429065498290584E-4  -5.480272811837494E-4  
 2.658000000000000E10   -5.659148882841691E-5  -3.626097459346056E-4  
 2.660000000000000E10   -2.973335795104504E-4   4.200259863864631E-4  
 2.662000000000000E10    4.022420616820455E-4   6.990132969804108E-4  
 2.664000000000000E10    3.897287533618510E-4  -1.131587050622329E-4  
 2.666000000000000E10   -1.086318516172469E-4  -3.232686722185463E-4  
 2.668000000000000E10   -4.115868359804153E-4  -2.035013603745028E-4  
 2.670000000000000E10   -2.905354776885361E-4   4.017631290480495E-4  
 2.672000000000000E10    4.061259678564966E-4   3.982015768997371E-4  
 2.674000000000000E10    4.115839255973697E-4  -2.743612858466804E-4  
 2.676000000000000E10   -1.743597676977515E-4  -6.476166890934110E-4  
 2.678000000000000E10   -4.603799316100776E-4  -2.033922064583749E-4  
 2.680000000000000E10    6.457386916736141E-5   5.875498172827065E-4  
 2.682000000000000E10    4.571430326905102E-4   2.489962498657405E-4  
 2.684000000000000E10    4.818252637051046E-4  -8.383314125239849E-4  
 2.686000000000000E10   -6.200310308486223E-4  -3.741927212104201E-4  
 2.688000000000000E10   -3.761214320547879E-4   3.255151677876711E-4  
 2.690000000000000E10    6.555123836733401E-4   5.299579352140427E-4  
 2.692000000000000E10    5.656114080920816E-4  -2.655802818480879E-4  
 2.694000000000000E10   -2.943398139905185E-4  -4.982418031431735E-4  
 2.696000000000000E10   -3.092424303758889E-4  -1.349773374386132E-4  
 2.698000000000000E10   -2.185016346629709E-4   2.781752846203744E-4  
 2.700000000000000E10    4.952226299792528E-4   3.781986888498068E-4  
 2.702000000000000E10    8.385305991396308E-4  -3.775840450543910E-4  
 2.704000000000000E10   -1.141999819083139E-4  -1.002945704385638E-3  
 2.706000000000000E10   -7.780540036037564E-4   1.166279616882093E-5  
 2.708000000000000E10    2.978753182105720E-4   7.206052541732788E-4  
 2.710000000000000E10    7.547331624664366E-4   1.958470384124667E-4  
 2.712000000000000E10    4.476254107430577E-4  -4.423984501045197E-4  
 2.714000000000000E10   -7.518162019550800E-4  -4.960695514455438E-4  
 2.716000000000000E10   -6.949497037567198E-4   6.641510408371687E-4  
 2.718000000000000E10    5.682935588993132E-4   4.042499640490860E-4  
 2.720000000000000E10    8.538443362340331E-4  -3.430305514484644E-4  
 2.722000000000000E10   -1.415145288774511E-5  -8.656138088554144E-4  
 2.724000000000000E10   -9.809983894228935E-4   2.812460879795253E-4  
 2.726000000000000E10    2.153896093659569E-5   8.753492729738355E-4  
 2.728000000000000E10    7.454940932802856E-4   1.521719532320276E-4  
 2.730000000000000E10    3.817797114606947E-4  -7.058249902911484E-4  
 2.732000000000000E10   -3.511316899675876E-4  -4.161952529102564E-4  
 2.734000000000000E10   -5.131362122483552E-4   5.524109001271427E-4  
 2.736000000000000E10    5.444682319648564E-4   2.986445324495435E-4  
 2.738000000000000E10    2.549034543335438E-4  -9.365385631099343E-5  
 2.740000000000000E10    2.343470114283264E-4  -3.615297027863562E-4  
 2.742000000000000E10   -1.971969031728804E-4  -4.356805002316833E-4  
 2.744000000000000E10   -1.091343350708485E-3   6.087527726776898E-4  
 2.746000000000000E10    8.555476670153439E-4   8.395621553063393E-4  
 2.748000000000000E10    8.795634494163096E-4  -6.644672248512507E-4  
 2.750000000000000E10   -2.458714589010924E-4  -8.061658591032028E-4  
 2.752000000000000E10   -7.068153936415911E-4   2.579704159870744E-4  
 2.754000000000000E10    7.140734669519588E-5   7.957408670336008E-4  
 2.756000000000000E10    7.121406961232424E-4   1.608110615052283E-4  
