#  HZ   S   RI   R     50.00 
! Rohde & Schwarz ZVA40 4Ports - Version 3.90 - 1145.1110k42 SN: 100403
! Date: 2023-10-04 11:21:15
! Measurement: S12 
! 
 2.200000000000000E10   -1.354167306999443E-5   3.916109562851489E-4  
 2.202000000000000E10    2.120593708241358E-4   1.361781469313428E-4  
 2.204000000000000E10    1.094104227377102E-4  -6.336731603369117E-4  
 2.206000000000000E10   -2.212652616435662E-4  -1.849196123657748E-4  
 2.208000000000000E10   -4.061341460328549E-4   1.711907098069787E-4  
 2.210000000000000E10    2.526770113036037E-4   3.156433522235602E-4  
 2.212000000000000E10    1.614157226867974E-4   2.601589076220989E-4  
 2.214000000000000E10    9.948744263965637E-5  -6.755697540938854E-4  
 2.216000000000000E10   -3.997090389020741E-4  -5.571523797698319E-5  
 2.218000000000000E10   -3.080804890487343E-4   2.034300850937143E-4  
 2.220000000000000E10    3.538263845257461E-4   1.506251574028283E-4  
 2.222000000000000E10    4.440232296474278E-4  -3.914329281542450E-4  
 2.224000000000000E10   -7.367031503235921E-5  -1.815350260585547E-4  
 2.226000000000000E10   -2.820976078510284E-5  -1.881662028608844E-4  
 2.228000000000000E10    1.917217450682074E-4   5.593117675743997E-4  
 2.230000000000000E10    8.867207361618057E-5  -2.901749758166261E-5  
 2.232000000000000E10    2.485918812453747E-4  -1.779081212589517E-4  
 2.234000000000000E10   -4.720133729279041E-4  -5.294411093927920E-4  
 2.236000000000000E10   -3.724748385138810E-4  -8.131152753776405E-6  
 2.238000000000000E10    2.345907414564863E-4   6.825397140346468E-4  
 2.240000000000000E10    7.234062068164349E-4  -2.774556633085012E-4  
 2.242000000000000E10    1.365414846077329E-5  -7.109363214112818E-4  
 2.244000000000000E10   -5.973029765300453E-4   2.530172787373886E-5  
 2.246000000000000E10    3.028625214938074E-4   4.793353728018701E-4  
 2.248000000000000E10    3.239297366235405E-4   6.110423419158906E-5  
 2.250000000000000E10   -7.925419777166098E-5  -3.063881595153362E-4  
 2.252000000000000E10   -3.078560985159129E-4  -2.975572715513408E-4  
 2.254000000000000E10    2.625046763569117E-4  -1.732488890411332E-4  
 2.256000000000000E10   -4.305895708967000E-5  -3.760895051527768E-4  
 2.258000000000000E10    4.394504067022353E-4   3.174463054165244E-4  
 2.260000000000000E10    3.097476728726178E-4  -2.955915115308017E-4  
 2.262000000000000E10   -1.497069461038336E-4  -6.871364894323051E-4  
 2.264000000000000E10   -2.792715677060187E-4   3.744095447473228E-4  
 2.266000000000000E10    2.684096980374306E-4   3.608649130910635E-4  
 2.268000000000000E10    5.009438027627766E-4  -2.650329261086881E-4  
 2.270000000000000E10    7.671955245314166E-5  -3.173255245201290E-4  
 2.272000000000000E10   -4.060233768541366E-4  -3.843168669845909E-4  
 2.274000000000000E10    2.447814331389964E-4   2.366552653256804E-4  
 2.276000000000000E10    5.538328550755978E-4   7.071948493830860E-5  
 2.278000000000000E10    4.184904973953962E-4  -9.730748570291325E-5  
 2.280000000000000E10   -2.357859193580225E-4  -2.397459757048637E-4  
 2.282000000000000E10   -3.781252307817340E-4  -1.066090044332668E-4  
 2.284000000000000E10    2.696565061341971E-4   6.927273352630436E-4  
 2.286000000000000E10    4.823702329304069E-4  -3.889114304911345E-4  
 2.288000000000000E10   -4.440631018951535E-4  -5.690866964869201E-4  
 2.290000000000000E10    1.483584492234513E-4   1.511382833996322E-5  
 2.292000000000000E10    2.473643980920315E-4   8.131857612170279E-5  
 2.294000000000000E10   -1.593050365045201E-5   7.589599408674985E-5  
 2.296000000000000E10    2.138147101504728E-4   2.678600430954248E-4  
 2.298000000000000E10    1.552286266814917E-4  -1.583817793289200E-4  
 2.300000000000000E10   -1.111885067075491E-4  -4.764536861330271E-4  
 2.302000000000000E10   -6.793278153054416E-4   5.255814176052809E-4  
 2.304000000000000E10    1.086430856958032E-4   4.071553703397512E-4  
 2.306000000000000E10    5.319012561812997E-4  -6.317480001598597E-4  
 2.308000000000000E10   -4.043529406771995E-5  -6.441026926040649E-4  
 2.310000000000000E10   -4.235199303366244E-4   1.130371383624151E-4  
 2.312000000000000E10    4.517511697486043E-4   2.378726494498551E-4  
 2.314000000000000E10    5.070727784186602E-4  -1.326322235399857E-4  
 2.316000000000000E10    1.735242403810844E-4  -3.798125835601240E-4  
 2.318000000000000E10   -3.474704571999610E-4   2.487756137270480E-4  
 2.320000000000000E10   -1.332632382400334E-4   3.354667569510639E-4  
 2.322000000000000E10    2.333998854737729E-4   7.508910584874684E-6  
 2.324000000000000E10    1.734505203785375E-4  -9.079495794139803E-5  
 2.326000000000000E10    6.925420620973455E-6  -1.016682872432284E-4  
 2.328000000000000E10   -2.100232377415523E-4   3.203455125913024E-4  
 2.330000000000000E10   -1.874480803962797E-4   4.045970563311130E-4  
 2.332000000000000E10    1.703668385744095E-4   3.185292298439890E-4  
 2.334000000000000E10   -6.434769375118776E-7   3.351613122504205E-4  
 2.336000000000000E10    3.021524753421545E-4  -5.605129990726709E-4  
 2.338000000000000E10   -1.622768177185208E-4  -1.998826919589192E-4  
 2.340000000000000E10   -3.875115362461656E-4   3.280986566096544E-4  
 2.342000000000000E10    8.306743693538010E-4   5.090390332043171E-4  
 2.344000000000000E10    7.385149365290999E-4  -6.779002724215388E-4  
 2.346000000000000E10   -4.529964935500175E-4  -3.076530701946467E-4  
 2.348000000000000E10   -3.859943826682866E-4   8.285793010145426E-4  
 2.350000000000000E10    6.208792910911143E-4   3.807639295700938E-4  
 2.352000000000000E10    1.885938254417852E-4  -3.453297831583768E-4  
 2.354000000000000E10   -2.126380859408528E-4  -1.364625786663964E-4  
 2.356000000000000E10    8.110161434160546E-5   1.077523775165901E-4  
 2.358000000000000E10   -1.846267514338251E-5  -3.000631695613265E-4  
 2.360000000000000E10    2.295040030730888E-4   2.983280282933265E-4  
 2.362000000000000E10    1.682487491052598E-4   1.779861777322367E-4  
 2.364000000000000E10    8.782604709267616E-5  -3.479947918094695E-4  
 2.366000000000000E10   -2.984945022035390E-4  -2.305520465597510E-4  
 2.368000000000000E10   -3.246605047024787E-4   5.688588134944439E-4  
 2.370000000000000E10    5.304942606016994E-4   7.502561202272773E-4  
 2.372000000000000E10    6.760275573469698E-4  -3.486896457616240E-4  
 2.374000000000000E10   -6.900337175466120E-4  -9.132271516136825E-4  
 2.376000000000000E10   -8.250654791481793E-4   6.661021616309881E-4  
 2.378000000000000E10    4.570955061353743E-4   8.087581954896450E-4  
 2.380000000000000E10    1.123566878959537E-3  -6.009779754094780E-4  
 2.382000000000000E10   -4.786097852047533E-4  -5.357956397347152E-4  
 2.384000000000000E10   -1.164951594546437E-3   1.963529211934656E-4  
 2.386000000000000E10    5.360592622309923E-4   1.022125128656626E-3  
 2.388000000000000E10    8.884259732440114E-4   4.070055001648143E-5  
 2.390000000000000E10    7.367996295215562E-5  -9.810165502130985E-4  
 2.392000000000000E10   -6.728615844622254E-4   3.601151984184980E-4  
 2.394000000000000E10   -4.660632403101772E-4   7.703885785304010E-4  
 2.396000000000000E10    4.058338236063719E-4   3.186238755006343E-4  
 2.398000000000000E10   -2.824115217663348E-4  -3.573860449250788E-4  
 2.400000000000000E10    2.762238436844200E-4  -5.137788684805855E-5  
 2.402000000000000E10   -3.774841316044331E-4  -1.672755934123416E-5  
 2.404000000000000E10   -4.158105002716184E-4   1.567384897498414E-4  
 2.406000000000000E10    5.622686585411429E-4   1.089542987756431E-3  
 2.408000000000000E10    6.149345426820219E-4  -7.926104008220136E-4  
 2.410000000000000E10   -2.762777439784259E-4  -8.785732206888497E-4  
 2.412000000000000E10   -1.202678075060248E-3   8.698974852450192E-4  
 2.414000000000000E10    6.390997441485524E-4   1.106517040170729E-3  
 2.416000000000000E10    6.639772327616811E-4  -4.025606031063944E-4  
 2.418000000000000E10   -6.241918308660388E-4  -1.289182342588902E-3  
 2.420000000000000E10   -6.914328550919890E-4   4.330127558205277E-4  
 2.422000000000000E10    2.811713420669548E-5   4.995660274289548E-4  
 2.424000000000000E10    8.007519645616412E-4   2.182374446419999E-4  
 2.426000000000000E10   -1.754558797983918E-5  -3.485963097773492E-4  
 2.428000000000000E10   -5.501458654180169E-4  -9.716656495584175E-5  
 2.430000000000000E10   -7.122926181182265E-4   7.259154808707535E-4  
 2.432000000000000E10   -2.563150192145258E-4   1.781340688467026E-4  
 2.434000000000000E10    2.654468116816133E-4  -2.986743675137404E-5  
 2.436000000000000E10   -2.852340985555202E-4  -6.298550288192928E-4  
 2.438000000000000E10   -2.878571103792638E-4  -5.011864122934640E-4  
 2.440000000000000E10   -3.863334713969380E-4   3.765565925277770E-4  
 2.442000000000000E10    2.267714444315061E-4   3.803650324698538E-4  
 2.444000000000000E10    7.447237730957568E-4  -2.339403181395028E-5  
 2.446000000000000E10   -3.114927967544645E-4  -4.603728593792766E-4  
 2.448000000000000E10   -8.184394682757556E-4   1.306384801864624E-4  
 2.450000000000000E10   -3.387354081496596E-4   7.771354867145419E-4  
 2.452000000000000E10    1.010715612210333E-3   4.777341382578015E-5  
 2.454000000000000E10    2.122099613188766E-5  -8.031646138988435E-4  
 2.456000000000000E10   -9.377662208862603E-4  -4.931034054607153E-4  
 2.458000000000000E10   -4.182430275250226E-4   5.476883961819112E-4  
 2.460000000000000E10    5.168194766156375E-4   3.493404074106365E-4  
 2.462000000000000E10   -4.807974983123131E-5   1.601876829226967E-5  
 2.464000000000000E10   -4.638613609131426E-4  -3.130351833533496E-4  
 2.466000000000000E10   -5.052263732068241E-4   1.577515795361251E-4  
 2.468000000000000E10   -2.859341038856655E-4  -1.548636937513948E-4  
 2.470000000000000E10   -1.082317685359158E-4   1.235879753949121E-4  
 2.472000000000000E10    3.321686235722154E-4   1.788086374290288E-4  
 2.474000000000000E10    8.741141209611669E-5  -4.496409383136779E-4  
 2.476000000000000E10   -5.363697418943048E-4  -1.069568024831824E-4  
 2.478000000000000E10   -3.198460908606648E-4   1.044333097524941E-3  
 2.480000000000000E10    5.278832395561039E-4   4.285233153495938E-4  
 2.482000000000000E10    1.510016772954259E-6  -7.439382607117295E-4  
 2.484000000000000E10   -5.473329802043736E-4  -6.467144703492522E-4  
 2.486000000000000E10   -7.162053370848298E-4   4.469986888580024E-4  
 2.488000000000000E10    4.363823245512322E-5   3.214204043615609E-4  
 2.490000000000000E10    4.732614033855498E-4  -1.346474746242166E-4  
 2.492000000000000E10   -9.039443830261007E-5  -6.522947805933654E-4  
 2.494000000000000E10   -2.675381547305733E-4  -6.368145841406658E-5  
 2.496000000000000E10   -6.467754719778895E-4   4.013270954601467E-4  
 2.498000000000000E10    3.684367693495005E-4   5.545380408875644E-4  
 2.500000000000000E10    3.013302339240909E-4  -5.256185540929437E-4  
 2.502000000000000E10   -2.723340876400471E-4  -8.833030587993562E-4  
 2.504000000000000E10   -5.375564214773476E-4   2.266539668198675E-4  
 2.506000000000000E10   -9.548421803629026E-5   2.699901524465531E-4  
 2.508000000000000E10    6.687066634185612E-4   2.170681109419093E-4  
 2.510000000000000E10    2.764370001386851E-4  -6.423767772503197E-4  
 2.512000000000000E10   -3.789954644162208E-4  -5.149929202161729E-4  
 2.514000000000000E10   -8.271296974271536E-4   6.919470615684986E-4  
 2.516000000000000E10    2.022793341893703E-4   9.355120128020644E-4  
 2.518000000000000E10    1.035349327139556E-3  -5.769761628471315E-4  
 2.520000000000000E10   -5.447273724712431E-4  -9.908318752422929E-4  
 2.522000000000000E10   -1.041707582771778E-3   1.743765751598403E-4  
 2.524000000000000E10    2.732745488174260E-4   8.310734410770237E-4  
 2.526000000000000E10    8.213195833377540E-4   1.654638981563039E-5  
 2.528000000000000E10    5.645632882078644E-6  -8.156187832355499E-4  
 2.530000000000000E10   -6.382222054526210E-4  -1.140699459938332E-4  
 2.532000000000000E10   -5.344228120520711E-4   6.924797198735178E-4  
 2.534000000000000E10    2.183085307478905E-4   3.064684860873967E-4  
 2.536000000000000E10    5.775039899162948E-4  -2.939100959338248E-4  
 2.538000000000000E10   -2.046618610620499E-4  -9.911054512485862E-4  
 2.540000000000000E10   -6.336905062198639E-4   1.643700525164604E-4  
 2.542000000000000E10   -6.424962339224294E-5   7.141940295696259E-4  
 2.544000000000000E10    7.396360742859542E-4   2.318808838026598E-4  
 2.546000000000000E10    1.126720235333778E-4  -5.614483961835504E-4  
 2.548000000000000E10   -5.592469242401421E-4   4.654720669350354E-6  
 2.550000000000000E10   -7.173491758294404E-4   5.407995777204633E-4  
 2.552000000000000E10    4.115475458092988E-4   2.493303327355534E-4  
 2.554000000000000E10    2.803942479658872E-4  -2.736461756285280E-4  
 2.556000000000000E10   -4.865349037572742E-4  -3.104971547145397E-4  
 2.558000000000000E10   -2.650514070410281E-4   2.607766364235431E-4  
 2.560000000000000E10   -4.695620737038553E-5   5.730934790335596E-4  
 2.562000000000000E10    2.140363649232313E-4   8.142553997458890E-5  
 2.564000000000000E10    2.465184661559761E-4  -3.563993377611041E-4  
 2.566000000000000E10   -2.937247336376458E-4  -2.671608817763627E-4  
 2.568000000000000E10   -1.187981033581309E-4   1.788274857972283E-5  
 2.570000000000000E10    2.445478230583831E-6   4.794199776370078E-5  
 2.572000000000000E10    3.630584251368418E-5  -1.194897704408504E-4  
 2.574000000000000E10   -1.735728437779471E-5  -3.153436409775168E-4  
 2.576000000000000E10   -6.258224402699852E-6  -5.256988151813857E-5  
 2.578000000000000E10   -1.162176849902608E-4  -8.971890929387882E-5  
 2.580000000000000E10   -1.659446570556611E-4   3.818600089289248E-4  
 2.582000000000000E10    2.654499839991331E-4   2.742763317655772E-4  
 2.584000000000000E10   -9.251942537957802E-5  -4.936646437272430E-4  
 2.586000000000000E10   -3.380590351298451E-4  -6.167205719975755E-5  
 2.588000000000000E10   -4.359822196420282E-4   2.512594801373780E-4  
 2.590000000000000E10    3.014807407453191E-5   5.300237680785358E-4  
 2.592000000000000E10    2.860517415683717E-4   3.034705696336459E-5  
 2.594000000000000E10   -1.315912959398702E-4  -2.942224673461169E-4  
 2.596000000000000E10   -1.643222058191896E-4  -4.776210334966891E-5  
 2.598000000000000E10   -3.968611417803913E-4   4.238973197061569E-4  
 2.600000000000000E10    2.874687488656491E-4   5.758436745963991E-4  
 2.602000000000000E10    4.059389175381511E-4   4.642833664547652E-5  
 2.604000000000000E10   -5.277980817481875E-4  -5.982783623039722E-4  
 2.606000000000000E10   -5.756593891419470E-4   3.869721840601414E-4  
 2.608000000000000E10    2.946473068732303E-5   6.895970436744392E-4  
 2.610000000000000E10    7.407174562104046E-4  -1.632497151149437E-5  
 2.612000000000000E10    1.207795794471167E-4  -4.531969316303730E-4  
 2.614000000000000E10   -5.691284313797951E-4  -3.975395811721683E-4  
 2.616000000000000E10   -5.131436628289521E-4   4.973722388967872E-4  
 2.618000000000000E10    1.817749434849247E-4   4.129241569899023E-4  
 2.620000000000000E10    4.753754765260965E-4  -2.031172916758806E-4  
 2.622000000000000E10   -1.182801861432381E-4  -7.143897237256169E-4  
 2.624000000000000E10   -9.788430761545897E-4  -2.784596290439367E-6  
 2.626000000000000E10   -2.705559018068016E-4   5.278010503388941E-4  
 2.628000000000000E10    9.902236051857472E-4   3.402808797545731E-4  
 2.630000000000000E10    1.781739847501740E-4  -6.042660097591579E-4  
 2.632000000000000E10   -7.782958564348519E-4  -3.644735843408853E-4  
 2.634000000000000E10   -7.501347572542727E-4   5.949786864221096E-4  
 2.636000000000000E10    6.050979136489332E-4   5.672562401741743E-4  
 2.638000000000000E10    5.766978720203042E-4  -2.312668511876836E-4  
 2.640000000000000E10   -1.998847292270511E-4  -7.842398481443524E-4  
 2.642000000000000E10   -6.326922448351979E-4   3.761674452107400E-5  
 2.644000000000000E10   -2.531430218368769E-4   5.780224455520511E-4  
 2.646000000000000E10    6.711598252877593E-4   3.338494279887527E-4  
 2.648000000000000E10    6.560217007063329E-4  -6.550723337568343E-4  
 2.650000000000000E10   -7.915815804153681E-4  -5.659125163219869E-4  
 2.652000000000000E10   -6.373880896717310E-4   4.638325190171599E-4  
 2.654000000000000E10    3.785283770412207E-4   6.216012989170849E-4  
 2.656000000000000E10    7.898369804024696E-4  -2.738742623478174E-4  
 2.658000000000000E10   -2.850471937563270E-4  -7.266185712069273E-4  
 2.660000000000000E10   -6.972368573769927E-4   1.222778955707327E-4  
 2.662000000000000E10   -3.889130020979792E-4   6.208858103491366E-4  
 2.664000000000000E10    3.579547337722033E-4   3.913960536010563E-4  
 2.666000000000000E10    5.327052786014974E-4  -4.222523712087423E-4  
 2.668000000000000E10   -4.630229086615145E-4  -6.979660247452557E-4  
 2.670000000000000E10   -8.399882935918868E-4   5.368780330172740E-5  
 2.672000000000000E10    5.294682705425657E-5   6.821218994446099E-4  
 2.674000000000000E10    8.277035667560995E-4  -1.000165648292750E-4  
 2.676000000000000E10   -2.648287227202673E-5  -8.676304714754224E-4  
 2.678000000000000E10   -8.526379824616015E-4  -1.727743947412819E-4  
 2.680000000000000E10   -3.841440193355084E-4   7.075999747030437E-4  
 2.682000000000000E10    4.229210608173162E-4   6.216706824488938E-4  
 2.684000000000000E10    5.172849050723016E-4  -5.126617616042495E-4  
 2.686000000000000E10   -5.815696204081178E-4  -1.090941252186894E-3  
 2.688000000000000E10   -7.800530293025076E-4   2.018646773649380E-4  
 2.690000000000000E10    1.510900037828833E-4   4.170159518253058E-4  
 2.692000000000000E10    4.662479914259166E-4   4.986922431271523E-5  
 2.694000000000000E10    2.885507419705391E-4  -5.273037822917104E-4  
 2.696000000000000E10   -5.444100825116038E-4  -3.584344522096217E-4  
 2.698000000000000E10   -3.541814221534878E-4   4.058289632666856E-4  
 2.700000000000000E10    2.913698263000697E-4   4.125296254642308E-4  
 2.702000000000000E10    2.745845704339445E-4  -1.749277871567756E-4  
 2.704000000000000E10    5.118247645441443E-5  -3.724391572177410E-4  
 2.706000000000000E10   -5.758381448686123E-4  -4.170440661255270E-4  
 2.708000000000000E10   -3.579507465474308E-4   3.108012315351516E-4  
 2.710000000000000E10    7.264141459017992E-4   6.025602924637497E-4  
 2.712000000000000E10    8.902029367163777E-4  -1.288133062189445E-4  
 2.714000000000000E10   -3.574710863176733E-4  -9.076208225451410E-4  
 2.716000000000000E10   -9.820458944886923E-4  -5.667495497618802E-5  
 2.718000000000000E10    3.047223617613781E-5   8.148503256961703E-4  
 2.720000000000000E10    8.379085920751095E-4   4.559815351967700E-6  
 2.722000000000000E10    3.888633800670505E-4  -8.441559039056301E-4  
 2.724000000000000E10   -4.540124500636011E-4  -5.332989385351539E-4  
 2.726000000000000E10   -3.638216294348240E-4   3.516912402119488E-4  
 2.728000000000000E10    4.713029193226248E-4   4.188619204796851E-4  
 2.730000000000000E10    5.240035243332386E-4  -5.242485349299386E-5  
 2.732000000000000E10    1.073433741112240E-4  -5.149008939042687E-4  
 2.734000000000000E10   -3.604194207582623E-4  -1.469937124056742E-4  
 2.736000000000000E10   -4.225650627631694E-4   5.162722081877291E-4  
 2.738000000000000E10    6.260983063839376E-4   5.930581828579307E-4  
 2.740000000000000E10    5.290393601171672E-4  -4.411572881508619E-4  
 2.742000000000000E10   -5.975590829621069E-5  -7.065704558044672E-4  
 2.744000000000000E10   -8.320373017340899E-4   1.300217991229147E-4  
 2.746000000000000E10   -9.880692232400179E-5   7.986210985109210E-4  
 2.748000000000000E10    7.007130188867450E-4   1.866294478531927E-4  
 2.750000000000000E10    3.076425928156823E-4  -7.680174312554300E-4  
 2.752000000000000E10   -8.430081070400775E-4  -8.524731965735555E-4  
 2.754000000000000E10   -6.776952068321407E-4   8.007363067008555E-4  
 2.756000000000000E10    7.977899513207376E-4   1.191638875752688E-3  
