#  HZ   S   RI   R     50.00 
! Rohde & Schwarz ZVA40 4Ports - Version 3.90 - 1145.1110k42 SN: 100403
! Date: 2023-10-04 11:20:50
! Measurement: S12 
! 
 2.200000000000000E10   -3.791959607042372E-4  -4.795578715857118E-4  
 2.202000000000000E10    1.929559803102166E-4   2.303174842381850E-4  
 2.204000000000000E10    5.888339946977794E-4  -9.917172428686172E-5  
 2.206000000000000E10    1.183957501780242E-4  -5.652474937960506E-4  
 2.208000000000000E10   -4.848902171943337E-4   5.200087907724083E-4  
 2.210000000000000E10   -4.170022730249912E-4   6.903870962560177E-4  
 2.212000000000000E10    8.743071812205017E-4   4.290163997211494E-5  
 2.214000000000000E10    1.727943345031235E-5  -6.571818375959992E-4  
 2.216000000000000E10   -5.706523079425097E-4  -2.468391321599484E-4  
 2.218000000000000E10    1.224612060468644E-4   2.338170306757093E-4  
 2.220000000000000E10    6.511353421956301E-5  -3.472592215985060E-4  
 2.222000000000000E10    2.725638914853334E-4   3.488362708594650E-4  
 2.224000000000000E10    3.133768332190812E-4  -4.285751856514253E-5  
 2.226000000000000E10    2.640803577378392E-4  -3.843882004730403E-4  
 2.228000000000000E10   -7.855384028516710E-4   7.437014573952183E-5  
 2.230000000000000E10    3.568831598386169E-4   4.599372914526612E-4  
 2.232000000000000E10    6.923961918801069E-4   1.247902400791645E-4  
 2.234000000000000E10   -2.311788412043825E-4  -1.060871873050928E-3  
 2.236000000000000E10   -8.757102768868208E-4   1.856638118624687E-4  
 2.238000000000000E10    6.270865560509265E-5   8.436838979832828E-4  
 2.240000000000000E10    9.392254287377000E-4  -2.923868123616558E-5  
 2.242000000000000E10   -3.720732056535780E-4  -6.547135417349637E-4  
 2.244000000000000E10   -1.336868444923312E-4   2.151383814634755E-4  
 2.246000000000000E10   -4.113055765628815E-4   5.228922818787396E-4  
 2.248000000000000E10    2.398296928731725E-4   2.090157649945468E-4  
 2.250000000000000E10   -1.293010864173994E-4  -1.372440892737359E-4  
 2.252000000000000E10   -1.559534575790167E-4  -6.322530680336058E-4  
 2.254000000000000E10   -1.592283078934997E-4   1.097680942621082E-4  
 2.256000000000000E10    1.508186105638742E-4   2.028548478847370E-4  
 2.258000000000000E10    1.073274252121337E-4  -3.136364102829248E-4  
 2.260000000000000E10   -2.722420322243124E-5   3.798092366196215E-4  
 2.262000000000000E10    1.381273759761825E-4  -2.416718489257619E-4  
 2.264000000000000E10   -1.622414856683463E-4  -2.066534798359498E-4  
 2.266000000000000E10   -5.673092673532665E-4   3.650615690276027E-4  
 2.268000000000000E10    5.124988965690136E-4   6.171267013996840E-4  
 2.270000000000000E10    4.465280508156866E-4  -5.660263705067337E-4  
 2.272000000000000E10   -5.899938987568021E-4  -8.169981301762164E-4  
 2.274000000000000E10   -7.502689841203392E-4   8.302223286591470E-4  
 2.276000000000000E10    6.308981683105230E-4   8.062885026447475E-4  
 2.278000000000000E10    8.678423473611474E-4  -6.844388553872705E-4  
 2.280000000000000E10   -7.209712639451027E-4  -6.691874586977065E-4  
 2.282000000000000E10   -7.852166891098023E-4   2.623652399051935E-4  
 2.284000000000000E10    6.298748194240034E-4   6.410049973055720E-4  
 2.286000000000000E10    1.948760618688539E-4  -4.451367422007024E-4  
 2.288000000000000E10   -3.637842892203480E-4   4.566841234918684E-4  
 2.290000000000000E10    2.299266634508967E-4   6.447483610827476E-5  
 2.292000000000000E10   -3.063303302042186E-5  -3.828784974757582E-4  
 2.294000000000000E10   -1.505320251453668E-4   4.528067365754396E-4  
 2.296000000000000E10    2.296116872457787E-4   4.122353493585251E-5  
 2.298000000000000E10    1.353862026007846E-4  -4.299960564821959E-4  
 2.300000000000000E10   -6.610336131416261E-4  -2.456591173540801E-4  
 2.302000000000000E10    1.778268197085708E-4   1.091280428227037E-4  
 2.304000000000000E10    2.775963221210986E-4   2.595585538074374E-4  
 2.306000000000000E10    5.642129690386355E-4  -3.185654713888653E-5  
 2.308000000000000E10    4.346056375652552E-4  -2.202837786171585E-4  
 2.310000000000000E10   -5.358376074582338E-4  -1.294269313802943E-4  
 2.312000000000000E10   -4.917377955280244E-4   4.049513081554323E-4  
 2.314000000000000E10    4.199255781713873E-4   7.279051351360977E-4  
 2.316000000000000E10    6.377391982823610E-4  -8.304791408590972E-4  
 2.318000000000000E10   -4.392516857478768E-4  -5.230604438111186E-4  
 2.320000000000000E10   -2.589891664683819E-4   5.915104993619025E-4  
 2.322000000000000E10    8.207053760997951E-4   4.259353736415505E-4  
 2.324000000000000E10    5.123776500113308E-4  -4.514598695095629E-4  
 2.326000000000000E10   -9.899029973894358E-4   7.173285121098161E-5  
 2.328000000000000E10    5.383987081586383E-5   4.817158333025873E-4  
 2.330000000000000E10   -3.534732095431536E-4   8.964193693827838E-5  
 2.332000000000000E10   -1.296246045967564E-4   1.888276892714202E-4  
 2.334000000000000E10    1.838159223552793E-4  -6.204138480825350E-5  
 2.336000000000000E10    5.024182610213757E-4  -5.205873749218881E-4  
 2.338000000000000E10   -3.628715348895639E-4  -5.025488208048046E-4  
 2.340000000000000E10   -1.834587310440838E-4   8.891216129995883E-4  
 2.342000000000000E10    9.172784048132598E-4   6.061487947590649E-4  
 2.344000000000000E10    1.780142629286274E-4  -9.310803725384176E-4  
 2.346000000000000E10   -8.330190903507173E-4   7.143585389712825E-5  
 2.348000000000000E10   -1.462242507841438E-4   8.015753119252622E-4  
 2.350000000000000E10    6.888749776408076E-4   4.634473880287260E-4  
 2.352000000000000E10    2.091686910716817E-4  -5.167226772755384E-4  
 2.354000000000000E10   -1.170020914287306E-4  -8.308055694215000E-4  
 2.356000000000000E10   -4.212198255117983E-4   6.391496863216162E-4  
 2.358000000000000E10    3.303806588519365E-4   5.614804103970528E-4  
 2.360000000000000E10    6.851972430013120E-4  -1.349891972495243E-4  
 2.362000000000000E10   -3.893919929396361E-4  -3.939662419725210E-4  
 2.364000000000000E10   -3.935936256311834E-4   1.453452860005200E-4  
 2.366000000000000E10    3.097959270235151E-4   1.302410382777453E-4  
 2.368000000000000E10    4.777576759806834E-5  -7.000564801273868E-5  
 2.370000000000000E10   -9.067771316040307E-5  -1.634018844924867E-4  
 2.372000000000000E10    1.181039042421617E-4   3.762756750802510E-5  
 2.374000000000000E10    1.573733170516789E-4  -4.525618278421462E-4  
 2.376000000000000E10   -6.215670728124678E-4  -1.881366770248860E-4  
 2.378000000000000E10   -4.994338451069780E-5   7.690401980653405E-4  
 2.380000000000000E10    8.425312116742134E-4   9.858492558123544E-5  
 2.382000000000000E10   -2.666971704456955E-4  -1.139135565608740E-3  
 2.384000000000000E10   -9.724568808451295E-4   3.009671054314822E-4  
 2.386000000000000E10    3.304523997940123E-4   1.030391198582947E-3  
 2.388000000000000E10    8.954287040978670E-4  -6.482068565674126E-4  
 2.390000000000000E10   -4.704996827058494E-4  -5.275699077174068E-4  
 2.392000000000000E10   -4.913480370305479E-4   4.563040856737644E-4  
 2.394000000000000E10    1.171707845060155E-4   4.602462286129594E-4  
 2.396000000000000E10   -1.873558940133080E-4  -5.305506638251245E-4  
 2.398000000000000E10   -1.049245111062191E-4   5.703907390852692E-6  
 2.400000000000000E10    4.109031578991562E-4  -1.071414808393456E-4  
 2.402000000000000E10   -3.225876716896892E-4  -7.034739246591926E-4  
 2.404000000000000E10   -4.959244397468865E-4   4.638702957890928E-4  
 2.406000000000000E10    4.211260238662362E-4   4.021523345727474E-4  
 2.408000000000000E10    1.030692597851157E-3  -1.350679376628250E-4  
 2.410000000000000E10   -2.753072185441852E-4  -6.224085227586329E-4  
 2.412000000000000E10   -6.404869491234422E-4   4.112226015422493E-4  
 2.414000000000000E10   -2.872960758395493E-4   8.753171423450112E-4  
 2.416000000000000E10    1.091470709070563E-3   2.188053258578293E-6  
 2.418000000000000E10    2.524328883737326E-4  -1.051580184139311E-3  
 2.420000000000000E10   -1.160436891950667E-3  -1.696199760772288E-4  
 2.422000000000000E10   -2.411112945992500E-4   1.124726841226220E-3  
 2.424000000000000E10    9.730301680974662E-4   4.822227638214827E-4  
 2.426000000000000E10    2.075627999147400E-4  -8.465175051242113E-4  
 2.428000000000000E10   -6.938747246749699E-4  -3.722676483448595E-4  
 2.430000000000000E10   -4.662603605538607E-4   5.104143056087196E-4  
 2.432000000000000E10    4.041400097776204E-4  -7.644841389264911E-5  
 2.434000000000000E10    3.120496112387627E-4  -2.719325711950660E-4  
 2.436000000000000E10   -1.263408048544079E-4  -5.031583714298904E-4  
 2.438000000000000E10   -1.999857631744817E-4   2.372442104388028E-4  
 2.440000000000000E10   -7.920108328107745E-5   3.372762585058808E-4  
 2.442000000000000E10   -1.655289379414171E-4   8.322126232087612E-4  
 2.444000000000000E10    7.343870820477605E-4   2.827358457579976E-6  
 2.446000000000000E10    2.778288217086811E-5  -1.342591480351985E-3  
 2.448000000000000E10   -1.202189130708575E-3   6.090469105402008E-5  
 2.450000000000000E10   -2.775664142973255E-5   6.580872577615082E-4  
 2.452000000000000E10    1.614725333638489E-3   2.950343478005379E-4  
 2.454000000000000E10   -5.579796561505646E-5  -1.280235243029892E-3  
 2.456000000000000E10   -1.003512879833579E-3   1.821106561692432E-4  
 2.458000000000000E10   -2.145566686522216E-4   6.857422995381057E-4  
 2.460000000000000E10    6.863200687803328E-4   1.154163110186346E-4  
 2.462000000000000E10    2.845242270268500E-4  -3.665409458335489E-4  
 2.464000000000000E10   -3.696253988891840E-4  -7.407678058370948E-4  
 2.466000000000000E10   -4.381365142762661E-4   9.090335515793413E-5  
 2.468000000000000E10   -1.623957505216822E-4   5.072539206594229E-4  
 2.470000000000000E10    8.002210524864495E-4   7.918798946775496E-4  
 2.472000000000000E10    4.624793291441165E-5  -5.515118245966733E-4  
 2.474000000000000E10   -6.822317373007536E-4  -1.542506797704846E-4  
 2.476000000000000E10   -9.524510824121535E-4   6.100350292399526E-4  
 2.478000000000000E10    3.136731975246221E-4   1.409817105013644E-5  
 2.480000000000000E10    3.941781178582460E-4  -5.295636365190148E-4  
 2.482000000000000E10   -1.970027078641579E-4  -8.327973773702979E-4  
 2.484000000000000E10   -7.634790381416678E-5  -1.490415743319318E-4  
 2.486000000000000E10   -1.746943016769365E-4   4.643006832338870E-4  
 2.488000000000000E10    6.221217918209732E-4   5.137074622325599E-4  
 2.490000000000000E10    2.168029750464484E-4  -7.716824184171855E-4  
 2.492000000000000E10   -1.755251723807305E-4  -6.946708308532834E-4  
 2.494000000000000E10   -9.212797158397734E-4   1.147109651356004E-4  
 2.496000000000000E10    3.907830105163157E-4   3.219097852706909E-4  
 2.498000000000000E10    8.504620054736733E-4  -7.630395120941103E-4  
 2.500000000000000E10   -3.776049125008285E-4  -7.133382605388761E-4  
 2.502000000000000E10    4.963719402439892E-5   4.973692703060806E-4  
 2.504000000000000E10    2.331572468392551E-4   4.542163514997810E-4  
 2.506000000000000E10    1.769907685229555E-4   9.957337169907987E-5  
 2.508000000000000E10   -2.152539673261344E-4  -2.867394068744034E-4  
 2.510000000000000E10   -3.227412889827974E-5  -7.323622412513942E-5  
 2.512000000000000E10   -4.316207487136126E-4  -7.527561974711716E-4  
 2.514000000000000E10   -8.824085671221837E-5   3.815121308434755E-4  
 2.516000000000000E10    5.923471180722117E-4   2.148223284166306E-4  
 2.518000000000000E10    1.602585143700708E-5  -5.708896787837148E-4  
 2.520000000000000E10    9.105244680540636E-5  -4.023416549898684E-4  
 2.522000000000000E10   -7.768414216116071E-4   2.619508595671505E-4  
 2.524000000000000E10    8.709975372767076E-5   2.280643529957160E-4  
 2.526000000000000E10    1.274800306418911E-4  -6.278289220063016E-5  
 2.528000000000000E10   -5.199949373491108E-5  -5.080643459223211E-4  
 2.530000000000000E10   -2.239931636722758E-4  -5.870241438969970E-4  
 2.532000000000000E10   -4.447167739272118E-4   2.332810399821028E-4  
 2.534000000000000E10    3.370306803844869E-4   6.524476921185851E-4  
 2.536000000000000E10    6.818624096922576E-4   1.899666858662386E-5  
 2.538000000000000E10   -3.494981210678816E-4  -4.329358343966305E-4  
 2.540000000000000E10   -1.009750529192388E-3   8.731543493922800E-5  
 2.542000000000000E10   -9.768511517904699E-6   5.453396006487310E-4  
 2.544000000000000E10    4.419662291184068E-4   1.605893048690632E-4  
 2.546000000000000E10    3.498949226923287E-4  -4.968735156580806E-4  
 2.548000000000000E10   -5.914936773478985E-4  -1.572081382619217E-4  
 2.550000000000000E10   -2.787396078929305E-4   2.182544994866476E-4  
 2.552000000000000E10    4.324773035477847E-4   6.798058748245239E-4  
 2.554000000000000E10    9.056439157575369E-4   1.879635383374989E-4  
 2.556000000000000E10   -1.353132538497448E-4  -8.623735047876835E-4  
 2.558000000000000E10   -1.146663329564035E-3   2.496778906788677E-4  
 2.560000000000000E10    1.435832236893475E-4   9.836391545832157E-4  
 2.562000000000000E10    8.954836521297693E-4  -4.153118061367422E-4  
 2.564000000000000E10    7.539402304246323E-6  -9.932882385328412E-4  
 2.566000000000000E10   -4.614944919012487E-4   3.625699173426256E-5  
 2.568000000000000E10   -1.096809719456360E-4   5.047828308306634E-4  
 2.570000000000000E10    2.656064170878381E-4   9.262725507142022E-5  
 2.572000000000000E10    3.484674380160868E-4  -1.579769741510972E-4  
 2.574000000000000E10    3.594913505367003E-5  -3.809425106737763E-4  
 2.576000000000000E10   -6.631161086261272E-4   1.432689896319062E-4  
 2.578000000000000E10   -2.190137602156028E-4   4.866148228757083E-4  
 2.580000000000000E10    3.609707346186042E-4   1.808573870221153E-4  
 2.582000000000000E10    2.914857468567789E-4  -6.662759697064757E-4  
 2.584000000000000E10   -7.951945881359279E-4  -7.261064602062106E-4  
 2.586000000000000E10   -4.021731147076935E-4   8.359532221220434E-4  
 2.588000000000000E10    7.531071314588189E-4   5.282607162371278E-4  
 2.590000000000000E10    5.796765326522291E-4  -4.260264977347106E-4  
 2.592000000000000E10   -3.782946732826531E-4  -3.599027695599943E-4  
 2.594000000000000E10   -4.242908325977624E-4   1.769751106621698E-4  
 2.596000000000000E10    1.190621624118649E-4   1.696474791970104E-4  
 2.598000000000000E10   -3.687701610033400E-5   1.124274058383890E-4  
 2.600000000000000E10    1.587511360412464E-4  -1.381800539093092E-4  
 2.602000000000000E10    2.851773388101719E-5  -3.703637630678713E-4  
 2.604000000000000E10   -2.515392843633890E-4   5.758801853517070E-5  
 2.606000000000000E10    1.940376096172258E-4   4.630554467439652E-4  
 2.608000000000000E10    4.215931985527277E-4   2.097386895911768E-4  
 2.610000000000000E10   -3.391824429854751E-4  -3.386677417438477E-4  
 2.612000000000000E10   -2.342727239010856E-4  -1.504775718785822E-4  
 2.614000000000000E10   -1.726406044326723E-4   7.327203638851643E-5  
 2.616000000000000E10   -3.675575135275722E-5   7.705977623118088E-5  
 2.618000000000000E10    2.570123178884387E-4   1.675954990787432E-4  
 2.620000000000000E10    3.257390053477138E-4  -4.491181753110141E-4  
 2.622000000000000E10   -1.702137524262071E-4  -3.490408998914063E-4  
 2.624000000000000E10   -2.054736833088100E-4   2.922979765571654E-4  
 2.626000000000000E10    9.416995453648269E-5   5.416530766524375E-4  
 2.628000000000000E10    3.723339759744704E-4  -1.313254033448175E-4  
 2.630000000000000E10   -1.690551725914702E-4  -4.984657280147076E-4  
 2.632000000000000E10   -6.502082105726004E-4   4.991086370864650E-6  
 2.634000000000000E10   -5.421097012003884E-5   1.553332986077294E-4  
 2.636000000000000E10    4.001890774816275E-4   2.574992831796408E-4  
 2.638000000000000E10    4.725443723145872E-4  -2.372016315348446E-4  
 2.640000000000000E10   -2.020532519964036E-5  -4.767383506987244E-4  
 2.642000000000000E10   -6.184739177115262E-4   2.986326580867171E-5  
 2.644000000000000E10   -6.277824923017761E-6   8.608596399426460E-4  
 2.646000000000000E10    7.421377231366932E-4   3.302607219666243E-4  
 2.648000000000000E10    2.964293817058206E-4  -8.927083690650761E-4  
 2.650000000000000E10   -9.294450865127146E-4  -4.003032809123397E-4  
 2.652000000000000E10   -4.488700069487095E-4   5.507712485268712E-4  
 2.654000000000000E10    8.410285809077323E-4   3.604780358728021E-4  
 2.656000000000000E10    8.544906158931553E-4  -6.192720029503107E-4  
 2.658000000000000E10   -3.242543607484549E-4  -6.678157369606197E-4  
 2.660000000000000E10   -5.169058567844331E-4   5.357660702429712E-4  
 2.662000000000000E10   -2.134067035512999E-4   8.998367702588439E-4  
 2.664000000000000E10    6.051368545740843E-4   1.795427524484694E-4  
 2.666000000000000E10    2.569893549662083E-4  -9.147348464466631E-4  
 2.668000000000000E10   -8.960859267972410E-4  -3.627925179898739E-4  
 2.670000000000000E10   -5.301544442772865E-4   7.292220834642649E-4  
 2.672000000000000E10    7.509089773520827E-4   5.650094244629145E-4  
 2.674000000000000E10    6.004579481668770E-4  -7.164562703110278E-4  
 2.676000000000000E10   -4.392542177811265E-4  -7.667370373383164E-4  
 2.678000000000000E10   -5.472279735840857E-4   3.561248595360667E-4  
 2.680000000000000E10    4.213253760099178E-6   9.617295581847429E-4  
 2.682000000000000E10    7.386603974737227E-4   1.061417569871992E-4  
 2.684000000000000E10    5.218415171839297E-4  -7.830868125893176E-4  
 2.686000000000000E10   -7.174430647864938E-4  -5.192075041122735E-4  
 2.688000000000000E10   -5.211560637690127E-4   3.019001160282642E-4  
 2.690000000000000E10    3.267601132392883E-4   1.060414360836148E-3  
 2.692000000000000E10    1.028412836603820E-3  -5.204413319006562E-4  
 2.694000000000000E10   -9.972820407710969E-5  -1.262654666788876E-3  
 2.696000000000000E10   -1.075699226930738E-3   5.089808837510645E-4  
 2.698000000000000E10    4.385329666547477E-4   9.337833034805954E-4  
 2.700000000000000E10    8.586962358094752E-4  -1.880855124909431E-4  
 2.702000000000000E10    6.307638250291348E-5  -5.251380498521030E-4  
 2.704000000000000E10   -2.818285138346255E-4  -2.073310024570674E-4  
 2.706000000000000E10   -6.617603939957917E-4   1.564893864269834E-5  
 2.708000000000000E10   -6.001017391099595E-5   5.763511871919036E-4  
 2.710000000000000E10    8.454601047560573E-4  -3.023302706424147E-4  
 2.712000000000000E10    3.010840737260878E-4  -9.330313187092543E-4  
 2.714000000000000E10   -4.931068397127092E-4  -3.052504616789520E-4  
 2.716000000000000E10   -3.293757035862654E-4   3.721611574292183E-4  
 2.718000000000000E10    8.914542268030345E-4   8.645643829368055E-4  
 2.720000000000000E10    6.577926105819643E-4  -5.171860684640706E-4  
 2.722000000000000E10   -5.449457676149905E-4  -7.056058966554701E-4  
 2.724000000000000E10   -7.910447893664241E-4   2.614432887639850E-4  
 2.726000000000000E10    7.115917105693370E-5   8.551236824132502E-4  
 2.728000000000000E10    7.979273214004934E-4  -2.433915651636198E-4  
 2.730000000000000E10    7.573086622869596E-5  -7.685156888328493E-4  
 2.732000000000000E10   -5.009929300285876E-4  -1.155759673565626E-4  
 2.734000000000000E10   -6.727792788296938E-4   5.719955079257488E-4  
 2.736000000000000E10    4.631832998711616E-4   8.384595275856555E-4  
 2.738000000000000E10    7.062797667458654E-4  -5.226785433478653E-4  
 2.740000000000000E10   -5.797044723294675E-4  -4.820235772058368E-4  
 2.742000000000000E10   -7.179086096584797E-4   1.241430873051286E-4  
 2.744000000000000E10   -2.997139818035066E-4   4.794080450665206E-4  
 2.746000000000000E10    4.079854406882078E-4   8.639295992907137E-5  
 2.748000000000000E10    3.274527261964977E-4  -4.454410227481276E-4  
 2.750000000000000E10   -2.124304592143744E-5  -5.122507573105395E-4  
 2.752000000000000E10   -5.104622105136514E-4   2.234959829365835E-4  
 2.754000000000000E10    1.737805141601712E-4   9.877671254798770E-4  
 2.756000000000000E10    1.063331728801131E-3   1.175702345790342E-4  
