#  HZ   S   RI   R     50.00 
! Rohde & Schwarz ZVA40 4Ports - Version 3.90 - 1145.1110k42 SN: 100403
! Date: 2023-10-04 11:20:29
! Measurement: S12 
! 
 2.200000000000000E10   -1.117596184485592E-4   7.647757593076676E-5  
 2.202000000000000E10   -1.616488589206711E-4  -1.973973849089816E-4  
 2.204000000000000E10   -4.386247892398387E-4  -1.523044484201819E-4  
 2.206000000000000E10    9.584180224919692E-5  -1.075633626896888E-4  
 2.208000000000000E10   -8.219462870329153E-6   2.059176476905122E-4  
 2.210000000000000E10    5.544941523112357E-4  -3.817561664618552E-4  
 2.212000000000000E10   -5.650154780596495E-4  -2.547064650570974E-5  
 2.214000000000000E10   -2.910883340518922E-4   4.281400470063090E-4  
 2.216000000000000E10    4.556989006232470E-4   6.026651244610548E-4  
 2.218000000000000E10   -4.229757178109139E-5  -5.094952648505569E-4  
 2.220000000000000E10   -1.323677861364558E-4  -2.800022484734654E-4  
 2.222000000000000E10   -6.733704940415919E-4   1.673212391324341E-4  
 2.224000000000000E10    4.283424350433052E-4   5.470766336657107E-4  
 2.226000000000000E10    8.814174216240645E-4  -2.621900348458439E-4  
 2.228000000000000E10   -3.497092111501843E-4  -9.663683595135808E-4  
 2.230000000000000E10   -1.008863793686032E-3   4.162271216046065E-4  
 2.232000000000000E10    6.519364978885278E-5   6.081606261432171E-4  
 2.234000000000000E10    8.044294081628323E-4  -3.215950273443013E-4  
 2.236000000000000E10   -5.008790758438408E-4  -7.321959128603339E-4  
 2.238000000000000E10   -7.048358675092459E-4   1.579640957061201E-4  
 2.240000000000000E10    3.385565651115030E-4   5.821765516884625E-4  
 2.242000000000000E10    3.709267475642264E-4  -6.454826798290014E-4  
 2.244000000000000E10   -2.346670516999438E-4  -2.148986968677491E-4  
 2.246000000000000E10    1.603458658792079E-4   3.539159079082310E-4  
 2.248000000000000E10    9.100191527977586E-5  -3.296460781712085E-4  
 2.250000000000000E10   -8.321190252900124E-4   1.165598223451525E-4  
 2.252000000000000E10    4.393175477162004E-4   2.833637408912182E-4  
 2.254000000000000E10    8.190348744392395E-4  -2.538087719585747E-4  
 2.256000000000000E10   -2.637740399222821E-4  -7.614363566972315E-4  
 2.258000000000000E10   -8.700542966835201E-4   2.664493513293564E-4  
 2.260000000000000E10    3.209063143003732E-4   8.555590175092220E-4  
 2.262000000000000E10    6.341047119349241E-4  -6.566091178683564E-5  
 2.264000000000000E10   -5.230953102000058E-4  -8.147661574184895E-4  
 2.266000000000000E10   -8.000062080100179E-4   1.497398479841650E-4  
 2.268000000000000E10    9.756059444043785E-5   3.479341394267976E-4  
 2.270000000000000E10    2.488765749149025E-4  -2.023147244472057E-4  
 2.272000000000000E10   -6.477188435383141E-5  -4.391280817799270E-4  
 2.274000000000000E10   -4.570516466628760E-4  -4.283907765056938E-4  
 2.276000000000000E10    8.721902304387186E-6   1.947130294865929E-5  
 2.278000000000000E10    4.079914360772818E-4   1.805808715289459E-4  
 2.280000000000000E10    3.251258021919057E-5  -5.836749332956970E-4  
 2.282000000000000E10    1.075959062291076E-5  -5.401117959991098E-4  
 2.284000000000000E10    1.878359325928614E-4   2.067829336738214E-4  
 2.286000000000000E10   -1.479975526308408E-5  -3.899903676938266E-4  
 2.288000000000000E10   -2.999964453920256E-5  -1.273137895623222E-4  
 2.290000000000000E10    5.553692462854087E-4   4.639672406483442E-4  
 2.292000000000000E10    3.537930024322122E-4  -3.885887272190303E-4  
 2.294000000000000E10   -3.177036996930838E-4  -5.440390668809414E-4  
 2.296000000000000E10   -4.437155148480088E-4   8.584982715547085E-4  
 2.298000000000000E10    5.674458807334304E-4   8.753828005865216E-4  
 2.300000000000000E10    6.885272450745106E-4  -8.667852380312979E-4  
 2.302000000000000E10   -1.122150686569512E-3  -6.262034294195473E-4  
 2.304000000000000E10   -4.314405960030854E-4   7.286525215022266E-4  
 2.306000000000000E10    9.704815456643701E-4   3.147157030980452E-6  
 2.308000000000000E10    2.757423208095133E-4  -6.375518278218806E-4  
 2.310000000000000E10   -6.177093600854278E-4  -4.396060248836875E-4  
 2.312000000000000E10    3.591700224205852E-4   3.322130069136620E-4  
 2.314000000000000E10    3.231721348129213E-4  -4.705970241047908E-6  
 2.316000000000000E10    2.215354325016961E-4   9.735055209603161E-5  
 2.318000000000000E10   -3.633373707998544E-4  -6.342912820400670E-5  
 2.320000000000000E10    1.757758436724544E-4  -1.942237286129966E-4  
 2.322000000000000E10   -1.566243590787053E-4  -1.474790915381163E-4  
 2.324000000000000E10   -3.616478934418410E-4   3.299771633464843E-4  
 2.326000000000000E10    4.622900451067835E-4   1.297516573686153E-4  
 2.328000000000000E10    6.293301703408361E-5  -1.089553916244768E-4  
 2.330000000000000E10    5.579249773290940E-5   1.215720185427927E-4  
 2.332000000000000E10   -4.582271503750235E-4  -6.162228237371892E-5  
 2.334000000000000E10   -5.328230326995254E-4   6.331118638627231E-4  
 2.336000000000000E10    8.411162998527288E-4   7.877300959080458E-5  
 2.338000000000000E10    2.878150844480842E-4  -9.903395548462868E-4  
 2.340000000000000E10   -8.748353575356305E-4  -1.825514482334256E-4  
 2.342000000000000E10   -2.989844942931086E-4   1.089138095267117E-3  
 2.344000000000000E10    1.430203323252499E-3   4.301760636735708E-4  
 2.346000000000000E10    2.151353692170233E-4  -9.235299658030272E-4  
 2.348000000000000E10   -8.672773838043213E-4   8.105789675028063E-6  
 2.350000000000000E10   -2.501706476323307E-4   8.977004326879978E-4  
 2.352000000000000E10    4.877084866166115E-4   3.208936250302941E-4  
 2.354000000000000E10   -2.867695002350956E-4  -5.811017472296953E-4  
 2.356000000000000E10   -4.375710850581527E-4  -1.548064319649711E-4  
 2.358000000000000E10    5.897872033528984E-4  -5.583761594607495E-5  
 2.360000000000000E10   -2.153673412976787E-4   1.341374299954623E-4  
 2.362000000000000E10    6.394615775207058E-5   6.063530454412103E-4  
 2.364000000000000E10    8.215201669372618E-4   1.222443825099617E-4  
 2.366000000000000E10   -2.029825991485268E-4  -8.531502680853009E-4  
 2.368000000000000E10   -1.089969766326249E-3   1.412412966601551E-4  
 2.370000000000000E10    2.675198484212160E-4   1.533402013592422E-3  
 2.372000000000000E10    7.527595153078437E-4  -4.771763633470982E-4  
 2.374000000000000E10   -2.500182308722287E-4  -7.275312091223896E-4  
 2.376000000000000E10   -7.031263667158783E-4  -2.032980555668473E-4  
 2.378000000000000E10   -1.333022810285911E-4   8.573819650337100E-4  
 2.380000000000000E10    8.624020847491920E-4   1.223120634676889E-4  
 2.382000000000000E10   -1.756726851454005E-4  -5.116492975503206E-4  
 2.384000000000000E10   -7.748817442916334E-4  -2.479146642144769E-4  
 2.386000000000000E10   -5.856318748556078E-4   5.069307517260313E-4  
 2.388000000000000E10    9.980197064578533E-4   9.851204958977178E-5  
 2.390000000000000E10   -4.041310967295431E-5  -5.563247832469642E-4  
 2.392000000000000E10   -1.763619657140225E-4   2.385920233791694E-4  
 2.394000000000000E10   -1.798186276573688E-4   4.666799795813859E-4  
 2.396000000000000E10    1.486804976593703E-4   1.169620372820646E-4  
 2.398000000000000E10   -4.130502347834408E-4   1.546459243400022E-4  
 2.400000000000000E10   -6.102059705881402E-5   5.908978637307882E-4  
 2.402000000000000E10    3.485784400254488E-4  -3.392923681531102E-4  
 2.404000000000000E10   -6.698445649817586E-4  -4.519662761595100E-4  
 2.406000000000000E10   -4.327317874412984E-4   5.349719431251288E-4  
 2.408000000000000E10    5.658321315422654E-4   6.994075374677777E-4  
 2.410000000000000E10    5.709728575311601E-4  -8.832318126223981E-4  
 2.412000000000000E10   -5.988766206428409E-4  -1.560539822094142E-4  
 2.414000000000000E10   -7.732151425443590E-4   7.879575132392347E-4  
 2.416000000000000E10    5.251325201243162E-4   4.704591701738536E-4  
 2.418000000000000E10    3.036301932297647E-4  -9.094324777834117E-4  
 2.420000000000000E10   -4.509081190917641E-4  -1.082159069483168E-4  
 2.422000000000000E10   -3.658389687188901E-5   2.314357116119936E-4  
 2.424000000000000E10   -1.154184064944275E-5  -1.039369089994580E-4  
 2.426000000000000E10   -2.851504723366816E-5   1.645843440201134E-4  
 2.428000000000000E10    2.211796381743625E-4   5.297923344187439E-4  
 2.430000000000000E10    8.118098776321858E-6  -5.443672998808324E-4  
 2.432000000000000E10   -5.987700424157083E-4  -9.282722021453083E-5  
 2.434000000000000E10   -8.823228999972343E-4   6.152067217044532E-4  
 2.436000000000000E10    6.942501058802009E-4   2.128402848029509E-4  
 2.438000000000000E10    3.322026168461889E-4  -7.375264540314674E-4  
 2.440000000000000E10   -5.390227888710797E-4  -5.772096919827163E-4  
 2.442000000000000E10   -5.015854258090258E-4   6.838182453066111E-4  
 2.444000000000000E10    3.174077428411692E-4   7.998551591299474E-4  
 2.446000000000000E10    4.922413500025868E-4  -2.035517973126844E-4  
 2.448000000000000E10   -2.139970310963690E-4  -8.037263760343194E-4  
 2.450000000000000E10   -9.939973242580891E-4  -1.699735548754688E-5  
 2.452000000000000E10   -1.878936309367418E-4   9.715470951050520E-4  
 2.454000000000000E10    8.207437931559980E-4  -1.497533085057512E-4  
 2.456000000000000E10    2.828161232173443E-4  -6.835908861830831E-4  
 2.458000000000000E10   -6.589617114514113E-4  -4.440522461663932E-4  
 2.460000000000000E10   -4.007791285403073E-4   9.448985219933093E-4  
 2.462000000000000E10    7.475862275896361E-7   3.181391221005470E-4  
 2.464000000000000E10    1.831971894716844E-4  -7.829326932551339E-5  
 2.466000000000000E10   -1.771847455529496E-4  -8.174176909960806E-4  
 2.468000000000000E10   -4.926879773847759E-4  -5.192752578295767E-4  
 2.470000000000000E10   -4.247536417096853E-4   4.218975664116442E-4  
 2.472000000000000E10    9.844048181548715E-4   6.323819397948682E-4  
 2.474000000000000E10    3.547037777025253E-4  -4.960575024597347E-4  
 2.476000000000000E10   -4.397169104777277E-4  -6.483073811978102E-4  
 2.478000000000000E10   -1.170170260593295E-3   7.700884016230702E-4  
 2.480000000000000E10    1.986171700991690E-4   9.795611258596182E-4  
 2.482000000000000E10    5.785289686173201E-4  -2.901826519519091E-4  
 2.484000000000000E10   -4.736235132440925E-4  -8.273227722384036E-4  
 2.486000000000000E10   -8.433595648966730E-4   3.918150468962267E-5  
 2.488000000000000E10    7.416573498630896E-5   5.715800216421485E-4  
 2.490000000000000E10    5.270667606964707E-4   5.001344252377749E-4  
 2.492000000000000E10    3.525791689753532E-4  -4.396261065267026E-4  
 2.494000000000000E10   -8.753197034820914E-4  -2.582888409961015E-4  
 2.496000000000000E10   -7.932665175758302E-4   6.403903826139867E-4  
 2.498000000000000E10   -2.604842011351138E-4   2.856717910617590E-4  
 2.500000000000000E10    7.553943432867527E-4  -1.981664172490127E-5  
 2.502000000000000E10    1.544351107440889E-4  -8.882399997673929E-4  
 2.504000000000000E10   -6.328860181383789E-4  -8.965207234723494E-5  
 2.506000000000000E10   -1.079862922779284E-4   7.970316219143570E-4  
 2.508000000000000E10    3.730956814251840E-4   2.547362819314003E-4  
 2.510000000000000E10    4.011493292637169E-4  -4.507715930230916E-4  
 2.512000000000000E10   -4.312224045861512E-4  -3.754795179702342E-4  
 2.514000000000000E10   -7.084725075401366E-4   2.697780146263540E-4  
 2.516000000000000E10   -5.104653155285632E-6   1.210851914947853E-4  
 2.518000000000000E10    3.432623925618827E-4   2.097241849696729E-5  
 2.520000000000000E10    2.309367700945586E-4  -7.236032397486270E-4  
 2.522000000000000E10   -6.659000646322966E-4  -2.873176708817482E-4  
 2.524000000000000E10   -3.400217101443559E-4   8.698145975358784E-4  
 2.526000000000000E10    3.160380292683840E-4   2.802384260576218E-4  
 2.528000000000000E10   -5.027597217122093E-5  -2.464465214870870E-4  
 2.530000000000000E10   -6.833033985458314E-4  -2.163656463380903E-4  
 2.532000000000000E10   -1.490138238295913E-4  -2.989431095556938E-6  
 2.534000000000000E10    1.345862838206813E-4  -2.085738960886374E-4  
 2.536000000000000E10   -7.107783312676475E-5   1.598488306626678E-4  
 2.538000000000000E10    8.103657164610922E-4   1.544158294564113E-4  
 2.540000000000000E10   -4.681087739299983E-5  -5.304993246681988E-4  
 2.542000000000000E10   -6.231206352822483E-4  -6.075924466131255E-5  
 2.544000000000000E10   -1.535167830297723E-4   8.590349461883307E-4  
 2.546000000000000E10    4.238687106408179E-4   7.332568202400580E-5  
 2.548000000000000E10    7.089930295478553E-5  -4.502453666646034E-4  
 2.550000000000000E10   -6.005088798701763E-4  -2.694746362976730E-4  
 2.552000000000000E10   -1.405393704771996E-4   5.276813753880560E-4  
 2.554000000000000E10    5.460621323436499E-4   1.686490577412769E-4  
 2.556000000000000E10    3.453360113780946E-4   1.011795320664533E-4  
 2.558000000000000E10    1.774823322193697E-4  -9.932574903359637E-5  
 2.560000000000000E10   -7.685469463467598E-4  -3.098095767199993E-4  
 2.562000000000000E10   -3.610100247897208E-4   7.896634051576257E-4  
 2.564000000000000E10    5.237139412201941E-4   2.257351152366027E-4  
 2.566000000000000E10    2.345006942050532E-4  -7.865882944315672E-4  
 2.568000000000000E10   -6.042635650373995E-4  -4.329794028308243E-4  
 2.570000000000000E10   -4.512107989285141E-4   2.705795341171324E-4  
 2.572000000000000E10    2.352809096919373E-4   2.916666562668979E-4  
 2.574000000000000E10    9.368148166686297E-4  -2.048303431365639E-4  
 2.576000000000000E10   -1.285513717448339E-4  -8.046221337281168E-4  
 2.578000000000000E10   -6.705885170958936E-4   4.041345382574946E-4  
 2.580000000000000E10    6.757225492037833E-5   6.444522878155112E-4  
 2.582000000000000E10    5.237613222561777E-4   3.736900180228986E-5  
 2.584000000000000E10    3.390594501979649E-4  -6.665404653176665E-4  
 2.586000000000000E10   -6.942971958778799E-4  -4.271866928320378E-4  
 2.588000000000000E10   -3.949500678572804E-4   4.169350431766361E-4  
 2.590000000000000E10    4.288801574148238E-4   5.704973009414971E-4  
 2.592000000000000E10    6.509149097837508E-4  -6.671783048659563E-4  
 2.594000000000000E10   -4.138329240959138E-4  -3.768127062357962E-4  
 2.596000000000000E10   -4.411297850310803E-4   3.879717551171780E-4  
 2.598000000000000E10   -4.686255488195457E-5   6.408590706996620E-4  
 2.600000000000000E10    5.338343326002359E-4  -3.792766437982209E-5  
 2.602000000000000E10   -2.581177104730159E-4  -7.370656239800155E-4  
 2.604000000000000E10    4.656260716728866E-5  -2.315542951691896E-4  
 2.606000000000000E10   -4.684071755036712E-4  -1.227291068062186E-4  
 2.608000000000000E10    4.771197200170718E-5   5.967807373963296E-4  
 2.610000000000000E10    7.821662584319711E-4   6.565528565261047E-6  
 2.612000000000000E10   -9.585743100615218E-5  -4.323192697484046E-4  
 2.614000000000000E10   -5.464198184199631E-4   8.189801155822352E-5  
 2.616000000000000E10   -1.906245779537130E-5   5.551783251576126E-4  
 2.618000000000000E10    2.656583383213729E-4   1.295266702072695E-4  
 2.620000000000000E10   -1.325500052189454E-4  -4.210360057186335E-4  
 2.622000000000000E10   -2.453766646794975E-4  -2.086621316266246E-5  
 2.624000000000000E10   -5.554025119636208E-5  -2.762659278232604E-5  
 2.626000000000000E10    2.743181248661131E-4   1.437614846508950E-4  
 2.628000000000000E10    3.118630847893655E-4   2.176354901166633E-4  
 2.630000000000000E10    1.815762807382271E-4  -9.119628521148115E-5  
 2.632000000000000E10   -1.305799960391596E-4  -1.116827625082806E-4  
 2.634000000000000E10   -2.579743450041860E-4   1.700738357612863E-4  
 2.636000000000000E10    1.863223733380437E-4   1.686776668066159E-4  
 2.638000000000000E10    4.081151273567230E-4   3.712094257934950E-5  
 2.640000000000000E10    2.315398160135374E-4  -3.897538990713656E-4  
 2.642000000000000E10   -3.065781784243882E-4  -4.626640002243221E-4  
 2.644000000000000E10   -1.393975981045514E-4   2.979436249006540E-4  
 2.646000000000000E10    1.865514059318230E-4   4.352551768533886E-4  
 2.648000000000000E10    4.444051301106811E-4   1.327568606939167E-4  
 2.650000000000000E10    1.476194738643244E-4  -5.514388903975487E-4  
 2.652000000000000E10   -7.207489688880742E-4  -1.337537541985512E-4  
 2.654000000000000E10   -1.495399046689272E-4   4.594391793943942E-4  
 2.656000000000000E10    7.349163061007857E-4   2.015466598095372E-4  
 2.658000000000000E10    3.349102626089007E-4  -5.267051747068763E-4  
 2.660000000000000E10   -4.900171770714223E-4  -1.918440975714475E-4  
 2.662000000000000E10   -5.627608625218272E-4   5.960851558484137E-4  
 2.664000000000000E10    3.414468374103308E-4   4.052890872117132E-4  
 2.666000000000000E10    4.176111542619765E-4  -2.136772964149714E-4  
 2.668000000000000E10    4.678659752244130E-5  -4.276846884749830E-4  
 2.670000000000000E10   -5.159173742868006E-4  -4.934559110552073E-4  
 2.672000000000000E10   -9.202627115882933E-4   5.166743649169803E-4  
 2.674000000000000E10    5.866978317499161E-4   6.113665876910090E-4  
 2.676000000000000E10    7.449278491549194E-4  -3.832494548987597E-4  
 2.678000000000000E10   -4.808599769603461E-4  -1.063514151610434E-3  
 2.680000000000000E10   -8.230943349190056E-4   3.919996379408985E-4  
 2.682000000000000E10    1.695014507276937E-4   8.113057701848447E-4  
 2.684000000000000E10    9.664715616963804E-4  -3.900326846633107E-4  
 2.686000000000000E10    2.079346159007400E-4  -8.352097356691957E-4  
 2.688000000000000E10   -1.141041633673012E-3  -1.601335679879412E-4  
 2.690000000000000E10   -4.071007133461535E-4   9.711869060993195E-4  
 2.692000000000000E10    7.341629243455827E-4   2.720803604461253E-4  
 2.694000000000000E10    2.540161367505789E-4  -4.467628896236420E-4  
 2.696000000000000E10   -2.298826293554157E-4  -8.285212679766119E-4  
 2.698000000000000E10   -7.607365841977298E-4   1.497667544754222E-4  
 2.700000000000000E10    6.103508439991856E-6   8.925330475904048E-4  
 2.702000000000000E10    8.828122518025339E-4  -7.904035010142252E-5  
 2.704000000000000E10    2.752276777755469E-4  -1.059962203726172E-3  
 2.706000000000000E10   -9.768949821591377E-4  -3.807291795965284E-4  
 2.708000000000000E10   -5.050451727584004E-5   8.009753655642271E-4  
 2.710000000000000E10    3.283525002188981E-4   6.496202549897134E-4  
 2.712000000000000E10    4.397530865389854E-4  -2.219579182565212E-4  
 2.714000000000000E10   -1.855846785474569E-4  -9.281079401262105E-4  
 2.716000000000000E10   -1.118389773182571E-3  -9.941944881575182E-5  
 2.718000000000000E10    5.674711428582668E-5   1.016920199617744E-3  
 2.720000000000000E10    1.112989732064307E-3   4.340423329267651E-4  
 2.722000000000000E10    3.712826292030513E-4  -8.864342817105353E-4  
 2.724000000000000E10   -9.200012427754700E-4  -4.855539300478995E-4  
 2.726000000000000E10   -4.589493328239769E-4   7.522485684603453E-4  
 2.728000000000000E10    6.792329950258136E-4   9.277726639993489E-4  
 2.730000000000000E10    6.034713005647063E-4  -6.165042868815363E-4  
 2.732000000000000E10   -1.907737751025707E-4  -9.167231037281454E-4  
 2.734000000000000E10   -3.832544607575983E-4   8.665843051858246E-5  
 2.736000000000000E10    7.793270924594253E-5   4.767652135342360E-4  
 2.738000000000000E10    6.087668007239699E-4   4.259771085344255E-4  
 2.740000000000000E10    4.974295152351260E-4  -3.684721887111664E-4  
 2.742000000000000E10   -2.319921040907502E-4  -5.241798935458064E-4  
 2.744000000000000E10   -1.009891391731799E-3   5.556678515858948E-4  
 2.746000000000000E10    3.299152012914419E-4   7.331606466323137E-4  
 2.748000000000000E10    7.935659377835691E-4  -4.677912147599272E-5  
 2.750000000000000E10    1.319378952757688E-5  -9.949118830263615E-4  
 2.752000000000000E10   -1.180121558718383E-3  -6.930359086254612E-5  
 2.754000000000000E10   -2.114228555001319E-4   9.608762920834124E-4  
 2.756000000000000E10    6.558696040883660E-4   2.438543451717123E-4  
