#  HZ   S   RI   R     50.00 
! Rohde & Schwarz ZVA40 4Ports - Version 3.90 - 1145.1110k42 SN: 100403
! Date: 2023-10-04 11:19:56
! Measurement: S12 
! 
 2.200000000000000E10    1.226834487169981E-3  -1.211033202707768E-3  
 2.202000000000000E10   -1.043382333591580E-3  -7.234522490762174E-4  
 2.204000000000000E10   -7.437792373821139E-4   5.138143897056580E-4  
 2.206000000000000E10    3.264549304731190E-4   7.592272013425827E-4  
 2.208000000000000E10    8.732222486287355E-4  -3.246579581173137E-5  
 2.210000000000000E10   -7.038262265268713E-5  -9.550196700729430E-4  
 2.212000000000000E10   -7.904141093604267E-4  -7.982515671756119E-5  
 2.214000000000000E10   -5.051502375863493E-4   8.273811545222998E-4  
 2.216000000000000E10    9.866448817774653E-4   7.095310720615089E-4  
 2.218000000000000E10    1.947163400473073E-4  -9.006280452013016E-4  
 2.220000000000000E10   -9.799508843570948E-4   5.514750591828488E-5  
 2.222000000000000E10    6.546254735440016E-5   6.555952131748200E-4  
 2.224000000000000E10    6.522238982142881E-5   3.039925068151206E-4  
 2.226000000000000E10    4.708819906227291E-4  -6.175750750117004E-4  
 2.228000000000000E10    3.710804594447836E-5   6.129005487309769E-5  
 2.230000000000000E10    1.163318229373545E-4   1.256579998880625E-4  
 2.232000000000000E10   -2.192596293753013E-4   7.005670340731740E-5  
 2.234000000000000E10    2.008688315981999E-4   6.493770051747561E-4  
 2.236000000000000E10    5.734100705012679E-4  -2.796408080030233E-4  
 2.238000000000000E10   -2.952996001113206E-4  -4.894749145023525E-4  
 2.240000000000000E10   -7.279787096194923E-4   6.668454443570226E-5  
 2.242000000000000E10    2.865767455659807E-4   6.517988513223827E-4  
 2.244000000000000E10    8.402026724070311E-4  -3.978435706812888E-4  
 2.246000000000000E10   -8.935739169828594E-4  -4.444885416887701E-4  
 2.248000000000000E10   -5.695544532500207E-4   5.503258435055614E-4  
 2.250000000000000E10    7.935606990940869E-4   2.857999061234295E-4  
 2.252000000000000E10   -4.559721273835748E-4  -4.714326059911400E-4  
 2.254000000000000E10   -3.937527653761208E-4   2.906351801357232E-5  
 2.256000000000000E10    4.712649024440907E-5   6.087552756071091E-4  
 2.258000000000000E10    3.638946800492704E-4  -4.519855137914419E-4  
 2.260000000000000E10   -3.530005342327058E-4  -4.390682443045080E-4  
 2.262000000000000E10   -1.260905701201409E-4   6.777652306482196E-4  
 2.264000000000000E10    6.883136811666191E-4  -1.934243628056720E-4  
 2.266000000000000E10    1.429934345651418E-4  -1.865405356511474E-4  
 2.268000000000000E10   -1.226892491104081E-4   7.196747901616618E-5  
 2.270000000000000E10   -1.012819848256186E-4   1.745712361298502E-4  
 2.272000000000000E10    3.788877511397004E-4   1.670447963988408E-4  
 2.274000000000000E10    2.748830011114478E-4  -1.819944445742294E-4  
 2.276000000000000E10   -1.981529785552993E-4  -4.858948159380816E-5  
 2.278000000000000E10   -4.987573483958840E-4   9.297353244619444E-5  
 2.280000000000000E10   -2.433001500321552E-4   4.609515017364174E-4  
 2.282000000000000E10    7.725700852461159E-4   7.453717989847064E-4  
 2.284000000000000E10   -2.749794803094119E-4  -3.337810630910099E-4  
 2.286000000000000E10   -9.292901959270239E-4   1.075566178769805E-4  
 2.288000000000000E10    7.294877286767587E-5   5.468645831570029E-4  
 2.290000000000000E10    4.885315429419279E-4  -2.197118883486837E-4  
 2.292000000000000E10    2.767176920315251E-5  -3.642975352704525E-4  
 2.294000000000000E10   -4.996160860173404E-4  -2.660475729499012E-5  
 2.296000000000000E10    3.521787220961414E-5   4.612413249560632E-5  
 2.298000000000000E10    1.713731762720272E-4   1.350502716377378E-4  
 2.300000000000000E10    1.994891790673137E-4   1.673348597250879E-4  
 2.302000000000000E10    3.384248702786863E-4  -4.744833277072758E-4  
 2.304000000000000E10   -4.762343014590442E-4  -3.018122224602848E-4  
 2.306000000000000E10   -3.449023060966283E-4   9.680621442385018E-4  
 2.308000000000000E10    7.507803384214640E-4   1.456644822610542E-4  
 2.310000000000000E10    3.978734894189984E-4  -1.001770724542439E-3  
 2.312000000000000E10   -8.597880951128900E-4  -4.622115011443384E-5  
 2.314000000000000E10   -1.559135853312910E-4   9.272478637285531E-4  
 2.316000000000000E10    7.670535705983639E-4   2.278911852044985E-4  
 2.318000000000000E10   -1.401755725964904E-4  -9.274615440517664E-4  
 2.320000000000000E10   -5.114626255817711E-4  -2.743212644418236E-5  
 2.322000000000000E10   -2.285098453285173E-4   2.728661638684571E-4  
 2.324000000000000E10    1.905261306092143E-4   6.948970985831693E-5  
 2.326000000000000E10    4.222882562316954E-4  -4.290340002626181E-4  
 2.328000000000000E10   -1.463247190258699E-5  -6.117390003055334E-4  
 2.330000000000000E10   -4.078096026205458E-5  -1.158707309514284E-4  
 2.332000000000000E10   -1.969270670088008E-6  -2.838557156792376E-5  
 2.334000000000000E10    4.446046368684620E-4   1.719894789857790E-4  
 2.336000000000000E10    3.116791776847094E-4  -1.170425675809383E-4  
 2.338000000000000E10   -4.486948892008513E-4  -2.476714143995196E-4  
 2.340000000000000E10    5.705031071556732E-5   5.471514887176454E-4  
 2.342000000000000E10    1.247353939106688E-4  -1.712528028292581E-4  
 2.344000000000000E10    2.705228980630636E-4   2.420941164018586E-4  
 2.346000000000000E10   -3.494007105473429E-4   4.248269033269025E-5  
 2.348000000000000E10   -2.057628298643976E-4  -4.285910690668970E-4  
 2.350000000000000E10   -2.329641865799204E-4   8.810994768282399E-5  
 2.352000000000000E10   -8.832367893774062E-5   3.599991323426366E-4  
 2.354000000000000E10    6.274214247241616E-4  -2.325894456589595E-5  
 2.356000000000000E10   -2.971592766698450E-4  -8.575301035307348E-4  
 2.358000000000000E10   -3.168449911754578E-4  -1.584791752975434E-4  
 2.360000000000000E10    3.842523146886379E-4   5.415119230747223E-4  
 2.362000000000000E10    4.025657544843853E-4  -1.829834363888949E-4  
 2.364000000000000E10   -1.806081127142534E-4  -3.402234870009124E-4  
 2.366000000000000E10   -5.408196375356056E-5  -1.651348247833084E-5  
 2.368000000000000E10   -2.915944969572593E-5   1.283477467950434E-4  
 2.370000000000000E10    5.511663403012790E-6  -6.908700743224472E-5  
 2.372000000000000E10    2.579068241175264E-4   8.632391836727038E-5  
 2.374000000000000E10    6.269939476624131E-4  -4.998266231268644E-4  
 2.376000000000000E10   -2.013217163039371E-4  -3.111832193098962E-4  
 2.378000000000000E10   -5.084152799099684E-4   6.024265312589705E-4  
 2.380000000000000E10    4.433308786246926E-4   5.408005672506988E-4  
 2.382000000000000E10    6.572000565938652E-4  -3.589530533645302E-4  
 2.384000000000000E10   -5.007841391488910E-4  -4.422753991093487E-4  
 2.386000000000000E10   -6.315095233730972E-4   5.173407844267786E-4  
 2.388000000000000E10    5.234566051512957E-4   5.004924605600536E-4  
 2.390000000000000E10    6.378694088198245E-4  -9.851974027696997E-5  
 2.392000000000000E10    9.963569027604535E-5  -2.740235649980605E-4  
 2.394000000000000E10   -2.475779037922621E-4   8.764259109739214E-5  
 2.396000000000000E10   -4.589315794873983E-4   6.586137460544705E-4  
 2.398000000000000E10    6.289429729804397E-4   3.848475171253085E-4  
 2.400000000000000E10    6.843529990874231E-5  -7.182630943134427E-4  
 2.402000000000000E10   -8.199251606129110E-4  -5.251918919384480E-4  
 2.404000000000000E10   -5.885443533770740E-4   4.293454694561660E-4  
 2.406000000000000E10    7.529652793891728E-4   3.837604890577495E-4  
 2.408000000000000E10    6.022995221428573E-4  -8.824713586363941E-5  
 2.410000000000000E10   -3.328354505356401E-4  -5.478680250234902E-4  
 2.412000000000000E10   -7.511450676247478E-4   2.185966586694121E-4  
 2.414000000000000E10   -1.252503716386855E-4   6.884930771775544E-4  
 2.416000000000000E10    6.583654321730137E-4  -1.973240287043154E-4  
 2.418000000000000E10    1.970627636183053E-4  -6.482715252786875E-4  
 2.420000000000000E10   -6.203130469657481E-4  -2.623587788548321E-4  
 2.422000000000000E10   -1.968699507415295E-4   7.008082466199994E-4  
 2.424000000000000E10    4.789381346199662E-4   8.127856417559087E-4  
 2.426000000000000E10    1.016646740026772E-3  -4.538229550234973E-4  
 2.428000000000000E10   -4.391213587950915E-4  -8.839739602990449E-4  
 2.430000000000000E10   -9.472529636695981E-4   6.784242577850819E-4  
 2.432000000000000E10    4.469429550226778E-4   8.852493483573198E-4  
 2.434000000000000E10    8.108872571028769E-4  -6.634565652348101E-4  
 2.436000000000000E10   -1.126384231611155E-4  -7.451202254742384E-4  
 2.438000000000000E10   -1.857532624853775E-4   3.061350435018539E-4  
 2.440000000000000E10    1.324071636190638E-4   6.227723206393421E-4  
 2.442000000000000E10    2.385677653364837E-4   3.263850812800229E-4  
 2.444000000000000E10    5.087807076051831E-4   8.321354107465595E-5  
 2.446000000000000E10   -2.129835484083742E-4  -2.362164377700537E-4  
 2.448000000000000E10   -8.104028529487550E-4  -1.523761893622577E-4  
 2.450000000000000E10    1.838712923927233E-4   1.005130470730364E-3  
 2.452000000000000E10    9.378109243698418E-4   1.885885576484725E-4  
 2.454000000000000E10    1.523078099125996E-4  -9.972398402169347E-4  
 2.456000000000000E10   -6.470778607763350E-4   6.057630525901914E-5  
 2.458000000000000E10   -1.586487633176148E-4   9.666327969171107E-4  
 2.460000000000000E10    7.195620564743877E-4   4.839008033741266E-4  
 2.462000000000000E10    7.183517027442576E-6  -8.985287859104574E-4  
 2.464000000000000E10   -8.145875181071460E-4  -1.776397984940559E-4  
 2.466000000000000E10    3.031509186257608E-5   4.361696483101696E-4  
 2.468000000000000E10    2.831896999850869E-4   3.165735688526183E-4  
 2.470000000000000E10    9.119124297285453E-5  -1.048472258844413E-4  
 2.472000000000000E10   -1.630475599085912E-4  -1.393533966620453E-5  
 2.474000000000000E10   -2.746457175817341E-4   1.002105091174599E-5  
 2.476000000000000E10   -3.131304692942649E-4   2.674749412108213E-4  
 2.478000000000000E10    3.702784888446331E-4   2.838365908246487E-4  
 2.480000000000000E10    2.621125313453376E-4  -2.378352801315486E-4  
 2.482000000000000E10   -3.056053537875414E-4   1.245326857315376E-4  
 2.484000000000000E10   -2.420534729026258E-4   3.672303282655776E-4  
 2.486000000000000E10    2.246563090011478E-4   2.836204948835075E-4  
 2.488000000000000E10    1.639310503378511E-4   4.502815136220306E-4  
 2.490000000000000E10    1.028247352223843E-4  -5.621117452392355E-5  
 2.492000000000000E10   -5.587405757978559E-4   1.892844011308625E-5  
 2.494000000000000E10   -3.204478707630187E-4  -6.898715218994767E-5  
 2.496000000000000E10    4.378650337457657E-4   2.487351011950523E-4  
 2.498000000000000E10    5.019714008085430E-4   7.456551247742027E-5  
 2.500000000000000E10    1.639814399823081E-5  -3.981603658758104E-4  
 2.502000000000000E10   -4.917386686429381E-4   2.758770133368671E-4  
 2.504000000000000E10    2.446719445288181E-4   4.266979522071779E-4  
 2.506000000000000E10    2.513301442377269E-4   4.622328197001480E-5  
 2.508000000000000E10   -2.437339135212824E-4  -5.716101441066712E-5  
 2.510000000000000E10    5.886361395823769E-5   2.870320167858154E-5  
 2.512000000000000E10    6.882857269374654E-5   2.288368268636987E-4  
 2.514000000000000E10   -5.418769433163106E-5   2.814740000758320E-4  
 2.516000000000000E10    1.880197523860261E-4   6.051439049770124E-5  
 2.518000000000000E10    5.674217245541513E-4  -4.085464170202613E-4  
 2.520000000000000E10   -4.336880228947848E-4  -1.823660204536282E-5  
 2.522000000000000E10   -5.999221466481686E-4   5.923807621002197E-4  
 2.524000000000000E10    2.810406149365008E-4   2.490001788828522E-4  
 2.526000000000000E10    5.098360707052052E-4  -5.488853203132749E-4  
 2.528000000000000E10   -2.297719911439344E-4  -7.177044171839953E-4  
 2.530000000000000E10   -7.102052331902087E-4   4.184566205367446E-4  
 2.532000000000000E10    6.430193898268044E-4   6.270798039622605E-4  
 2.534000000000000E10    8.593117818236351E-4  -5.730135308112949E-5  
 2.536000000000000E10   -4.357485740911216E-4  -1.942787930602208E-4  
 2.538000000000000E10   -7.743471069261432E-4  -1.624942669877783E-4  
 2.540000000000000E10    3.230350848753005E-4   5.547585315071046E-4  
 2.542000000000000E10    1.903259835671634E-4   9.732368926052004E-5  
 2.544000000000000E10    4.613881756085903E-4  -8.396962657570839E-4  
 2.546000000000000E10   -1.753952819854021E-4   1.252990332432091E-4  
 2.548000000000000E10   -1.439160841982812E-4   2.831605379469693E-4  
 2.550000000000000E10    7.819912279956043E-4   5.572369555011392E-4  
 2.552000000000000E10    5.860017845407128E-4  -1.889374107122421E-4  
 2.554000000000000E10   -4.732755769509822E-4  -6.361484993249178E-4  
 2.556000000000000E10   -4.337025166023523E-4   5.186655325815082E-4  
 2.558000000000000E10    9.069288353202865E-6   3.503484767861664E-4  
 2.560000000000000E10    3.376824606675655E-4  -1.499140635132790E-4  
 2.562000000000000E10    4.313656245358288E-4  -3.445883048698306E-4  
 2.564000000000000E10   -2.703572681639344E-4  -1.370603131363168E-4  
 2.566000000000000E10   -2.015540812863037E-4   3.047741483896971E-4  
 2.568000000000000E10    1.205163353006356E-4   5.537159158848226E-4  
 2.570000000000000E10    6.792832282371819E-4  -3.526937798596919E-4  
 2.572000000000000E10   -8.801682270132005E-5  -7.710146601311863E-4  
 2.574000000000000E10   -8.694308926351368E-4   3.179608029313386E-4  
 2.576000000000000E10    3.974601568188518E-4   9.384135482832789E-4  
 2.578000000000000E10    1.061857328750193E-3  -1.114665064960718E-4  
 2.580000000000000E10   -2.816763662849553E-5  -6.607796531170607E-4  
 2.582000000000000E10   -5.618784925900400E-4   2.037813392234966E-4  
 2.584000000000000E10    6.076732097426429E-5   6.216788897290826E-4  
 2.586000000000000E10    5.278157186694443E-4   1.691586512606591E-4  
 2.588000000000000E10    6.398901314241812E-5  -2.090199122903869E-4  
 2.590000000000000E10   -4.348486545495689E-4  -4.437481111381203E-4  
 2.592000000000000E10   -2.355624601477757E-4   7.842878403607756E-5  
 2.594000000000000E10   -8.772126602707431E-5   3.408597840461880E-4  
 2.596000000000000E10    3.909184015356004E-4  -1.016953319776803E-4  
 2.598000000000000E10    1.423941575922072E-4  -2.703769714571536E-4  
 2.600000000000000E10   -1.291392254643142E-4  -5.097719258628786E-4  
 2.602000000000000E10   -2.155621332349256E-4   3.785970911849290E-4  
 2.604000000000000E10    1.470478746341541E-4   4.798420704901218E-4  
 2.606000000000000E10    7.485013920813799E-4  -3.879741416312754E-5  
 2.608000000000000E10   -1.535505143692717E-4  -5.572144291363657E-4  
 2.610000000000000E10   -3.041448653675616E-4   1.079337816918269E-4  
 2.612000000000000E10   -1.825131330406293E-4   8.316997555084527E-4  
 2.614000000000000E10    5.579626886174083E-4   2.752230502665043E-4  
 2.616000000000000E10    1.903312513604760E-4  -3.503883781377226E-4  
 2.618000000000000E10   -6.050738738849759E-4  -1.214927906403318E-4  
 2.620000000000000E10   -6.933019030839205E-4   5.317378090694547E-4  
 2.622000000000000E10    2.990328539453913E-5   2.141740988008678E-4  
 2.624000000000000E10    5.585890612564981E-4  -1.896041976578999E-5  
 2.626000000000000E10   -3.760155523195863E-4  -7.875831797719002E-4  
 2.628000000000000E10   -6.473893299698830E-4   3.837884287349880E-4  
 2.630000000000000E10    2.039159153355286E-4  -2.320012208656408E-5  
 2.632000000000000E10    2.578990242909640E-4   1.011998683679849E-4  
 2.634000000000000E10    3.750654577743262E-4   1.324038385064341E-5  
 2.636000000000000E10   -6.088564259698615E-5  -1.005092926789075E-4  
 2.638000000000000E10   -7.991667953319848E-4  -3.420732100494206E-4  
 2.640000000000000E10   -2.842538233380765E-4   9.795014047995210E-4  
 2.642000000000000E10    9.009429486468434E-4   2.430687600281090E-4  
 2.644000000000000E10    2.936118689831346E-4  -1.003126730211079E-3  
 2.646000000000000E10   -1.120144384913147E-3  -4.330742813181132E-4  
 2.648000000000000E10   -1.799383753677830E-4   1.387441647239029E-3  
 2.650000000000000E10    1.053532585501671E-3   3.638142370618880E-4  
 2.652000000000000E10    1.323392352787778E-4  -7.938049384392798E-4  
 2.654000000000000E10   -8.386594126932323E-4  -3.999707696493715E-4  
 2.656000000000000E10   -6.263811374083161E-4   9.265740518458188E-4  
 2.658000000000000E10    3.458348510321230E-4   3.901640593539923E-4  
 2.660000000000000E10    5.217705620452762E-4  -5.438557127490640E-4  
 2.662000000000000E10   -2.307657268829644E-4  -8.735902956686914E-4  
 2.664000000000000E10   -1.061677234247327E-3   1.962411479325965E-4  
 2.666000000000000E10    5.841966049047187E-5   7.812323165126145E-4  
 2.668000000000000E10    3.434421960264444E-4   3.141989291179925E-4  
 2.670000000000000E10    5.627375794574618E-4  -6.724646664224565E-4  
 2.672000000000000E10   -9.300361271016300E-4  -4.932169686071575E-4  
 2.674000000000000E10   -5.752743454650044E-4   6.495220586657524E-4  
 2.676000000000000E10    5.550562054850161E-4   5.563602899201214E-4  
 2.678000000000000E10    1.022116979584098E-3  -5.932896165177226E-4  
 2.680000000000000E10   -7.626248407177627E-4  -7.017063326202333E-4  
 2.682000000000000E10   -9.745683055371046E-4   5.465258145704866E-4  
 2.684000000000000E10    1.995007041841745E-4   9.094556444324553E-4  
 2.686000000000000E10    8.093201322481036E-4  -2.655137795954943E-4  
 2.688000000000000E10   -5.644593329634517E-5  -1.169665134511888E-3  
 2.690000000000000E10   -7.715108804404736E-4  -2.033681375905871E-4  
 2.692000000000000E10   -4.117013013456017E-4   6.608709809370339E-4  
 2.694000000000000E10    9.382534772157669E-4   6.382153951562941E-4  
 2.696000000000000E10    5.009583546780050E-4  -1.259462093003094E-3  
 2.698000000000000E10   -8.465871214866638E-4  -3.888828214257956E-4  
 2.700000000000000E10   -4.300921864341945E-4   6.452749366872013E-4  
 2.702000000000000E10    5.011578905396164E-4   6.954441196285188E-4  
 2.704000000000000E10    7.232628995552659E-4  -4.118524084333330E-4  
 2.706000000000000E10   -1.761669991537929E-4  -6.971656694076955E-4  
 2.708000000000000E10   -2.159082214348018E-4   1.890037674456835E-4  
 2.710000000000000E10   -1.951346494024620E-4   2.091154892696068E-4  
 2.712000000000000E10    5.435238708741963E-4   4.360202292446047E-4  
 2.714000000000000E10    4.930448485538364E-4  -2.611471863929182E-4  
 2.716000000000000E10   -2.034891513176262E-4  -6.437290576286614E-4  
 2.718000000000000E10   -1.064204843714833E-3   3.254907787777484E-4  
 2.720000000000000E10    2.343071391806006E-4   8.670581155456603E-4  
 2.722000000000000E10    1.243286998942494E-3  -2.412033209111542E-4  
 2.724000000000000E10   -5.562540027312934E-4  -8.271943079307675E-4  
 2.726000000000000E10   -7.509718416258693E-4   2.604108885861933E-4  
 2.728000000000000E10    1.507606648374349E-4   6.017351406626403E-4  
 2.730000000000000E10    5.993379745632410E-4  -3.214795287931338E-5  
 2.732000000000000E10   -1.277816190849990E-4  -4.089490685146302E-4  
 2.734000000000000E10   -3.889428626280278E-5  -1.634308573557064E-4  
 2.736000000000000E10   -2.420506789349020E-4  -1.404471258865669E-4  
 2.738000000000000E10    1.190428956761025E-4   4.474031738936901E-4  
 2.740000000000000E10    8.958934631664306E-5   8.915286161936820E-5  
 2.742000000000000E10    3.099112946074456E-4  -1.589759449416306E-5  
 2.744000000000000E10   -3.538420423865318E-4  -3.966364893130958E-4  
 2.746000000000000E10   -5.222171894274652E-4   3.075691056437790E-4  
 2.748000000000000E10    5.965987220406532E-4   2.660113677848131E-4  
 2.750000000000000E10    1.321271411143243E-4  -8.445199637208134E-5  
 2.752000000000000E10    2.851786557585001E-4  -7.180089014582336E-4  
 2.754000000000000E10   -5.552630173042417E-4   5.507596870302223E-5  
 2.756000000000000E10   -3.115667786914855E-4   3.921939642168582E-4  
