#  HZ   S   RI   R     50.00 
! Rohde & Schwarz ZVA40 4Ports - Version 3.90 - 1145.1110k42 SN: 100403
! Date: 2023-10-04 11:19:29
! Measurement: S12 
! 
 2.200000000000000E10   -1.695528044365346E-4   8.336208993569017E-4  
 2.202000000000000E10    7.104809046722949E-4  -1.772915857145563E-4  
 2.204000000000000E10    1.272352092200890E-4  -8.423065301030874E-4  
 2.206000000000000E10   -5.523276631720364E-4   7.284077582880855E-5  
 2.208000000000000E10   -4.325367626734078E-4   4.005416849395260E-5  
 2.210000000000000E10    4.397663578856736E-4   3.247014246881008E-4  
 2.212000000000000E10    3.460414882283658E-4  -1.152033582911827E-4  
 2.214000000000000E10    1.214133153553121E-4  -3.457335114944726E-4  
 2.216000000000000E10   -7.670412305742502E-4  -1.660698617342860E-4  
 2.218000000000000E10   -5.015586502850056E-4   3.025066107511520E-4  
 2.220000000000000E10    5.371004808694124E-4   2.004850393859670E-4  
 2.222000000000000E10    4.815883585251868E-4  -5.066054291091859E-4  
 2.224000000000000E10   -4.838094464503229E-4  -5.810500588268042E-4  
 2.226000000000000E10   -3.176931932102889E-4   5.140973953530192E-4  
 2.228000000000000E10    6.759031675755978E-4   2.979540149681270E-4  
 2.230000000000000E10    1.973339240066707E-4  -2.135428221663460E-4  
 2.232000000000000E10   -7.160197128541768E-5  -6.057004793547094E-4  
 2.234000000000000E10   -2.196639834437519E-4   5.259601675788872E-5  
 2.236000000000000E10    1.044158561853692E-4   1.237895485246554E-4  
 2.238000000000000E10    4.144037375226617E-4   1.017679809592664E-3  
 2.240000000000000E10    5.593274254351854E-4  -6.372747011482716E-4  
 2.242000000000000E10    1.658258406678215E-4  -8.146218897309154E-5  
 2.244000000000000E10   -4.410071414895356E-4   1.208207613672130E-4  
 2.246000000000000E10    2.050399489235133E-4   9.506667847745121E-4  
 2.248000000000000E10    4.803789488505572E-4  -3.245551488362253E-4  
 2.250000000000000E10   -1.157505466835573E-4  -3.691507445182651E-4  
 2.252000000000000E10   -4.572818870656192E-4   2.986059917020612E-5  
 2.254000000000000E10    2.124966122210026E-4   5.806982517242432E-4  
 2.256000000000000E10    3.803724539466202E-4  -1.515783369541168E-4  
 2.258000000000000E10   -3.235132608097047E-4   2.070590744551737E-5  
 2.260000000000000E10    1.513869356131181E-4  -2.161502015951555E-5  
 2.262000000000000E10   -8.986311877379194E-5  -1.072742379619740E-4  
 2.264000000000000E10   -1.967533462448046E-4  -2.049781760433689E-4  
 2.266000000000000E10    2.533211954869330E-4   4.425541555974633E-4  
 2.268000000000000E10    3.338685492053628E-4  -3.733399789780378E-4  
 2.270000000000000E10   -1.960841909749433E-4  -6.110924878157675E-4  
 2.272000000000000E10   -6.155550945550203E-4   3.086323267780244E-4  
 2.274000000000000E10    7.455935701727867E-4   5.203995970077813E-4  
 2.276000000000000E10    7.930132560431957E-4  -1.345826603937894E-4  
 2.278000000000000E10   -7.008864195086062E-4  -7.493863813579083E-4  
 2.280000000000000E10   -4.289761709515005E-4   1.496023323852569E-4  
 2.282000000000000E10   -2.402992395218462E-4   5.181890446692705E-4  
 2.284000000000000E10    8.520456030964851E-4   1.693898957455531E-4  
 2.286000000000000E10   -2.353344170842320E-4  -5.786207038909197E-4  
 2.288000000000000E10   -5.583087331615388E-4   2.417650466668420E-5  
 2.290000000000000E10   -2.803332754410803E-4   5.742654902860522E-4  
 2.292000000000000E10    6.301677785813808E-4   7.038562325760722E-4  
 2.294000000000000E10   -1.045835015247576E-4  -5.114463856443763E-4  
 2.296000000000000E10   -3.087938239332289E-4  -5.643015028908849E-4  
 2.298000000000000E10   -7.622026023454964E-4   5.632510292343795E-4  
 2.300000000000000E10    5.752291763201356E-4   7.592439069412649E-4  
 2.302000000000000E10    5.221572355367243E-4  -8.041190449148417E-5  
 2.304000000000000E10    3.284843114670366E-5  -5.277335876598954E-4  
 2.306000000000000E10   -5.358173511922360E-4   1.255155220860615E-4  
 2.308000000000000E10    2.631854113133159E-5   7.091462612152100E-4  
 2.310000000000000E10    6.163361249491572E-4   2.101689169649035E-4  
 2.312000000000000E10    7.030157721601427E-4  -7.055395399220288E-4  
 2.314000000000000E10   -7.922638906165958E-4  -6.010581855662167E-4  
 2.316000000000000E10   -1.814461866160855E-4   7.517797639593482E-4  
 2.318000000000000E10    1.863859215518460E-4   6.717076175846160E-4  
 2.320000000000000E10    9.827886242419481E-4  -5.598568823188543E-4  
 2.322000000000000E10   -7.192919147200882E-4  -5.152335506863892E-4  
 2.324000000000000E10   -9.092300897464156E-4   2.525854215491563E-4  
 2.326000000000000E10    5.086856981506571E-5   9.145857766270638E-4  
 2.328000000000000E10    1.357147935777903E-3  -6.422084406949580E-4  
 2.330000000000000E10   -4.338305443525314E-4  -1.187010086141527E-3  
 2.332000000000000E10   -1.161966240033507E-3   3.090233658440411E-4  
 2.334000000000000E10   -1.035775203490630E-4   9.335415088571608E-4  
 2.336000000000000E10    1.372137921862304E-3   1.283292367588729E-4  
 2.338000000000000E10    3.230791116948240E-5  -1.053935615345836E-3  
 2.340000000000000E10   -8.996622636914253E-4  -6.812039646320045E-5  
 2.342000000000000E10   -5.399194778874517E-4   9.498841827735305E-4  
 2.344000000000000E10    1.178346923552454E-3   1.328206999460235E-4  
 2.346000000000000E10    2.683564089238644E-4  -8.629882941022515E-4  
 2.348000000000000E10   -4.334438417572528E-4  -2.029048482654616E-4  
 2.350000000000000E10   -5.713307182304561E-4   6.411931244656444E-4  
 2.352000000000000E10    4.285459581296891E-4   4.636766971088946E-4  
 2.354000000000000E10    3.831236972473562E-4  -4.819491296075285E-4  
 2.356000000000000E10   -6.094393902458251E-4  -6.419351557269692E-4  
 2.358000000000000E10   -3.545548242982477E-4   4.038606130052358E-4  
 2.360000000000000E10    3.877001290675253E-4   2.612464886624366E-4  
 2.362000000000000E10    8.776204776950181E-4  -2.497761743143201E-4  
 2.364000000000000E10   -4.256343527231365E-4  -1.083147872122936E-4  
 2.366000000000000E10   -1.304377219639719E-4  -2.774700305963052E-6  
 2.368000000000000E10    8.689717651577666E-5   2.374662872171029E-4  
 2.370000000000000E10    9.725271229399368E-5   2.395095361862332E-4  
 2.372000000000000E10    5.019176751375198E-5  -5.779658386018127E-5  
 2.374000000000000E10   -3.798867965087993E-6  -1.364661438856274E-4  
 2.376000000000000E10   -1.101684538298287E-4   2.245100768050179E-4  
 2.378000000000000E10    1.817265438148752E-4   1.679865526966751E-4  
 2.380000000000000E10    4.801843897439539E-5  -1.097277418011800E-4  
 2.382000000000000E10    5.288118845783174E-4   2.336150937480852E-4  
 2.384000000000000E10   -1.779717713361606E-4  -2.086015738314018E-4  
 2.386000000000000E10   -1.937791093951091E-4   3.233511233702302E-4  
 2.388000000000000E10    1.064229218172841E-4  -7.827983790775761E-5  
 2.390000000000000E10    5.846511339768767E-5  -3.430653596296907E-4  
 2.392000000000000E10   -1.995479251490906E-4   3.995190490968525E-4  
 2.394000000000000E10    4.084781685378403E-4  -4.423945574671961E-5  
 2.396000000000000E10   -4.650973132811487E-4  -4.607644223142415E-4  
 2.398000000000000E10   -1.253334485227242E-4   2.242955961264670E-4  
 2.400000000000000E10    4.170837346464396E-4   4.746599297504872E-4  
 2.402000000000000E10    1.975835184566677E-4  -4.786375793628395E-4  
 2.404000000000000E10   -4.975771298632026E-4  -2.146451879525557E-4  
 2.406000000000000E10   -4.064274253323674E-4   1.908133999677375E-4  
 2.408000000000000E10    3.965327341575176E-4   2.350928698433563E-4  
 2.410000000000000E10    5.067562451586127E-4  -2.507030731067061E-4  
 2.412000000000000E10   -3.079655871260911E-4  -5.159326829016209E-4  
 2.414000000000000E10   -9.533050470054150E-4   5.398050416260958E-4  
 2.416000000000000E10    3.006518527399749E-4   7.793694967404008E-4  
 2.418000000000000E10    8.921541157178581E-4  -6.051647942513228E-4  
 2.420000000000000E10   -2.425087732262909E-4  -9.722330141812563E-4  
 2.422000000000000E10   -8.657052530907095E-4   5.947737954556942E-4  
 2.424000000000000E10    6.306135037448257E-5   8.544572046957910E-4  
 2.426000000000000E10    7.012121495790780E-4  -6.551522346853744E-6  
 2.428000000000000E10    7.430776167893782E-5  -1.143554574809969E-3  
 2.430000000000000E10   -8.590883808210492E-4   2.414308546576649E-4  
 2.432000000000000E10   -9.511860844213516E-5   1.151163480244577E-3  
 2.434000000000000E10    4.700190038420260E-4   1.156785583589226E-4  
 2.436000000000000E10    2.517557295504957E-4  -9.037275449372828E-4  
 2.438000000000000E10   -6.499306764453650E-4  -2.596297999843955E-4  
 2.440000000000000E10   -4.368147056084126E-4   3.096993168583140E-5  
 2.442000000000000E10    4.956596603733487E-5   7.148862932808697E-4  
 2.444000000000000E10    6.291724275797606E-4  -2.369711874052882E-4  
 2.446000000000000E10    5.737791070714593E-5  -6.511143874377012E-4  
 2.448000000000000E10   -1.174200326204300E-3  -5.987541517242789E-4  
 2.450000000000000E10   -4.830965190194547E-5   7.588519365526736E-4  
 2.452000000000000E10    6.673320312984288E-4   2.075203083222732E-4  
 2.454000000000000E10    5.310463020578027E-4  -6.566450465470552E-4  
 2.456000000000000E10   -1.027244841679931E-3  -8.308553369715810E-4  
 2.458000000000000E10   -4.523176467046142E-4   5.899884272366762E-4  
 2.460000000000000E10    1.417523599229753E-3   8.147199405357242E-4  
 2.462000000000000E10    7.804633351042867E-4  -8.725375519134104E-4  
 2.464000000000000E10   -7.427150849252939E-4  -5.179521976970136E-4  
 2.466000000000000E10   -7.676609093323350E-4   7.759579457342625E-4  
 2.468000000000000E10    6.406735046766698E-4   6.713518523611128E-4  
 2.470000000000000E10    6.484228651970625E-4  -5.196408019401133E-4  
 2.472000000000000E10    1.214150033774786E-4  -6.923357141204178E-4  
 2.474000000000000E10   -5.219155573286116E-4   2.877012593671680E-4  
 2.476000000000000E10    1.658503169892356E-4   6.941294413991272E-4  
 2.478000000000000E10    9.264263790100813E-4   1.777736470103264E-4  
 2.480000000000000E10    2.103409497067332E-4  -6.256154738366604E-4  
 2.482000000000000E10   -5.495009245350957E-4  -4.787171928910539E-5  
 2.484000000000000E10   -1.522575621493161E-4   8.950117626227438E-4  
 2.486000000000000E10    3.551997360773385E-4  -4.466993777896278E-5  
 2.488000000000000E10    4.996701027266681E-4  -1.862006756709889E-4  
 2.490000000000000E10   -1.757241807354149E-5  -5.229592206887901E-4  
 2.492000000000000E10   -3.888526116497815E-4   4.440108605194837E-4  
 2.494000000000000E10    1.875654743344057E-5   7.900636410340667E-4  
 2.496000000000000E10    5.109327612444758E-4   1.180233175546164E-5  
 2.498000000000000E10    9.291615424444899E-5  -6.918162107467651E-4  
 2.500000000000000E10   -4.088509595021606E-4  -1.135933530349575E-6  
 2.502000000000000E10   -3.251744783483446E-4   1.249187625944614E-4  
 2.504000000000000E10    7.720373687334359E-4   5.879994714632630E-4  
 2.506000000000000E10    4.320392617955804E-4  -4.000954213552177E-4  
 2.508000000000000E10   -3.553878923412412E-4  -7.910555723356083E-5  
 2.510000000000000E10   -3.634809399954975E-4   1.198352401843295E-4  
 2.512000000000000E10    2.858270599972457E-4   7.622603443451226E-4  
 2.514000000000000E10    3.075424465350807E-4  -4.050081479363143E-4  
 2.516000000000000E10   -1.287114864680916E-4  -2.322718355571851E-4  
 2.518000000000000E10   -3.486353962216526E-4  -2.256524458061904E-4  
 2.520000000000000E10    9.285403211833909E-5   2.050859620794654E-4  
 2.522000000000000E10    5.676339787896723E-5   1.379811583319679E-4  
 2.524000000000000E10    3.280265082139522E-4   4.135707422392443E-5  
 2.526000000000000E10   -7.431958511006087E-5  -2.834181359503418E-4  
 2.528000000000000E10   -4.946108674630523E-4  -2.561215660534799E-4  
 2.530000000000000E10   -2.223613410023972E-4   3.688983269967139E-4  
 2.532000000000000E10    2.424942067591474E-4   2.865318092517555E-4  
 2.534000000000000E10    2.487402525730431E-4  -4.221166891511530E-4  
 2.536000000000000E10   -5.814186879433692E-4  -3.192651784047484E-4  
 2.538000000000000E10   -4.174529458396137E-4   4.190726613160223E-4  
 2.540000000000000E10    9.064657206181437E-5   2.793899620883167E-4  
 2.542000000000000E10    4.772421089001000E-4  -4.844957438763231E-4  
 2.544000000000000E10   -3.541337209753692E-4  -6.685378612019122E-4  
 2.546000000000000E10   -7.536377524957061E-4   1.716822443995625E-4  
 2.548000000000000E10   -2.403563848929480E-5   4.605554568115622E-4  
 2.550000000000000E10    7.057375623844564E-4  -2.454327768646181E-4  
 2.552000000000000E10   -1.163473134511150E-4  -9.203568915836513E-4  
 2.554000000000000E10   -6.655356846749783E-4   3.300094249425456E-5  
 2.556000000000000E10    1.957826680154540E-5   6.173301371745765E-4  
 2.558000000000000E10    6.586592062376440E-4  -2.165898695238866E-5  
 2.560000000000000E10    1.358826993964613E-4  -7.487628608942032E-4  
 2.562000000000000E10   -4.621254047378898E-4  -5.955349188297987E-4  
 2.564000000000000E10   -3.582198696676642E-4   9.438723645871505E-5  
 2.566000000000000E10    5.665106582455337E-4   4.971242742612958E-4  
 2.568000000000000E10    5.423658876679838E-4  -1.302265591220930E-4  
 2.570000000000000E10   -1.511877781013027E-4  -6.428401102311909E-4  
 2.572000000000000E10   -4.903888329863548E-4   1.297141425311565E-4  
 2.574000000000000E10   -2.426932951493654E-5   4.007080860901624E-4  
 2.576000000000000E10    8.581440197303891E-4   1.182312116725370E-4  
 2.578000000000000E10    3.691733290906996E-4  -6.580759072676301E-4  
 2.580000000000000E10   -4.254985542502254E-4  -4.390940885059536E-4  
 2.582000000000000E10   -2.520201087463647E-4   5.694217397831380E-4  
 2.584000000000000E10    6.030813674442470E-4   4.399137396831065E-4  
 2.586000000000000E10    9.909204673022032E-4  -6.458153948187828E-4  
 2.588000000000000E10   -3.368855395819992E-4  -7.718778797425330E-4  
 2.590000000000000E10   -5.331817083060741E-4   4.505435063038021E-4  
 2.592000000000000E10    4.310086660552770E-4   6.832799990661442E-4  
 2.594000000000000E10    1.040969276800752E-3  -5.454785423353314E-4  
 2.596000000000000E10    1.217519165948033E-4  -7.166717550717294E-4  
 2.598000000000000E10   -5.250343820080161E-4   2.753768058028072E-4  
 2.600000000000000E10   -1.356803113594651E-5   6.991827394813299E-4  
 2.602000000000000E10    3.905191551893950E-4   1.806533255148679E-4  
 2.604000000000000E10    3.248624561820179E-4  -5.125600146129727E-4  
 2.606000000000000E10   -4.792994586750865E-4  -9.019709068525117E-6  
 2.608000000000000E10   -4.533710016403347E-4   3.114253340754658E-4  
 2.610000000000000E10    3.881020820699632E-4   4.708493070211262E-4  
 2.612000000000000E10    4.041937645524740E-4  -4.314707184676081E-4  
 2.614000000000000E10   -1.377064181724563E-4  -4.775691777467728E-4  
 2.616000000000000E10   -6.745384307578206E-4   1.954276667675003E-4  
 2.618000000000000E10    1.912172301672399E-4   9.037432610057294E-4  
 2.620000000000000E10    6.402441649697721E-4  -1.314768178417580E-5  
 2.622000000000000E10    3.714352715178393E-5  -6.037458661012352E-4  
 2.624000000000000E10   -8.407824789173901E-4  -8.274360880022869E-5  
 2.626000000000000E10   -6.436475086957216E-5   4.266451869625598E-4  
 2.628000000000000E10    4.033304867334664E-4   2.780567738227546E-4  
 2.630000000000000E10    1.710022188490257E-4  -2.376853663008660E-4  
 2.632000000000000E10   -3.967195807490498E-4  -4.011365526821464E-4  
 2.634000000000000E10   -2.492262865416706E-4   4.406536463648081E-4  
 2.636000000000000E10    2.325401146663353E-4   3.154160513076931E-4  
 2.638000000000000E10    2.506154705770314E-4   1.196521770907566E-4  
 2.640000000000000E10   -3.838085976894945E-4  -5.721934139728546E-4  
 2.642000000000000E10   -5.202121683396399E-4   1.376261498080567E-4  
 2.644000000000000E10   -2.043824206339195E-4   3.339869144838303E-4  
 2.646000000000000E10    5.949119804427028E-4  -6.833678344264627E-5  
 2.648000000000000E10   -5.288731699693017E-6  -3.424487076699734E-4  
 2.650000000000000E10    2.256500550856799E-7  -3.182803993695416E-6  
 2.652000000000000E10   -3.395867533981800E-4   1.285372418351471E-4  
 2.654000000000000E10    1.613294298294932E-4   1.627198653295636E-4  
 2.656000000000000E10   -1.992513134609908E-4   8.916476508602500E-5  
 2.658000000000000E10    2.476744994055480E-4  -1.855547161540017E-4  
 2.660000000000000E10   -5.341495852917433E-4  -3.160225460305810E-4  
 2.662000000000000E10   -2.380716177867726E-4   1.727856579236686E-4  
 2.664000000000000E10   -6.463353929575533E-5   2.911994524765760E-4  
 2.666000000000000E10    6.162109202705324E-4  -6.009974749758840E-4  
 2.668000000000000E10   -5.694428691640496E-4  -3.183568769600242E-4  
 2.670000000000000E10    5.668497760780156E-5  -1.213478572026361E-5  
 2.672000000000000E10   -6.586639210581780E-5   8.483472629450262E-5  
 2.674000000000000E10    2.568645868450403E-4  -2.473353233654052E-4  
 2.676000000000000E10    9.146181400865316E-5  -6.913857305335114E-6  
 2.678000000000000E10    1.058300986187533E-4  -7.152074831537902E-4  
 2.680000000000000E10   -6.063143373467028E-4   1.069950012606569E-4  
 2.682000000000000E10    1.981830137083307E-4   3.466056077741087E-4  
 2.684000000000000E10    5.326741957105696E-4   9.371060878038406E-5  
 2.686000000000000E10    3.349332255311310E-4  -8.943069842644036E-4  
 2.688000000000000E10   -9.592500864528120E-4  -1.998378575081006E-4  
 2.690000000000000E10   -8.576027903473005E-5   8.479112293571234E-4  
 2.692000000000000E10    9.422950679436326E-4   6.045904010534287E-4  
 2.694000000000000E10    4.167297156527638E-4  -1.166647416539490E-3  
 2.696000000000000E10   -9.333487250842154E-4  -1.104394614230841E-4  
 2.698000000000000E10   -3.027968632522970E-4   5.613433895632625E-4  
 2.700000000000000E10    5.523787112906575E-4   8.158464333973825E-4  
 2.702000000000000E10    8.295364095829427E-4  -7.090711151249707E-4  
 2.704000000000000E10   -6.454496178776026E-4  -7.268573390319943E-4  
 2.706000000000000E10   -6.644998793490231E-4   3.443804598646238E-5  
 2.708000000000000E10    3.540405596140772E-4   1.108336611650884E-3  
 2.710000000000000E10    1.129857264459133E-3  -1.063753225025721E-4  
 2.712000000000000E10   -1.832704001571983E-4  -6.952632102183998E-4  
 2.714000000000000E10   -1.115415594540536E-3  -8.488056482747197E-5  
 2.716000000000000E10   -3.062366740778089E-4   8.821015362627804E-4  
 2.718000000000000E10    7.564681000076234E-4   8.932600758271292E-5  
 2.720000000000000E10    4.391910333652049E-4  -6.691975868307054E-4  
 2.722000000000000E10   -6.808234611526132E-4  -5.849304725416005E-4  
 2.724000000000000E10   -6.799151306040585E-4   7.187532028183341E-4  
 2.726000000000000E10    7.010088884271681E-4   7.446706877090037E-4  
 2.728000000000000E10    7.498401682823896E-4  -1.897501788334921E-4  
 2.730000000000000E10   -1.116934508900158E-4  -9.262163657695055E-4  
 2.732000000000000E10   -1.044306671246886E-3   3.623419324867427E-4  
 2.734000000000000E10    1.171535677713109E-5   6.752668996341527E-4  
 2.736000000000000E10    1.079113339073956E-3   2.192066458519548E-4  
 2.738000000000000E10    4.090706061106175E-4  -1.083371695131064E-3  
 2.740000000000000E10   -1.281159115023911E-3  -2.839974767994136E-4  
 2.742000000000000E10   -3.307028673589230E-4   1.366142765618861E-3  
 2.744000000000000E10    1.007351325824857E-3   4.807107907254249E-4  
 2.746000000000000E10    3.125663788523525E-4  -1.223701983690262E-3  
 2.748000000000000E10   -1.188239082694054E-3  -3.927507787011564E-4  
 2.750000000000000E10   -3.273628244642168E-4   1.110700657591224E-3  
 2.752000000000000E10    7.297366391867399E-4   7.101888186298311E-4  
 2.754000000000000E10    2.612956450320780E-4  -5.373759195208550E-4  
 2.756000000000000E10   -7.426585070788860E-4  -5.630708183161914E-4  
