#  HZ   S   RI   R     50.00 
! Rohde & Schwarz ZVA40 4Ports - Version 3.90 - 1145.1110k42 SN: 100403
! Date: 2023-10-04 11:18:56
! Measurement: S12 
! 
 2.200000000000000E10    1.037169247865677E-3   3.657589550130069E-4  
 2.202000000000000E10    7.531168521381915E-4  -7.717048283666372E-4  
 2.204000000000000E10   -5.551464855670929E-4  -1.040526083670557E-3  
 2.206000000000000E10   -9.766818257048726E-4   1.842545607360080E-4  
 2.208000000000000E10    3.431982477195561E-4   7.835318101570010E-4  
 2.210000000000000E10    1.136539853177965E-3  -6.388572364812717E-5  
 2.212000000000000E10    9.189538104692474E-5  -9.939236333593726E-4  
 2.214000000000000E10   -9.202033979818225E-4  -6.543894414789975E-5  
 2.216000000000000E10   -4.441266646608710E-4   1.013805624097586E-3  
 2.218000000000000E10    1.189061207696796E-3   5.682469927705824E-4  
 2.220000000000000E10    5.426642019301653E-4  -1.185787143185735E-3  
 2.222000000000000E10   -1.112707424908876E-3  -6.125738145783544E-4  
 2.224000000000000E10   -6.123406928963959E-4   1.034735003486276E-3  
 2.226000000000000E10    8.602903690189123E-4   7.267619948834181E-4  
 2.228000000000000E10    7.381867617368698E-4  -6.234216853044927E-4  
 2.230000000000000E10   -5.154084064997733E-4  -8.170138462446630E-4  
 2.232000000000000E10   -9.979414753615856E-4   6.361690466292203E-4  
 2.234000000000000E10    5.442590336315334E-4   9.736214415170252E-4  
 2.236000000000000E10    8.497448288835585E-4  -4.593684570863843E-4  
 2.238000000000000E10   -2.932126517407596E-4  -8.824609685689211E-4  
 2.240000000000000E10   -9.869650239124894E-4   1.989990705624223E-4  
 2.242000000000000E10    3.016935370396823E-4   8.907699375413358E-4  
 2.244000000000000E10    9.331689798273146E-4   2.621982421260327E-4  
 2.246000000000000E10   -2.682320773601532E-4  -9.264726541005075E-4  
 2.248000000000000E10   -9.444393799640238E-4  -8.140612771967426E-5  
 2.250000000000000E10   -1.923864147101995E-5   1.031383289955556E-3  
 2.252000000000000E10    9.580588084645569E-4  -8.786074613453820E-5  
 2.254000000000000E10   -1.191610353998840E-4  -5.308436811901629E-4  
 2.256000000000000E10   -7.332902168855071E-4   4.419340712047415E-6  
 2.258000000000000E10    1.285545149585232E-4   2.971325593534857E-4  
 2.260000000000000E10    2.724580990616232E-4   2.021074615186080E-4  
 2.262000000000000E10    8.195419650292024E-5  -3.430218494031578E-4  
 2.264000000000000E10   -5.515671218745410E-4  -1.130527598434128E-4  
 2.266000000000000E10    1.754317199811339E-4   3.161944914609194E-4  
 2.268000000000000E10   -3.742924673133530E-5  -1.043850643327460E-4  
 2.270000000000000E10    7.203105633379892E-5  -3.654925967566669E-4  
 2.272000000000000E10   -1.350586389889941E-4   3.062887117266655E-4  
 2.274000000000000E10    5.022961340728216E-5  -3.477127756923437E-4  
 2.276000000000000E10    1.072272425517440E-4   1.293300883844495E-4  
 2.278000000000000E10   -2.615938137751073E-5   1.324657023360487E-5  
 2.280000000000000E10   -2.489218313712627E-4   4.590761818690226E-5  
 2.282000000000000E10    3.987260060966946E-5  -1.564696431159973E-4  
 2.284000000000000E10    2.278253668919206E-4   1.386213261866942E-4  
 2.286000000000000E10    9.965046047000215E-5  -4.997103824280202E-4  
 2.288000000000000E10   -4.323610337451100E-4   1.921151560964063E-4  
 2.290000000000000E10    3.236214397475123E-4   3.938681329600513E-4  
 2.292000000000000E10    7.572961621917784E-4  -1.574078196426854E-4  
 2.294000000000000E10   -2.008282172027975E-4  -7.043355726636946E-4  
 2.296000000000000E10   -8.373756427317858E-4   6.082928739488125E-4  
 2.298000000000000E10    4.344276094343513E-4   4.917816841043532E-4  
 2.300000000000000E10    9.398793918080628E-4  -1.114262340706773E-4  
 2.302000000000000E10   -4.374894488137215E-4  -9.368011378683150E-4  
 2.304000000000000E10   -7.154659251682460E-4   4.393525305204094E-4  
 2.306000000000000E10    2.535534149501473E-4   7.718892884440720E-4  
 2.308000000000000E10    1.077115535736084E-3  -2.544185845181346E-4  
 2.310000000000000E10   -1.837366289692000E-4  -8.839998045004904E-4  
 2.312000000000000E10   -7.879994809627533E-4  -1.439616462448612E-4  
 2.314000000000000E10    2.328046830371022E-4   7.929114508442581E-4  
 2.316000000000000E10    1.122354529798031E-3   4.428068932611495E-4  
 2.318000000000000E10    1.619599934201688E-4  -1.016316819004715E-3  
 2.320000000000000E10   -9.828042238950729E-4  -4.971706075593829E-4  
 2.322000000000000E10   -3.732684417627752E-4   1.073042978532612E-3  
 2.324000000000000E10    8.195986738428474E-4   7.658746326342225E-4  
 2.326000000000000E10    6.372976349666715E-4  -1.391183584928513E-3  
 2.328000000000000E10   -9.017735719680786E-4  -8.681835024617612E-4  
 2.330000000000000E10   -9.255739860236645E-4   8.201941964216530E-4  
 2.332000000000000E10    1.186950365081430E-3   1.178375096060336E-3  
 2.334000000000000E10    9.962753392755985E-4  -6.891035591252148E-4  
 2.336000000000000E10   -1.008172635920346E-3  -1.221520476974547E-3  
 2.338000000000000E10   -1.083515584468842E-3   8.686088840477169E-4  
 2.340000000000000E10    1.042558928020299E-3   1.307342201471329E-3  
 2.342000000000000E10    8.282780181616545E-4  -9.880174184218049E-4  
 2.344000000000000E10   -7.483453955501318E-4  -1.183628803119063E-3  
 2.346000000000000E10   -8.126769680529833E-4   5.133254453539848E-4  
 2.348000000000000E10   -5.015142960473895E-5   8.477911469526589E-4  
 2.350000000000000E10    8.823690586723387E-4   1.488661800976843E-4  
 2.352000000000000E10    4.759127114084549E-5  -1.300484756939113E-3  
 2.354000000000000E10   -1.025169272907078E-3  -1.240462443092838E-4  
 2.356000000000000E10   -3.217056219000369E-4   1.027841353788972E-3  
 2.358000000000000E10    8.838525973260403E-4   5.482074921019375E-4  
 2.360000000000000E10    4.865410737693310E-4  -1.305913319811225E-3  
 2.362000000000000E10   -8.845434640534222E-4  -8.307080715894699E-4  
 2.364000000000000E10   -1.065047108568251E-3   8.550696074962616E-4  
 2.366000000000000E10    1.242183847352862E-3   8.422806859016419E-4  
 2.368000000000000E10    8.522090502083302E-4  -1.010006526485086E-3  
 2.370000000000000E10   -7.375306449830532E-4  -5.914307548664510E-4  
 2.372000000000000E10   -6.713992916047573E-4   7.377254078164697E-4  
 2.374000000000000E10    6.384354783222079E-4   7.479309570044279E-4  
 2.376000000000000E10    8.390038274228573E-4  -7.898806943558157E-4  
 2.378000000000000E10    1.310457882937044E-4  -6.673427415080369E-4  
 2.380000000000000E10   -9.510618401691318E-4   2.312156575499103E-4  
 2.382000000000000E10    1.216081218444742E-4   8.580893045291305E-4  
 2.384000000000000E10    8.708407985977829E-4   5.357839836506173E-5  
 2.386000000000000E10    2.135031099896878E-4  -6.457620183937252E-4  
 2.388000000000000E10   -8.916310616768897E-4  -3.313548804726452E-4  
 2.390000000000000E10   -2.080713020404801E-4   8.634558762423694E-4  
 2.392000000000000E10    7.893223664723337E-4   4.351093957666308E-4  
 2.394000000000000E10    7.077605114318430E-4  -1.118744374252856E-3  
 2.396000000000000E10   -8.404951076954603E-4  -2.818347129505128E-4  
 2.398000000000000E10   -1.292496108362684E-5   7.780929445289075E-4  
 2.400000000000000E10    8.930400945246220E-4   2.809075704135466E-5  
 2.402000000000000E10   -1.020311610773206E-4  -4.110221561859362E-5  
 2.404000000000000E10   -3.876590053550899E-4   2.044116408796981E-4  
 2.406000000000000E10    3.577589814085513E-4  -3.783550937441760E-6  
 2.408000000000000E10   -7.287156768143177E-5   2.697979798540473E-4  
 2.410000000000000E10    3.094442654401064E-4   3.314926580060273E-4  
 2.412000000000000E10    3.842840378638357E-4  -3.604448284022510E-5  
 2.414000000000000E10    1.129156589740887E-4  -6.951716495677829E-4  
 2.416000000000000E10   -3.485906345304102E-4   1.977141509996727E-4  
 2.418000000000000E10    3.151389828417450E-4   7.401384063996375E-4  
 2.420000000000000E10    5.591934896074235E-4   8.020004315767437E-5  
 2.422000000000000E10   -5.105712916702032E-4  -7.415747386403382E-4  
 2.424000000000000E10   -6.446542683988810E-4   2.823977556545287E-4  
 2.426000000000000E10    3.728405572474003E-4   2.276479790452868E-4  
 2.428000000000000E10    2.561341098044068E-4  -1.961034868145362E-4  
 2.430000000000000E10   -8.546714525436983E-5  -1.553493348183110E-4  
 2.432000000000000E10   -3.073896805290133E-4   9.688845602795482E-5  
 2.434000000000000E10   -1.877796748885885E-4  -1.521392914582975E-5  
 2.436000000000000E10   -3.076072316616774E-4   2.767749829217792E-4  
 2.438000000000000E10   -1.307199272559956E-5  -1.063471354427747E-4  
 2.440000000000000E10    6.458764546550810E-4  -9.283950930694118E-5  
 2.442000000000000E10   -9.296113857999444E-4  -6.366015295498073E-4  
 2.444000000000000E10   -5.344194360077381E-4   5.736397579312325E-4  
 2.446000000000000E10    4.716316761914641E-4   4.451765853445977E-4  
 2.448000000000000E10    6.868600612506270E-4  -7.235042867250741E-4  
 2.450000000000000E10   -1.133944140747190E-3  -2.438667725073174E-4  
 2.452000000000000E10   -5.571569781750441E-4   4.416356678120792E-4  
 2.454000000000000E10    2.327026595594361E-4   4.619142564479262E-4  
 2.456000000000000E10    7.465581293217838E-4  -7.957149064168334E-4  
 2.458000000000000E10   -4.013602447230369E-4  -5.968557670712471E-4  
 2.460000000000000E10   -4.834359569940716E-4   9.145194053417072E-5  
 2.462000000000000E10    2.049475151579827E-4   6.744280690327287E-4  
 2.464000000000000E10    3.945793723687530E-4  -1.941138762049377E-4  
 2.466000000000000E10    1.134761987486854E-4  -9.582373313605785E-4  
 2.468000000000000E10   -6.512154359370470E-4  -5.353109445422888E-4  
 2.470000000000000E10   -3.679557994473726E-5   6.957367295399308E-4  
 2.472000000000000E10    8.442691178061068E-4   4.455276939552277E-4  
 2.474000000000000E10    4.955218755640090E-4  -6.495091947726905E-4  
 2.476000000000000E10   -5.167662748135626E-4  -6.108312518335879E-4  
 2.478000000000000E10   -7.682229042984545E-4   8.298036991618574E-4  
 2.480000000000000E10    6.876818952150643E-4   5.732479039579630E-4  
 2.482000000000000E10    7.212708005681634E-4  -6.843967130407691E-4  
 2.484000000000000E10   -2.987588522955775E-4  -1.213417504914105E-3  
 2.486000000000000E10   -8.412930183112621E-4   2.641668543219566E-4  
 2.488000000000000E10    3.700479574035853E-4   1.242536120116711E-3  
 2.490000000000000E10    1.218831748701632E-3  -8.796306792646647E-5  
 2.492000000000000E10   -1.868049439508468E-4  -1.054604654200375E-3  
 2.494000000000000E10   -1.176407560706139E-3  -1.453827717341483E-4  
 2.496000000000000E10   -1.176746227429248E-4   9.298114455305040E-4  
 2.498000000000000E10    1.207102555781603E-3   9.341286931885406E-5  
 2.500000000000000E10    4.370515234768391E-4  -1.354728243313730E-3  
 2.502000000000000E10   -1.132711535319686E-3  -1.131467652157880E-4  
 2.504000000000000E10   -3.034371184185147E-4   1.184788183309138E-3  
 2.506000000000000E10    1.119189080782235E-3   4.054348682984710E-4  
 2.508000000000000E10    5.673329578712583E-4  -1.195737393572927E-3  
 2.510000000000000E10   -1.035780529491603E-3  -3.467789501883090E-4  
 2.512000000000000E10   -5.795974866487086E-4   9.075480047613382E-4  
 2.514000000000000E10    8.091831696219742E-4   5.062987911514938E-4  
 2.516000000000000E10    2.706703380681574E-4  -5.731498240493238E-4  
 2.518000000000000E10   -1.880641793832183E-4  -2.959842677228153E-4  
 2.520000000000000E10   -5.868382286280394E-4   3.372095234226435E-4  
 2.522000000000000E10   -4.112009628443047E-5   6.492551765404642E-4  
 2.524000000000000E10    4.011699347756803E-4   1.311465020989999E-4  
 2.526000000000000E10    1.456909558328334E-5  -7.230601622723043E-4  
 2.528000000000000E10   -7.350967498496175E-4  -4.332404059823602E-4  
 2.530000000000000E10   -4.156455979682505E-4   4.106986452825368E-4  
 2.532000000000000E10    8.077626698650420E-4   6.321224500425160E-4  
 2.534000000000000E10    5.493940552696586E-4  -9.084318298846483E-4  
 2.536000000000000E10   -8.584386087022722E-4  -4.595662176143378E-4  
 2.538000000000000E10   -2.370506845181808E-4   5.520830163732171E-4  
 2.540000000000000E10    4.141486715525389E-4   5.044332938268781E-4  
 2.542000000000000E10    8.172295638360083E-4  -5.644534830935299E-4  
 2.544000000000000E10   -4.999616649001837E-4  -4.137414507567883E-4  
 2.546000000000000E10   -6.380408303812146E-4   3.133675199933350E-4  
 2.548000000000000E10    4.807926598004997E-4   5.105013260617852E-4  
 2.550000000000000E10    3.888197534251958E-4  -1.981911482289434E-4  
 2.552000000000000E10   -1.132140750996769E-4  -3.769983013626188E-4  
 2.554000000000000E10   -6.464056787081063E-4  -1.210951904795365E-5  
 2.556000000000000E10   -1.651282072998583E-4   3.991576959379017E-4  
 2.558000000000000E10    5.951012135483325E-4  -1.253302179975435E-4  
 2.560000000000000E10    7.752371311653405E-5  -6.869584321975708E-4  
 2.562000000000000E10   -4.260885179974139E-4   3.183745429851115E-4  
 2.564000000000000E10    3.749200550373644E-5   2.158954303013161E-4  
 2.566000000000000E10    4.616049700416625E-4  -6.351641786750406E-5  
 2.568000000000000E10   -2.981143188662827E-4  -2.374525793129578E-4  
 2.570000000000000E10    5.225716449785978E-5   3.197005717083812E-4  
 2.572000000000000E10    4.436134768184274E-4  -5.762308137491345E-5  
 2.574000000000000E10   -2.254238934256136E-4  -4.384367784950882E-4  
 2.576000000000000E10   -2.492216881364584E-4   6.117457523941994E-4  
 2.578000000000000E10    6.519851158373058E-4   3.468861395958811E-4  
 2.580000000000000E10    1.700958237051964E-4  -6.132012349553406E-4  
 2.582000000000000E10   -6.941147148609161E-4  -2.609677903819829E-4  
 2.584000000000000E10    8.270196849480271E-5   8.410642039962113E-4  
 2.586000000000000E10    6.418551784008741E-4  -1.475104654673487E-4  
 2.588000000000000E10    1.939097455760930E-5  -6.339695537462831E-4  
 2.590000000000000E10   -6.750869797542691E-4   1.411596749676392E-4  
 2.592000000000000E10    2.334025630261749E-4   7.206710288301110E-4  
 2.594000000000000E10    4.057538171764463E-4   6.773733184672892E-5  
 2.596000000000000E10    1.385737996315584E-4  -5.054069915786386E-4  
 2.598000000000000E10   -5.598869174718857E-4  -1.243053702637553E-4  
 2.600000000000000E10   -1.152404911408667E-5   2.596759295556694E-4  
 2.602000000000000E10   -4.598006489686668E-5   4.138741351198405E-4  
 2.604000000000000E10    2.071510971290991E-4   3.369860933162272E-4  
 2.606000000000000E10    3.795704833464697E-5  -2.922844141721726E-4  
 2.608000000000000E10   -4.764095647260547E-4  -2.201119932578877E-4  
 2.610000000000000E10   -4.667847533710301E-4   6.726125720888376E-4  
 2.612000000000000E10    5.740731721743941E-4   3.715550119522959E-4  
 2.614000000000000E10    3.917522262781858E-4  -7.173191406764090E-4  
 2.616000000000000E10   -7.522449595853686E-4  -7.156116771511734E-4  
 2.618000000000000E10   -8.727563545107842E-4   8.846416021697223E-4  
 2.620000000000000E10    4.876895109191537E-4   6.049583316780627E-4  
 2.622000000000000E10    7.631475455127657E-4  -6.102668121457100E-4  
 2.624000000000000E10   -6.292940815910697E-4  -8.605580078437924E-4  
 2.626000000000000E10   -9.661511867307127E-4   3.656300250440836E-4  
 2.628000000000000E10    2.501168928574771E-4   8.736542658880353E-4  
 2.630000000000000E10    1.022976124659181E-3  -3.932053223252296E-4  
 2.632000000000000E10   -1.618103124201298E-4  -1.226795255206525E-3  
 2.634000000000000E10   -1.162401516921818E-3   1.596623333171010E-4  
 2.636000000000000E10   -8.976474055089057E-5   1.369588542729616E-3  
 2.638000000000000E10    1.170452102087438E-3  -2.694889262784272E-4  
 2.640000000000000E10    5.024083293392323E-5  -1.428705523721874E-3  
 2.642000000000000E10   -1.530923997052014E-3   2.498305366316345E-5  
 2.644000000000000E10   -4.278324195183814E-5   1.136906794272363E-3  
 2.646000000000000E10    1.235745614394546E-3  -1.173480341094546E-4  
 2.648000000000000E10   -1.593897904967889E-4  -1.300093252211809E-3  
 2.650000000000000E10   -9.961622999981046E-4   8.895024802768603E-5  
 2.652000000000000E10   -5.746367241954431E-5   9.415998938493431E-4  
 2.654000000000000E10    7.331938832066953E-4   8.697177690919489E-5  
 2.656000000000000E10    9.187448449665681E-5  -5.850348388776183E-4  
 2.658000000000000E10   -4.650563059840351E-4  -3.886431659338996E-5  
 2.660000000000000E10   -3.992149431724101E-4  -1.901075484056491E-5  
 2.662000000000000E10    7.481836655642837E-5   5.256064468994737E-4  
 2.664000000000000E10    3.930348029825836E-4   1.625414879526943E-4  
 2.666000000000000E10    3.729666350409389E-4  -7.530097500421107E-4  
 2.668000000000000E10   -6.954651908017695E-4  -1.583772245794535E-4  
 2.670000000000000E10   -7.384869386442006E-4   5.066999583505094E-4  
 2.672000000000000E10    7.786574424244463E-4   6.072735995985568E-4  
 2.674000000000000E10    5.968501791357994E-4  -7.906619575805962E-4  
 2.676000000000000E10   -1.003144658170641E-3  -8.144337334670126E-4  
 2.678000000000000E10   -7.129936129786074E-4   1.052405335940421E-3  
 2.680000000000000E10    6.801779381930828E-4   6.899759173393250E-4  
 2.682000000000000E10    6.116160075180233E-4  -6.538516026921570E-4  
 2.684000000000000E10   -6.348982569761574E-4  -4.144126432947815E-4  
 2.686000000000000E10   -6.319487583823502E-4   7.845727377571166E-4  
 2.688000000000000E10    3.012288943864405E-4   3.481922612991184E-4  
 2.690000000000000E10    3.841148572973907E-4  -4.682921280618757E-4  
 2.692000000000000E10   -3.008345374837518E-4  -4.302929446566850E-4  
 2.694000000000000E10   -3.310571482870728E-4   2.958421828225255E-4  
 2.696000000000000E10   -3.465483896434307E-4   2.779181813821197E-4  
 2.698000000000000E10    2.208760124631226E-4   1.700922075542621E-5  
 2.700000000000000E10    1.131077879108489E-4  -2.244833449367434E-4  
 2.702000000000000E10   -5.531984497793019E-4  -1.481939107179642E-4  
 2.704000000000000E10   -4.211037885397673E-4   2.570123760960996E-4  
 2.706000000000000E10    1.052748266374692E-4   9.456681254960131E-6  
 2.708000000000000E10    1.678775879554451E-4  -1.167627706308849E-4  
 2.710000000000000E10    7.763734902255237E-5  -3.354647196829319E-4  
 2.712000000000000E10   -3.516885626595467E-4  -2.413690090179443E-4  
 2.714000000000000E10   -1.214670555782504E-4   4.648526955861598E-4  
 2.716000000000000E10    3.884171892423183E-4   3.011417866218835E-4  
 2.718000000000000E10    3.580668126232922E-4  -3.448372299317271E-4  
 2.720000000000000E10   -2.815475745592266E-4  -5.032938788644970E-4  
 2.722000000000000E10   -6.301591056399047E-4   8.557874389225617E-5  
 2.724000000000000E10    2.231434045825154E-4   7.129093864932656E-4  
 2.726000000000000E10    3.869085921905935E-4  -4.087200504727662E-4  
 2.728000000000000E10   -3.343737043906003E-4  -9.920364245772362E-4  
 2.730000000000000E10   -6.745941936969757E-4   2.690709079615772E-4  
 2.732000000000000E10    2.545435563661158E-4   6.560556939803064E-4  
 2.734000000000000E10    5.217499565333128E-4  -5.375851760618389E-4  
 2.736000000000000E10   -3.120040346402675E-4  -6.629251292906702E-4  
 2.738000000000000E10   -6.289290031418204E-4   5.721728302887641E-5  
 2.740000000000000E10    2.806877018883824E-4   2.669373352546245E-4  
 2.742000000000000E10    5.043155397288501E-4  -7.204822759376839E-5  
 2.744000000000000E10    1.122156099881977E-4  -2.845260605681688E-4  
 2.746000000000000E10   -8.016994252102450E-5  -9.593775757821277E-5  
 2.748000000000000E10   -4.179883399046958E-4   2.519136178307235E-4  
 2.750000000000000E10   -1.127930736402050E-4   3.323109121993184E-4  
 2.752000000000000E10    5.937374080531299E-4   1.569836749695242E-4  
 2.754000000000000E10    3.117064188700169E-4  -7.867810782045126E-4  
 2.756000000000000E10   -8.752052090130746E-4  -8.738776523387060E-5  
