#  HZ   S   RI   R     50.00 
! Rohde & Schwarz ZVA40 4Ports - Version 3.90 - 1145.1110k42 SN: 100403
! Date: 2023-10-04 08:29:50
! Measurement: S22 
! 
 2.200000000000000E10   -9.683107025921345E-3  -3.475704416632652E-2  
 2.202000000000000E10   -9.080853313207626E-2  -2.990856533870101E-3  
 2.204000000000000E10   -7.687949389219284E-2   8.197244256734848E-2  
 2.206000000000000E10    1.179454382508993E-2   8.310166001319885E-2  
 2.208000000000000E10    3.639157488942146E-2  -3.444645088165999E-3  
 2.210000000000000E10   -4.226683825254440E-2  -4.458740726113319E-2  
 2.212000000000000E10   -9.187656641006470E-2   1.558981183916330E-2  
 2.214000000000000E10   -4.561695456504822E-2   6.750798225402832E-2  
 2.216000000000000E10    3.571021137759090E-3   3.402683883905411E-2  
 2.218000000000000E10   -1.920652016997337E-2  -1.224586833268404E-2  
 2.220000000000000E10   -5.731415376067162E-2   3.476223908364773E-3  
 2.222000000000000E10   -4.194835945963860E-2   4.151822999119759E-2  
 2.224000000000000E10    3.249965608119965E-3   2.612258493900299E-2  
 2.226000000000000E10   -5.627266131341457E-3  -3.303388878703117E-2  
 2.228000000000000E10   -7.392370700836182E-2  -3.978901356458664E-2  
 2.230000000000000E10   -9.676059335470200E-2   3.518679365515709E-2  
 2.232000000000000E10   -2.227389253675938E-2   7.398761808872223E-2  
 2.234000000000000E10    3.472373634576798E-2   4.738516174256802E-3  
 2.236000000000000E10   -2.089352719485760E-2  -6.836970150470734E-2  
 2.238000000000000E10   -1.085578724741936E-1  -3.087593242526054E-2  
 2.240000000000000E10   -9.513923525810242E-2   6.786181777715683E-2  
 2.242000000000000E10    1.285103056579828E-2   8.356288075447083E-2  
 2.244000000000000E10    5.612976849079132E-2  -2.173767983913422E-2  
 2.246000000000000E10   -3.546730801463127E-2  -9.076245129108429E-2  
 2.248000000000000E10   -1.219392344355583E-1  -1.484214514493942E-2  
 2.250000000000000E10   -6.600112468004227E-2   8.458269387483597E-2  
 2.252000000000000E10    3.993662819266319E-2   5.647828057408333E-2  
 2.254000000000000E10    4.293626546859741E-2  -5.032623931765556E-2  
 2.256000000000000E10   -5.700074136257172E-2  -7.697840034961700E-2  
 2.258000000000000E10   -1.015478521585465E-1   1.447073835879564E-2  
 2.260000000000000E10   -1.901361346244812E-2   7.868531346321106E-2  
 2.262000000000000E10    6.357650458812714E-2   1.285507157444954E-2  
 2.264000000000000E10    2.662061713635922E-2  -7.789916545152664E-2  
 2.266000000000000E10   -6.082829833030701E-2  -6.520778685808182E-2  
 2.268000000000000E10   -6.449827551841736E-2   1.050898153334856E-2  
 2.270000000000000E10    3.019683761522174E-3   2.648994326591492E-2  
 2.272000000000000E10    2.966406382620335E-2  -3.279947116971016E-2  
 2.274000000000000E10   -2.702571079134941E-2  -6.577434390783310E-2  
 2.276000000000000E10   -6.276652216911316E-2  -6.782228592783213E-3  
 2.278000000000000E10    1.887820078991354E-3   4.298366978764534E-2  
 2.280000000000000E10    7.080649584531784E-2  -2.085623145103455E-2  
 2.282000000000000E10    2.505155839025974E-2  -1.038345843553543E-1  
 2.284000000000000E10   -7.463401556015015E-2  -7.706994563341141E-2  
 2.286000000000000E10   -6.735678017139435E-2   2.310903184115887E-2  
 2.288000000000000E10    3.414494544267654E-2   4.095596820116043E-2  
 2.290000000000000E10    8.113960176706314E-2  -5.351370573043823E-2  
 2.292000000000000E10   -2.951964503154159E-3  -1.242417991161346E-1  
 2.294000000000000E10   -9.302262216806412E-2  -5.474693328142166E-2  
 2.296000000000000E10   -4.308818280696869E-2   5.153804644942284E-2  
 2.298000000000000E10    7.422157377004623E-2   2.898678928613663E-2  
 2.300000000000000E10    8.003535121679306E-2  -8.584295958280563E-2  
 2.302000000000000E10   -2.304676547646523E-2  -1.196964606642723E-1  
 2.304000000000000E10   -8.140494674444199E-2  -2.733011916279793E-2  
 2.306000000000000E10   -4.450812004506588E-3   5.727547034621239E-2  
 2.308000000000000E10    1.005565226078033E-1   4.910615272819996E-3  
 2.310000000000000E10    7.901005446910858E-2  -1.081883832812309E-1  
 2.312000000000000E10   -3.170385211706162E-2  -1.093144863843918E-1  
 2.314000000000000E10   -5.329341441392899E-2  -4.264349583536387E-3  
 2.316000000000000E10    4.228353872895241E-2   4.166924953460693E-2  
 2.318000000000000E10    1.148299872875214E-1  -3.064954094588757E-2  
 2.320000000000000E10    7.168562710285187E-2  -1.178724691271782E-1  
 2.322000000000000E10   -1.510813273489475E-2  -9.794566780328751E-2  
 2.324000000000000E10   -7.484550587832928E-3  -1.396639365702868E-2  
 2.326000000000000E10    7.433981448411942E-2  -1.378699019551277E-2  
 2.328000000000000E10    8.330038189888001E-2  -9.105227887630463E-2  
 2.330000000000000E10    9.956900030374527E-3  -1.059356555342674E-1  
 2.332000000000000E10   -8.695041760802269E-3  -3.604538738727570E-2  
 2.334000000000000E10    5.733877047896385E-2  -2.051860326901078E-3  
 2.336000000000000E10    1.111982390284538E-1  -6.113119050860405E-2  
 2.338000000000000E10    6.562285125255585E-2  -1.327969133853912E-1  
 2.340000000000000E10   -1.820027641952038E-2  -1.011791750788689E-1  
 2.342000000000000E10   -4.672067705541849E-3  -6.939366459846497E-3  
 2.344000000000000E10    9.615883231163025E-2  -3.416732070036233E-4  
 2.346000000000000E10    1.249759718775749E-1  -9.666047245264053E-2  
 2.348000000000000E10    3.626580163836479E-2  -1.451263874769211E-1  
 2.350000000000000E10   -2.803733386099339E-2  -6.928917020559311E-2  
 2.352000000000000E10    3.062033653259277E-2   1.320264115929604E-2  
 2.354000000000000E10    1.288162320852280E-1  -2.164249680936337E-2  
 2.356000000000000E10    1.167373210191727E-1  -1.287576407194138E-1  
 2.358000000000000E10    9.124410338699818E-3  -1.387269645929337E-1  
 2.360000000000000E10   -2.544081024825573E-2  -3.307231143116951E-2  
 2.362000000000000E10    6.798294931650162E-2   2.843062207102776E-2  
 2.364000000000000E10    1.510201692581177E-1  -3.982930630445480E-2  
 2.366000000000000E10    1.125416681170464E-1  -1.315100193023682E-1  
 2.368000000000000E10    2.072592452168465E-2  -1.197028234601021E-1  
 2.370000000000000E10    1.075738854706287E-2  -2.952314168214798E-2  
 2.372000000000000E10    9.603127092123032E-2   1.699637854471803E-3  
 2.374000000000000E10    1.424094885587692E-1  -6.997109949588776E-2  
 2.376000000000000E10    8.758348226547241E-2  -1.209368258714676E-1  
 2.378000000000000E10    3.951491042971611E-2  -8.121430128812790E-2  
 2.380000000000000E10    6.994861364364624E-2  -3.843176364898682E-2  
 2.382000000000000E10    1.054917797446251E-1  -6.281394511461258E-2  
 2.384000000000000E10    8.141651749610901E-2  -9.520964324474335E-2  
 2.386000000000000E10    4.417498037219048E-2  -6.851811707019806E-2  
 2.388000000000000E10    6.812181323766708E-2  -1.390464790165424E-2  
 2.390000000000000E10    1.401149481534958E-1  -2.667703665792942E-2  
 2.392000000000000E10    1.435005515813828E-1  -1.074221581220627E-1  
 2.394000000000000E10    6.338502466678619E-2  -1.273088157176971E-1  
 2.396000000000000E10    3.043994680047035E-2  -4.998779296875000E-2  
 2.398000000000000E10    1.005097553133965E-1  -7.974659092724323E-3  
 2.400000000000000E10    1.515011638402939E-1  -6.834636628627777E-2  
 2.402000000000000E10    1.019310280680656E-1  -1.281290352344513E-1  
 2.404000000000000E10    2.914180606603622E-2  -9.548040479421616E-2  
 2.406000000000000E10    3.908278793096542E-2  -9.370115585625172E-3  
 2.408000000000000E10    1.318520158529282E-1   3.651721170172095E-3  
 2.410000000000000E10    1.628063321113586E-1  -8.610700815916061E-2  
 2.412000000000000E10    8.159372955560684E-2  -1.370045244693756E-1  
 2.414000000000000E10    1.337546110153198E-2  -6.943611055612564E-2  
 2.416000000000000E10    5.445971339941025E-2   1.207028888165951E-2  
 2.418000000000000E10    1.357533782720566E-1  -2.043921267613769E-3  
 2.420000000000000E10    1.417082846164703E-1  -7.591096311807632E-2  
 2.422000000000000E10    6.987234950065613E-2  -9.274668246507645E-2  
 2.424000000000000E10    4.315800964832306E-2  -1.893745921552181E-2  
 2.426000000000000E10    1.168729066848755E-1   1.468134298920631E-2  
 2.428000000000000E10    1.533144712448120E-1  -5.219385027885437E-2  
 2.430000000000000E10    9.112788736820221E-2  -8.793512731790543E-2  
 2.432000000000000E10    5.311027541756630E-2  -3.292672708630562E-2  
 2.434000000000000E10    1.003813818097115E-1   1.025330834090710E-2  
 2.436000000000000E10    1.479515135288239E-1  -2.633327804505825E-2  
 2.438000000000000E10    1.153122410178185E-1  -8.499671518802643E-2  
 2.440000000000000E10    4.012883454561234E-2  -5.640129372477531E-2  
 2.442000000000000E10    5.649312213063240E-2   4.032528772950172E-2  
 2.444000000000000E10    1.628744900226593E-1   4.382773861289024E-2  
 2.446000000000000E10    1.906619817018509E-1  -6.199091300368309E-2  
 2.448000000000000E10    9.452560544013977E-2  -1.103361323475838E-1  
 2.450000000000000E10    2.385756373405457E-2  -2.874253690242767E-2  
 2.452000000000000E10    8.449145406484604E-2   6.126672774553299E-2  
 2.454000000000000E10    1.940991878509522E-1   2.503123134374619E-2  
 2.456000000000000E10    1.849390119314194E-1  -1.000854894518852E-1  
 2.458000000000000E10    4.717988148331642E-2  -1.223485618829727E-1  
 2.460000000000000E10   -7.545599713921547E-3   1.795250549912453E-2  
 2.462000000000000E10    1.213963776826859E-1   1.009239405393601E-1  
 2.464000000000000E10    2.269599288702011E-1  -2.683076541870832E-3  
 2.466000000000000E10    1.552704274654388E-1  -1.290691643953323E-1  
 2.468000000000000E10    1.634440757334232E-2  -9.503879398107529E-2  
 2.470000000000000E10    1.267417334020138E-2   4.652858152985573E-2  
 2.472000000000000E10    1.459517180919647E-1   7.709687203168869E-2  
 2.474000000000000E10    1.975190192461014E-1  -4.572778195142746E-2  
 2.476000000000000E10    8.424627780914307E-2  -1.167043671011925E-1  
 2.478000000000000E10   -3.992098383605480E-3  -1.857059076428413E-2  
 2.480000000000000E10    7.091324031352997E-2   7.427772134542465E-2  
 2.482000000000000E10    1.612580120563507E-1   2.317280136048794E-2  
 2.484000000000000E10    1.298219561576843E-1  -6.922608613967896E-2  
 2.486000000000000E10    2.565308660268784E-2  -5.722613260149956E-2  
 2.488000000000000E10    1.238313317298889E-2   5.591234192252159E-2  
 2.490000000000000E10    1.313447803258896E-1   9.629400074481964E-2  
 2.492000000000000E10    1.961848139762878E-1  -1.977569609880447E-2  
 2.494000000000000E10    8.408623933792114E-2  -1.132532730698586E-1  
 2.496000000000000E10   -2.961841598153114E-2  -1.466968655586243E-2  
 2.498000000000000E10    3.872472420334816E-2   1.138199567794800E-1  
 2.500000000000000E10    1.766050457954407E-1   8.483549952507019E-2  
 2.502000000000000E10    1.876982003450394E-1  -6.204699352383614E-2  
 2.504000000000000E10    4.042220860719681E-2  -1.087441742420197E-1  
 2.506000000000000E10   -3.565265610814095E-2   2.898944355547428E-2  
 2.508000000000000E10    8.287288248538971E-2   1.280887275934219E-1  
 2.510000000000000E10    2.083829641342163E-1   2.846629358828068E-2  
 2.512000000000000E10    1.314601004123688E-1  -1.201502904295921E-1  
 2.514000000000000E10   -2.930579520761967E-2  -8.105190843343735E-2  
 2.516000000000000E10   -3.805515915155411E-2   7.446958869695664E-2  
 2.518000000000000E10    1.032726690173149E-1   1.307809352874756E-1  
 2.520000000000000E10    2.005127668380737E-1   5.777365062385798E-3  
 2.522000000000000E10    9.664231538772583E-2  -1.266003996133804E-1  
 2.524000000000000E10   -5.245787650346756E-2  -5.531220138072968E-2  
 2.526000000000000E10   -2.223914861679077E-2   9.311666339635849E-2  
 2.528000000000000E10    1.137212291359901E-1   9.433358907699585E-2  
 2.530000000000000E10    1.416661143302918E-1  -2.694678865373135E-2  
 2.532000000000000E10    3.775359690189362E-2  -7.804921269416809E-2  
 2.534000000000000E10   -3.583162650465965E-2   2.824352588504553E-3  
 2.536000000000000E10    3.126856684684753E-2   9.147493541240692E-2  
 2.538000000000000E10    1.333175897598267E-1   3.237039595842362E-2  
 2.540000000000000E10    8.079601079225540E-2  -8.874884992837906E-2  
 2.542000000000000E10   -5.039480328559876E-2  -5.479870364069939E-2  
 2.544000000000000E10   -4.149595275521278E-2   7.091273367404938E-2  
 2.546000000000000E10    7.065044343471527E-2   8.333852142095566E-2  
 2.548000000000000E10    9.921362996101379E-2  -1.774026639759541E-2  
 2.550000000000000E10    7.979571819305420E-3  -6.698858737945557E-2  
 2.552000000000000E10   -6.374078243970871E-2   1.448766421526671E-2  
 2.554000000000000E10    4.267871845513582E-3   1.056224405765533E-1  
 2.556000000000000E10    1.138726696372032E-1   5.108074471354485E-2  
 2.558000000000000E10    7.936490327119827E-2  -7.081533223390579E-2  
 2.560000000000000E10   -4.260618239641190E-2  -6.264714151620865E-2  
 2.562000000000000E10   -6.321608275175095E-2   4.277274012565613E-2  
 2.564000000000000E10    2.550631389021874E-2   8.862534165382385E-2  
 2.566000000000000E10    9.461361914873123E-2   1.676728390157223E-2  
 2.568000000000000E10    4.078358784317970E-2  -7.877889275550842E-2  
 2.570000000000000E10   -7.296742498874664E-2  -4.816558212041855E-2  
 2.572000000000000E10   -6.743545085191727E-2   7.174380868673325E-2  
 2.574000000000000E10    5.192540213465691E-2   9.121076017618179E-2  
 2.576000000000000E10    9.672857820987701E-2  -1.818954944610596E-2  
 2.578000000000000E10    1.329020224511623E-2  -8.761705458164215E-2  
 2.580000000000000E10   -6.785247474908829E-2  -4.170887544751167E-2  
 2.582000000000000E10   -5.417811125516892E-2   3.869985044002533E-2  
 2.584000000000000E10    2.260227128863335E-2   4.123112931847572E-2  
 2.586000000000000E10    3.237013518810272E-2  -3.522893413901329E-2  
 2.588000000000000E10   -3.876119107007980E-2  -4.725082963705063E-2  
 2.590000000000000E10   -5.067880079150200E-2   1.202134788036346E-2  
 2.592000000000000E10    1.629419391974807E-3   1.929959654808044E-2  
 2.594000000000000E10    9.909451007843018E-3  -2.625571936368942E-2  
 2.596000000000000E10   -2.798083052039146E-2  -4.405257105827332E-2  
 2.598000000000000E10   -5.188348889350891E-2  -2.180393412709236E-2  
 2.600000000000000E10   -4.073265567421913E-2   7.074045948684216E-3  
 2.602000000000000E10   -7.296173833310604E-3  -2.976640826091170E-4  
 2.604000000000000E10   -1.375422161072493E-2  -4.264573380351067E-2  
 2.606000000000000E10   -5.959258973598480E-2  -3.528559580445290E-2  
 2.608000000000000E10   -5.298230424523354E-2   1.003580726683140E-2  
 2.610000000000000E10   -5.366516299545765E-3   6.190449465066195E-3  
 2.612000000000000E10    1.452286960557103E-3  -4.228564351797104E-2  
 2.614000000000000E10   -3.985993564128876E-2  -6.803611665964127E-2  
 2.616000000000000E10   -8.374729007482529E-2  -3.539610654115677E-2  
 2.618000000000000E10   -6.013289839029312E-2   2.258839830756187E-2  
 2.620000000000000E10    1.602192781865597E-2   5.793306976556778E-3  
 2.622000000000000E10    8.831262588500977E-3  -8.065617084503174E-2  
 2.624000000000000E10   -7.403588294982910E-2  -9.202229231595993E-2  
 2.626000000000000E10   -1.005457267165184E-1  -2.290098369121552E-2  
 2.628000000000000E10   -4.823556542396545E-2   1.406554970890284E-2  
 2.630000000000000E10   -3.772075986489654E-3  -1.881892606616020E-2  
 2.632000000000000E10   -1.641888916492462E-2  -6.836006790399551E-2  
 2.634000000000000E10   -6.291064620018005E-2  -7.113797962665558E-2  
 2.636000000000000E10   -6.995793431997299E-2  -2.917425706982613E-2  
 2.638000000000000E10   -3.131406009197235E-2  -2.706622146070004E-2  
 2.640000000000000E10   -3.236289694905281E-2  -6.134461611509323E-2  
 2.642000000000000E10   -6.084100157022476E-2  -5.708707869052887E-2  
 2.644000000000000E10   -5.415681749582291E-2  -3.316833078861237E-2  
 2.646000000000000E10   -2.949910052120686E-2  -3.620005771517754E-2  
 2.648000000000000E10   -2.013224549591541E-2  -6.105272099375725E-2  
 2.650000000000000E10   -4.015552997589111E-2  -8.517864346504211E-2  
 2.652000000000000E10   -7.792587578296661E-2  -6.993567198514938E-2  
 2.654000000000000E10   -6.158226728439331E-2  -2.000143006443977E-2  
 2.656000000000000E10   -9.806884190766141E-5  -3.224885836243630E-2  
 2.658000000000000E10   -4.005009774118662E-3  -1.005758643150330E-1  
 2.660000000000000E10   -6.943882256746292E-2  -1.104703098535538E-1  
 2.662000000000000E10   -9.262391179800034E-2  -4.756532236933708E-2  
 2.664000000000000E10   -3.584330528974533E-2  -6.678265985101461E-3  
 2.666000000000000E10    2.967162989079952E-2  -5.399971082806587E-2  
 2.668000000000000E10   -7.084570825099945E-5  -1.382336467504501E-1  
 2.670000000000000E10   -9.413533657789230E-2  -1.275652050971985E-1  
 2.672000000000000E10   -9.991063177585602E-2  -3.351232036948204E-2  
 2.674000000000000E10   -1.223208103328943E-2  -9.599456563591957E-3  
 2.676000000000000E10    3.109429590404034E-2  -7.990867644548416E-2  
 2.678000000000000E10   -1.306246593594551E-2  -1.369226872920990E-1  
 2.680000000000000E10   -7.577545940876007E-2  -1.196274384856224E-1  
 2.682000000000000E10   -8.011576533317566E-2  -5.623714253306389E-2  
 2.684000000000000E10   -1.744597777724266E-2  -3.142199665307999E-2  
 2.686000000000000E10    2.227616682648659E-2  -8.753708750009537E-2  
 2.688000000000000E10   -1.807453110814095E-2  -1.323816329240799E-1  
 2.690000000000000E10   -5.718802288174629E-2  -1.062436103820801E-1  
 2.692000000000000E10   -4.091232642531395E-2  -7.352336496114731E-2  
 2.694000000000000E10   -9.938823990523815E-3  -8.391630649566650E-2  
 2.696000000000000E10   -1.378603000193834E-2  -1.173120066523552E-1  
 2.698000000000000E10   -5.439811944961548E-2  -1.189198568463326E-1  
 2.700000000000000E10   -6.326479464769363E-2  -6.772588938474655E-2  
 2.702000000000000E10   -4.177402239292860E-3  -5.060048028826714E-2  
 2.704000000000000E10    2.107729949057102E-2  -1.062369644641876E-1  
 2.706000000000000E10   -2.762427181005478E-2  -1.324421316385269E-1  
 2.708000000000000E10   -5.334654450416565E-2  -9.053885936737061E-2  
 2.710000000000000E10   -1.659954525530338E-2  -6.101883947849274E-2  
 2.712000000000000E10    1.788881607353687E-2  -8.783199638128281E-2  
 2.714000000000000E10    1.369069213978946E-4  -1.264961957931519E-1  
 2.716000000000000E10   -4.459501057863236E-2  -1.151012554764748E-1  
 2.718000000000000E10   -3.948654979467392E-2  -5.769199505448341E-2  
 2.720000000000000E10    2.501624822616577E-2  -4.705950617790222E-2  
 2.722000000000000E10    5.598230659961700E-2  -1.077959463000298E-1  
 2.724000000000000E10    1.248308736830950E-2  -1.526822447776794E-1  
 2.726000000000000E10   -4.010182991623879E-2  -1.304975003004074E-1  
 2.728000000000000E10   -3.966073319315910E-2  -7.755237072706223E-2  
 2.730000000000000E10    1.299365516752005E-2  -5.584807693958283E-2  
 2.732000000000000E10    4.875136166810989E-2  -1.033033132553101E-1  
 2.734000000000000E10    6.989655550569296E-3  -1.468568295240402E-1  
 2.736000000000000E10   -3.911573067307472E-2  -1.096997261047363E-1  
 2.738000000000000E10   -1.014990545809269E-2  -6.084447354078293E-2  
 2.740000000000000E10    3.654114156961441E-2  -7.614507526159287E-2  
 2.742000000000000E10    3.271869570016861E-2  -1.144071966409683E-1  
 2.744000000000000E10    5.705325864255428E-3  -1.169338002800942E-1  
 2.746000000000000E10    2.292321994900703E-3  -9.375252574682236E-2  
 2.748000000000000E10    2.586344070732594E-2  -9.267687797546387E-2  
 2.750000000000000E10    2.542328462004662E-2  -1.206816807389259E-1  
 2.752000000000000E10   -1.070007961243391E-2  -1.192463263869286E-1  
 2.754000000000000E10   -1.275032851845026E-2  -7.695108652114868E-2  
 2.756000000000000E10    2.874244377017021E-2  -6.911476701498032E-2  
