#  HZ   S   RI   R     50.00 
! Rohde & Schwarz ZVA40 4Ports - Version 3.90 - 1145.1110k42 SN: 100403
! Date: 2023-10-04 08:09:15
! Measurement: S22 
! 
 2.200000000000000E10   -4.650515911635011E-4  -3.282362967729569E-2  
 2.202000000000000E10   -8.836611360311508E-2  -1.342433691024780E-2  
 2.204000000000000E10   -8.531162142753601E-2   7.697692513465881E-2  
 2.206000000000000E10    4.012603778392077E-3   9.023816883563995E-2  
 2.208000000000000E10    3.857602179050446E-2   5.890327505767345E-3  
 2.210000000000000E10   -3.123847208917141E-2  -4.516374692320824E-2  
 2.212000000000000E10   -8.964736759662628E-2   5.934578832238913E-3  
 2.214000000000000E10   -5.432785302400589E-2   6.357523053884506E-2  
 2.216000000000000E10    9.217667393386364E-4   4.059840366244316E-2  
 2.218000000000000E10   -1.329153589904308E-2  -9.475129656493664E-3  
 2.220000000000000E10   -5.531453713774681E-2  -1.518050208687782E-3  
 2.222000000000000E10   -4.527914151549339E-2   3.947056829929352E-2  
 2.224000000000000E10   -1.543583493912593E-4   2.972991950809956E-2  
 2.226000000000000E10   -2.238039858639240E-3  -2.774448692798615E-2  
 2.228000000000000E10   -6.695459783077240E-2  -4.077329114079475E-2  
 2.230000000000000E10   -9.714382886886597E-2   2.702079340815544E-2  
 2.232000000000000E10   -3.185620903968811E-2   7.382359355688095E-2  
 2.234000000000000E10    3.248893842101097E-2   1.504104584455490E-2  
 2.236000000000000E10   -1.153117138892412E-2  -6.464894860982895E-2  
 2.238000000000000E10   -1.035636141896248E-1  -3.968333825469017E-2  
 2.240000000000000E10   -1.015160158276558E-1   6.169709563255310E-2  
 2.242000000000000E10    3.274887800216675E-3   8.573406189680100E-2  
 2.244000000000000E10    5.626860633492470E-2  -1.104714069515467E-2  
 2.246000000000000E10   -2.484497614204884E-2  -8.797004073858261E-2  
 2.248000000000000E10   -1.167430654168129E-1  -2.661236748099327E-2  
 2.250000000000000E10   -7.709947973489761E-2   7.846342027187347E-2  
 2.252000000000000E10    3.448619693517685E-2   6.462007015943527E-2  
 2.254000000000000E10    4.999427869915962E-2  -4.463284835219383E-2  
 2.256000000000000E10   -4.993816465139389E-2  -8.240003138780594E-2  
 2.258000000000000E10   -1.042415052652359E-1   5.990292411297560E-3  
 2.260000000000000E10   -2.790619991719723E-2   7.749420404434204E-2  
 2.262000000000000E10    5.947046726942062E-2   2.394686639308929E-2  
 2.264000000000000E10    3.651227056980133E-2  -7.093791663646698E-2  
 2.266000000000000E10   -5.278426036238670E-2  -7.286529988050461E-2  
 2.268000000000000E10   -7.029397785663605E-2   4.955457989126444E-3  
 2.270000000000000E10   -9.244331740774214E-4   3.299762681126595E-2  
 2.272000000000000E10    3.521527349948883E-2  -2.796637453138828E-2  
 2.274000000000000E10   -1.941874809563160E-2  -6.860008090734482E-2  
 2.276000000000000E10   -6.294608861207962E-2  -1.517607364803553E-2  
 2.278000000000000E10   -8.792851120233536E-3   4.008443653583527E-2  
 2.280000000000000E10    6.613437831401825E-2  -8.403123356401920E-3  
 2.282000000000000E10    3.829912841320038E-2  -9.509512037038803E-2  
 2.284000000000000E10   -6.506584584712982E-2  -8.945506811141968E-2  
 2.286000000000000E10   -7.619050145149231E-2   1.271577831357718E-2  
 2.288000000000000E10    2.237412147223949E-2   4.748240485787392E-2  
 2.290000000000000E10    8.051519840955734E-2  -4.256920516490936E-2  
 2.292000000000000E10    8.264667354524136E-3  -1.184907108545303E-1  
 2.294000000000000E10   -8.342889696359634E-2  -6.486983597278595E-2  
 2.296000000000000E10   -5.292474478483200E-2   4.035475105047226E-2  
 2.298000000000000E10    6.121417135000229E-2   3.780285269021988E-2  
 2.300000000000000E10    8.821824193000794E-2  -7.246166467666626E-2  
 2.302000000000000E10   -1.062844507396221E-2  -1.237201318144798E-1  
 2.304000000000000E10   -8.033976703882217E-2  -3.707488998770714E-2  
 2.306000000000000E10   -1.179219130426645E-2   5.165998637676239E-2  
 2.308000000000000E10    9.208071231842041E-2   1.060757972300053E-2  
 2.310000000000000E10    8.380842953920364E-2  -9.668667614459992E-2  
 2.312000000000000E10   -1.925375312566757E-2  -1.136625483632088E-1  
 2.314000000000000E10   -5.644005164504051E-2  -1.639204844832420E-2  
 2.316000000000000E10    3.170197457075119E-2   4.500180482864380E-2  
 2.318000000000000E10    1.147469654679298E-1  -2.182231284677982E-2  
 2.320000000000000E10    7.703168690204620E-2  -1.144963577389717E-1  
 2.322000000000000E10   -1.122245471924543E-2  -9.927468746900559E-2  
 2.324000000000000E10   -9.114363230764866E-3  -1.882759481668472E-2  
 2.326000000000000E10    6.800585240125656E-2  -9.705670177936554E-3  
 2.328000000000000E10    8.853536099195480E-2  -8.238112926483154E-2  
 2.330000000000000E10    1.964365877211094E-2  -1.123766005039215E-1  
 2.332000000000000E10   -1.588394679129124E-2  -4.462384805083275E-2  
 2.334000000000000E10    4.888825118541718E-2   3.457882907241583E-3  
 2.336000000000000E10    1.133531033992767E-1  -5.329397320747376E-2  
 2.338000000000000E10    7.234850525856018E-2  -1.314182132482529E-1  
 2.340000000000000E10   -1.432286109775305E-2  -1.087695807218552E-1  
 2.342000000000000E10   -1.249656267464161E-2  -1.653328910470009E-2  
 2.344000000000000E10    8.155392855405808E-2   7.467442657798529E-3  
 2.346000000000000E10    1.288682818412781E-1  -8.047961443662643E-2  
 2.348000000000000E10    5.141069367527962E-2  -1.473715007305145E-1  
 2.350000000000000E10   -2.829081378877163E-2  -8.204478770494461E-2  
 2.352000000000000E10    1.809920556843281E-2   1.121312379837036E-2  
 2.354000000000000E10    1.221504658460617E-1  -1.282617542892695E-2  
 2.356000000000000E10    1.234661489725113E-1  -1.172202527523041E-1  
 2.358000000000000E10    2.255794033408165E-2  -1.433970183134079E-1  
 2.360000000000000E10   -2.637304924428463E-2  -5.010619387030602E-2  
 2.362000000000000E10    5.013613775372505E-2   2.662002854049206E-2  
 2.364000000000000E10    1.445408314466476E-1  -2.555336430668831E-2  
 2.366000000000000E10    1.226803883910179E-1  -1.244418546557427E-1  
 2.368000000000000E10    2.854971587657929E-2  -1.244336068630219E-1  
 2.370000000000000E10    8.863660506904125E-3  -3.911400958895683E-2  
 2.372000000000000E10    8.537346124649048E-2  -6.984768551774323E-4  
 2.374000000000000E10    1.363939046859741E-1  -5.967849120497704E-2  
 2.376000000000000E10    9.566804766654968E-2  -1.146295741200447E-1  
 2.378000000000000E10    4.435948655009270E-2  -8.705506473779678E-2  
 2.380000000000000E10    6.500353664159775E-2  -4.135992005467415E-2  
 2.382000000000000E10    1.055364385247231E-1  -5.918314680457115E-2  
 2.384000000000000E10    8.439779281616211E-2  -9.708843380212784E-2  
 2.386000000000000E10    4.137077182531357E-2  -7.216282933950424E-2  
 2.388000000000000E10    6.528146564960480E-2  -1.319801621139050E-2  
 2.390000000000000E10    1.373424381017685E-1  -2.393399924039841E-2  
 2.392000000000000E10    1.467628180980682E-1  -1.025061383843422E-1  
 2.394000000000000E10    7.184368371963501E-2  -1.296450793743134E-1  
 2.396000000000000E10    2.805218659341335E-2  -6.012883409857750E-2  
 2.398000000000000E10    8.956358581781387E-2  -4.653999116271734E-3  
 2.400000000000000E10    1.546749025583267E-1  -5.740618705749512E-2  
 2.402000000000000E10    1.124030873179436E-1  -1.308464407920837E-1  
 2.404000000000000E10    2.958344481885433E-2  -1.060606539249420E-1  
 2.406000000000000E10    3.150375187397003E-2  -1.381748355925083E-2  
 2.408000000000000E10    1.202397793531418E-1   8.932377211749554E-3  
 2.410000000000000E10    1.660810559988022E-1  -7.232192158699036E-2  
 2.412000000000000E10    9.863972663879395E-2  -1.349349766969681E-1  
 2.414000000000000E10    1.627406477928162E-2  -8.681657165288925E-2  
 2.416000000000000E10    4.071445018053055E-2   6.280977744609118E-3  
 2.418000000000000E10    1.292430162429810E-1   7.517959456890822E-3  
 2.420000000000000E10    1.453452259302139E-1  -7.024118304252625E-2  
 2.422000000000000E10    7.697210460901260E-2  -9.364277869462967E-2  
 2.424000000000000E10    4.552691057324410E-2  -2.842995338141918E-2  
 2.426000000000000E10    1.043881475925446E-1   1.049777865409851E-2  
 2.428000000000000E10    1.478364169597626E-1  -3.970259800553322E-2  
 2.430000000000000E10    1.031550019979477E-1  -8.382944762706757E-2  
 2.432000000000000E10    5.466109514236450E-2  -4.157083109021187E-2  
 2.434000000000000E10    9.289395809173584E-2   1.124305557459593E-2  
 2.436000000000000E10    1.497919112443924E-1  -2.161508612334728E-2  
 2.438000000000000E10    1.190487667918205E-1  -8.456710726022720E-2  
 2.440000000000000E10    4.284128546714783E-2  -5.824274569749832E-2  
 2.442000000000000E10    5.419998243451119E-2   3.215531632304192E-2  
 2.444000000000000E10    1.526792049407959E-1   4.620673507452011E-2  
 2.446000000000000E10    1.927014291286469E-1  -4.872984066605568E-2  
 2.448000000000000E10    1.070339456200600E-1  -1.137568503618240E-1  
 2.450000000000000E10    2.148790284991264E-2  -4.243273660540581E-2  
 2.452000000000000E10    7.257787883281708E-2   6.248515844345093E-2  
 2.454000000000000E10    1.903328001499176E-1   3.505551815032959E-2  
 2.456000000000000E10    1.917113363742828E-1  -9.181946516036987E-2  
 2.458000000000000E10    6.092318519949913E-2  -1.258494406938553E-1  
 2.460000000000000E10   -9.335348382592201E-3  -5.774978199042380E-4  
 2.462000000000000E10    9.951793402433395E-2   1.007907912135124E-1  
 2.464000000000000E10    2.238165885210037E-1   1.794138737022877E-2  
 2.466000000000000E10    1.745309680700302E-1  -1.238900870084763E-1  
 2.468000000000000E10    2.335172705352306E-2  -1.108956485986710E-1  
 2.470000000000000E10    1.835931790992618E-3   3.579809889197350E-2  
 2.472000000000000E10    1.340106725692749E-1   8.158782124519348E-2  
 2.474000000000000E10    1.975814551115036E-1  -3.117444552481175E-2  
 2.476000000000000E10    1.014283746480942E-1  -1.148284226655960E-1  
 2.478000000000000E10    1.049880636855960E-3  -3.899844363331795E-2  
 2.480000000000000E10    5.182531103491783E-2   6.809768825769424E-2  
 2.482000000000000E10    1.549208462238312E-1   3.957237675786018E-2  
 2.484000000000000E10    1.435785293579102E-1  -6.302519887685776E-2  
 2.486000000000000E10    3.415872901678085E-2  -6.699394434690476E-2  
 2.488000000000000E10    8.767644874751568E-3   4.573432356119156E-2  
 2.490000000000000E10    1.171120107173920E-1   9.508314728736877E-2  
 2.492000000000000E10    1.912561208009720E-1  -2.665277803316712E-3  
 2.494000000000000E10    1.057058647274971E-1  -1.040415018796921E-1  
 2.496000000000000E10   -1.929553598165512E-2  -3.598911687731743E-2  
 2.498000000000000E10    2.162717841565609E-2   1.031141802668572E-1  
 2.500000000000000E10    1.654640585184097E-1   9.668237715959549E-2  
 2.502000000000000E10    1.941358894109726E-1  -4.952446371316910E-2  
 2.504000000000000E10    5.313410609960556E-2  -1.092908978462219E-1  
 2.506000000000000E10   -3.112079203128815E-2   1.406836695969105E-2  
 2.508000000000000E10    6.749895215034485E-2   1.194777116179466E-1  
 2.510000000000000E10    1.952372193336487E-1   4.540522769093514E-2  
 2.512000000000000E10    1.473189592361450E-1  -1.066639050841332E-1  
 2.514000000000000E10   -1.630027592182159E-2  -9.504529088735580E-2  
 2.516000000000000E10   -4.913776367902756E-2   6.259238719940186E-2  
 2.518000000000000E10    9.124361723661423E-2   1.354049593210220E-1  
 2.520000000000000E10    1.977937370538712E-1   1.678862795233727E-2  
 2.522000000000000E10    1.079361140727997E-1  -1.178543046116829E-1  
 2.524000000000000E10   -4.066945984959602E-2  -6.715728342533112E-2  
 2.526000000000000E10   -3.350709751248360E-2   7.742150872945786E-2  
 2.528000000000000E10    9.912634640932083E-2   1.046753078699112E-1  
 2.530000000000000E10    1.503945291042328E-1  -1.399879436939955E-2  
 2.532000000000000E10    4.783733561635017E-2  -8.727343380451202E-2  
 2.534000000000000E10   -3.979719057679176E-2  -5.803078413009644E-3  
 2.536000000000000E10    2.260334789752960E-2   9.126211702823639E-2  
 2.538000000000000E10    1.275191158056259E-1   4.168051853775978E-2  
 2.540000000000000E10    9.450126439332962E-2  -7.669177651405335E-2  
 2.542000000000000E10   -3.419184312224388E-2  -6.912706047296524E-2  
 2.544000000000000E10   -5.420458689332008E-2   5.449548736214638E-2  
 2.546000000000000E10    5.488901585340500E-2   9.579442441463471E-2  
 2.548000000000000E10    1.108131036162376E-1  -4.414320457726717E-3  
 2.550000000000000E10    2.025194279849529E-2  -7.286252081394196E-2  
 2.552000000000000E10   -6.264928728342056E-2   3.572567598894239E-3  
 2.554000000000000E10   -5.759891588240862E-3   9.701178967952728E-2  
 2.556000000000000E10    9.973586350679398E-2   6.197718903422356E-2  
 2.558000000000000E10    8.966735750436783E-2  -5.172967165708542E-2  
 2.560000000000000E10   -2.244224213063717E-2  -7.230412214994431E-2  
 2.562000000000000E10   -6.920750439167023E-2   2.491860464215279E-2  
 2.564000000000000E10    1.053167693316937E-2   9.132009744644165E-2  
 2.566000000000000E10    9.343064576387405E-2   2.724432386457920E-2  
 2.568000000000000E10    4.722618684172630E-2  -7.220933586359024E-2  
 2.570000000000000E10   -6.015767157077789E-2  -5.192342773079872E-2  
 2.572000000000000E10   -6.952063739299774E-2   5.417953059077263E-2  
 2.574000000000000E10    3.054039180278778E-2   9.052883088588715E-2  
 2.576000000000000E10    9.578486531972885E-2   1.450424431823194E-3  
 2.578000000000000E10    2.774673700332642E-2  -8.472853899002075E-2  
 2.580000000000000E10   -6.483352184295654E-2  -5.004813149571419E-2  
 2.582000000000000E10   -5.462126806378365E-2   3.389917314052582E-2  
 2.584000000000000E10    1.765661314129829E-2   3.688055649399757E-2  
 2.586000000000000E10    2.588910236954689E-2  -2.935408987104893E-2  
 2.588000000000000E10   -3.143836557865143E-2  -4.459471255540848E-2  
 2.590000000000000E10   -5.007566139101982E-2   3.841480705887079E-3  
 2.592000000000000E10   -7.034270092844963E-3   2.240506745874882E-2  
 2.594000000000000E10    1.371820084750652E-2  -2.053346857428551E-2  
 2.596000000000000E10   -2.419153414666653E-2  -4.939317330718041E-2  
 2.598000000000000E10   -5.814493075013161E-2  -2.113613672554493E-2  
 2.600000000000000E10   -3.963833302259445E-2   1.271757856011391E-2  
 2.602000000000000E10   -4.559988155961037E-3  -2.662227721884847E-3  
 2.604000000000000E10   -1.405518036335707E-2  -3.985735401511192E-2  
 2.606000000000000E10   -5.412003025412560E-2  -3.857026994228363E-2  
 2.608000000000000E10   -6.057590618729591E-2   1.727417577058077E-3  
 2.610000000000000E10   -1.594692841172218E-2   1.657534018158913E-2  
 2.612000000000000E10    1.215001568198204E-2  -3.094269335269928E-2  
 2.614000000000000E10   -3.084505349397659E-2  -7.502092421054840E-2  
 2.616000000000000E10   -8.637851476669312E-2  -4.410503804683685E-2  
 2.618000000000000E10   -6.603875011205673E-2   1.843921467661858E-2  
 2.620000000000000E10    4.239130765199661E-3   1.066966634243727E-2  
 2.622000000000000E10    1.277025323361158E-2  -6.492440402507782E-2  
 2.624000000000000E10   -5.568772181868553E-2  -9.441865980625153E-2  
 2.626000000000000E10   -1.011287569999695E-1  -3.936731070280075E-2  
 2.628000000000000E10   -6.224527209997177E-2   1.403655577450991E-2  
 2.630000000000000E10   -5.041896365582943E-3  -1.100113522261381E-2  
 2.632000000000000E10   -1.374680362641811E-2  -6.406112015247345E-2  
 2.634000000000000E10   -5.622898042201996E-2  -6.732770800590515E-2  
 2.636000000000000E10   -6.305105984210968E-2  -3.720898553729057E-2  
 2.638000000000000E10   -3.937453404068947E-2  -3.267436102032661E-2  
 2.640000000000000E10   -3.630726784467697E-2  -5.364753305912018E-2  
 2.642000000000000E10   -5.551918223500252E-2  -5.637133494019508E-2  
 2.644000000000000E10   -5.628811195492744E-2  -3.547340258955956E-2  
 2.646000000000000E10   -2.908394299447537E-2  -3.163356706500053E-2  
 2.648000000000000E10   -1.550375297665596E-2  -6.285086274147034E-2  
 2.650000000000000E10   -4.383305832743645E-2  -8.832275867462158E-2  
 2.652000000000000E10   -7.866904139518738E-2  -6.690952926874161E-2  
 2.654000000000000E10   -6.102420389652252E-2  -2.291969023644924E-2  
 2.656000000000000E10   -6.457309704273939E-3  -2.967147715389729E-2  
 2.658000000000000E10    1.342084375210106E-3  -9.359686821699143E-2  
 2.660000000000000E10   -6.220330670475960E-2  -1.192184612154961E-1  
 2.662000000000000E10   -1.041754111647606E-1  -5.625339224934578E-2  
 2.664000000000000E10   -4.538655653595924E-2   1.578633324243128E-3  
 2.666000000000000E10    3.216860815882683E-2  -4.527465999126434E-2  
 2.668000000000000E10    6.752463057637215E-3  -1.339740306138992E-1  
 2.670000000000000E10   -8.453700691461563E-2  -1.349085122346878E-1  
 2.672000000000000E10   -1.068710386753082E-1  -4.863177984952927E-2  
 2.674000000000000E10   -2.953782118856907E-2  -4.302757792174816E-3  
 2.676000000000000E10    3.412370011210442E-2  -6.340132653713226E-2  
 2.678000000000000E10    2.232041297247633E-4  -1.379579752683640E-1  
 2.680000000000000E10   -7.292008399963379E-2  -1.294740587472916E-1  
 2.682000000000000E10   -8.431387692689896E-2  -6.229922175407410E-2  
 2.684000000000000E10   -2.685709297657013E-2  -3.207867592573166E-2  
 2.686000000000000E10    1.878013275563717E-2  -7.548794150352478E-2  
 2.688000000000000E10   -4.268662072718144E-3  -1.267676502466202E-1  
 2.690000000000000E10   -5.182493105530739E-2  -1.185091361403465E-1  
 2.692000000000000E10   -5.132020264863968E-2  -7.750946283340454E-2  
 2.694000000000000E10   -1.260342728346586E-2  -7.628764957189560E-2  
 2.696000000000000E10   -9.604017250239849E-3  -1.132564917206764E-1  
 2.698000000000000E10   -4.948173463344574E-2  -1.183425933122635E-1  
 2.700000000000000E10   -5.891079455614090E-2  -7.494560629129410E-2  
 2.702000000000000E10   -1.351834088563919E-2  -5.546478182077408E-2  
 2.704000000000000E10    1.414448488503695E-2  -9.580697864294052E-2  
 2.706000000000000E10   -1.951380074024200E-2  -1.264618486166000E-1  
 2.708000000000000E10   -5.024309828877449E-2  -9.607172012329102E-2  
 2.710000000000000E10   -1.986911892890930E-2  -6.195147335529327E-2  
 2.712000000000000E10    1.810851320624352E-2  -8.595300465822220E-2  
 2.714000000000000E10   -4.004003712907434E-4  -1.278103440999985E-1  
 2.716000000000000E10   -4.493945837020874E-2  -1.144994720816612E-1  
 2.718000000000000E10   -3.958009555935860E-2  -6.004960089921951E-2  
 2.720000000000000E10    1.952637359499931E-2  -4.816670343279839E-2  
 2.722000000000000E10    5.539523065090179E-2  -1.005702316761017E-1  
 2.724000000000000E10    1.873964816331863E-2  -1.524002552032471E-1  
 2.726000000000000E10   -4.016213119029999E-2  -1.360363662242889E-1  
 2.728000000000000E10   -4.202884063124657E-2  -7.643297314643860E-2  
 2.730000000000000E10    1.413986738771200E-2  -5.551690608263016E-2  
 2.732000000000000E10    4.911234974861145E-2  -1.037781685590744E-1  
 2.734000000000000E10    1.061268057674170E-2  -1.470666080713272E-1  
 2.736000000000000E10   -3.896354138851166E-2  -1.167026981711388E-1  
 2.738000000000000E10   -1.944381184875965E-2  -6.211604177951813E-2  
 2.740000000000000E10    3.537403792142868E-2  -6.575459241867065E-2  
 2.742000000000000E10    4.265459999442101E-2  -1.139045655727387E-1  
 2.744000000000000E10    5.559346638619900E-3  -1.252875030040741E-1  
 2.746000000000000E10   -4.539219196885824E-3  -9.418773651123047E-2  
 2.748000000000000E10    2.246808819472790E-2  -8.670747280120850E-2  
 2.750000000000000E10    2.866147458553314E-2  -1.138919740915299E-1  
 2.752000000000000E10   -1.560279284603894E-3  -1.193441450595856E-1  
 2.754000000000000E10   -1.209838408976793E-2  -8.771891146898270E-2  
 2.756000000000000E10    1.825108192861080E-2  -7.151669263839722E-2  
