#  HZ   S   RI   R     50.00 
! Rohde & Schwarz ZVA40 4Ports - Version 3.90 - 1145.1110k42 SN: 100403
! Date: 2023-10-04 07:42:17
! Measurement: S22 
! 
 2.200000000000000E10    9.794141165912151E-3  -8.271365426480770E-3  
 2.202000000000000E10   -7.372909784317017E-2  -3.411141037940979E-2  
 2.204000000000000E10   -1.093364879488945E-1   7.645095139741898E-2  
 2.206000000000000E10    1.807144843041897E-2   1.093660667538643E-1  
 2.208000000000000E10    4.699098691344261E-2  -1.611790992319584E-2  
 2.210000000000000E10   -5.444442108273506E-2  -4.109785705804825E-2  
 2.212000000000000E10   -7.431325316429138E-2   2.520970255136490E-2  
 2.214000000000000E10   -4.397604614496231E-2   4.278645291924477E-2  
 2.216000000000000E10   -2.127410285174847E-2   4.344168677926064E-2  
 2.218000000000000E10    3.146120114251971E-3   7.555068004876375E-3  
 2.220000000000000E10   -4.964384064078331E-2  -2.565296553075314E-2  
 2.222000000000000E10   -6.995920091867447E-2   4.877777770161629E-2  
 2.224000000000000E10    2.100754529237747E-2   4.559455811977387E-2  
 2.226000000000000E10    7.996799540705979E-4  -5.211922898888588E-2  
 2.228000000000000E10   -8.728151768445969E-2  -3.194276243448257E-2  
 2.230000000000000E10   -7.988199591636658E-2   3.871496766805649E-2  
 2.232000000000000E10   -3.233782574534416E-2   5.312228202819824E-2  
 2.234000000000000E10    1.504049357026815E-2   2.856213040649891E-2  
 2.236000000000000E10    1.089532952755690E-2  -5.530975386500359E-2  
 2.238000000000000E10   -1.053051128983498E-1  -6.330978125333786E-2  
 2.240000000000000E10   -1.198117211461067E-1   7.470390200614929E-2  
 2.242000000000000E10    2.227637544274330E-2   9.428253024816513E-2  
 2.244000000000000E10    5.283273011445999E-2  -2.935737371444702E-2  
 2.246000000000000E10   -3.813573718070984E-2  -7.360707968473434E-2  
 2.248000000000000E10   -9.592849016189575E-2  -2.185964211821556E-2  
 2.250000000000000E10   -8.454513549804688E-2   5.637278035283089E-2  
 2.252000000000000E10    1.711882837116718E-2   8.305605500936508E-2  
 2.254000000000000E10    7.338785380125046E-2  -3.841694444417954E-2  
 2.256000000000000E10   -5.853045359253883E-2  -1.022793799638748E-1  
 2.258000000000000E10   -1.132526323199272E-1   2.369641140103340E-2  
 2.260000000000000E10   -9.192306548357010E-3   7.528585195541382E-2  
 2.262000000000000E10    4.748718068003655E-2   8.746388368308544E-3  
 2.264000000000000E10    2.788942307233810E-2  -5.258948355913162E-2  
 2.266000000000000E10   -3.326979279518127E-2  -7.348843663930893E-2  
 2.268000000000000E10   -8.043108880519867E-2  -1.109434757381678E-2  
 2.270000000000000E10   -9.870645590126514E-3   4.989347606897354E-2  
 2.272000000000000E10    5.352895706892014E-2  -3.088677302002907E-2  
 2.274000000000000E10   -3.433381021022797E-2  -8.135454356670380E-2  
 2.276000000000000E10   -6.699670851230621E-2   5.869660526514053E-3  
 2.278000000000000E10    1.102366950362921E-2   3.429640084505081E-2  
 2.280000000000000E10    5.198189616203308E-2  -2.193804271519184E-2  
 2.282000000000000E10    3.332186490297318E-2  -7.675997912883759E-2  
 2.284000000000000E10   -4.868163168430328E-2  -9.666061401367188E-2  
 2.286000000000000E10   -9.352616965770721E-2   3.167406655848026E-3  
 2.288000000000000E10    2.336325682699680E-2   6.815318018198013E-2  
 2.290000000000000E10    9.725790470838547E-2  -5.368991196155548E-2  
 2.292000000000000E10   -8.494564332067967E-3  -1.269770562648773E-1  
 2.294000000000000E10   -8.284728229045868E-2  -4.881145432591438E-2  
 2.296000000000000E10   -4.267998784780502E-2   3.225395828485489E-2  
 2.298000000000000E10    4.781570658087730E-2   3.434782475233078E-2  
 2.300000000000000E10    9.261590987443924E-2  -5.672530829906464E-2  
 2.302000000000000E10    3.016527742147446E-3  -1.363016366958618E-1  
 2.304000000000000E10   -9.891726821660996E-2  -4.376616328954697E-2  
 2.306000000000000E10   -9.271973744034767E-3   7.010472565889359E-2  
 2.308000000000000E10    1.041365116834641E-1  -4.402906342875212E-4  
 2.310000000000000E10    6.893733888864517E-2  -9.872483462095261E-2  
 2.312000000000000E10   -1.160079333931208E-2  -1.012661904096603E-1  
 2.314000000000000E10   -4.968572780489922E-2  -3.145791590213776E-2  
 2.316000000000000E10    1.263231318444014E-2   4.582589119672775E-2  
 2.318000000000000E10    1.228780001401901E-1  -5.027020815759897E-3  
 2.320000000000000E10    8.832160383462906E-2  -1.279170662164688E-1  
 2.322000000000000E10   -2.562386728823185E-2  -1.004406660795212E-1  
 2.324000000000000E10   -9.919081639964134E-5  -9.281493723392487E-3  
 2.326000000000000E10    6.985439360141754E-2  -2.358414605259895E-2  
 2.328000000000000E10    7.416921108961105E-2  -7.711358368396759E-2  
 2.330000000000000E10    3.161382302641869E-2  -1.014715582132340E-1  
 2.332000000000000E10   -1.130076125264168E-2  -5.953257158398628E-2  
 2.334000000000000E10    3.382823243737221E-2   5.471389740705490E-3  
 2.336000000000000E10    1.220175921916962E-1  -4.265271127223969E-2  
 2.338000000000000E10    7.388658821582794E-2  -1.442939788103104E-1  
 2.340000000000000E10   -2.641128562390804E-2  -1.009541749954224E-1  
 2.342000000000000E10    1.660901238210499E-3  -8.735297247767448E-3  
 2.344000000000000E10    8.150663226842880E-2  -8.337231352925301E-3  
 2.346000000000000E10    1.172219961881638E-1  -7.435511797666550E-2  
 2.348000000000000E10    6.186757609248161E-2  -1.420513093471527E-1  
 2.350000000000000E10   -3.077066689729691E-2  -9.302116185426712E-2  
 2.352000000000000E10    1.027300301939249E-2   1.935741864144802E-2  
 2.354000000000000E10    1.347789466381073E-1  -9.543082676827908E-3  
 2.356000000000000E10    1.200477629899979E-1  -1.303178966045380E-1  
 2.358000000000000E10    1.305013336241245E-2  -1.344833821058273E-1  
 2.360000000000000E10   -1.578013412654400E-2  -4.534051194787026E-2  
 2.362000000000000E10    4.783575236797333E-2   1.740923523902893E-2  
 2.364000000000000E10    1.393957287073135E-1  -1.674374006688595E-2  
 2.366000000000000E10    1.354148536920548E-1  -1.243612170219421E-1  
 2.368000000000000E10    2.241088449954987E-2  -1.378395259380341E-1  
 2.370000000000000E10   -4.623167624231428E-4  -2.807386778295040E-2  
 2.372000000000000E10    9.718440473079681E-2   2.198665868490934E-3  
 2.374000000000000E10    1.317111998796463E-1  -6.909259408712387E-2  
 2.376000000000000E10    9.254245460033417E-2  -1.061947196722031E-1  
 2.378000000000000E10    5.169760435819626E-2  -9.015884995460510E-2  
 2.380000000000000E10    5.616810172796249E-2  -4.650601372122765E-2  
 2.382000000000000E10    1.030249968171120E-1  -4.743710160255432E-2  
 2.384000000000000E10    9.602654725313187E-2  -9.806846082210541E-2  
 2.386000000000000E10    3.707342594861984E-2  -8.070407807826996E-2  
 2.388000000000000E10    6.095252558588982E-2  -7.594187743961811E-3  
 2.390000000000000E10    1.428014039993286E-1  -2.597953937947750E-2  
 2.392000000000000E10    1.384873092174530E-1  -1.062641367316246E-1  
 2.394000000000000E10    7.126675546169281E-2  -1.191902384161949E-1  
 2.396000000000000E10    3.778269141912460E-2  -6.475976854562759E-2  
 2.398000000000000E10    8.040913939476013E-2  -1.181162893772125E-2  
 2.400000000000000E10    1.520437598228455E-1  -4.783534631133080E-2  
 2.402000000000000E10    1.183523833751679E-1  -1.337747424840927E-1  
 2.404000000000000E10    2.339947223663330E-2  -1.080114319920540E-1  
 2.406000000000000E10    3.400830551981926E-2  -6.846599280834198E-3  
 2.408000000000000E10    1.259219348430634E-1   1.866574864834547E-3  
 2.410000000000000E10    1.578932702541351E-1  -7.635597884654999E-2  
 2.412000000000000E10    9.739181399345398E-2  -1.278028190135956E-1  
 2.414000000000000E10    2.088434249162674E-2  -9.030576050281525E-2  
 2.416000000000000E10    3.561723977327347E-2   4.434508271515369E-3  
 2.418000000000000E10    1.308397352695465E-1   1.214165799319744E-2  
 2.420000000000000E10    1.495033204555512E-1  -7.659567892551422E-2  
 2.422000000000000E10    6.802223622798920E-2  -9.681756049394608E-2  
 2.424000000000000E10    4.531431943178177E-2  -2.029805444180965E-2  
 2.426000000000000E10    1.107667833566666E-1   7.094244938343763E-3  
 2.428000000000000E10    1.427574902772903E-1  -4.245128110051155E-2  
 2.430000000000000E10    1.052518039941788E-1  -8.134140074253082E-2  
 2.432000000000000E10    5.519731715321541E-2  -4.889716953039169E-2  
 2.434000000000000E10    8.474883437156677E-2   1.245610695332289E-2  
 2.436000000000000E10    1.535830795764923E-1  -1.510121114552021E-2  
 2.438000000000000E10    1.241052299737930E-1  -8.967623114585877E-2  
 2.440000000000000E10    3.809667751193047E-2  -6.173374131321907E-2  
 2.442000000000000E10    5.445541813969612E-2   3.436640277504921E-2  
 2.444000000000000E10    1.524072736501694E-1   4.344466701149941E-2  
 2.446000000000000E10    1.888308078050613E-1  -4.652836546301842E-2  
 2.448000000000000E10    1.135741844773293E-1  -1.089297607541084E-1  
 2.450000000000000E10    2.497924119234085E-2  -5.070704966783524E-2  
 2.452000000000000E10    6.575641036033630E-2   6.039791181683540E-2  
 2.454000000000000E10    1.911810338497162E-1   4.061170667409897E-2  
 2.456000000000000E10    1.946376860141754E-1  -9.456720948219299E-2  
 2.458000000000000E10    5.767761915922165E-2  -1.255542188882828E-1  
 2.460000000000000E10   -4.307567607611418E-3   1.683208509348333E-3  
 2.462000000000000E10    1.003542169928551E-1   9.475973993539810E-2  
 2.464000000000000E10    2.180212438106537E-1   1.898265257477760E-2  
 2.466000000000000E10    1.777967959642410E-1  -1.192319393157959E-1  
 2.468000000000000E10    2.623143978416920E-2  -1.137155741453171E-1  
 2.470000000000000E10    6.991952541284263E-4   3.612571209669113E-2  
 2.472000000000000E10    1.372610479593277E-1   8.204419910907745E-2  
 2.474000000000000E10    1.975344419479370E-1  -3.560312464833260E-2  
 2.476000000000000E10    9.608662128448486E-2  -1.134496778249741E-1  
 2.478000000000000E10    4.892708733677864E-3  -3.430324420332909E-2  
 2.480000000000000E10    5.439030379056931E-2   6.362619996070862E-2  
 2.482000000000000E10    1.513368487358093E-1   3.961969912052155E-2  
 2.484000000000000E10    1.469868421554565E-1  -6.114622205495834E-2  
 2.486000000000000E10    3.363289684057236E-2  -7.314623892307282E-2  
 2.488000000000000E10    3.688536584377289E-3   4.946939274668694E-2  
 2.490000000000000E10    1.228693425655365E-1   9.887433052062988E-2  
 2.492000000000000E10    1.947285681962967E-1  -8.403509855270386E-3  
 2.494000000000000E10    1.027490273118019E-1  -1.054573357105255E-1  
 2.496000000000000E10   -1.827590167522430E-2  -3.618510812520981E-2  
 2.498000000000000E10    1.952576823532581E-2   1.002686396241188E-1  
 2.500000000000000E10    1.636563390493393E-1   1.012512370944023E-1  
 2.502000000000000E10    2.012385725975037E-1  -4.842623323202133E-2  
 2.504000000000000E10    5.400244146585465E-2  -1.168766170740128E-1  
 2.506000000000000E10   -3.700451925396919E-2   1.449897885322571E-2  
 2.508000000000000E10    6.927812844514847E-2   1.233893856406212E-1  
 2.510000000000000E10    1.971140354871750E-1   4.389207810163498E-2  
 2.512000000000000E10    1.475902050733566E-1  -1.038984879851341E-1  
 2.514000000000000E10   -9.353584609925747E-3  -9.725835919380188E-2  
 2.516000000000000E10   -5.183576047420502E-2   5.522330105304718E-2  
 2.518000000000000E10    8.481466025114059E-2   1.398750543594360E-1  
 2.520000000000000E10    2.033396363258362E-1   2.129655890166760E-2  
 2.522000000000000E10    1.107095628976822E-1  -1.216526925563812E-1  
 2.524000000000000E10   -4.160134121775627E-2  -6.644617021083832E-2  
 2.526000000000000E10   -3.029033169150353E-2   7.614875584840775E-2  
 2.528000000000000E10    9.514967352151871E-2   1.021218225359917E-1  
 2.530000000000000E10    1.488001644611359E-1  -6.935076788067818E-3  
 2.532000000000000E10    5.604472011327744E-2  -8.552702516317368E-2  
 2.534000000000000E10   -3.989924862980843E-2  -1.202059909701347E-2  
 2.536000000000000E10    1.973733678460121E-2   9.332103282213211E-2  
 2.538000000000000E10    1.311550438404083E-1   4.089024290442467E-2  
 2.540000000000000E10    8.949821442365646E-2  -7.945051789283752E-2  
 2.542000000000000E10   -3.562942147254944E-2  -6.195197999477387E-2  
 2.544000000000000E10   -4.635050520300865E-2   5.441930890083313E-2  
 2.546000000000000E10    5.186577141284943E-2   9.037968516349793E-2  
 2.548000000000000E10    1.092124953866005E-1  -1.070829148375196E-5  
 2.550000000000000E10    2.326441928744316E-2  -7.377482205629349E-2  
 2.552000000000000E10   -6.595277786254883E-2   3.432780504226685E-3  
 2.554000000000000E10   -3.792704315856099E-3   1.027482450008392E-1  
 2.556000000000000E10    1.064346507191658E-1   5.849014967679977E-2  
 2.558000000000000E10    8.593197166919708E-2  -5.761218443512917E-2  
 2.560000000000000E10   -2.539688162505627E-2  -6.814156472682953E-2  
 2.562000000000000E10   -6.661067157983780E-2   2.473229542374611E-2  
 2.564000000000000E10    7.317309267818928E-3   9.158545732498169E-2  
 2.566000000000000E10    9.697169810533524E-2   3.331032767891884E-2  
 2.568000000000000E10    5.290484055876732E-2  -7.957126200199127E-2  
 2.570000000000000E10   -6.813370436429977E-2  -5.494515970349312E-2  
 2.572000000000000E10   -7.063293457031250E-2   6.213446706533432E-2  
 2.574000000000000E10    3.586802259087563E-2   9.055721014738083E-2  
 2.576000000000000E10    9.435437619686127E-2   7.376788998953998E-4  
 2.578000000000000E10    3.229301795363426E-2  -8.326813578605652E-2  
 2.580000000000000E10   -6.436529010534287E-2  -5.744264274835587E-2  
 2.582000000000000E10   -6.404063105583191E-2   3.589897230267525E-2  
 2.584000000000000E10    2.123026363551617E-2   4.562440142035484E-2  
 2.586000000000000E10    3.172795847058296E-2  -3.263373672962189E-2  
 2.588000000000000E10   -3.457378968596458E-2  -4.560285806655884E-2  
 2.590000000000000E10   -4.787607863545418E-2   4.537589848041534E-3  
 2.592000000000000E10   -8.866149932146072E-3   1.817061007022858E-2  
 2.594000000000000E10    7.951368577778339E-3  -1.501030288636684E-2  
 2.596000000000000E10   -1.661396957933903E-2  -4.317881539463997E-2  
 2.598000000000000E10   -5.434499680995941E-2  -2.921634539961815E-2  
 2.600000000000000E10   -4.463008791208267E-2   1.252731028944254E-2  
 2.602000000000000E10   -2.555771265178919E-3  -6.879989523440599E-4  
 2.604000000000000E10   -1.632902771234512E-2  -4.297633841633797E-2  
 2.606000000000000E10   -5.671849474310875E-2  -3.282517567276955E-2  
 2.608000000000000E10   -5.249946564435959E-2   3.577353898435831E-3  
 2.610000000000000E10   -1.643287017941475E-2   8.741687051951885E-3  
 2.612000000000000E10    6.219041533768177E-3  -2.846207283437252E-2  
 2.614000000000000E10   -2.738185226917267E-2  -7.240354269742966E-2  
 2.616000000000000E10   -8.888736367225647E-2  -4.646777361631393E-2  
 2.618000000000000E10   -6.619147211313248E-2   2.562854252755642E-2  
 2.620000000000000E10    1.342800352722406E-2   8.338417857885361E-3  
 2.622000000000000E10    7.297513075172901E-3  -7.292890548706055E-2  
 2.624000000000000E10   -6.148765236139298E-2  -8.886282145977020E-2  
 2.626000000000000E10   -9.687045216560364E-2  -3.751914203166962E-2  
 2.628000000000000E10   -6.450586020946503E-2   1.255291700363159E-2  
 2.630000000000000E10   -2.396054333075881E-3  -5.378890316933394E-3  
 2.632000000000000E10   -8.146895095705986E-3  -7.029490917921066E-2  
 2.634000000000000E10   -6.511670351028442E-2  -7.161895930767059E-2  
 2.636000000000000E10   -6.578873097896576E-2  -2.845662273466587E-2  
 2.638000000000000E10   -3.330452740192413E-2  -3.228085488080978E-2  
 2.640000000000000E10   -3.796617314219475E-2  -5.565525591373444E-2  
 2.642000000000000E10   -5.269108712673187E-2  -5.384549126029015E-2  
 2.644000000000000E10   -5.513656139373779E-2  -4.242261871695519E-2  
 2.646000000000000E10   -3.926301002502441E-2  -3.121966309845448E-2  
 2.648000000000000E10   -1.274272706359625E-2  -5.258648842573166E-2  
 2.650000000000000E10   -3.676068782806397E-2  -9.294081479310989E-2  
 2.652000000000000E10   -8.356415480375290E-2  -6.917004287242889E-2  
 2.654000000000000E10   -5.924012139439583E-2  -2.035396732389927E-2  
 2.656000000000000E10   -7.582564838230610E-3  -3.433969989418984E-2  
 2.658000000000000E10   -5.382007919251919E-3  -8.845179527997971E-2  
 2.660000000000000E10   -5.451379343867302E-2  -1.134285703301430E-1  
 2.662000000000000E10   -1.006582081317902E-1  -6.474509090185165E-2  
 2.664000000000000E10   -5.162166804075241E-2   1.324193784967065E-3  
 2.666000000000000E10    3.411157801747322E-2  -4.296932741999626E-2  
 2.668000000000000E10    4.046789836138487E-3  -1.378061324357987E-1  
 2.670000000000000E10   -8.823451399803162E-2  -1.282343715429306E-1  
 2.672000000000000E10   -9.795226901769638E-2  -4.623985663056374E-2  
 2.674000000000000E10   -3.065351583063602E-2  -1.360856555402279E-2  
 2.676000000000000E10    2.702797949314117E-2  -6.019435077905655E-2  
 2.678000000000000E10    4.230732563883066E-3  -1.350119113922119E-1  
 2.680000000000000E10   -7.626647502183914E-2  -1.329525262117386E-1  
 2.682000000000000E10   -8.510387688875198E-2  -5.502400174736977E-2  
 2.684000000000000E10   -1.836895383894444E-2  -3.406860679388046E-2  
 2.686000000000000E10    1.330012455582619E-2  -8.427092432975769E-2  
 2.688000000000000E10   -1.021819002926350E-2  -1.206645220518112E-1  
 2.690000000000000E10   -4.762638360261917E-2  -1.166707575321198E-1  
 2.692000000000000E10   -5.406606942415237E-2  -7.922419905662537E-2  
 2.694000000000000E10   -1.080841384828091E-2  -7.051243633031845E-2  
 2.696000000000000E10   -3.059914102777839E-3  -1.198474243283272E-1  
 2.698000000000000E10   -5.878271535038948E-2  -1.239185184240341E-1  
 2.700000000000000E10   -6.225099042057991E-2  -6.460265815258026E-2  
 2.702000000000000E10   -6.049053743481636E-3  -5.622695386409760E-2  
 2.704000000000000E10    1.147850975394249E-2  -9.907412528991699E-2  
 2.706000000000000E10   -1.738001592457295E-2  -1.231808364391327E-1  
 2.708000000000000E10   -4.864371940493584E-2  -1.044997274875641E-1  
 2.710000000000000E10   -3.153294324874878E-2  -6.090024486184120E-2  
 2.712000000000000E10    2.181866951286793E-2  -7.477883249521256E-2  
 2.714000000000000E10    8.144516497850418E-3  -1.333763450384140E-1  
 2.716000000000000E10   -5.027927085757256E-2  -1.183969452977181E-1  
 2.718000000000000E10   -3.840855136513710E-2  -5.743819475173950E-2  
 2.720000000000000E10    1.882603019475937E-2  -5.394569411873817E-2  
 2.722000000000000E10    4.800752922892571E-2  -9.573678672313690E-2  
 2.724000000000000E10    2.709775045514107E-2  -1.456615030765533E-1  
 2.726000000000000E10   -3.457489237189293E-2  -1.460814327001572E-1  
 2.728000000000000E10   -5.112343281507492E-2  -7.907831668853760E-2  
 2.730000000000000E10    1.481856871396303E-2  -5.041529610753059E-2  
 2.732000000000000E10    4.939858987927437E-2  -1.077086031436920E-1  
 2.734000000000000E10    5.616619717329741E-3  -1.409738361835480E-1  
 2.736000000000000E10   -2.880318462848663E-2  -1.132784485816956E-1  
 2.738000000000000E10   -1.879869401454926E-2  -7.445883005857468E-2  
 2.740000000000000E10    2.523395977914333E-2  -6.349295377731323E-2  
 2.742000000000000E10    4.769087955355644E-2  -1.092543974518776E-1  
 2.744000000000000E10    4.865070339292288E-3  -1.300042271614075E-1  
 2.746000000000000E10   -6.620759610086680E-3  -8.851524442434311E-2  
 2.748000000000000E10    3.239436447620392E-2  -8.876023441553116E-2  
 2.750000000000000E10    2.322541549801827E-2  -1.247170716524124E-1  
 2.752000000000000E10   -1.015722099691629E-2  -1.124105900526047E-1  
 2.754000000000000E10   -4.815038759261370E-3  -8.210565894842148E-2  
 2.756000000000000E10    1.962641254067421E-2  -7.588922977447510E-2  
