#  HZ   S   RI   R     50.00 
! Rohde & Schwarz ZVA40 4Ports - Version 3.90 - 1145.1110k42 SN: 100403
! Date: 2023-10-04 10:02:59
! Measurement: S22 
! 
 2.200000000000000E10   -7.744421716779470E-3  -3.469681367278099E-2  
 2.202000000000000E10   -9.037315100431442E-2  -5.389395635575056E-3  
 2.204000000000000E10   -7.684534788131714E-2   8.268131315708160E-2  
 2.206000000000000E10    1.442049257457256E-2   8.241675794124603E-2  
 2.208000000000000E10    3.473722189664841E-2  -6.713573820888996E-3  
 2.210000000000000E10   -4.306910932064056E-2  -4.398399963974953E-2  
 2.212000000000000E10   -9.012037515640259E-2   1.505202241241932E-2  
 2.214000000000000E10   -4.710949957370758E-2   6.552954763174057E-2  
 2.216000000000000E10    2.876653335988522E-3   3.522186726331711E-2  
 2.218000000000000E10   -1.705370098352432E-2  -1.132258307188749E-2  
 2.220000000000000E10   -5.829219892621040E-2   1.893166452646256E-3  
 2.222000000000000E10   -4.144873097538948E-2   4.331553727388382E-2  
 2.224000000000000E10    5.062997806817293E-3   2.505524456501007E-2  
 2.226000000000000E10   -6.002934183925390E-3  -3.546605259180069E-2  
 2.228000000000000E10   -7.484799623489380E-2  -3.909501060843468E-2  
 2.230000000000000E10   -9.564819931983948E-2   3.347864001989365E-2  
 2.232000000000000E10   -2.437798492610455E-2   7.282549887895584E-2  
 2.234000000000000E10    3.421967849135399E-2   6.578976754099131E-3  
 2.236000000000000E10   -1.986726373434067E-2  -6.953954696655273E-2  
 2.238000000000000E10   -1.108324676752091E-1  -3.151989355683327E-2  
 2.240000000000000E10   -9.357982873916626E-2   7.072641700506210E-2  
 2.242000000000000E10    1.469341292977333E-2   8.097239583730698E-2  
 2.244000000000000E10    5.468691885471344E-2  -2.310200966894627E-2  
 2.246000000000000E10   -3.494236618280411E-2  -8.886098116636276E-2  
 2.248000000000000E10   -1.205236613750458E-1  -1.720196567475796E-2  
 2.250000000000000E10   -6.876705586910248E-2   8.320517838001251E-2  
 2.252000000000000E10    4.123388230800629E-2   5.873702839016914E-2  
 2.254000000000000E10    4.383671283721924E-2  -5.260855704545975E-2  
 2.256000000000000E10   -5.855168774724007E-2  -7.761145383119583E-2  
 2.258000000000000E10   -1.001211702823639E-1   1.636782661080360E-2  
 2.260000000000000E10   -1.777006685733795E-2   7.653075456619263E-2  
 2.262000000000000E10    6.261629611253738E-2   1.273165550082922E-2  
 2.264000000000000E10    2.797346748411655E-2  -7.721219956874847E-2  
 2.266000000000000E10   -6.048401817679405E-2  -6.707452237606049E-2  
 2.268000000000000E10   -6.637212634086609E-2   1.095378492027521E-2  
 2.270000000000000E10    4.654127173125744E-3   2.798781357705593E-2  
 2.272000000000000E10    2.910395339131355E-2  -3.518331050872803E-2  
 2.274000000000000E10   -2.925606258213520E-2  -6.402178853750229E-2  
 2.276000000000000E10   -6.131445616483688E-2  -5.138417705893517E-3  
 2.278000000000000E10    2.794879954308271E-3   4.044140502810478E-2  
 2.280000000000000E10    6.877204775810242E-2  -2.007767558097839E-2  
 2.282000000000000E10    2.657892741262913E-2  -1.031821742653847E-1  
 2.284000000000000E10   -7.490918785333633E-2  -7.968443632125855E-2  
 2.286000000000000E10   -6.940905004739761E-2   2.334865555167198E-2  
 2.288000000000000E10    3.575320169329643E-2   4.234978556632996E-2  
 2.290000000000000E10    8.036354184150696E-2  -5.743507295846939E-2  
 2.292000000000000E10   -5.274999421089888E-3  -1.242320761084557E-1  
 2.294000000000000E10   -9.212747961282730E-2  -5.423746630549431E-2  
 2.296000000000000E10   -4.317414388060570E-2   4.938100278377533E-2  
 2.298000000000000E10    7.259533554315567E-2   2.955307066440582E-2  
 2.300000000000000E10    8.240861445665360E-2  -8.582377433776856E-2  
 2.302000000000000E10   -2.404413186013699E-2  -1.222233325242996E-1  
 2.304000000000000E10   -8.256227523088455E-2  -2.498905546963215E-2  
 2.306000000000000E10   -1.521840807981789E-3   5.647628009319305E-2  
 2.308000000000000E10    9.998073428869247E-2   2.258361782878637E-3  
 2.310000000000000E10    7.745289802551270E-2  -1.066921725869179E-1  
 2.312000000000000E10   -2.860583737492561E-2  -1.104920059442520E-1  
 2.314000000000000E10   -5.467481538653374E-2  -7.089179940521717E-3  
 2.316000000000000E10    4.080650582909584E-2   4.361526668071747E-2  
 2.318000000000000E10    1.170502528548241E-1  -3.190537914633751E-2  
 2.320000000000000E10    6.977567076683044E-2  -1.207129806280136E-1  
 2.322000000000000E10   -1.688225567340851E-2  -9.540979564189911E-2  
 2.324000000000000E10   -5.429473705589771E-3  -1.462610904127359E-2  
 2.326000000000000E10    7.341307401657105E-2  -1.483323890715838E-2  
 2.328000000000000E10    8.302118629217148E-2  -8.959829807281494E-2  
 2.330000000000000E10    1.228254940360785E-2  -1.071181595325470E-1  
 2.332000000000000E10   -1.072749029844999E-2  -3.813113272190094E-2  
 2.334000000000000E10    5.815989524126053E-2  -1.302357646636665E-3  
 2.336000000000000E10    1.125480234622955E-1  -6.424607336521149E-2  
 2.338000000000000E10    6.273312121629715E-2  -1.347878277301788E-1  
 2.340000000000000E10   -1.901543885469437E-2  -1.001628190279007E-1  
 2.342000000000000E10   -3.080802271142602E-3  -8.817572146654129E-3  
 2.344000000000000E10    9.425353258848190E-2  -2.451214939355850E-3  
 2.346000000000000E10    1.254824995994568E-1  -9.575116634368897E-2  
 2.348000000000000E10    3.811459243297577E-2  -1.470766663551331E-1  
 2.350000000000000E10   -2.930981665849686E-2  -7.159407436847687E-2  
 2.352000000000000E10    3.148458898067474E-2   1.439567469060421E-2  
 2.354000000000000E10    1.316430121660233E-1  -2.496710792183876E-2  
 2.356000000000000E10    1.152102872729302E-1  -1.305994093418121E-1  
 2.358000000000000E10    9.374130517244339E-3  -1.382069587707520E-1  
 2.360000000000000E10   -2.394075877964497E-2  -3.433131426572800E-2  
 2.362000000000000E10    6.698609143495560E-2   2.814454399049282E-2  
 2.364000000000000E10    1.532552838325501E-1  -3.811904415488243E-2  
 2.366000000000000E10    1.153446659445763E-1  -1.336151510477066E-1  
 2.368000000000000E10    2.038613148033619E-2  -1.204809769988060E-1  
 2.370000000000000E10    1.348581071943045E-2  -2.850068919360638E-2  
 2.372000000000000E10    9.849359840154648E-2  -1.088129472918809E-3  
 2.374000000000000E10    1.413412094116211E-1  -7.159779220819473E-2  
 2.376000000000000E10    8.862489461898804E-2  -1.198745593428612E-1  
 2.378000000000000E10    4.088345542550087E-2  -8.317594975233078E-2  
 2.380000000000000E10    6.814682483673096E-2  -3.814661875367165E-2  
 2.382000000000000E10    1.074842661619186E-1  -6.016650050878525E-2  
 2.384000000000000E10    8.405364304780960E-2  -9.643200784921646E-2  
 2.386000000000000E10    4.268917813897133E-2  -6.814763695001602E-2  
 2.388000000000000E10    7.136303186416626E-2  -1.123523619025946E-2  
 2.390000000000000E10    1.428737789392471E-1  -2.876281365752220E-2  
 2.392000000000000E10    1.425253152847290E-1  -1.078720316290855E-1  
 2.394000000000000E10    6.503588706254959E-2  -1.251168251037598E-1  
 2.396000000000000E10    3.228877484798431E-2  -5.220739543437958E-2  
 2.398000000000000E10    9.789083898067474E-2  -7.170533761382103E-3  
 2.400000000000000E10    1.538119614124298E-1  -6.537424027919769E-2  
 2.402000000000000E10    1.041461005806923E-1  -1.302667707204819E-1  
 2.404000000000000E10    2.636061422526836E-2  -9.370816498994827E-2  
 2.406000000000000E10    4.273833334445953E-2  -5.795226898044348E-3  
 2.408000000000000E10    1.338434219360352E-1   1.425897702574730E-3  
 2.410000000000000E10    1.613420397043228E-1  -8.480910956859589E-2  
 2.412000000000000E10    8.520770072937012E-2  -1.345742195844650E-1  
 2.414000000000000E10    1.358768623322249E-2  -7.311125844717026E-2  
 2.416000000000000E10    5.125637724995613E-2   1.431121677160263E-2  
 2.418000000000000E10    1.391742825508118E-1   7.502201478928328E-4  
 2.420000000000000E10    1.411934643983841E-1  -7.899247854948044E-2  
 2.422000000000000E10    6.648793071508408E-2  -8.887222409248352E-2  
 2.424000000000000E10    4.741120710968971E-2  -1.599003374576569E-2  
 2.426000000000000E10    1.159902662038803E-1   1.226797793060541E-2  
 2.428000000000000E10    1.513724923133850E-1  -4.752633720636368E-2  
 2.430000000000000E10    9.636466950178146E-2  -8.592022955417633E-2  
 2.432000000000000E10    5.172690004110336E-2  -3.559419512748718E-2  
 2.434000000000000E10    9.838753193616867E-2   1.493342127650976E-2  
 2.436000000000000E10    1.523185819387436E-1  -2.577086724340916E-2  
 2.438000000000000E10    1.128586754202843E-1  -8.739300072193146E-2  
 2.440000000000000E10    3.793478012084961E-2  -5.135911330580711E-2  
 2.442000000000000E10    6.032440066337585E-2   4.047276079654694E-2  
 2.444000000000000E10    1.600241959095001E-1   4.314928874373436E-2  
 2.446000000000000E10    1.895377635955811E-1  -5.650083348155022E-2  
 2.448000000000000E10    9.847525507211685E-2  -1.113932579755783E-1  
 2.450000000000000E10    2.085258625447750E-2  -3.062567673623562E-2  
 2.452000000000000E10    8.376917988061905E-2   6.748794764280319E-2  
 2.454000000000000E10    1.979764550924301E-1   2.423918992280960E-2  
 2.456000000000000E10    1.815025806427002E-1  -1.025336012244225E-1  
 2.458000000000000E10    4.647031426429749E-2  -1.175795570015907E-1  
 2.460000000000000E10   -5.096111912280321E-3   1.596441119909287E-2  
 2.462000000000000E10    1.161485090851784E-1   9.979356825351715E-2  
 2.464000000000000E10    2.269148379564285E-1   2.049691509455442E-3  
 2.466000000000000E10    1.580950021743774E-1  -1.299774199724197E-1  
 2.468000000000000E10    1.202732324600220E-2  -9.605336189270020E-2  
 2.470000000000000E10    1.336998678743839E-2   5.143319815397263E-2  
 2.472000000000000E10    1.482870280742645E-1   7.535003125667572E-2  
 2.474000000000000E10    1.934435218572617E-1  -4.542347043752670E-2  
 2.476000000000000E10    8.646935224533081E-2  -1.125527098774910E-1  
 2.478000000000000E10   -1.434461446478963E-3  -2.193837054073811E-2  
 2.480000000000000E10    6.532320380210877E-2   7.422814518213272E-2  
 2.482000000000000E10    1.626550257205963E-1   2.841495350003243E-2  
 2.484000000000000E10    1.321919560432434E-1  -7.255389541387558E-2  
 2.486000000000000E10    1.956273242831230E-2  -5.656729638576508E-2  
 2.488000000000000E10    1.428838633000851E-2   6.200440973043442E-2  
 2.490000000000000E10    1.327144503593445E-1   9.342097491025925E-2  
 2.492000000000000E10    1.916118413209915E-1  -1.798068918287754E-2  
 2.494000000000000E10    8.718181401491165E-2  -1.087742447853088E-1  
 2.496000000000000E10   -2.901931852102280E-2  -1.917461119592190E-2  
 2.498000000000000E10    3.340994939208031E-2   1.160419136285782E-1  
 2.500000000000000E10    1.787867695093155E-1   8.853599429130554E-2  
 2.502000000000000E10    1.871498972177506E-1  -6.519158184528351E-2  
 2.504000000000000E10    3.515933081507683E-2  -1.067648008465767E-1  
 2.506000000000000E10   -3.396913781762123E-2   3.135477378964424E-2  
 2.508000000000000E10    8.055813610553742E-2   1.254841685295105E-1  
 2.510000000000000E10    2.033921927213669E-1   3.207119181752205E-2  
 2.512000000000000E10    1.352205276489258E-1  -1.172816082835197E-1  
 2.514000000000000E10   -3.029451705515385E-2  -8.552791923284531E-2  
 2.516000000000000E10   -4.384687915444374E-2   7.682645320892334E-2  
 2.518000000000000E10    1.065496057271957E-1   1.329655498266220E-1  
 2.520000000000000E10    1.985987126827240E-1   6.808870821259916E-4  
 2.522000000000000E10    9.241867810487747E-2  -1.227962449193001E-1  
 2.524000000000000E10   -4.907209798693657E-2  -5.566347017884255E-2  
 2.526000000000000E10   -2.604101784527302E-2   8.748171478509903E-2  
 2.528000000000000E10    1.084006279706955E-1   9.846191108226776E-2  
 2.530000000000000E10    1.460869908332825E-1  -2.504951693117619E-2  
 2.532000000000000E10    3.578289598226547E-2  -8.394744992256165E-2  
 2.534000000000000E10   -3.994702920317650E-2   6.520083639770746E-3  
 2.536000000000000E10    3.539073839783669E-2   9.152349829673767E-2  
 2.538000000000000E10    1.298162192106247E-1   2.759835124015808E-2  
 2.540000000000000E10    7.813547551631928E-2  -8.411551266908646E-2  
 2.542000000000000E10   -4.664992541074753E-2  -5.666375532746315E-2  
 2.544000000000000E10   -4.624785482883453E-2   6.679642945528030E-2  
 2.546000000000000E10    6.759592890739441E-2   8.856919407844544E-2  
 2.548000000000000E10    1.038058921694756E-1  -1.856459118425846E-2  
 2.550000000000000E10    2.739768242463470E-3  -7.057058066129684E-2  
 2.552000000000000E10   -6.462290138006210E-2   1.889978162944317E-2  
 2.554000000000000E10    8.054941892623901E-3   1.025819033384323E-1  
 2.556000000000000E10    1.082615032792091E-1   4.863444715738297E-2  
 2.558000000000000E10    7.933477312326431E-2  -6.603651493787766E-2  
 2.560000000000000E10   -3.845079988241196E-2  -6.743678450584412E-2  
 2.562000000000000E10   -6.922170519828796E-2   3.911710530519486E-2  
 2.564000000000000E10    2.380079403519630E-2   9.352421760559082E-2  
 2.566000000000000E10    9.846950322389603E-2   1.309270504862070E-2  
 2.568000000000000E10    3.541574254631996E-2  -8.140633255243301E-2  
 2.570000000000000E10   -7.188804447650909E-2  -4.366451501846314E-2  
 2.572000000000000E10   -6.486827880144119E-2   6.691092997789383E-2  
 2.574000000000000E10    4.546652361750603E-2   8.973719924688339E-2  
 2.576000000000000E10    9.900935739278793E-2  -1.358886901289225E-2  
 2.578000000000000E10    1.647967286407948E-2  -9.340235590934753E-2  
 2.580000000000000E10   -7.301610708236694E-2  -4.377169907093048E-2  
 2.582000000000000E10   -5.274774879217148E-2   4.211563989520073E-2  
 2.584000000000000E10    2.420521527528763E-2   3.520074859261513E-2  
 2.586000000000000E10    2.649855241179466E-2  -3.456436842679977E-2  
 2.588000000000000E10   -3.533643484115601E-2  -4.444862157106400E-2  
 2.590000000000000E10   -4.975364357233048E-2   5.946806166321039E-3  
 2.592000000000000E10   -3.962332848459482E-3   2.021952159702778E-2  
 2.594000000000000E10    1.355941966176033E-2  -2.389334887266159E-2  
 2.596000000000000E10   -2.642418071627617E-2  -5.001466721296310E-2  
 2.598000000000000E10   -5.738208815455437E-2  -2.149724587798119E-2  
 2.600000000000000E10   -3.643248975276947E-2   9.561886079609394E-3  
 2.602000000000000E10   -6.666674744337797E-3  -7.232343312352896E-3  
 2.604000000000000E10   -1.982593536376953E-2  -4.071578755974770E-2  
 2.606000000000000E10   -5.478853732347488E-2  -3.411791473627091E-2  
 2.608000000000000E10   -5.374819412827492E-2   3.554516471922398E-3  
 2.610000000000000E10   -1.082953810691834E-2   9.196823462843895E-3  
 2.612000000000000E10    7.154202554374933E-3  -4.077706858515739E-2  
 2.614000000000000E10   -4.095057770609856E-2  -7.471755892038345E-2  
 2.616000000000000E10   -8.709131926298142E-2  -3.333670273423195E-2  
 2.618000000000000E10   -5.493401363492012E-2   2.296810969710350E-2  
 2.620000000000000E10    1.398068014532328E-2   1.442449865862727E-5  
 2.622000000000000E10    7.036386523395777E-3  -7.672824710607529E-2  
 2.624000000000000E10   -6.878554075956345E-2  -9.329623728990555E-2  
 2.626000000000000E10   -1.026970669627190E-1  -2.820506505668163E-2  
 2.628000000000000E10   -5.075724795460701E-2   1.811711862683296E-2  
 2.630000000000000E10    1.728423871099949E-3  -1.976232416927815E-2  
 2.632000000000000E10   -1.955271139740944E-2  -7.292217761278153E-2  
 2.634000000000000E10   -6.423763930797577E-2  -6.629247218370438E-2  
 2.636000000000000E10   -6.434390693902969E-2  -3.142086043953896E-2  
 2.638000000000000E10   -3.577360883355141E-2  -3.058617375791073E-2  
 2.640000000000000E10   -3.297071903944016E-2  -5.652005597949028E-2  
 2.642000000000000E10   -5.540910735726357E-2  -5.968029424548149E-2  
 2.644000000000000E10   -5.822892859578133E-2  -3.643080964684486E-2  
 2.646000000000000E10   -2.998895943164825E-2  -3.227186575531960E-2  
 2.648000000000000E10   -1.592103019356728E-2  -6.363149732351303E-2  
 2.650000000000000E10   -4.461253806948662E-2  -8.781724423170090E-2  
 2.652000000000000E10   -7.742382586002350E-2  -6.555549800395966E-2  
 2.654000000000000E10   -5.793844535946846E-2  -2.410068735480309E-2  
 2.656000000000000E10   -4.322437569499016E-3  -3.419103100895882E-2  
 2.658000000000000E10   -2.146219136193395E-3  -9.684014320373535E-2  
 2.660000000000000E10   -6.592869013547897E-2  -1.155631020665169E-1  
 2.662000000000000E10   -9.719292819499970E-2  -4.995183274149895E-2  
 2.664000000000000E10   -3.369437903165817E-2  -2.862680936232209E-3  
 2.666000000000000E10    3.219198063015938E-2  -5.908220261335373E-2  
 2.668000000000000E10   -4.343519452959299E-3  -1.393150836229324E-1  
 2.670000000000000E10   -9.084007143974304E-2  -1.248957440257072E-1  
 2.672000000000000E10   -9.781730175018311E-2  -3.818861022591591E-2  
 2.674000000000000E10   -1.614697277545929E-2  -9.342771023511887E-3  
 2.676000000000000E10    3.487442433834076E-2  -7.704748958349228E-2  
 2.678000000000000E10   -1.011882722377777E-2  -1.408132612705231E-1  
 2.680000000000000E10   -7.806193828582764E-2  -1.198446080088615E-1  
 2.682000000000000E10   -7.621893286705017E-2  -5.417974293231964E-2  
 2.684000000000000E10   -1.478063222020865E-2  -3.536822274327278E-2  
 2.686000000000000E10    1.963208429515362E-2  -8.565184473991394E-2  
 2.688000000000000E10   -1.344280224293470E-2  -1.298241019248962E-1  
 2.690000000000000E10   -5.549858510494232E-2  -1.108460575342178E-1  
 2.692000000000000E10   -4.364429786801338E-2  -7.159820199012756E-2  
 2.694000000000000E10   -5.540448240935803E-3  -8.126544952392578E-2  
 2.696000000000000E10   -1.318688225001097E-2  -1.213946044445038E-1  
 2.698000000000000E10   -5.690351501107216E-2  -1.163558512926102E-1  
 2.700000000000000E10   -5.860791355371475E-2  -6.589174270629883E-2  
 2.702000000000000E10   -4.707461688667536E-3  -5.385081097483635E-2  
 2.704000000000000E10    1.928470470011234E-2  -1.034585759043694E-1  
 2.706000000000000E10   -2.365129068493843E-2  -1.313006728887558E-1  
 2.708000000000000E10   -5.425818264484406E-2  -9.334520995616913E-2  
 2.710000000000000E10   -1.782538555562496E-2  -5.827223509550095E-2  
 2.712000000000000E10    2.178665436804295E-2  -8.687167614698410E-2  
 2.714000000000000E10   -4.918936174362898E-4  -1.289454549551010E-1  
 2.716000000000000E10   -4.544921964406967E-2  -1.122450903058052E-1  
 2.718000000000000E10   -3.548542410135269E-2  -5.770071223378182E-2  
 2.720000000000000E10    2.397986128926277E-2  -4.905007034540176E-2  
 2.722000000000000E10    5.561870709061623E-2  -1.037704646587372E-1  
 2.724000000000000E10    1.726642064750195E-2  -1.531124711036682E-1  
 2.726000000000000E10   -4.075352847576141E-2  -1.330593526363373E-1  
 2.728000000000000E10   -4.053012281656265E-2  -7.362554222345352E-2  
 2.730000000000000E10    1.638429425656796E-2  -5.585261434316635E-2  
 2.732000000000000E10    4.753179848194122E-2  -1.044973284006119E-1  
 2.734000000000000E10    7.139093708246946E-3  -1.427951604127884E-1  
 2.736000000000000E10   -3.601045534014702E-2  -1.100431978702545E-1  
 2.738000000000000E10   -1.186567824333906E-2  -6.179298833012581E-2  
 2.740000000000000E10    3.643332049250603E-2  -7.207272946834564E-2  
 2.742000000000000E10    3.551753237843514E-2  -1.142736673355103E-1  
 2.744000000000000E10    3.417336847633123E-3  -1.171949058771133E-1  
 2.746000000000000E10    2.860870445147157E-3  -9.008242934942246E-2  
 2.748000000000000E10    2.798913605511189E-2  -9.260003268718720E-2  
 2.750000000000000E10    2.259092777967453E-2  -1.207289323210716E-1  
 2.752000000000000E10   -1.044579409062862E-2  -1.153375729918480E-1  
 2.754000000000000E10   -1.109244301915169E-2  -7.755646109580994E-2  
 2.756000000000000E10    2.588647790253162E-2  -6.907673180103302E-2  
