#  HZ   S   RI   R     50.00 
! Rohde & Schwarz ZVA40 4Ports - Version 3.90 - 1145.1110k42 SN: 100403
! Date: 2023-10-04 05:56:57
! Measurement: S12 
! 
 2.200000000000000E10    5.645650205565289E-3   2.620027623416732E-4  
 2.202000000000000E10   -4.157417856553991E-4  -5.519788424805938E-3  
 2.204000000000000E10   -5.442667478519070E-3   9.023498047753265E-4  
 2.206000000000000E10    7.346803317460626E-4   4.847514759319438E-3  
 2.208000000000000E10    4.107212565656937E-3  -1.212686955994968E-3  
 2.210000000000000E10   -1.502358731045206E-3  -3.502316475874068E-3  
 2.212000000000000E10   -2.405702990529335E-3   2.673228039697051E-3  
 2.214000000000000E10    3.942252844808536E-3   1.224991595023539E-3  
 2.216000000000000E10    2.272614560130393E-4  -5.011571031616313E-3  
 2.218000000000000E10   -5.862426918156416E-3   8.099046953660150E-4  
 2.220000000000000E10    5.316060377680287E-4   6.921701854366802E-3  
 2.222000000000000E10    7.898204931962027E-3  -1.178835923539623E-3  
 2.224000000000000E10   -1.409905021745317E-3  -7.772662728882551E-3  
 2.226000000000000E10   -6.734639501416950E-3   6.180875879024939E-4  
 2.228000000000000E10    6.940434122384431E-4   5.491022811327184E-3  
 2.230000000000000E10    3.898657999798161E-3  -1.081750839233564E-3  
 2.232000000000000E10   -7.401013321270966E-4  -2.443212753263424E-3  
 2.234000000000000E10   -2.052421554751049E-3   1.179387662745057E-3  
 2.236000000000000E10    2.211447865249738E-3   1.018260690365480E-3  
 2.238000000000000E10    3.875784481977007E-4  -3.266889542203444E-3  
 2.240000000000000E10   -3.857136828997909E-3  -6.342997223995894E-5  
 2.242000000000000E10   -6.054255580423273E-4   4.779042876180029E-3  
 2.244000000000000E10    4.772740687826627E-3   4.307584114791041E-4  
 2.246000000000000E10    3.838587082682921E-4  -4.020573057346155E-3  
 2.248000000000000E10   -4.214439564918848E-3  -1.181727156669865E-3  
 2.250000000000000E10   -5.135430392826379E-4   4.106184628881238E-3  
 2.252000000000000E10    3.221987395647830E-3  -4.554849502156344E-4  
 2.254000000000000E10   -1.096754675629086E-3  -2.700410693819322E-3  
 2.256000000000000E10   -2.894922019294199E-3   2.287060693419107E-3  
 2.258000000000000E10    3.328774157836278E-3   2.566565049193059E-3  
 2.260000000000000E10    2.543307402987693E-3  -2.464888791308795E-3  
 2.262000000000000E10   -2.315757309133915E-3  -3.046673761758711E-3  
 2.264000000000000E10   -3.329323441960241E-3   3.092396762014005E-3  
 2.266000000000000E10    3.020983002073763E-3   2.625359802550520E-3  
 2.268000000000000E10    2.281543243924489E-3  -1.372537134329832E-3  
 2.270000000000000E10   -1.077252242993154E-3  -1.544309800038946E-3  
 2.272000000000000E10   -6.042159939347869E-4   1.864191667920068E-3  
 2.274000000000000E10    1.715508430805812E-3   2.569103851310928E-4  
 2.276000000000000E10   -8.133893195321207E-4  -2.704175794974617E-3  
 2.278000000000000E10   -3.026823715828186E-3   1.401844919996620E-3  
 2.280000000000000E10    1.522826488908891E-3   3.246044218798261E-3  
 2.282000000000000E10    3.422266886815351E-3   1.266593607667232E-3  
 2.284000000000000E10   -9.292685975026416E-4  -4.396228607845387E-3  
 2.286000000000000E10   -2.882761953685531E-3   4.116916913798896E-4  
 2.288000000000000E10   -2.639136047699608E-4   1.861071617383914E-3  
 2.290000000000000E10    1.743855770087066E-3  -5.020240555353439E-4  
 2.292000000000000E10   -1.042927248576575E-3  -4.856450757362296E-4  
 2.294000000000000E10   -1.629720025086989E-4   1.448671041103467E-3  
 2.296000000000000E10    2.027196139565035E-3  -7.751167920844182E-7  
 2.298000000000000E10   -2.804293638796196E-4  -3.449486694819370E-3  
 2.300000000000000E10   -4.328427730285966E-3  -8.895184485808727E-4  
 2.302000000000000E10   -1.076032519755188E-3   4.463487325210735E-3  
 2.304000000000000E10    3.781519846938863E-3   1.644987747582150E-3  
 2.306000000000000E10    1.273145802514364E-3  -3.466310728470035E-3  
 2.308000000000000E10   -2.056614045471861E-3  -1.587488508477009E-3  
 2.310000000000000E10   -1.471787543977143E-3   7.920681333217772E-4  
 2.312000000000000E10    1.355017471258435E-4   5.514758776676842E-4  
 2.314000000000000E10   -3.558292353389447E-4   4.496535785385447E-4  
 2.316000000000000E10    1.372645561009689E-4   1.623398063401282E-3  
 2.318000000000000E10    2.064967423251574E-3   1.839545609350068E-4  
 2.320000000000000E10    4.515047941300310E-4  -2.692033338092870E-3  
 2.322000000000000E10   -3.105782937097956E-3  -8.469971853273250E-4  
 2.324000000000000E10   -2.461138614620495E-3   3.618722011481168E-3  
 2.326000000000000E10    2.435943753624770E-3   2.312475669100422E-3  
 2.328000000000000E10    1.393068344910375E-3  -2.080724672481438E-3  
 2.330000000000000E10   -1.312669463459315E-3  -8.177118865546618E-4  
 2.332000000000000E10   -4.615148839519634E-4   1.348367972013875E-3  
 2.334000000000000E10    1.173977260542358E-3   4.418259815057724E-4  
 2.336000000000000E10   -2.385104472075739E-4  -1.262531162609548E-3  
 2.338000000000000E10   -1.701737532357583E-3   1.285467809296392E-3  
 2.340000000000000E10    1.749688673783112E-3   1.628397705502493E-3  
 2.342000000000000E10    2.307142372387716E-3  -3.606975806178525E-4  
 2.344000000000000E10   -2.485885218597161E-4  -1.509998276958413E-3  
 2.346000000000000E10   -7.134512864013232E-4   8.198191384138909E-4  
 2.348000000000000E10    3.040525061273058E-4   7.653302069132728E-5  
 2.350000000000000E10    1.734859358677454E-4  -5.251971604280925E-5  
 2.352000000000000E10   -8.689735578712998E-4   8.483461866646280E-4  
 2.354000000000000E10    1.402326663637155E-3   6.489433486791540E-4  
 2.356000000000000E10    2.447475063519278E-3  -9.943954568143454E-4  
 2.358000000000000E10   -9.566861452228181E-4  -3.758410760298148E-3  
 2.360000000000000E10   -3.578273717749880E-3   1.742139987355174E-4  
 2.362000000000000E10   -7.761148374498816E-4   3.370655147705293E-3  
 2.364000000000000E10    3.663668933285180E-3   6.148765665123790E-4  
 2.366000000000000E10    1.101777476122834E-3  -2.628165600157217E-3  
 2.368000000000000E10   -1.500503600581737E-3  -1.935370750473453E-3  
 2.370000000000000E10   -1.589635608425510E-3   4.710961988294571E-4  
 2.372000000000000E10   -1.195243133196300E-3   7.205180471459016E-4  
 2.374000000000000E10   -7.096731651472510E-4   1.848119419861405E-3  
 2.376000000000000E10    1.996437169935916E-3   8.586876138565458E-4  
 2.378000000000000E10    1.660458266300680E-3  -1.508864020394185E-3  
 2.380000000000000E10   -1.122161772400432E-3  -2.635875691424872E-3  
 2.382000000000000E10   -3.151558978231606E-3   1.670133930211648E-4  
 2.384000000000000E10   -3.870639831955458E-4   2.894110480838208E-3  
 2.386000000000000E10    2.413767541753487E-3   1.152830149621309E-3  
 2.388000000000000E10    1.409182383412144E-3  -1.859278459917846E-3  
 2.390000000000000E10   -8.474908543334436E-4  -1.261888290216007E-3  
 2.392000000000000E10   -1.038783433472190E-3   7.486243868015663E-4  
 2.394000000000000E10    2.089050598499398E-4   1.145740042580723E-4  
 2.396000000000000E10    3.841719641712871E-4  -2.461745936983562E-4  
 2.398000000000000E10   -3.661868742774743E-4   7.785440099326024E-4  
 2.400000000000000E10    5.297172614149304E-4   1.562597662072562E-4  
 2.402000000000000E10    6.059161773563915E-4  -7.696699660826312E-4  
 2.404000000000000E10   -6.248816063845197E-4  -1.009647150169712E-3  
 2.406000000000000E10   -5.934015274462468E-4   8.979212621235133E-5  
 2.408000000000000E10   -3.896107313892117E-4   5.934825633602259E-5  
 2.410000000000000E10   -1.036387161483798E-4  -6.829420433707156E-5  
 2.412000000000000E10   -8.031097967560186E-4   6.731889951083758E-4  
 2.414000000000000E10    8.110098083093931E-4   7.351419115853020E-5  
 2.416000000000000E10    9.880042884162776E-4  -7.517646959414037E-4  
 2.418000000000000E10   -1.024019216274041E-3  -2.668184494268644E-3  
 2.420000000000000E10   -2.683583236148479E-3   3.605884878226107E-4  
 2.422000000000000E10   -1.244989235971161E-3   2.624337021472911E-3  
 2.424000000000000E10    2.660092991789043E-3   1.613590561333922E-3  
 2.426000000000000E10    1.791853226947637E-3  -1.460492232666866E-3  
 2.428000000000000E10   -5.554682679580481E-4  -1.829867036491351E-3  
 2.430000000000000E10   -1.988462257543233E-3  -8.190162191036576E-6  
 2.432000000000000E10   -1.299289885196231E-3   1.183501440507939E-3  
 2.434000000000000E10    5.834405677340726E-4   2.495083299663747E-3  
 2.436000000000000E10    2.096929495223776E-3   2.529287195951468E-4  
 2.438000000000000E10    1.364957772779007E-3  -1.531618523600287E-3  
 2.440000000000000E10   -3.842041788750805E-4  -2.248894659203415E-3  
 2.442000000000000E10   -2.311164790228304E-3  -1.866679243052172E-4  
 2.444000000000000E10   -9.730462608814605E-4   2.762507282000115E-3  
 2.446000000000000E10    2.269150621941662E-3   1.422315340178670E-3  
 2.448000000000000E10    1.985189564962298E-3  -8.877170410457325E-4  
 2.450000000000000E10   -2.151271391763743E-4  -1.908380773528506E-3  
 2.452000000000000E10   -2.077155562218991E-3   1.139444829423297E-5  
 2.454000000000000E10   -4.493868675510271E-4   1.779079090610480E-3  
 2.456000000000000E10    5.498991298829026E-4   8.049238702909634E-4  
 2.458000000000000E10    9.946612619700090E-4  -2.923113172315084E-4  
 2.460000000000000E10   -1.385105942288689E-4  -5.169319895781399E-4  
 2.462000000000000E10   -1.214399583435721E-4  -1.111012221177710E-4  
 2.464000000000000E10    8.416470870287185E-5  -9.636112916444617E-5  
 2.466000000000000E10   -4.695755438959282E-4  -2.163706003344146E-4  
 2.468000000000000E10    6.168107012172186E-5   5.295897339863132E-4  
 2.470000000000000E10    3.103234734425087E-4  -9.201882715670351E-5  
 2.472000000000000E10   -1.754375140041731E-4  -3.644688326742696E-5  
 2.474000000000000E10    4.448505499743405E-5   2.797111634205152E-4  
 2.476000000000000E10    1.339477220810181E-3   8.675890963232291E-4  
 2.478000000000000E10    7.850567320062396E-4  -1.632222710810538E-3  
 2.480000000000000E10   -1.433693118073620E-3  -1.436257864298796E-3  
 2.482000000000000E10   -1.944822300870897E-3   1.921822996123979E-3  
 2.484000000000000E10    1.541999075001854E-3   2.333312961980028E-3  
 2.486000000000000E10    2.407775305044879E-3  -1.011216016550520E-3  
 2.488000000000000E10   -3.577756902473084E-4  -2.633382267276829E-3  
 2.490000000000000E10   -2.360053130757933E-3  -8.182211628593450E-4  
 2.492000000000000E10   -1.148144926162331E-3   8.852620579062887E-4  
 2.494000000000000E10    5.468169833378056E-4   1.532115322859795E-3  
 2.496000000000000E10    1.225195672802215E-3   1.270869078244807E-4  
 2.498000000000000E10    1.536469999237511E-3  -6.244568527407068E-4  
 2.500000000000000E10    1.851803454773204E-4  -1.727937242151256E-3  
 2.502000000000000E10   -2.136989003986400E-3  -1.558633219417516E-3  
 2.504000000000000E10   -2.158701318251133E-3   2.408963872653658E-3  
 2.506000000000000E10    1.680299906396954E-3   2.858544483871128E-3  
 2.508000000000000E10    2.205465340210822E-3  -1.327485778816140E-3  
 2.510000000000000E10   -1.130275414951143E-4  -3.395992170823092E-3  
 2.512000000000000E10   -3.361462164377826E-3  -6.406944783705626E-4  
 2.514000000000000E10   -7.171760297310925E-4   1.858417183697725E-3  
 2.516000000000000E10    1.756308452144140E-3   6.997520583174044E-5  
 2.518000000000000E10    6.919602682931014E-5  -1.445103898703337E-3  
 2.520000000000000E10   -3.067238776779391E-4  -1.835309158882970E-4  
 2.522000000000000E10    5.334970196670952E-4   2.254083511905591E-4  
 2.524000000000000E10    3.375511518033392E-5  -7.959926301097653E-4  
 2.526000000000000E10   -1.851443944346443E-3  -7.297441857012643E-6  
 2.528000000000000E10    3.317019051074510E-4   1.571378458592676E-3  
 2.530000000000000E10    1.242583492313543E-3  -9.957693883677621E-4  
 2.532000000000000E10   -1.512377220819872E-3  -1.880101104433152E-3  
 2.534000000000000E10   -2.036232044900999E-3   1.619753730750517E-3  
 2.536000000000000E10    1.902814003244657E-3   1.004443812419709E-3  
 2.538000000000000E10    1.623290168225822E-3  -2.146628933132888E-3  
 2.540000000000000E10   -2.280985458213536E-3  -2.153036091527838E-3  
 2.542000000000000E10   -2.335072508770963E-3   2.232990170938365E-3  
 2.544000000000000E10    1.661550308028836E-3   2.710351801880506E-3  
 2.546000000000000E10    2.399228427776734E-3  -6.939535505594563E-4  
 2.548000000000000E10   -1.017332240621727E-3  -1.773885341009418E-3  
 2.550000000000000E10   -1.444928631798348E-3   1.373980856396173E-4  
 2.552000000000000E10   -9.397956602968938E-5   7.522479040105168E-4  
 2.554000000000000E10   -4.793746078988193E-4   7.664148435750917E-4  
 2.556000000000000E10    1.966701901103818E-4   1.448316828856378E-3  
 2.558000000000000E10    2.569365357288689E-3   3.060008852671103E-4  
 2.560000000000000E10    9.716090449103376E-4  -2.605687717533556E-3  
 2.562000000000000E10   -2.695178044774593E-3  -1.534349361577370E-3  
 2.564000000000000E10   -2.547374880094822E-3   3.300083867003423E-3  
 2.566000000000000E10    2.784526959203504E-3   3.454293348056581E-3  
 2.568000000000000E10    3.296747926640364E-3  -2.126965095101241E-3  
 2.570000000000000E10   -1.268140304944154E-3  -2.879380729439163E-3  
 2.572000000000000E10   -2.477642074268260E-3   1.436078625346227E-3  
 2.574000000000000E10    1.155379515424215E-3   1.664944673478885E-3  
 2.576000000000000E10    1.612764629726371E-3  -8.726963842633495E-4  
 2.578000000000000E10   -9.458497339238647E-4  -9.605157465930603E-5  
 2.580000000000000E10    9.415566322843461E-4   1.538241752427894E-3  
 2.582000000000000E10    1.415953731964237E-3  -1.207650529039483E-3  
 2.584000000000000E10   -7.887797812031749E-4  -9.473623630711359E-4  
 2.586000000000000E10   -1.608294496293183E-3   2.005832024138954E-3  
 2.588000000000000E10    1.998721672407555E-3   1.660848671747317E-3  
 2.590000000000000E10    1.159361314293506E-3  -1.577810887454234E-3  
 2.592000000000000E10   -2.254221880122032E-3  -1.496426584665755E-3  
 2.594000000000000E10   -1.635525702866403E-3   2.964107729326315E-3  
 2.596000000000000E10    2.983841326596348E-3   1.136026373764310E-3  
 2.598000000000000E10    1.337904194812722E-3  -3.174973105643630E-3  
 2.600000000000000E10   -3.001196358667357E-3  -1.954374160931138E-3  
 2.602000000000000E10   -1.236445877523806E-3   3.052831980511428E-3  
 2.604000000000000E10    2.413704923782234E-3   1.631248239419847E-3  
 2.606000000000000E10    1.207919556335924E-3  -1.836364572284310E-3  
 2.608000000000000E10   -1.286388061146226E-3  -6.491052610755332E-4  
 2.610000000000000E10   -1.987095948461359E-4   7.004896478557399E-5  
 2.612000000000000E10   -5.712057888587196E-4  -2.385577775712022E-4  
 2.614000000000000E10   -1.472776183675251E-3  -1.368134581110070E-4  
 2.616000000000000E10   -1.001976801667581E-3   2.820918271567052E-3  
 2.618000000000000E10    2.653390149106372E-3   5.795982663450161E-4  
 2.620000000000000E10    1.226513716190425E-3  -3.506677771412115E-3  
 2.622000000000000E10   -4.164913790361879E-3  -2.453707026262464E-3  
 2.624000000000000E10   -2.896049473605444E-3   3.284305783836317E-3  
 2.626000000000000E10    2.795583123742063E-3   2.669181497310547E-3  
 2.628000000000000E10    2.402270432526166E-3  -2.302520763464599E-3  
 2.630000000000000E10   -2.458125898897379E-3  -1.982332398725362E-3  
 2.632000000000000E10   -1.339206643166335E-3   1.769334981759130E-3  
 2.634000000000000E10    5.374369373818411E-4   6.794604107440705E-4  
 2.636000000000000E10   -7.064116457158320E-4  -7.618001033549149E-4  
 2.638000000000000E10   -1.980130949164050E-3   7.586939138022331E-4  
 2.640000000000000E10    1.122577729702812E-3   1.590571033020183E-3  
 2.642000000000000E10    1.150107629058539E-3  -1.091962939497648E-3  
 2.644000000000000E10   -2.231356730959533E-3  -1.905951917834159E-3  
 2.646000000000000E10   -2.175909179157998E-3   2.248728011267076E-3  
 2.648000000000000E10    1.684974348108881E-3   1.483045117723236E-3  
 2.650000000000000E10    1.494788232136557E-3  -2.255963215617385E-3  
 2.652000000000000E10   -2.717299670393913E-3  -1.235038232223928E-3  
 2.654000000000000E10   -4.447230685293846E-4   3.366910338371554E-3  
 2.656000000000000E10    3.429068534614999E-3   8.454780242033166E-4  
 2.658000000000000E10    4.814902621603778E-4  -3.374610127877986E-3  
 2.660000000000000E10   -3.071780144239256E-3   4.950296639627538E-5  
 2.662000000000000E10   -2.194638007289029E-4   2.878023912501249E-3  
 2.664000000000000E10    2.199338458694911E-3   5.253868273484841E-4  
 2.666000000000000E10    9.255863652128937E-4  -1.750046212180223E-3  
 2.668000000000000E10   -1.047105151030792E-3   3.468568187976473E-4  
 2.670000000000000E10    7.763602419146309E-4   2.152159093888884E-4  
 2.672000000000000E10    1.362606353097817E-3  -1.419494514607322E-3  
 2.674000000000000E10   -2.226720541045779E-3  -1.133952945650663E-3  
 2.676000000000000E10    2.859895547544511E-4   3.186686204742273E-3  
 2.678000000000000E10    3.657978753722091E-3   5.546175418800203E-4  
 2.680000000000000E10    2.053281531914308E-3  -4.369764939156084E-3  
 2.682000000000000E10   -4.111008642553315E-3  -1.485756814105343E-3  
 2.684000000000000E10   -1.844074044157651E-3   3.485079789811607E-3  
 2.686000000000000E10    3.187828997511133E-3   1.514534881550844E-3  
 2.688000000000000E10    8.613417676315294E-4  -2.370834267367172E-3  
 2.690000000000000E10   -1.972312146051536E-3  -5.214266000734824E-4  
 2.692000000000000E10   -9.265897621157926E-5   1.154107632459045E-3  
 2.694000000000000E10    1.087495659874094E-3  -1.094638251686320E-3  
 2.696000000000000E10   -2.240592489272331E-3  -1.223334645430896E-3  
 2.698000000000000E10   -1.540012407446056E-3   2.077874501708266E-3  
 2.700000000000000E10    2.132289522080555E-3   1.409991647250308E-3  
 2.702000000000000E10    2.037712516141710E-3  -2.698224820960604E-3  
 2.704000000000000E10   -3.238523882146183E-3  -1.411502593043679E-3  
 2.706000000000000E10   -1.733222414429747E-3   2.807559978691643E-3  
 2.708000000000000E10    2.618623680916699E-3   1.464482219233787E-3  
 2.710000000000000E10    8.705905526653623E-4  -2.381653305690179E-3  
 2.712000000000000E10   -2.781511179875906E-3  -1.307190971282513E-4  
 2.714000000000000E10   -6.768743234104591E-4   2.705481551402045E-3  
 2.716000000000000E10    2.717117969041283E-3   6.248476301209394E-4  
 2.718000000000000E10    8.381159930831439E-5  -2.723835457004498E-3  
 2.720000000000000E10   -3.191201677623212E-3   1.581883863508438E-4  
 2.722000000000000E10    4.376187074939253E-6   2.753312923914564E-3  
 2.724000000000000E10    2.427685532779833E-3  -2.522846470824902E-4  
 2.726000000000000E10   -4.090372760359173E-4  -1.211711758458023E-3  
 2.728000000000000E10   -8.199049030537253E-4   7.795661020679745E-4  
 2.730000000000000E10    1.832877739474270E-3   8.503645616002586E-4  
 2.732000000000000E10    6.159086774601974E-4  -2.104967513332667E-3  
 2.734000000000000E10   -2.699292321324265E-3  -4.126474451240370E-4  
 2.736000000000000E10   -6.638908085960793E-4   3.720834314208332E-3  
 2.738000000000000E10    4.501703845789962E-3   5.055387587447058E-4  
 2.740000000000000E10    8.349111385541619E-4  -3.896509404000881E-3  
 2.742000000000000E10   -3.569425534237780E-3  -1.247046475896241E-3  
 2.744000000000000E10   -1.130038361182528E-3   3.108859077201487E-3  
 2.746000000000000E10    2.976639742655607E-3   6.591108031273052E-4  
 2.748000000000000E10    9.833564288328489E-4  -2.475904634422932E-3  
 2.750000000000000E10   -1.743635681009437E-3  -6.187740110732420E-4  
 2.752000000000000E10    9.471243671441698E-4   1.092699908099348E-3  
 2.754000000000000E10    1.234478610257384E-3  -1.564969296282470E-3  
 2.756000000000000E10   -1.874096682769277E-3  -1.412633308234490E-3  
