#  HZ   S   RI   R     50.00 
! Rohde & Schwarz ZVA40 4Ports - Version 3.90 - 1145.1110k42 SN: 100403
! Date: 2023-10-04 05:57:40
! Measurement: S12 
! 
 2.200000000000000E10    5.601627228315920E-3   1.214074269228149E-3  
 2.202000000000000E10    1.160065468866378E-3  -5.197808990487829E-3  
 2.204000000000000E10   -5.235590768279508E-3  -9.775707694643643E-4  
 2.206000000000000E10    1.267423504032195E-4   4.164278303505853E-3  
 2.208000000000000E10    3.518620680551976E-3  -6.906599628564436E-4  
 2.210000000000000E10   -1.795001124264672E-3  -2.935365788289346E-3  
 2.212000000000000E10   -2.388386783422902E-3   2.904919296270236E-3  
 2.214000000000000E10    3.570113389287144E-3   1.945123032783158E-3  
 2.216000000000000E10    2.177081041736528E-3  -4.222328396281228E-3  
 2.218000000000000E10   -4.406269872561097E-3  -1.746879002894275E-3  
 2.220000000000000E10   -1.408420459483750E-3   4.325912421336398E-3  
 2.222000000000000E10    4.329912335379049E-3   3.458494611550123E-4  
 2.224000000000000E10   -4.022926914331038E-4  -4.019032377982512E-3  
 2.226000000000000E10   -3.397249631234445E-3   8.471223591186572E-4  
 2.228000000000000E10    1.781908031261992E-3   2.976782008772716E-3  
 2.230000000000000E10    3.477284597465769E-3  -2.776376495603472E-3  
 2.232000000000000E10   -2.813026818330400E-3  -3.762987282243557E-3  
 2.234000000000000E10   -3.538182209013030E-3   3.237575772800483E-3  
 2.236000000000000E10    2.582832326879725E-3   3.306025522761047E-3  
 2.238000000000000E10    3.306332087959163E-3  -1.899662405776326E-3  
 2.240000000000000E10   -1.804661711503286E-3  -2.974394097691402E-3  
 2.242000000000000E10   -2.444552272208966E-3   2.054402873909567E-3  
 2.244000000000000E10    1.303019918850623E-3   9.166662348434329E-4  
 2.246000000000000E10    9.335770778307051E-5  -1.498989135143347E-3  
 2.248000000000000E10   -3.100779751548544E-3   3.776391822611913E-4  
 2.250000000000000E10    1.213836658280343E-3   3.210988812497817E-3  
 2.252000000000000E10    3.390067853615619E-3  -2.133424713974819E-3  
 2.254000000000000E10   -1.773957126715686E-3  -4.502714320551604E-3  
 2.256000000000000E10   -4.623938206350431E-3   1.462572356103919E-3  
 2.258000000000000E10    1.502425846410915E-3   3.534517396474257E-3  
 2.260000000000000E10    3.337136440677568E-3   2.403314005050561E-5  
 2.262000000000000E10   -5.219805098022334E-4  -2.349543879972771E-3  
 2.264000000000000E10   -1.204169864649884E-3   1.026513524266193E-3  
 2.266000000000000E10    9.874044990283437E-4   1.133217629103456E-3  
 2.268000000000000E10    6.946494140720461E-4  -1.672110287472606E-3  
 2.270000000000000E10   -2.907268528360874E-3   1.675696739766863E-4  
 2.272000000000000E10   -6.082988766138442E-4   4.059839615365490E-3  
 2.274000000000000E10    3.682607333757915E-3   8.100331288005691E-4  
 2.276000000000000E10    1.218290439283010E-3  -4.776956862770021E-3  
 2.278000000000000E10   -3.924156975699589E-3  -1.187671223306097E-3  
 2.280000000000000E10   -1.094875864509959E-3   2.661599748535082E-3  
 2.282000000000000E10    1.190711322124116E-3   2.502316812751815E-3  
 2.284000000000000E10    7.309640714083798E-4  -1.607482343388256E-3  
 2.286000000000000E10   -9.193530131597072E-4   3.012383476743707E-4  
 2.288000000000000E10    5.988641569274478E-4   8.872839644027408E-4  
 2.290000000000000E10    8.071679876593407E-4  -2.654141935636289E-3  
 2.292000000000000E10   -3.145539376419038E-3  -4.418660282681231E-4  
 2.294000000000000E10   -1.602460892172530E-3   2.832690312061459E-3  
 2.296000000000000E10    2.600536172394641E-3   1.614642103959341E-3  
 2.298000000000000E10    1.368623336020391E-3  -3.490295479423367E-3  
 2.300000000000000E10   -2.317767532076687E-3  -1.356656342977658E-3  
 2.302000000000000E10   -1.756722696882207E-3   1.779451129550580E-3  
 2.304000000000000E10    2.066732631647028E-3   6.391597744368482E-4  
 2.306000000000000E10   -5.259861845843261E-4  -2.164689984056167E-3  
 2.308000000000000E10   -1.814798029954545E-3   3.636975652625551E-4  
 2.310000000000000E10    1.000145333819091E-3   2.629377588164061E-3  
 2.312000000000000E10    2.663998151547276E-3  -1.351986997178756E-3  
 2.314000000000000E10   -1.240853423951194E-3  -2.607483955216594E-3  
 2.316000000000000E10   -2.827762669767253E-3   4.949702833982883E-4  
 2.318000000000000E10   -5.590902583207935E-4   2.506954086129554E-3  
 2.320000000000000E10    1.612682084669359E-3   4.415951079863589E-4  
 2.322000000000000E10   -4.846545598411467E-4  -1.820012384996517E-4  
 2.324000000000000E10    1.997395620492171E-4   8.726793239475228E-4  
 2.326000000000000E10    6.757681221642997E-4  -1.300988486036658E-3  
 2.328000000000000E10   -1.883835153421387E-3  -1.890516854473390E-3  
 2.330000000000000E10   -3.132023368380033E-3   2.025987618253566E-3  
 2.332000000000000E10    2.241360794869252E-3   3.896682639606297E-3  
 2.334000000000000E10    4.469585721381009E-3  -3.529062942106975E-4  
 2.336000000000000E10   -1.747345472722373E-4  -4.015848739072681E-3  
 2.338000000000000E10   -3.609371851780452E-3  -5.869575943506789E-4  
 2.340000000000000E10   -1.075454958481714E-3   3.253168906667270E-3  
 2.342000000000000E10    2.197447189246304E-3   1.835179755289573E-3  
 2.344000000000000E10    1.668580152909271E-3  -6.290537494351156E-4  
 2.346000000000000E10    4.182164084340911E-4  -7.404455354844686E-4  
 2.348000000000000E10    3.554753311618697E-4  -8.513804459653329E-4  
 2.350000000000000E10   -9.623015685065184E-4  -1.126121009292547E-3  
 2.352000000000000E10   -1.917308960400987E-3   1.403074988047592E-3  
 2.354000000000000E10    1.349938931525685E-3   1.918722235132009E-3  
 2.356000000000000E10    2.980883029522374E-3  -6.005685754644219E-4  
 2.358000000000000E10   -4.751867345476057E-4  -3.101772439549677E-3  
 2.360000000000000E10   -2.526395779568702E-3  -8.961024661857664E-5  
 2.362000000000000E10    2.446833786962088E-4   1.574810979946051E-3  
 2.364000000000000E10    1.669398770900443E-3  -2.999020498464233E-4  
 2.366000000000000E10   -1.258107869944070E-3  -1.596748166775797E-3  
 2.368000000000000E10   -1.430102245649323E-3   4.625179171853233E-4  
 2.370000000000000E10    7.853058195905760E-4   1.553715635964181E-3  
 2.372000000000000E10    1.497655772254802E-3  -1.644955234951340E-3  
 2.374000000000000E10   -1.696068851742894E-3  -1.458244681998622E-3  
 2.376000000000000E10   -1.214164411067031E-3   5.213349595578620E-4  
 2.378000000000000E10   -5.434481113297807E-5   9.071181084436830E-4  
 2.380000000000000E10   -1.149139252447640E-4   3.327834328956669E-4  
 2.382000000000000E10    9.431469807168469E-4   8.290388686873484E-4  
 2.384000000000000E10    1.539108830911573E-3  -6.149316577648278E-4  
 2.386000000000000E10   -5.135143110237550E-4  -2.462707503582351E-3  
 2.388000000000000E10   -3.138376763672568E-3   8.063685891102068E-5  
 2.390000000000000E10   -1.390262856148183E-3   3.268438347731717E-3  
 2.392000000000000E10    2.409831344266422E-3   2.203318450483494E-3  
 2.394000000000000E10    2.678756369277835E-3  -2.398376469500363E-3  
 2.396000000000000E10   -1.518721306638327E-3  -3.132662779535167E-3  
 2.398000000000000E10   -2.336838922929019E-3   4.963411465723766E-4  
 2.400000000000000E10   -7.661186027689837E-4   1.671445788815618E-3  
 2.402000000000000E10    1.347171732049901E-3   1.192332907521632E-3  
 2.404000000000000E10    2.080462669255212E-3  -4.742924993479392E-4  
 2.406000000000000E10    9.379946532135364E-4  -2.065078093437478E-3  
 2.408000000000000E10   -1.481954430346377E-3  -2.214780368376523E-3  
 2.410000000000000E10   -2.352498791879043E-3   6.075027904444141E-4  
 2.412000000000000E10   -1.506689541201922E-4   2.046360299573280E-3  
 2.414000000000000E10    1.669904959271662E-3   3.964493098465027E-4  
 2.416000000000000E10    7.473340410797391E-4  -1.726774433336686E-3  
 2.418000000000000E10   -9.295660565840080E-4  -1.305797086388338E-3  
 2.420000000000000E10   -1.271988941880409E-3  -2.144140435120789E-4  
 2.422000000000000E10   -9.447680313314777E-4   5.272152175166411E-4  
 2.424000000000000E10    3.210496106476057E-4   7.836148470232729E-4  
 2.426000000000000E10    1.728202860249439E-4  -2.159588757422171E-4  
 2.428000000000000E10    1.931945067781271E-4  -2.355013339183643E-4  
 2.430000000000000E10   -5.740670694649452E-4  -7.005980683061353E-5  
 2.432000000000000E10    2.066128149635915E-4   6.457049603341147E-4  
 2.434000000000000E10    7.213507592496171E-5   1.668406725912064E-4  
 2.436000000000000E10   -4.916783527733060E-4  -7.401358670904301E-4  
 2.438000000000000E10   -1.361646689474583E-3   7.909316846053116E-4  
 2.440000000000000E10   -2.484281958459178E-4   1.672141312155873E-3  
 2.442000000000000E10    2.103334612911567E-3   1.086478007437108E-4  
 2.444000000000000E10   -4.627167868420656E-6  -1.647463461267762E-3  
 2.446000000000000E10   -1.291095017222688E-3  -1.033017710142303E-3  
 2.448000000000000E10   -9.573582610755693E-4   5.750585296482313E-4  
 2.450000000000000E10   -7.480250769731356E-5   1.526394378743134E-3  
 2.452000000000000E10    4.907293368887622E-4   1.495921263995115E-3  
 2.454000000000000E10    2.103109261952341E-3   3.048556891371845E-4  
 2.456000000000000E10    7.829996466170996E-4  -2.013738885580096E-3  
 2.458000000000000E10   -2.009759991778992E-3  -2.203667492722161E-3  
 2.460000000000000E10   -2.611837873701006E-3   2.158352581318468E-3  
 2.462000000000000E10    5.546110114664771E-4   3.094497107667849E-3  
 2.464000000000000E10    3.775426186621189E-3  -2.414272485111724E-4  
 2.466000000000000E10    7.612128247274086E-4  -2.757666865363717E-3  
 2.468000000000000E10   -2.022872737143189E-3  -1.213126168295275E-3  
 2.470000000000000E10   -1.071245220373385E-3   1.059805894328747E-3  
 2.472000000000000E10    1.361972817903734E-4   1.266390187083744E-3  
 2.474000000000000E10    6.179444662848255E-4   1.104100665543228E-3  
 2.476000000000000E10    1.936780827236362E-3  -2.982953419632395E-4  
 2.478000000000000E10    6.225575489224866E-4  -2.232630198705010E-3  
 2.480000000000000E10   -1.675587671343237E-3  -1.165018278697971E-3  
 2.482000000000000E10   -1.405307230015751E-3   1.589127779880073E-3  
 2.484000000000000E10    9.074929548660293E-4   1.820872479584068E-3  
 2.486000000000000E10    1.994415579247288E-3  -1.114579245040659E-3  
 2.488000000000000E10   -6.349421018967405E-4  -1.633106607187074E-3  
 2.490000000000000E10   -1.106358147808351E-3   6.877263626847707E-5  
 2.492000000000000E10    1.212197839777218E-4   5.479304818436503E-4  
 2.494000000000000E10    1.106331892515300E-3  -3.398838998691645E-4  
 2.496000000000000E10   -2.490337474227999E-4  -1.095435633033048E-3  
 2.498000000000000E10   -8.111479000945110E-4   6.590437187696807E-4  
 2.500000000000000E10    5.256469721643953E-4   7.499346502299886E-4  
 2.502000000000000E10    8.491411317663733E-4  -2.548863804463508E-5  
 2.504000000000000E10    2.357476587349083E-4  -6.763063611288089E-4  
 2.506000000000000E10   -7.745489419903606E-4  -2.934556905529462E-4  
 2.508000000000000E10   -8.013487786229234E-4  -6.591911915165838E-4  
 2.510000000000000E10   -6.468078172474634E-4  -1.100457154734613E-4  
 2.512000000000000E10   -2.280480875924695E-4   1.181836567411665E-3  
 2.514000000000000E10    1.819592886022292E-3   1.499657937529264E-4  
 2.516000000000000E10    2.013764125877060E-3  -2.499279347830452E-3  
 2.518000000000000E10   -2.083564686472528E-3  -2.903140048147179E-3  
 2.520000000000000E10   -2.818959881551564E-3   1.446995127480477E-3  
 2.522000000000000E10    1.149775889643934E-3   2.960381563752890E-3  
 2.524000000000000E10    3.358642657985911E-3  -8.817902198643424E-5  
 2.526000000000000E10   -1.299723476222425E-5  -3.054921253351495E-3  
 2.528000000000000E10   -2.152825880330056E-3  -6.205214594956487E-4  
 2.530000000000000E10   -6.486551974376198E-4   4.900480944343144E-4  
 2.532000000000000E10   -4.221299786877353E-4  -2.758490709311445E-4  
 2.534000000000000E10   -3.699129192682449E-4   7.018047253950499E-4  
 2.536000000000000E10    1.949546051037032E-3   2.808022327371873E-4  
 2.538000000000000E10    1.300272000662517E-3  -2.296698730788194E-3  
 2.540000000000000E10   -2.147063190932386E-3  -2.143299789167941E-3  
 2.542000000000000E10   -2.193578242440708E-3   1.740653140586801E-3  
 2.544000000000000E10    1.031550353218336E-3   2.594360354123637E-3  
 2.546000000000000E10    2.468883292749524E-3  -5.942748284724075E-4  
 2.548000000000000E10   -1.761402432748582E-3  -2.789597405353561E-3  
 2.550000000000000E10   -1.992903729842510E-3   1.141847780672833E-3  
 2.552000000000000E10    1.212523129652254E-3   1.995462269405834E-3  
 2.554000000000000E10    9.922541939886287E-4  -1.214006195368711E-3  
 2.556000000000000E10   -1.229458997840993E-3  -8.266327058663592E-4  
 2.558000000000000E10   -8.041694818530232E-4   1.555120827106293E-3  
 2.560000000000000E10    1.618000889720861E-3   1.261892437469214E-3  
 2.562000000000000E10    4.666552376875188E-4  -1.098166227166075E-3  
 2.564000000000000E10   -9.863888335530646E-4   8.021323083085008E-4  
 2.566000000000000E10    6.945976710994728E-4   1.256117553566583E-3  
 2.568000000000000E10    9.944134435500018E-4  -7.555358861282002E-4  
 2.570000000000000E10   -2.066683737211861E-3  -5.521405109902844E-4  
 2.572000000000000E10   -1.019311373966048E-3   2.923402164014988E-3  
 2.574000000000000E10    3.691324964165688E-3   1.636521745240316E-3  
 2.576000000000000E10    2.626378744025715E-3  -3.717386571224779E-3  
 2.578000000000000E10   -3.883213808876462E-3  -2.112071757437661E-3  
 2.580000000000000E10   -2.074244141113013E-3   3.077737317653373E-3  
 2.582000000000000E10    3.445091118919663E-3   2.792060578940436E-3  
 2.584000000000000E10    2.243806549813598E-3  -2.010929805692285E-3  
 2.586000000000000E10   -1.260019889741670E-3  -1.092669350327924E-3  
 2.588000000000000E10   -5.768216942669824E-4   8.975794298748951E-4  
 2.590000000000000E10    3.465499175945297E-4  -5.253351646388182E-4  
 2.592000000000000E10   -1.635820743103977E-3  -5.534068513952661E-4  
 2.594000000000000E10   -9.812157186388504E-4   2.628796399221756E-3  
 2.596000000000000E10    3.213891293853521E-3   7.192937227955554E-4  
 2.598000000000000E10    2.010340322158299E-3  -3.970977937569842E-3  
 2.600000000000000E10   -3.944421827327460E-3  -2.012812634347938E-3  
 2.602000000000000E10   -1.333165033429395E-3   3.470313386060298E-3  
 2.604000000000000E10    2.880182582885027E-3   1.774218719219789E-3  
 2.606000000000000E10    1.626289806154091E-3  -2.745185411185958E-3  
 2.608000000000000E10   -2.654786119819619E-3  -1.110981793317478E-3  
 2.610000000000000E10   -1.073095205356367E-3   2.091873713652603E-3  
 2.612000000000000E10    1.832387642934918E-3   3.496065128274495E-4  
 2.614000000000000E10   -5.960851995041594E-4  -2.466896752594039E-3  
 2.616000000000000E10   -2.670704867341556E-3   4.332601274654735E-4  
 2.618000000000000E10   -8.990682545118034E-7   1.775397009623703E-3  
 2.620000000000000E10    1.756785488396417E-3  -9.615504968678579E-4  
 2.622000000000000E10   -1.690724013315048E-3  -2.296534454217181E-3  
 2.624000000000000E10   -1.559070406074170E-3   1.982324312848505E-3  
 2.626000000000000E10    1.546402148960624E-3   1.046140550897690E-3  
 2.628000000000000E10    8.870157034834847E-4  -3.405612296774052E-3  
 2.630000000000000E10   -4.235425934894010E-3   1.333266322944837E-4  
 2.632000000000000E10   -4.845950297749369E-4   3.530502435751259E-3  
 2.634000000000000E10    3.645264790975489E-3   1.185793727927376E-3  
 2.636000000000000E10    1.223465642397059E-5  -4.474816640140489E-3  
 2.638000000000000E10   -4.072775511303917E-3  -1.136265505920164E-3  
 2.640000000000000E10   -1.531766785774380E-3   3.504020598484203E-3  
 2.642000000000000E10    2.549874858232215E-3   1.288107938307803E-3  
 2.644000000000000E10    3.015831625816645E-4  -2.002538312808611E-3  
 2.646000000000000E10   -1.149298215750605E-3  -1.801939115466666E-4  
 2.648000000000000E10    3.093412015005015E-4   1.230272588145454E-3  
 2.650000000000000E10    8.971415845735464E-4  -2.145192876923829E-3  
 2.652000000000000E10   -2.882264700019732E-3  -5.046164642408257E-4  
 2.654000000000000E10   -4.780836825375445E-4   3.608361133956350E-3  
 2.656000000000000E10    3.677151078591123E-3   1.361549519060645E-3  
 2.658000000000000E10    1.129333533754107E-3  -4.565740266116336E-3  
 2.660000000000000E10   -3.829528592177667E-3  -8.667692636663560E-4  
 2.662000000000000E10   -1.563805344630964E-3   3.414063496165909E-3  
 2.664000000000000E10    3.784894259297289E-3   3.896144389727851E-4  
 2.666000000000000E10    2.450943802614347E-4  -2.325875175301917E-3  
 2.668000000000000E10   -1.814048082451336E-3  -2.620382069835614E-4  
 2.670000000000000E10    1.126095157815144E-3   2.084928099066019E-3  
 2.672000000000000E10    2.829110133461654E-3  -1.018056118482491E-3  
 2.674000000000000E10   -1.050722596119158E-3  -2.182177457143553E-3  
 2.676000000000000E10   -1.837056341173593E-3   1.456070458516479E-3  
 2.678000000000000E10    2.563915521022864E-3   1.923475530929864E-3  
 2.680000000000000E10    1.881145130028017E-3  -2.370963280554861E-3  
 2.682000000000000E10   -2.259503395180218E-3  -1.228121604071930E-3  
 2.684000000000000E10   -4.642128697014414E-4   2.634828750160523E-3  
 2.686000000000000E10    2.917719291872345E-3  -2.455824269418372E-4  
 2.688000000000000E10   -7.538216304965317E-4  -3.530940462951548E-3  
 2.690000000000000E10   -3.561410310794599E-3   1.019496266962960E-3  
 2.692000000000000E10    1.372631937556434E-3   3.471389674814418E-3  
 2.694000000000000E10    3.753037090064026E-3  -1.736719677865040E-3  
 2.696000000000000E10   -1.307661994360387E-3  -3.473111602943391E-3  
 2.698000000000000E10   -3.425278147915378E-3   4.455111666175071E-4  
 2.700000000000000E10    8.269885038316716E-4   2.914409778895788E-3  
 2.702000000000000E10    1.862334320321679E-3  -6.833100123913027E-4  
 2.704000000000000E10   -1.007062070129905E-3  -1.430329721188173E-3  
 2.706000000000000E10   -7.591587127535604E-4   1.621598232304677E-3  
 2.708000000000000E10    1.950138379470445E-3  -1.061530406900602E-4  
 2.710000000000000E10   -4.443474645086099E-4  -2.140884404070675E-3  
 2.712000000000000E10   -3.683965478558093E-3   5.650919410982169E-4  
 2.714000000000000E10    4.520785150816664E-4   3.725992530235089E-3  
 2.716000000000000E10    3.779758466407657E-3  -2.695176781344344E-4  
 2.718000000000000E10   -5.086358505650424E-4  -3.352067811647430E-3  
 2.720000000000000E10   -3.604373370762914E-3   3.088218018092448E-4  
 2.722000000000000E10    4.648290214390727E-4   3.441313063376583E-3  
 2.724000000000000E10    2.011503122048453E-3  -2.065286098513752E-4  
 2.726000000000000E10   -8.314262013300322E-4  -1.885472476715222E-3  
 2.728000000000000E10   -1.409631040587556E-3   1.885026649688371E-3  
 2.730000000000000E10    2.158529139705934E-3   1.488513233198319E-3  
 2.732000000000000E10    1.433272322174162E-3  -1.879994415503461E-3  
 2.734000000000000E10   -2.249621538794600E-3  -1.301216027059127E-3  
 2.736000000000000E10   -8.840909649734385E-4   2.846078190486878E-3  
 2.738000000000000E10    2.307562768692151E-3   1.290041494939942E-3  
 2.740000000000000E10    1.140787819167599E-3  -2.168385835830122E-3  
 2.742000000000000E10   -2.175328379962593E-3  -6.315865709893842E-5  
 2.744000000000000E10    4.789300492120674E-4   1.845154030888807E-3  
 2.746000000000000E10    1.970815268578008E-3  -4.129421413381351E-4  
 2.748000000000000E10   -7.490755633625668E-4  -2.430528096738271E-3  
 2.750000000000000E10   -2.212900537415408E-3   1.464450717321597E-3  
 2.752000000000000E10    2.022429791395553E-3   2.124816397554241E-3  
 2.754000000000000E10    2.764113887678832E-3  -1.790205438737758E-3  
 2.756000000000000E10   -1.343866286333650E-3  -2.933816285803914E-3  
