#  HZ   S   RI   R     50.00 
! Rohde & Schwarz ZVA40 4Ports - Version 3.90 - 1145.1110k42 SN: 100403
! Date: 2023-10-04 05:59:35
! Measurement: S12 
! 
 2.200000000000000E10    5.188331604585983E-3   1.697571227850858E-3  
 2.202000000000000E10    1.211706643516664E-3  -5.843279679538682E-3  
 2.204000000000000E10   -6.043708926881664E-3  -9.464814793318510E-4  
 2.206000000000000E10   -2.103360429259737E-4   5.465971742523834E-3  
 2.208000000000000E10    5.633146138279699E-3  -8.512135464116000E-4  
 2.210000000000000E10   -2.092785565764643E-3  -4.595376565703191E-3  
 2.212000000000000E10   -4.545522009721026E-3   2.435709648125339E-3  
 2.214000000000000E10    4.143110185395926E-3   4.311276235966943E-3  
 2.216000000000000E10    3.770070004975423E-3  -4.686652915552259E-3  
 2.218000000000000E10   -4.774968881974928E-3  -3.937086970836390E-3  
 2.220000000000000E10   -2.670010013389401E-3   5.562105550779961E-3  
 2.222000000000000E10    4.983642895240337E-3   1.948446064488962E-3  
 2.224000000000000E10    1.651858099648962E-3  -4.800878014066257E-3  
 2.226000000000000E10   -4.126195184653625E-3  -5.202804477448808E-4  
 2.228000000000000E10    1.276897823117906E-3   3.772750744246878E-3  
 2.230000000000000E10    3.829478206171189E-3  -2.308439747139346E-3  
 2.232000000000000E10   -2.700284458114766E-3  -4.334682467742823E-3  
 2.234000000000000E10   -3.892047810950317E-3   4.173279463429935E-3  
 2.236000000000000E10    3.819065736024641E-3   3.538839097018354E-3  
 2.238000000000000E10    4.351617113570683E-3  -3.931365477910731E-3  
 2.240000000000000E10   -4.603587556630373E-3  -4.134279079153203E-3  
 2.242000000000000E10   -2.860275104467291E-3   2.970895176986232E-3  
 2.244000000000000E10    2.351874885789584E-3   2.174870489398018E-3  
 2.246000000000000E10    1.323742722888710E-3  -2.578905201517046E-3  
 2.248000000000000E10   -2.387724467553198E-3  -5.795314291390241E-4  
 2.250000000000000E10    4.232817227602936E-4   2.751294523477554E-3  
 2.252000000000000E10    3.887693979777396E-3  -1.285971124161733E-3  
 2.254000000000000E10   -2.428822357614990E-3  -4.895158825092949E-3  
 2.256000000000000E10   -4.645207358407788E-3   2.978820499265567E-3  
 2.258000000000000E10    2.461807496729307E-3   4.956100412528031E-3  
 2.260000000000000E10    4.591447970597073E-3  -1.705589758785209E-3  
 2.262000000000000E10   -1.810419584217016E-3  -3.438756495597772E-3  
 2.264000000000000E10   -3.290570464741904E-3   1.084459516278002E-3  
 2.266000000000000E10    1.459925493691117E-3   2.283773523231503E-3  
 2.268000000000000E10    1.008737592201214E-3  -1.821645011659712E-3  
 2.270000000000000E10   -1.733782719384180E-3   2.528309710214671E-5  
 2.272000000000000E10   -2.941239472420421E-4   2.713474015763495E-3  
 2.274000000000000E10    4.085464213858359E-3  -1.156916441686917E-3  
 2.276000000000000E10   -9.091860301850829E-4  -4.455866903299466E-3  
 2.278000000000000E10   -4.136561139603145E-3   1.467750691517722E-3  
 2.280000000000000E10    1.600003804924199E-3   4.127339241676964E-3  
 2.282000000000000E10    3.952414495870471E-3   1.578612780576805E-3  
 2.284000000000000E10   -1.246610358066391E-3  -2.789582737023011E-3  
 2.286000000000000E10   -2.691190165933222E-3   1.302292886975920E-3  
 2.288000000000000E10    1.860827920609154E-3   2.220896596554667E-3  
 2.290000000000000E10    1.132789184339345E-3  -2.474490327585954E-3  
 2.292000000000000E10   -2.088085966533981E-3  -1.652913430007175E-3  
 2.294000000000000E10   -1.521636251709424E-3   2.878175830119290E-3  
 2.296000000000000E10    2.503285628336016E-3   5.230959777691169E-4  
 2.298000000000000E10    1.764382541296072E-3  -2.665868712938391E-3  
 2.300000000000000E10   -1.918377798574511E-3  -1.101409096008865E-3  
 2.302000000000000E10   -5.037438004364958E-4   9.679887607489945E-4  
 2.304000000000000E10    9.093053267861251E-4  -4.293113224775880E-4  
 2.306000000000000E10   -1.636150780541357E-3  -7.909261148597579E-4  
 2.308000000000000E10   -6.847632485005306E-4   3.022201941348612E-3  
 2.310000000000000E10    3.904608034645207E-3   7.640823629539995E-5  
 2.312000000000000E10    8.508522496413207E-4  -3.997553372755647E-3  
 2.314000000000000E10   -4.967965753166936E-3  -2.208927042374853E-3  
 2.316000000000000E10   -2.384986713877879E-3   4.204772892990150E-3  
 2.318000000000000E10    2.842205358319916E-3   2.839641907485202E-3  
 2.320000000000000E10    2.681818717974238E-3  -2.593542369140778E-3  
 2.322000000000000E10   -1.702927369478857E-3  -1.890270501462510E-3  
 2.324000000000000E10   -2.022459273575805E-3  -2.822908109010314E-4  
 2.326000000000000E10   -1.144085486885160E-3   8.445215826213826E-4  
 2.328000000000000E10   -8.076035719568608E-4   1.025205368932802E-3  
 2.330000000000000E10    1.130417458625743E-3   1.768771373463096E-3  
 2.332000000000000E10    2.750042862317059E-3  -8.013669466890860E-4  
 2.334000000000000E10    2.049015547527233E-4  -2.430508771794848E-3  
 2.336000000000000E10   -4.040354702738114E-3  -2.980173526339058E-4  
 2.338000000000000E10   -8.002836802916136E-4   4.120706289540976E-3  
 2.340000000000000E10    2.773117150354665E-3   1.901189159980277E-3  
 2.342000000000000E10    1.205225926241837E-3  -2.363916144531686E-3  
 2.344000000000000E10   -1.406309478625190E-3  -7.330413209274411E-4  
 2.346000000000000E10   -3.266210010224313E-4   1.845567130658310E-3  
 2.348000000000000E10    9.705526026664302E-4   6.503197400888894E-4  
 2.350000000000000E10    1.862445799361012E-5  -1.263293332158355E-3  
 2.352000000000000E10   -4.627221517239377E-5   1.105568855564343E-3  
 2.354000000000000E10    5.015196675230982E-4   3.788816557062091E-4  
 2.356000000000000E10    1.246814135811292E-3  -9.481957586103817E-4  
 2.358000000000000E10   -5.003973637940362E-4   2.787079442896356E-4  
 2.360000000000000E10    1.012675467791269E-3  -1.500542480243894E-4  
 2.362000000000000E10    8.273748353531119E-4  -8.628826017229585E-4  
 2.364000000000000E10   -1.803463019314222E-3  -9.506784444965888E-4  
 2.366000000000000E10   -8.743641228647903E-4   1.858882711530896E-3  
 2.368000000000000E10    2.748475111729931E-3   1.642599578190129E-3  
 2.370000000000000E10    2.791906379570719E-3  -3.300124022644013E-3  
 2.372000000000000E10   -2.029020146437688E-3  -3.428037103731185E-3  
 2.374000000000000E10   -3.050440769584384E-3   1.427726332622115E-3  
 2.376000000000000E10    4.843601127504371E-4   2.714745191042312E-3  
 2.378000000000000E10    2.179561524826568E-3   3.181481583851564E-4  
 2.380000000000000E10    1.539979468361707E-3  -1.450473995646462E-3  
 2.382000000000000E10   -2.609288389976427E-4  -1.565786777064204E-3  
 2.384000000000000E10   -1.690911063633394E-3  -1.884290853922721E-3  
 2.386000000000000E10   -2.796829561702907E-3   1.110569657612359E-3  
 2.388000000000000E10   -2.434392949908215E-4   3.538366960128769E-3  
 2.390000000000000E10    3.708297561388463E-3   5.357800600904739E-4  
 2.392000000000000E10    1.185496003017761E-3  -3.992968806414865E-3  
 2.394000000000000E10   -3.614023094996810E-3  -2.259513341414277E-3  
 2.396000000000000E10   -2.185270896006841E-3   2.634833523188718E-3  
 2.398000000000000E10    2.080457066767849E-3   2.198967733420432E-3  
 2.400000000000000E10    1.263588317669928E-3  -1.085091091226786E-3  
 2.402000000000000E10   -4.189482760921237E-4  -1.437840908238286E-4  
 2.404000000000000E10    1.062302490026923E-3   1.068550232048438E-4  
 2.406000000000000E10   -2.646912726049777E-4  -1.115972892876016E-3  
 2.408000000000000E10   -1.488477370003238E-3   4.731185399577953E-4  
 2.410000000000000E10    3.266956009611022E-4   1.737821901770076E-3  
 2.412000000000000E10    1.893951332021970E-3  -3.096472973993514E-4  
 2.414000000000000E10   -6.153271624498302E-4  -1.888593960757135E-3  
 2.416000000000000E10   -1.455753234040458E-3   1.457431167182222E-4  
 2.418000000000000E10    8.300421395688318E-4   1.708631625660928E-3  
 2.420000000000000E10    1.874625115306117E-3  -1.918940342875430E-3  
 2.422000000000000E10   -1.439600724552292E-3  -1.997948809730588E-3  
 2.424000000000000E10   -2.222857285232749E-3   1.733893474010984E-3  
 2.426000000000000E10    2.015300335187931E-3   2.463895987602882E-3  
 2.428000000000000E10    2.809942430758383E-3  -1.843819820351200E-3  
 2.430000000000000E10   -1.287309612962417E-3  -2.514872518077027E-3  
 2.432000000000000E10   -1.963479640835431E-3   3.108756736764917E-4  
 2.434000000000000E10    3.055565880458744E-4   9.796514550544089E-4  
 2.436000000000000E10   -1.880820151427542E-4   2.866742590867943E-6  
 2.438000000000000E10   -5.621764939860441E-4   8.669659000588581E-4  
 2.440000000000000E10    1.856557439168682E-3   6.325696322164731E-4  
 2.442000000000000E10    1.567591327329865E-3  -3.078112444200087E-3  
 2.444000000000000E10   -3.439738931774627E-3  -2.265852155687753E-3  
 2.446000000000000E10   -2.759798844635952E-3   2.890578893129714E-3  
 2.448000000000000E10    2.413641777820885E-3   3.758956809178926E-3  
 2.450000000000000E10    3.525940919644199E-3  -1.572879504237790E-3  
 2.452000000000000E10   -1.107255058741430E-3  -3.117719119472895E-3  
 2.454000000000000E10   -3.054373140912503E-3   5.521459825104103E-4  
 2.456000000000000E10   -1.653072217777662E-4   1.915321463457076E-3  
 2.458000000000000E10    1.074790056009078E-3   2.525051982047444E-4  
 2.460000000000000E10   -5.560592308029300E-4   5.918223978369497E-4  
 2.462000000000000E10    8.309476652357262E-4   1.253930429811589E-3  
 2.464000000000000E10    2.550316428823862E-3  -1.592855285707628E-3  
 2.466000000000000E10   -1.757863628881751E-3  -2.182962285587564E-3  
 2.468000000000000E10   -2.872044220566750E-3   2.277245475852396E-3  
 2.470000000000000E10    1.917023255373351E-3   3.502798630506732E-3  
 2.472000000000000E10    3.194673561665695E-3  -1.417643630702514E-3  
 2.474000000000000E10   -1.346761400782270E-3  -2.994373346155044E-3  
 2.476000000000000E10   -2.293326855578926E-3   1.355691729258979E-3  
 2.478000000000000E10    2.198947411670815E-3   1.873003104265081E-3  
 2.480000000000000E10    1.852671797678340E-3  -1.985871036595199E-3  
 2.482000000000000E10   -2.233154002169613E-3  -1.516772026661784E-3  
 2.484000000000000E10   -7.423211372952210E-4   2.480014467437286E-3  
 2.486000000000000E10    2.917900339525659E-3   4.546125783235766E-4  
 2.488000000000000E10    8.190623630071059E-4  -2.226911128673237E-3  
 2.490000000000000E10   -2.007972943829373E-3  -1.041503533087962E-4  
 2.492000000000000E10    4.298141466279049E-4   1.568103463796433E-3  
 2.494000000000000E10    1.674172628554516E-3  -8.755838607612532E-4  
 2.496000000000000E10   -1.844022510340437E-3  -1.076873724741745E-3  
 2.498000000000000E10   -6.164400801935699E-4   2.212413797678892E-3  
 2.500000000000000E10    3.281478202552535E-3   1.174759239802370E-3  
 2.502000000000000E10    1.729374569549691E-3  -3.897913848049939E-3  
 2.504000000000000E10   -3.806269320193678E-3  -2.198503621912096E-3  
 2.506000000000000E10   -2.244765557406936E-3   3.068063233513385E-3  
 2.508000000000000E10    3.030915242561605E-3   2.781250019324943E-3  
 2.510000000000000E10    3.277218143921346E-3  -2.638728852616623E-3  
 2.512000000000000E10   -1.711559893010417E-3  -2.644749933097046E-3  
 2.514000000000000E10   -1.476798799558310E-3   1.191275252494961E-3  
 2.516000000000000E10    1.766367880918551E-3   5.654633605445270E-4  
 2.518000000000000E10   -5.351061618057429E-4  -8.064229587034788E-4  
 2.520000000000000E10   -8.959359747677809E-4   1.799893292627530E-3  
 2.522000000000000E10    2.908773960371036E-3   1.264323582290672E-3  
 2.524000000000000E10    2.487667879904620E-3  -3.437849183683284E-3  
 2.526000000000000E10   -3.510531510983128E-3  -2.536714942834806E-3  
 2.528000000000000E10   -2.641596198373009E-3   3.289218271675054E-3  
 2.530000000000000E10    4.252834172802977E-3   2.892366697778925E-3  
 2.532000000000000E10    2.912800955527928E-3  -3.896867696312256E-3  
 2.534000000000000E10   -2.624741267936770E-3  -2.158229297492653E-3  
 2.536000000000000E10   -1.367994922475191E-3   2.363283929298632E-3  
 2.538000000000000E10    2.975364543090109E-3   8.628044251963729E-4  
 2.540000000000000E10    7.119368492567446E-4  -2.555209292040672E-3  
 2.542000000000000E10   -2.775076340185478E-3  -3.896292100762366E-4  
 2.544000000000000E10    3.439243200773490E-4   3.023449047759641E-3  
 2.546000000000000E10    2.763724929536693E-3  -1.838107040384784E-3  
 2.548000000000000E10   -1.748200120346155E-3  -2.463873694068752E-3  
 2.550000000000000E10   -2.542556328990031E-3   1.751014850015054E-3  
 2.552000000000000E10    2.548598975408822E-3   1.009840900223935E-3  
 2.554000000000000E10    1.037476244164282E-3  -2.938541590992827E-3  
 2.556000000000000E10   -3.125409370113630E-3  -4.083724688825896E-4  
 2.558000000000000E10   -8.243605807365384E-4   3.152922377921641E-3  
 2.560000000000000E10    4.166734783211723E-3   6.145261122583179E-4  
 2.562000000000000E10    2.631863310398330E-6  -4.344902990851551E-3  
 2.564000000000000E10   -4.994932765839621E-3  -4.861837351199938E-4  
 2.566000000000000E10   -1.223052593559260E-3   5.591426815954037E-3  
 2.568000000000000E10    4.473174820304848E-3   8.177026593330083E-4  
 2.570000000000000E10   -3.562745832823566E-4  -3.656097433122341E-3  
 2.572000000000000E10   -3.046540805371478E-3   3.926137142116204E-4  
 2.574000000000000E10    5.189158828216023E-4   2.408868531347252E-3  
 2.576000000000000E10    9.684034321253421E-4  -1.618200749362586E-3  
 2.578000000000000E10   -2.268261843710206E-3  -4.445668100743205E-4  
 2.580000000000000E10   -4.112077194804442E-4   3.934350679628551E-3  
 2.582000000000000E10    4.441695622517727E-3   7.751852299406892E-4  
 2.584000000000000E10   -1.535085143586912E-4  -4.572556426865049E-3  
 2.586000000000000E10   -5.266664040391333E-3   5.884381789655890E-4  
 2.588000000000000E10   -9.877776428766083E-4   4.971936403308064E-3  
 2.590000000000000E10    4.481656273128465E-3   9.282536429964239E-4  
 2.592000000000000E10    4.399214485601988E-4  -3.711948149430100E-3  
 2.594000000000000E10   -3.725092006789055E-3   1.177976287181082E-5  
 2.596000000000000E10    1.036824098264333E-3   3.720379725564271E-3  
 2.598000000000000E10    3.242496670281980E-3  -1.664114457526011E-3  
 2.600000000000000E10   -2.218653979070950E-3  -2.529163561121095E-3  
 2.602000000000000E10   -1.735787551297108E-3   2.438515257381368E-3  
 2.604000000000000E10    3.013945468410384E-3   1.680091900198022E-3  
 2.606000000000000E10    1.654685594985494E-3  -3.103285824181512E-3  
 2.608000000000000E10   -2.711018270929344E-3  -1.230891863087891E-3  
 2.610000000000000E10   -6.527394543809351E-4   2.565036338637583E-3  
 2.612000000000000E10    3.450881093158387E-3   1.559143563554244E-4  
 2.614000000000000E10   -3.819383955487865E-4  -3.659685004095081E-3  
 2.616000000000000E10   -3.281398960098159E-3   3.073843963647960E-4  
 2.618000000000000E10    9.397513604199048E-4   4.019283078378066E-3  
 2.620000000000000E10    4.789472935954109E-3  -2.327261980099138E-3  
 2.622000000000000E10   -1.474708620662568E-3  -4.527831595623866E-3  
 2.624000000000000E10   -4.953233685228042E-3   6.107004574005259E-4  
 2.626000000000000E10    1.470193677960197E-3   4.282825757400133E-3  
 2.628000000000000E10    3.836179661448114E-3  -1.884007175249280E-3  
 2.630000000000000E10   -1.550794706417946E-3  -3.671645521535538E-3  
 2.632000000000000E10   -2.067938563413918E-3   1.432969787856564E-3  
 2.634000000000000E10    2.086309003061615E-3   1.005892305329326E-3  
 2.636000000000000E10   -2.831571428032476E-4  -3.071696155529935E-3  
 2.638000000000000E10   -3.122257519862615E-3   2.373982624703785E-4  
 2.640000000000000E10    1.171229391729867E-4   3.671065016533248E-3  
 2.642000000000000E10    4.741917844512500E-3  -1.191234663565410E-3  
 2.644000000000000E10   -8.301713951368583E-4  -4.787909012520686E-3  
 2.646000000000000E10   -4.602531276759692E-3   5.590999116975581E-4  
 2.648000000000000E10    9.315774186688941E-4   4.820247806492262E-3  
 2.650000000000000E10    4.433334368513897E-3  -1.469690490921494E-3  
 2.652000000000000E10   -1.046476194460411E-3  -3.589946252759546E-3  
 2.654000000000000E10   -3.422629291890189E-3   1.932673654664541E-3  
 2.656000000000000E10    2.973155926156323E-3   2.159346171538346E-3  
 2.658000000000000E10    1.713672838377534E-3  -3.109176745056175E-3  
 2.660000000000000E10   -3.942452916817274E-3  -1.616094101336785E-3  
 2.662000000000000E10   -8.629026342532598E-4   4.086579880095087E-3  
 2.664000000000000E10    3.958930858061649E-3   1.019700292090420E-3  
 2.666000000000000E10    6.219350925675826E-4  -3.824283339781687E-3  
 2.668000000000000E10   -3.078405497944914E-3   2.792747488911118E-5  
 2.670000000000000E10    3.612346981753944E-4   3.473171542282216E-3  
 2.672000000000000E10    3.216972974769305E-3  -5.196873335080454E-4  
 2.674000000000000E10   -1.594034492882201E-3  -2.602087661216501E-3  
 2.676000000000000E10   -2.564686816185713E-3   2.586226968560368E-3  
 2.678000000000000E10    3.249852416047361E-3   3.017384886334185E-3  
 2.680000000000000E10    3.428393785725348E-3  -3.648215177236125E-3  
 2.682000000000000E10   -3.348221995111089E-3  -2.872298216971103E-3  
 2.684000000000000E10   -3.105333344137762E-3   3.894950306857936E-3  
 2.686000000000000E10    4.012058008811437E-3   2.753531582129654E-3  
 2.688000000000000E10    2.633633870573249E-3  -3.458764265815262E-3  
 2.690000000000000E10   -2.590147058072034E-3  -1.629179940209724E-3  
 2.692000000000000E10   -1.012210590488394E-3   2.690124201762956E-3  
 2.694000000000000E10    3.103583527263254E-3   1.845191889060516E-4  
 2.696000000000000E10   -6.899143445480149E-4  -2.702883670281153E-3  
 2.698000000000000E10   -2.626938017783687E-3   1.636317228985718E-3  
 2.700000000000000E10    1.678664513747208E-3   3.188611415680498E-3  
 2.702000000000000E10    3.158057348628063E-3  -2.778876965749078E-3  
 2.704000000000000E10   -2.213295803812798E-3  -3.001037221110892E-3  
 2.706000000000000E10   -3.464995206741151E-3   2.411690511507914E-3  
 2.708000000000000E10    2.207707148045301E-3   2.587694376416039E-3  
 2.710000000000000E10    2.432408415188547E-3  -2.254746497783344E-3  
 2.712000000000000E10   -2.749671795754693E-3  -1.725618516502436E-3  
 2.714000000000000E10   -1.776624518242898E-3   2.928466019511689E-3  
 2.716000000000000E10    2.771094361378346E-3   6.369784550770419E-4  
 2.718000000000000E10    1.273009723945506E-4  -3.623229778895620E-3  
 2.720000000000000E10   -4.132324247621000E-3   2.249891472274612E-4  
 2.722000000000000E10   -3.721291432157159E-4   4.105828702449799E-3  
 2.724000000000000E10    3.503234242089093E-3  -9.694007212601719E-5  
 2.726000000000000E10   -3.111909463768825E-4  -3.408993485209066E-3  
 2.728000000000000E10   -3.169514064211398E-3   6.840732621640200E-4  
 2.730000000000000E10    6.059110510250321E-4   2.920235245255753E-3  
 2.732000000000000E10    2.067834288027370E-3  -1.191738028865075E-3  
 2.734000000000000E10   -1.977767344214954E-3  -1.293017976422561E-3  
 2.736000000000000E10   -1.965392941201571E-3   3.077749868680257E-3  
 2.738000000000000E10    3.240715079300571E-3   1.603074040758656E-3  
 2.740000000000000E10    1.630787057365524E-3  -3.696361221955158E-3  
 2.742000000000000E10   -4.171674008830451E-3  -6.969880523683969E-4  
 2.744000000000000E10   -1.360937672870932E-3   4.432478206581436E-3  
 2.746000000000000E10    3.997806110419333E-3   1.470912986405892E-3  
 2.748000000000000E10    1.039119157212554E-3  -3.394250830751844E-3  
 2.750000000000000E10   -2.927285400801338E-3  -1.138112724561324E-4  
 2.752000000000000E10   -9.579146694704832E-5   3.012178713106550E-3  
 2.754000000000000E10    2.889209230488632E-3  -9.513513577985577E-4  
 2.756000000000000E10   -1.459152361348970E-3  -1.971449928532820E-3  
