#  HZ   S   RI   R     50.00 
! Rohde & Schwarz ZVA40 4Ports - Version 3.90 - 1145.1110k42 SN: 100403
! Date: 2023-10-04 06:00:13
! Measurement: S12 
! 
 2.200000000000000E10    3.211188493878581E-3   1.771309405739885E-3  
 2.202000000000000E10    1.410027303791139E-3  -2.918334022979252E-3  
 2.204000000000000E10   -2.759099181275815E-3  -1.846402760747878E-4  
 2.206000000000000E10    1.107117168430705E-3   2.767008219962008E-3  
 2.208000000000000E10    3.654112835647538E-3  -2.193061940488406E-3  
 2.210000000000000E10   -3.715870712767355E-3  -3.275089286034927E-3  
 2.212000000000000E10   -3.808433815720491E-3   4.275259940186516E-3  
 2.214000000000000E10    4.883245564997196E-3   3.603842254960910E-3  
 2.216000000000000E10    3.521157501381822E-3  -5.045275145675987E-3  
 2.218000000000000E10   -4.156481794780120E-3  -3.431229008128867E-3  
 2.220000000000000E10   -2.275619204738177E-3   4.104121384443715E-3  
 2.222000000000000E10    3.604373006965034E-3   1.489704336563591E-3  
 2.224000000000000E10    5.718130523746368E-4  -3.167062590364367E-3  
 2.226000000000000E10   -1.800610989448614E-3   1.151026990555693E-3  
 2.228000000000000E10    2.150717351469211E-3   2.128953696228564E-3  
 2.230000000000000E10    2.695252798730508E-3  -2.783317351713777E-3  
 2.232000000000000E10   -3.259327611885965E-3  -2.616489044157788E-3  
 2.234000000000000E10   -2.848254036507569E-3   3.937857196433470E-3  
 2.236000000000000E10    3.642911658971570E-3   2.726407910813578E-3  
 2.238000000000000E10    2.736818976700306E-3  -3.615044697653502E-3  
 2.240000000000000E10   -3.490210525342263E-3  -2.522688693716191E-3  
 2.242000000000000E10   -1.231628746609204E-3   2.368993693380617E-3  
 2.244000000000000E10    2.376312055275776E-3   9.423652882105671E-4  
 2.246000000000000E10   -4.427880116963934E-5  -2.305250513018109E-3  
 2.248000000000000E10   -2.194689397583716E-3   5.246852742857300E-4  
 2.250000000000000E10    1.119242988352198E-3   3.212993629858829E-3  
 2.252000000000000E10    2.784049385809340E-3  -1.601363590452820E-3  
 2.254000000000000E10   -1.572256456711330E-3  -2.980564342578873E-3  
 2.256000000000000E10   -2.968261062051170E-3   1.608755388588179E-3  
 2.258000000000000E10    1.295456153457053E-3   2.301704778801650E-3  
 2.260000000000000E10    1.816775024053641E-3  -8.808714264887385E-4  
 2.262000000000000E10   -1.642270115553401E-3  -1.206778295454569E-3  
 2.264000000000000E10   -8.808801139821298E-4   2.210460428614169E-3  
 2.266000000000000E10    2.885527457692660E-3  -1.574742923367012E-4  
 2.268000000000000E10    4.741842203657143E-4  -2.560584354796447E-3  
 2.270000000000000E10   -3.601183256250806E-3  -2.184927784583124E-4  
 2.272000000000000E10   -2.624230364745017E-4   4.084115731529892E-3  
 2.274000000000000E10    2.972996924654581E-3   1.200151484226808E-3  
 2.276000000000000E10    1.012443302897736E-3  -3.158792707836255E-3  
 2.278000000000000E10   -2.014837264141534E-3  -1.069120726242545E-4  
 2.280000000000000E10   -5.011034390918212E-4   3.740672436833847E-4  
 2.282000000000000E10    4.852324511261941E-5   9.445957493880997E-5  
 2.284000000000000E10   -1.317252026638016E-3   6.182065008033533E-4  
 2.286000000000000E10    1.030752198857954E-3   1.850228058174253E-3  
 2.288000000000000E10    2.737064714892767E-3  -6.092135008657351E-4  
 2.290000000000000E10    6.772983010705502E-5  -4.191050364170224E-3  
 2.292000000000000E10   -4.276444175047800E-3  -2.649875004863134E-4  
 2.294000000000000E10   -5.181665874260943E-4   3.499142301734537E-3  
 2.296000000000000E10    3.634790831711143E-3   2.044744360318873E-3  
 2.298000000000000E10    2.507777971914038E-3  -3.453998375334777E-3  
 2.300000000000000E10   -1.479043858125806E-3  -2.152606102754362E-3  
 2.302000000000000E10   -1.798094439436682E-3   4.147487525187898E-4  
 2.304000000000000E10    2.911443716584472E-4   7.931856707728002E-4  
 2.306000000000000E10   -6.795458539272659E-4   4.292486428312259E-4  
 2.308000000000000E10    9.377021306136157E-4   4.600264819600852E-4  
 2.310000000000000E10    1.984136179089546E-3  -1.010787524137413E-3  
 2.312000000000000E10   -6.609000993194059E-4  -2.544720657169819E-3  
 2.314000000000000E10   -2.659055709955283E-3   3.421451274334686E-4  
 2.316000000000000E10    7.626802544109523E-4   1.789831716450863E-3  
 2.318000000000000E10    1.324068696703762E-3  -2.702652454900090E-4  
 2.320000000000000E10   -6.161512901599053E-4  -1.867226870672312E-3  
 2.322000000000000E10   -1.533796857984271E-3   4.184204226476140E-4  
 2.324000000000000E10   -1.021955836222332E-5   1.310132996877655E-3  
 2.326000000000000E10    5.899704447074328E-4  -1.084358751541004E-3  
 2.328000000000000E10   -1.093742655939423E-3  -1.737440135912038E-3  
 2.330000000000000E10   -1.458401711715851E-3   7.113193387340289E-4  
 2.332000000000000E10    1.979163371288450E-4   1.445190093363635E-3  
 2.334000000000000E10    1.650870675803162E-3   3.328659204271389E-4  
 2.336000000000000E10    3.986417887062999E-4  -1.316937898536708E-4  
 2.338000000000000E10   -5.725707887904719E-4  -9.260782717319671E-4  
 2.340000000000000E10   -1.383517519570887E-3  -3.165422604070045E-4  
 2.342000000000000E10   -2.405661347438581E-3   1.445026740839239E-3  
 2.344000000000000E10    6.330767901090439E-4   2.716660135774873E-3  
 2.346000000000000E10    2.995009752339684E-3   8.119746089505497E-4  
 2.348000000000000E10    9.326923136541154E-4  -2.933730909717269E-3  
 2.350000000000000E10   -2.666309243068099E-3  -2.341588915442117E-3  
 2.352000000000000E10   -2.424285718007013E-3   2.898124264902435E-3  
 2.354000000000000E10    1.565118400321808E-3   2.538264976465143E-3  
 2.356000000000000E10    2.927677021943964E-3  -2.359962445552810E-4  
 2.358000000000000E10    1.018450835545082E-3  -2.156473638024181E-3  
 2.360000000000000E10   -6.450169457821176E-4  -9.813898141146638E-4  
 2.362000000000000E10   -2.008060786465649E-3   4.724377322418150E-5  
 2.364000000000000E10   -4.930048708047252E-4   2.049174960120581E-3  
 2.366000000000000E10    1.512884264229797E-3   2.060714134131558E-3  
 2.368000000000000E10    2.905562607338652E-3  -1.218691220856272E-3  
 2.370000000000000E10    2.291819710080745E-4  -2.722538512898609E-3  
 2.372000000000000E10   -2.903148051700555E-3  -9.193412806780543E-4  
 2.374000000000000E10   -4.592180903273402E-4   2.772272026049905E-3  
 2.376000000000000E10    2.180294002755545E-3   6.619954583584331E-4  
 2.378000000000000E10    1.083169692719821E-3  -1.843640435254201E-3  
 2.380000000000000E10   -1.152519769675564E-3  -1.829220494187211E-4  
 2.382000000000000E10    4.162689510849305E-4   4.287519186618738E-4  
 2.384000000000000E10    1.059310325217666E-3  -9.720005837152712E-4  
 2.386000000000000E10   -8.706506159796845E-4  -8.446716637990903E-4  
 2.388000000000000E10   -7.039261799945962E-4   1.135516744398046E-3  
 2.390000000000000E10    1.036863919580355E-3   1.408951447956497E-4  
 2.392000000000000E10   -1.591148597981373E-4  -9.178288528346457E-4  
 2.394000000000000E10   -7.214114666567184E-4   1.853286976256641E-4  
 2.396000000000000E10    1.441463631635997E-3   5.723240246879868E-4  
 2.398000000000000E10    3.115040126431268E-4  -1.970119177713059E-3  
 2.400000000000000E10   -2.581109249149449E-3  -1.295978945563547E-3  
 2.402000000000000E10   -1.196197292301804E-3   3.910550352884457E-3  
 2.404000000000000E10    3.729891162947752E-3   1.641589107748587E-3  
 2.406000000000000E10    2.289628464495763E-3  -2.970718458527699E-3  
 2.408000000000000E10   -2.573693403974176E-3  -2.277982886880636E-3  
 2.410000000000000E10   -2.140432072337717E-3   2.180834999307990E-3  
 2.412000000000000E10    1.242782607732806E-3   1.562338016810827E-3  
 2.414000000000000E10    9.641392898629420E-4  -6.034701698354184E-5  
 2.416000000000000E10    5.149831577000441E-4   3.338311234983848E-4  
 2.418000000000000E10    1.683346570644062E-3  -1.728606430333457E-4  
 2.420000000000000E10   -8.142197975757881E-5  -2.178510287194513E-3  
 2.422000000000000E10   -3.158483290462755E-3  -6.682842104055453E-4  
 2.424000000000000E10   -1.073468498361763E-3   4.171173815848306E-3  
 2.426000000000000E10    4.452287597814575E-3   1.586856829817407E-3  
 2.428000000000000E10    2.717690513236448E-3  -3.907719306880608E-3  
 2.430000000000000E10   -3.632430540164933E-3  -3.028371589607559E-3  
 2.432000000000000E10   -1.905296114273369E-3   2.419360345811583E-3  
 2.434000000000000E10    2.090549387503415E-3   1.336644672846887E-3  
 2.436000000000000E10    6.269038894970436E-4  -1.712709876301233E-3  
 2.438000000000000E10   -1.350652768451255E-3  -3.356090564921033E-4  
 2.440000000000000E10    9.519281557004433E-4   1.176747900899500E-3  
 2.442000000000000E10    1.311701700615231E-3  -1.957725864485838E-3  
 2.444000000000000E10   -2.442899814923294E-3  -1.622070543817245E-3  
 2.446000000000000E10   -2.130610140739009E-3   1.863058816525154E-3  
 2.448000000000000E10    2.322026062756777E-3   1.978139946004376E-3  
 2.450000000000000E10    1.429975905921310E-3  -2.239581372123212E-3  
 2.452000000000000E10   -2.653327013831586E-3  -1.316613444942050E-3  
 2.454000000000000E10   -1.388120879710186E-3   2.577893756097183E-3  
 2.456000000000000E10    2.452087690471672E-3   4.010030297649792E-4  
 2.458000000000000E10   -4.775800571223954E-4  -3.163615794619545E-3  
 2.460000000000000E10   -3.793449504883029E-3   2.342125289942487E-4  
 2.462000000000000E10    1.736703154620045E-4   3.920438859495334E-3  
 2.464000000000000E10    3.530809437506832E-3  -2.029435863732942E-4  
 2.466000000000000E10   -7.053163699310971E-5  -3.517514196573757E-3  
 2.468000000000000E10   -3.322575794300064E-3   5.054564680904150E-4  
 2.470000000000000E10    2.906340923800599E-4   2.774895096081309E-3  
 2.472000000000000E10    1.167153379356023E-3  -1.958169677891419E-4  
 2.474000000000000E10   -1.061923423549160E-3  -8.476815492031165E-4  
 2.476000000000000E10   -1.234727415067027E-4   2.171443658880889E-3  
 2.478000000000000E10    3.343542965012603E-3  -3.695802188303787E-4  
 2.480000000000000E10   -4.554960542009212E-4  -3.417354266275652E-3  
 2.482000000000000E10   -3.966060496168211E-3   4.536507185548544E-4  
 2.484000000000000E10    3.012779288837919E-4   5.069107923191041E-3  
 2.486000000000000E10    5.303083889884874E-3   6.278068467509002E-4  
 2.488000000000000E10    4.588338615576504E-4  -4.304565780330449E-3  
 2.490000000000000E10   -3.811915143160150E-3  -5.446767136163544E-4  
 2.492000000000000E10   -2.081516822727281E-4   2.997213639901020E-3  
 2.494000000000000E10    1.951301543158479E-3   4.093856787221739E-4  
 2.496000000000000E10   -7.301920159079600E-4  -1.816415977373254E-3  
 2.498000000000000E10   -9.567597480781842E-4   1.521268110082019E-3  
 2.500000000000000E10    2.583337918622419E-3   6.214807435753755E-4  
 2.502000000000000E10    7.932432854431681E-4  -3.144330446957611E-3  
 2.504000000000000E10   -3.136208339128643E-3  -9.100862880586647E-4  
 2.506000000000000E10   -7.914247034932487E-4   3.527223161654547E-3  
 2.508000000000000E10    3.374409890966490E-3   1.293643741519190E-3  
 2.510000000000000E10    1.355155400233343E-3  -3.359922091476619E-3  
 2.512000000000000E10   -3.500168852042407E-3  -6.130955007392913E-4  
 2.514000000000000E10   -3.024516502136976E-5   3.745640889974311E-3  
 2.516000000000000E10    3.281090292148292E-3  -5.457945953821763E-4  
 2.518000000000000E10   -1.163839056971483E-3  -2.621273102704436E-3  
 2.520000000000000E10   -2.704238140722737E-3   1.649807192734443E-3  
 2.522000000000000E10    2.270379773108289E-3   3.260507684899494E-3  
 2.524000000000000E10    2.982995734782890E-3  -1.716826824122109E-3  
 2.526000000000000E10   -1.503169478382915E-3  -2.960078825708479E-3  
 2.528000000000000E10   -2.322867891052738E-3   2.479480870533735E-3  
 2.530000000000000E10    3.218859055778012E-3   2.051664399914444E-3  
 2.532000000000000E10    1.490566617576405E-3  -1.914855150971562E-3  
 2.534000000000000E10   -2.183522854465991E-3  -2.883026427298319E-4  
 2.536000000000000E10    6.597044848604128E-4   3.457294631516561E-3  
 2.538000000000000E10    3.855104703688994E-3  -9.082614342332818E-4  
 2.540000000000000E10   -5.740061897085980E-4  -4.340877465438098E-3  
 2.542000000000000E10   -4.791333805769682E-3   9.954522538464516E-4  
 2.544000000000000E10    1.518558521638624E-3   4.308322677388787E-3  
 2.546000000000000E10    5.106773343868554E-3  -1.533427246613428E-3  
 2.548000000000000E10   -9.710681333672255E-4  -4.811253456864506E-3  
 2.550000000000000E10   -3.592884255340323E-3   9.990192993427627E-4  
 2.552000000000000E10    2.209268248407170E-3   2.088549226755276E-3  
 2.554000000000000E10    1.277237257454544E-3  -1.469665396143682E-3  
 2.556000000000000E10   -2.138517302228138E-3  -1.001135635306127E-3  
 2.558000000000000E10   -2.624768167152070E-4   2.923669118899852E-3  
 2.560000000000000E10    3.034743655007333E-3  -4.877813735220116E-4  
 2.562000000000000E10   -1.040545175783336E-3  -3.986576048191637E-3  
 2.564000000000000E10   -5.384201765991747E-3   5.467209266498685E-4  
 2.566000000000000E10    2.620851173560368E-4   5.448063719086349E-3  
 2.568000000000000E10    4.639967344701290E-3  -1.305130776017904E-3  
 2.570000000000000E10   -1.638083835132420E-3  -4.565221839584410E-3  
 2.572000000000000E10   -4.595993610564619E-3   1.560289107146673E-3  
 2.574000000000000E10    1.505049440311268E-3   3.951229911763221E-3  
 2.576000000000000E10    2.814795414451510E-3  -2.394685609033331E-3  
 2.578000000000000E10   -3.386572963790968E-3  -1.855249516665936E-3  
 2.580000000000000E10   -2.229826117400080E-3   4.199996648821980E-3  
 2.582000000000000E10    3.544461622368544E-3   1.548748623463325E-3  
 2.584000000000000E10    8.789107232587412E-4  -3.211549978004769E-3  
 2.586000000000000E10   -4.714567156042904E-3  -1.106947620428400E-4  
 2.588000000000000E10   -7.752259989501908E-4   4.123816150240600E-3  
 2.590000000000000E10    3.210345254046843E-3   5.630985979223624E-4  
 2.592000000000000E10   -5.082744683022611E-4  -3.232673829188570E-3  
 2.594000000000000E10   -3.908820974174887E-3   1.765958833857440E-3  
 2.596000000000000E10    2.238682413008064E-3   4.161089716944844E-3  
 2.598000000000000E10    3.900012932717800E-3  -3.230303380405530E-3  
 2.600000000000000E10   -3.477979131275788E-3  -3.676658350741491E-3  
 2.602000000000000E10   -3.581064229365438E-3   4.362941544968635E-3  
 2.604000000000000E10    4.571961646433920E-3   3.620537143433467E-3  
 2.606000000000000E10    3.199405706254765E-3  -3.315460606245324E-3  
 2.608000000000000E10   -2.850600722013041E-3  -2.739353745710105E-3  
 2.610000000000000E10   -1.853455047239550E-3   2.967927226563916E-3  
 2.612000000000000E10    2.808713179547340E-3   9.890538494801149E-4  
 2.614000000000000E10    9.815237717702985E-4  -2.501256967661902E-3  
 2.616000000000000E10   -3.189439157722518E-3   3.078180925513152E-4  
 2.618000000000000E10    1.836936382460408E-3   3.201888845069334E-3  
 2.620000000000000E10    4.069583315867931E-3  -2.561497007263824E-3  
 2.622000000000000E10   -2.291500160936266E-3  -4.776648594997823E-3  
 2.624000000000000E10   -4.254441068042070E-3   2.199502283474430E-3  
 2.626000000000000E10    2.923933003330603E-3   4.005052673164755E-3  
 2.628000000000000E10    4.780042741913348E-3  -3.627928002970293E-3  
 2.630000000000000E10   -2.877722552511841E-3  -3.964803589042276E-3  
 2.632000000000000E10   -2.640710852574557E-3   2.814729814417660E-3  
 2.634000000000000E10    3.791571885813028E-3   1.948924647876993E-3  
 2.636000000000000E10    1.398843232891522E-3  -3.812964714597911E-3  
 2.638000000000000E10   -4.486110410653055E-3  -1.223306040628813E-3  
 2.640000000000000E10   -1.628324316698127E-4   4.348338581621647E-3  
 2.642000000000000E10    4.495200759265572E-3  -3.487479516479652E-4  
 2.644000000000000E10   -3.899863331753295E-4  -4.595080739818513E-3  
 2.646000000000000E10   -4.408915585372597E-3   4.825008763873484E-4  
 2.648000000000000E10    1.176033692900091E-3   4.170815751422197E-3  
 2.650000000000000E10    3.606600424973294E-3  -1.754052253090777E-3  
 2.652000000000000E10   -2.377396216616035E-3  -2.928438509115949E-3  
 2.654000000000000E10   -2.571108518168330E-3   3.181057225447148E-3  
 2.656000000000000E10    4.437268362380564E-3   1.937500288477168E-3  
 2.658000000000000E10    1.272926834644750E-3  -4.796942055691034E-3  
 2.660000000000000E10   -5.517564830370247E-3  -1.342809278867208E-3  
 2.662000000000000E10   -1.300159550737590E-3   6.028681353200227E-3  
 2.664000000000000E10    5.474330449942499E-3   1.085407042410225E-3  
 2.666000000000000E10    8.481831464450806E-4  -5.083751981146634E-3  
 2.668000000000000E10   -4.830013902392238E-3  -2.302986649738159E-4  
 2.670000000000000E10    9.674052898844820E-5   4.097814846318215E-3  
 2.672000000000000E10    3.584235586458817E-3  -4.497768786677625E-4  
 2.674000000000000E10   -1.254258633707650E-3  -2.500790113117546E-3  
 2.676000000000000E10   -2.637435973156244E-3   2.925123058957979E-3  
 2.678000000000000E10    3.075145388720557E-3   2.764847478829324E-3  
 2.680000000000000E10    2.854979975381866E-3  -3.123923874227330E-3  
 2.682000000000000E10   -4.035749298054725E-3  -1.949276367668062E-3  
 2.684000000000000E10   -2.310993702849373E-3   5.016181792598218E-3  
 2.686000000000000E10    4.951933573465794E-3   1.986405186471529E-3  
 2.688000000000000E10    1.195109856780618E-3  -4.034783982206136E-3  
 2.690000000000000E10   -4.443606943823397E-3  -4.063838678121101E-4  
 2.692000000000000E10    4.374568452476524E-4   4.496157343965024E-3  
 2.694000000000000E10    4.207763762678951E-3  -1.201232284074649E-3  
 2.696000000000000E10   -1.754941054969095E-3  -3.840218094410375E-3  
 2.698000000000000E10   -4.170629603322595E-3   2.326352085219696E-3  
 2.700000000000000E10    2.753176609985530E-3   3.758732200367376E-3  
 2.702000000000000E10    4.128753382246941E-3  -2.453526627505198E-3  
 2.704000000000000E10   -2.872054610634223E-3  -3.930231672711670E-3  
 2.706000000000000E10   -3.151328011881560E-3   2.356654644245282E-3  
 2.708000000000000E10    1.997405459405854E-3   2.647198591148481E-3  
 2.710000000000000E10    2.149085659766570E-3  -2.508264267817140E-3  
 2.712000000000000E10   -2.969248365843669E-3  -5.923952921875753E-4  
 2.714000000000000E10   -5.781330110039562E-4   2.652447728905827E-3  
 2.716000000000000E10    3.038288006791845E-3  -9.364159050164744E-4  
 2.718000000000000E10   -1.631697421544232E-3  -3.648590005468577E-3  
 2.720000000000000E10   -4.740830801893026E-3   1.642887713387609E-3  
 2.722000000000000E10    1.548215921502560E-3   4.115900839678943E-3  
 2.724000000000000E10    4.295649938285351E-3  -2.077231736620888E-3  
 2.726000000000000E10   -2.221926464699209E-3  -4.543399380054325E-3  
 2.728000000000000E10   -3.984323353506625E-3   1.498876095865853E-3  
 2.730000000000000E10    1.573275701957755E-3   3.361088311066851E-3  
 2.732000000000000E10    2.562656678492203E-3  -1.927033707033843E-3  
 2.734000000000000E10   -2.292700810357928E-3  -2.129627682734281E-3  
 2.736000000000000E10   -1.938201428856701E-3   2.512333448976278E-3  
 2.738000000000000E10    2.861246495740488E-3   1.780673686880618E-3  
 2.740000000000000E10    4.323441062297206E-4  -3.098571964073926E-3  
 2.742000000000000E10   -3.280616016127169E-3   8.376245932595339E-5  
 2.744000000000000E10   -5.624195691780187E-4   3.746496775420383E-3  
 2.746000000000000E10    3.222738538170233E-3   1.951599551830441E-4  
 2.748000000000000E10   -6.871966470498592E-4  -2.945123123936355E-3  
 2.750000000000000E10   -3.123261296423152E-3   1.118875778047368E-3  
 2.752000000000000E10    1.477990605053492E-3   2.721640921663493E-3  
 2.754000000000000E10    2.569857024354860E-3  -2.109024557285011E-3  
 2.756000000000000E10   -2.620438084704801E-3  -2.434717345749959E-3  
