#  HZ   S   RI   R     50.00 
! Rohde & Schwarz ZVA40 4Ports - Version 3.90 - 1145.1110k42 SN: 100403
! Date: 2023-10-04 06:00:40
! Measurement: S12 
! 
 2.200000000000000E10    2.832250298197891E-3  -2.988774740586564E-4  
 2.202000000000000E10   -7.899351016531497E-4  -3.514900701972579E-3  
 2.204000000000000E10   -4.181421777218475E-3   1.086356588712700E-3  
 2.206000000000000E10    4.328866621179373E-4   4.340000165214519E-3  
 2.208000000000000E10    4.863339993363525E-3  -1.086485053363617E-3  
 2.210000000000000E10   -8.472141043540660E-4  -4.168225984670926E-3  
 2.212000000000000E10   -3.996494951863383E-3   6.159629128035249E-4  
 2.214000000000000E10    1.078997910383350E-3   3.029667234756062E-3  
 2.216000000000000E10    1.554854971644204E-3  -1.365215935265951E-3  
 2.218000000000000E10   -1.579117958584675E-3   1.310180519453752E-5  
 2.220000000000000E10    1.577865125383937E-3   2.516835520310679E-3  
 2.222000000000000E10    3.498292179628493E-3  -1.667539227739212E-3  
 2.224000000000000E10   -2.326110561629236E-3  -2.878363990589605E-3  
 2.226000000000000E10   -3.424800200335199E-3   3.204208073590564E-3  
 2.228000000000000E10    2.357521708219679E-3   4.048118900868758E-3  
 2.230000000000000E10    3.533262421598238E-3  -1.984468631661684E-3  
 2.232000000000000E10   -1.087706606938355E-3  -3.447553461427333E-3  
 2.234000000000000E10   -2.484637879646812E-3   1.401206505164510E-3  
 2.236000000000000E10    1.526201385090076E-3   1.497240265237565E-3  
 2.238000000000000E10    7.708888413162640E-4  -1.515802417145551E-3  
 2.240000000000000E10   -1.375024580980266E-3  -2.551041367837570E-5  
 2.242000000000000E10    1.159293726132660E-3   1.619602952686705E-3  
 2.244000000000000E10    2.357493798527344E-3  -1.245495382093509E-3  
 2.246000000000000E10   -1.422188780524136E-3  -2.145369917016637E-3  
 2.248000000000000E10   -1.982134519536771E-3   1.471421403174134E-3  
 2.250000000000000E10    1.033205902793100E-3   2.264636613872995E-3  
 2.252000000000000E10    1.579189197869368E-3  -1.855387135492492E-3  
 2.254000000000000E10   -2.133219861789826E-3  -1.672042984949940E-3  
 2.256000000000000E10   -8.231081751972624E-4   1.721241923696937E-3  
 2.258000000000000E10    1.952855140146426E-3  -1.298272178473781E-5  
 2.260000000000000E10    3.171024988688487E-4  -2.009783395514830E-3  
 2.262000000000000E10   -2.579979579067526E-3  -5.973277712456593E-4  
 2.264000000000000E10   -8.053968615584495E-4   2.493767664020652E-3  
 2.266000000000000E10    2.604532162891360E-3   1.087548627787260E-3  
 2.268000000000000E10    1.972666483922581E-4  -1.735749131526632E-3  
 2.270000000000000E10   -1.841270593857303E-3  -2.300231829992505E-4  
 2.272000000000000E10   -4.583056740976588E-4   1.276782877425831E-3  
 2.274000000000000E10   -6.892690065427587E-4  -8.442170201590216E-4  
 2.276000000000000E10   -1.660301816315268E-3  -1.124041304478851E-5  
 2.278000000000000E10    4.988345610499323E-4   2.167523844609498E-3  
 2.280000000000000E10    2.977030412663950E-3  -5.532338885920751E-4  
 2.282000000000000E10    1.779951515892914E-3  -2.715046440775915E-3  
 2.284000000000000E10   -3.284971911725165E-3   3.518680613368019E-5  
 2.286000000000000E10   -7.255610719347772E-4   4.008164735450848E-3  
 2.288000000000000E10    2.965995507636876E-3   1.770973591348479E-3  
 2.290000000000000E10    8.980709802199893E-4  -1.600271954828259E-3  
 2.292000000000000E10   -1.219500507005478E-3  -2.777182430175884E-4  
 2.294000000000000E10   -3.829625524183200E-4   5.114477937127049E-4  
 2.296000000000000E10   -8.144008691601812E-4  -1.004216178088768E-4  
 2.298000000000000E10   -7.776617214538817E-4   5.384194775928108E-4  
 2.300000000000000E10    1.115287444690694E-3   2.241898639013584E-3  
 2.302000000000000E10    3.154717793009354E-3  -7.746195555675683E-4  
 2.304000000000000E10   -1.187983620685174E-4  -3.510690819719997E-3  
 2.306000000000000E10   -3.293901506133068E-3   2.004495518423965E-4  
 2.308000000000000E10    2.620400349506724E-4   3.139390672844300E-3  
 2.310000000000000E10    3.096168439128633E-3   1.756470094029794E-4  
 2.312000000000000E10    6.315623794961311E-4  -1.687043432752944E-3  
 2.314000000000000E10   -1.370589340311312E-3   2.782370974632187E-4  
 2.316000000000000E10    1.240564782790443E-3   1.205948417961622E-3  
 2.318000000000000E10    2.739822056696539E-4  -1.174206301751468E-3  
 2.320000000000000E10   -2.189228567996082E-3  -5.194908663028741E-4  
 2.322000000000000E10    3.057933239603017E-5   1.512463775590334E-3  
 2.324000000000000E10    2.136833956431827E-3  -3.396960079555811E-4  
 2.326000000000000E10    4.333893233621211E-6  -2.951843649697139E-3  
 2.328000000000000E10   -1.841711627534437E-3   5.345798875566743E-5  
 2.330000000000000E10    9.641141231995221E-4   7.684329041346416E-4  
 2.332000000000000E10    1.413019103988944E-3  -1.482632301375020E-3  
 2.334000000000000E10   -1.850272935357111E-3  -1.408197858838278E-3  
 2.336000000000000E10   -1.442744715104638E-3   2.339400923882407E-3  
 2.338000000000000E10    2.835881645225413E-3   1.535519249014072E-3  
 2.340000000000000E10    1.258947888118200E-3  -4.149406118081345E-3  
 2.342000000000000E10   -4.406789342695561E-3  -1.780936000137956E-3  
 2.344000000000000E10   -2.233587252906233E-3   2.591697213901512E-3  
 2.346000000000000E10    2.949383913559700E-3   1.487818279063191E-3  
 2.348000000000000E10    6.080326896800159E-4  -2.075723859732648E-3  
 2.350000000000000E10   -1.163821971772450E-3  -3.617095100736378E-4  
 2.352000000000000E10    1.853432711698133E-4   6.391810946269061E-4  
 2.354000000000000E10    2.075940825179146E-4  -1.824704941427058E-3  
 2.356000000000000E10   -3.480731694608608E-3  -4.874002609422945E-5  
 2.358000000000000E10   -3.795558719090764E-4   4.035621618243113E-3  
 2.360000000000000E10    5.090394548417976E-3   7.633032413068008E-4  
 2.362000000000000E10    1.085824614186493E-3  -4.669363321449183E-3  
 2.364000000000000E10   -4.759608757819223E-3  -1.034116077690328E-3  
 2.366000000000000E10   -1.969109275265168E-3   4.476808294114676E-3  
 2.368000000000000E10    4.093891368569302E-3   2.032276481500617E-3  
 2.370000000000000E10    1.244819447395074E-3  -2.400770356615567E-3  
 2.372000000000000E10   -2.206817474629474E-3   1.458335337396477E-4  
 2.374000000000000E10    6.604375207235336E-4   1.711713463848241E-3  
 2.376000000000000E10    1.792942515933760E-3  -1.830359145095883E-3  
 2.378000000000000E10   -2.580334269929097E-3  -9.833093392614956E-4  
 2.380000000000000E10   -2.543217851140867E-4   3.178510799386636E-3  
 2.382000000000000E10    3.871784111744603E-3   1.424761214842363E-3  
 2.384000000000000E10    1.542908128772780E-3  -4.112953369990180E-3  
 2.386000000000000E10   -3.713436440516915E-3  -7.927548694901532E-4  
 2.388000000000000E10   -3.816401621001830E-4   4.053441477999797E-3  
 2.390000000000000E10    4.026676858671863E-3  -2.364538803103500E-4  
 2.392000000000000E10   -6.994913545086412E-4  -3.798094008892861E-3  
 2.394000000000000E10   -3.754688394032257E-3   1.976171465075893E-3  
 2.396000000000000E10    2.560422438172338E-3   3.219708065266502E-3  
 2.398000000000000E10    3.437179488297915E-3  -2.772698170460330E-3  
 2.400000000000000E10   -3.163871865652368E-3  -3.948052601614904E-3  
 2.402000000000000E10   -2.785327848528141E-3   3.447343729675367E-3  
 2.404000000000000E10    3.430454604895772E-3   2.426853717686583E-3  
 2.406000000000000E10    1.958096187848923E-3  -2.961253160407296E-3  
 2.408000000000000E10   -2.509443421871538E-3  -6.680608569240576E-4  
 2.410000000000000E10    2.154369299773862E-4   2.029559374136625E-3  
 2.412000000000000E10    2.276150723055537E-3  -1.188239653586720E-3  
 2.414000000000000E10   -2.128983217097868E-3  -2.651354610505474E-3  
 2.416000000000000E10   -3.128733721963428E-3   3.948703541867715E-3  
 2.418000000000000E10    3.419827662320074E-3   4.410871184277632E-3  
 2.420000000000000E10    4.167125643169900E-3  -3.567036896228615E-3  
 2.422000000000000E10   -3.730072125662787E-3  -5.040919515426623E-3  
 2.424000000000000E10   -4.662507842475350E-3   4.204574173559905E-3  
 2.426000000000000E10    3.079212878887461E-3   4.361860342825707E-3  
 2.428000000000000E10    4.022463687050504E-3  -3.613060463274920E-3  
 2.430000000000000E10   -2.965539550672247E-3  -1.697413840460627E-3  
 2.432000000000000E10   -4.316243963558009E-4   2.969786392853280E-3  
 2.434000000000000E10    3.077712971219171E-3  -3.572970665217667E-4  
 2.436000000000000E10   -1.273707369602306E-3  -3.255440936392517E-3  
 2.438000000000000E10   -3.553644730224903E-3   2.234928259714053E-3  
 2.440000000000000E10    2.081833590761306E-3   3.710775599358840E-3  
 2.442000000000000E10    4.573604737721837E-3  -2.683816086701540E-3  
 2.444000000000000E10   -2.998227067635639E-3  -4.856151694511368E-3  
 2.446000000000000E10   -4.024767978506816E-3   2.332949103887927E-3  
 2.448000000000000E10    2.981951442166064E-3   3.822039299251401E-3  
 2.450000000000000E10    3.351888171721384E-3  -3.468148247463887E-3  
 2.452000000000000E10   -3.796320580647716E-3  -2.175145718453564E-3  
 2.454000000000000E10   -1.231710727275015E-3   3.625800588082484E-3  
 2.456000000000000E10    4.321960977321737E-3   1.167303523521568E-3  
 2.458000000000000E10    4.865954412860418E-4  -5.618711045912050E-3  
 2.460000000000000E10   -5.340484321052941E-3  -5.886143559417079E-4  
 2.462000000000000E10   -5.795319246402197E-4   5.125141438753644E-3  
 2.464000000000000E10    5.105771299000139E-3  -1.832341565526363E-4  
 2.466000000000000E10   -6.707663336440461E-4  -4.959706026610888E-3  
 2.468000000000000E10   -4.006377536910577E-3   8.190734064328353E-4  
 2.470000000000000E10    1.674552259583351E-3   3.096741878309217E-3  
 2.472000000000000E10    2.502238413988778E-3  -2.548895675638541E-3  
 2.474000000000000E10   -3.388519615640462E-3  -2.499805280315570E-3  
 2.476000000000000E10   -2.297861619598329E-3   4.187598859175523E-3  
 2.478000000000000E10    5.036188992832535E-3   1.734735025646472E-3  
 2.480000000000000E10    1.745057718203213E-3  -5.438997995227624E-3  
 2.482000000000000E10   -5.665715020114703E-3  -1.869309810192732E-3  
 2.484000000000000E10   -1.725933148810199E-3   6.044610366814140E-3  
 2.486000000000000E10    5.283394246788475E-3   8.431154202241942E-4  
 2.488000000000000E10    1.769508312872148E-4  -4.466187503851415E-3  
 2.490000000000000E10   -4.077646886088360E-3   2.182906730645584E-4  
 2.492000000000000E10    1.144962899862101E-3   3.217310411301355E-3  
 2.494000000000000E10    3.192596677379811E-3  -1.760689770696544E-3  
 2.496000000000000E10   -2.871403383796434E-3  -3.196215745269626E-3  
 2.498000000000000E10   -2.968604411723419E-3   3.391652821569835E-3  
 2.500000000000000E10    3.809075016846464E-3   3.216424447309407E-3  
 2.502000000000000E10    3.300891631049296E-3  -4.278893038744513E-3  
 2.504000000000000E10   -4.041329299582230E-3  -3.287632773854909E-3  
 2.506000000000000E10   -2.414239471242752E-3   3.590375944924062E-3  
 2.508000000000000E10    3.415722777646124E-3   1.939585719483716E-3  
 2.510000000000000E10    2.021008074876818E-3  -3.806487123597435E-3  
 2.512000000000000E10   -3.899358069645587E-3  -2.952809698228975E-4  
 2.514000000000000E10    6.411489307550644E-4   4.302363000107334E-3  
 2.516000000000000E10    3.862796727958084E-3  -1.596883467456678E-3  
 2.518000000000000E10   -2.337685639233200E-3  -4.089210522408848E-3  
 2.520000000000000E10   -4.741475528902583E-3   3.013680754483161E-3  
 2.522000000000000E10    2.632789321950213E-3   4.259708959779118E-3  
 2.524000000000000E10    4.370851173717938E-3  -2.554881971676082E-3  
 2.526000000000000E10   -2.787278969321960E-3  -4.322096264502306E-3  
 2.528000000000000E10   -3.871388205794801E-3   2.316556495145505E-3  
 2.530000000000000E10    2.630226526292745E-3   3.905738330900022E-3  
 2.532000000000000E10    2.686459736395364E-3  -2.837162457183240E-3  
 2.534000000000000E10   -3.865085391055345E-3  -1.266612445061099E-3  
 2.536000000000000E10   -1.101842187338775E-3   4.485521444934193E-3  
 2.538000000000000E10    4.283868620547082E-3   9.507529575998319E-4  
 2.540000000000000E10   -2.998330836163632E-4  -4.692377360413502E-3  
 2.542000000000000E10   -5.118059541473485E-3   1.390138916207206E-3  
 2.544000000000000E10    9.300476371407740E-4   5.203960039807498E-3  
 2.546000000000000E10    5.164237340181899E-3  -1.483179451128081E-3  
 2.548000000000000E10   -1.630254807110987E-3  -3.724618011062830E-3  
 2.550000000000000E10   -3.212707818846639E-3   3.215735250073237E-3  
 2.552000000000000E10    3.618823371624558E-3   2.980167246420251E-3  
 2.554000000000000E10    2.484979803568876E-3  -3.522283261489179E-3  
 2.556000000000000E10   -4.438436083063380E-3  -1.626991926812593E-3  
 2.558000000000000E10   -1.658163511500277E-3   5.155322785014960E-3  
 2.560000000000000E10    5.892326115088054E-3   1.214990862411725E-3  
 2.562000000000000E10    1.606294568830435E-3  -5.611119239745221E-3  
 2.564000000000000E10   -5.596245871515748E-3  -1.827829837992567E-3  
 2.566000000000000E10   -5.014924292350287E-4   5.401404889994410E-3  
 2.568000000000000E10    5.364303161513817E-3  -8.754703004569819E-4  
 2.570000000000000E10   -8.721508550024737E-4  -4.686293851250412E-3  
 2.572000000000000E10   -3.452133684334058E-3   1.455314521123796E-3  
 2.574000000000000E10    2.963232707458019E-3   2.809325719056233E-3  
 2.576000000000000E10    1.987516981500903E-3  -4.468642877412776E-3  
 2.578000000000000E10   -5.183175678922680E-3  -2.859755939653041E-3  
 2.580000000000000E10   -2.406085422819615E-3   4.651562113309637E-3  
 2.582000000000000E10    5.239191605426186E-3   1.134496128130991E-3  
 2.584000000000000E10    1.281512130518081E-3  -6.530585923002263E-3  
 2.586000000000000E10   -6.614000980277979E-3  -2.170381841681390E-3  
 2.588000000000000E10   -1.693948055461192E-3   4.792773157873853E-3  
 2.590000000000000E10    3.978593416348986E-3   4.953529841174031E-4  
 2.592000000000000E10   -3.892598726267238E-4  -5.275222836274907E-3  
 2.594000000000000E10   -5.635780520890421E-3   4.799339329721875E-4  
 2.596000000000000E10    1.610903975858946E-3   4.400037187963335E-3  
 2.598000000000000E10    3.621910503397885E-3  -2.435912420054365E-3  
 2.600000000000000E10   -4.043208711010493E-3  -4.557708241094360E-3  
 2.602000000000000E10   -4.549365762329671E-3   4.618325847161486E-3  
 2.604000000000000E10    3.830330306243468E-3   3.440009738966410E-3  
 2.606000000000000E10    2.502157349198342E-3  -3.767873354462381E-3  
 2.608000000000000E10   -5.075684584227247E-3  -2.307677759461058E-3  
 2.610000000000000E10   -1.739758549618387E-3   4.757311890529081E-3  
 2.612000000000000E10    4.365792714963845E-3   1.541951921282703E-3  
 2.614000000000000E10    1.565621442409793E-4  -4.618665722176729E-3  
 2.616000000000000E10   -5.404459841173548E-3   7.659378100761671E-4  
 2.618000000000000E10    1.260547337651019E-3   6.131548910587981E-3  
 2.620000000000000E10    6.558063047755525E-3  -1.146230184303931E-3  
 2.622000000000000E10   -1.755966354721750E-3  -5.682685353463057E-3  
 2.624000000000000E10   -4.852552437398572E-3   2.569383949065696E-3  
 2.626000000000000E10    2.397584843521372E-3   5.270181894559300E-3  
 2.628000000000000E10    5.149120796147599E-3  -2.405956927105990E-3  
 2.630000000000000E10   -3.343014579229475E-3  -3.531648095702167E-3  
 2.632000000000000E10   -1.975155409752460E-3   3.819306040099946E-3  
 2.634000000000000E10    4.433451253142096E-3   1.358112994836347E-3  
 2.636000000000000E10    1.691711818907038E-3  -4.757116090729596E-3  
 2.638000000000000E10   -5.345340892631612E-3  -3.895374846791810E-4  
 2.640000000000000E10    5.398364400548417E-4   5.442265250167111E-3  
 2.642000000000000E10    6.251859199721821E-3  -8.483663314606815E-5  
 2.644000000000000E10   -1.612952837426462E-4  -6.150779398922168E-3  
 2.646000000000000E10   -5.517075280863537E-3   7.790388534338888E-4  
 2.648000000000000E10    9.294239231394386E-4   5.654332360336412E-3  
 2.650000000000000E10    5.455293874291556E-3  -2.013800495561213E-3  
 2.652000000000000E10   -2.935829235639176E-3  -3.949788533105902E-3  
 2.654000000000000E10   -3.687485515911249E-3   3.549757839039103E-3  
 2.656000000000000E10    4.387136995887886E-3   2.750661418161826E-3  
 2.658000000000000E10    1.971849464695197E-3  -5.347437612101658E-3  
 2.660000000000000E10   -5.972044071199889E-3  -1.651112794874621E-3  
 2.662000000000000E10   -1.823241772115125E-3   6.175278842022181E-3  
 2.664000000000000E10    6.205537515427295E-3   1.318181604972324E-3  
 2.666000000000000E10    7.121164167926963E-4  -5.807572879916734E-3  
 2.668000000000000E10   -5.796984641335712E-3   1.790605647649102E-4  
 2.670000000000000E10    6.437078852106204E-4   5.145506011274392E-3  
 2.672000000000000E10    4.485955064552627E-3  -1.315976351914827E-3  
 2.674000000000000E10   -2.449213412390350E-3  -4.227693724942583E-3  
 2.676000000000000E10   -3.979143264984941E-3   3.459259754180266E-3  
 2.678000000000000E10    3.306898024305838E-3   3.864135927983625E-3  
 2.680000000000000E10    3.235019951404183E-3  -4.358130995029796E-3  
 2.682000000000000E10   -5.012496518872922E-3  -3.217256231181409E-3  
 2.684000000000000E10   -3.440327464289794E-3   5.325429344622989E-3  
 2.686000000000000E10    5.035132937251774E-3   2.299916986729045E-3  
 2.688000000000000E10    1.825336916283504E-3  -4.909480487583551E-3  
 2.690000000000000E10   -5.351862356405945E-3  -9.072084981021078E-4  
 2.692000000000000E10   -2.971664287727549E-4   4.937091394083382E-3  
 2.694000000000000E10    5.217443454228032E-3  -7.448580158495588E-4  
 2.696000000000000E10   -1.806189117857571E-3  -4.877777046154108E-3  
 2.698000000000000E10   -4.810728989298241E-3   2.678264951583742E-3  
 2.700000000000000E10    2.585132113125610E-3   4.808512398966514E-3  
 2.702000000000000E10    4.973163095826294E-3  -3.051681799803419E-3  
 2.704000000000000E10   -3.241257880205239E-3  -4.205460714274523E-3  
 2.706000000000000E10   -3.455178413787508E-3   2.847615259867098E-3  
 2.708000000000000E10    3.088970820073200E-3   3.239090464461469E-3  
 2.710000000000000E10    2.860526109458306E-3  -3.997864729313960E-3  
 2.712000000000000E10   -3.602315259882971E-3  -1.475629906089182E-3  
 2.714000000000000E10   -7.178405768684115E-4   3.819365030324207E-3  
 2.716000000000000E10    4.364562782171788E-3  -5.059991378146833E-4  
 2.718000000000000E10   -5.832982359521566E-4  -5.446242568893922E-3  
 2.720000000000000E10   -5.664304200593051E-3   8.122802724983558E-4  
 2.722000000000000E10    1.269122935525502E-3   5.495117988346010E-3  
 2.724000000000000E10    6.011659473870168E-3  -2.138119373711334E-3  
 2.726000000000000E10   -1.433169540973722E-3  -5.708697557736286E-3  
 2.728000000000000E10   -4.997486515662786E-3   1.106056621395624E-3  
 2.730000000000000E10    1.924380368606649E-3   4.252468844029522E-3  
 2.732000000000000E10    3.121458474566907E-3  -2.337576669617647E-3  
 2.734000000000000E10   -2.214932135757408E-3  -2.679485572173235E-3  
 2.736000000000000E10   -2.274952164214028E-3   2.728243467004177E-3  
 2.738000000000000E10    3.872923745831258E-3   9.322312764084018E-4  
 2.740000000000000E10    2.960697872076423E-4  -4.279095967660851E-3  
 2.742000000000000E10   -4.690751353905398E-3  -6.043868631326888E-4  
 2.744000000000000E10    1.306100311566638E-4   4.788228654405202E-3  
 2.746000000000000E10    4.874686092676939E-3  -6.543194138544095E-4  
 2.748000000000000E10   -3.358630832224208E-4  -4.426041619467469E-3  
 2.750000000000000E10   -4.579256851258151E-3   1.055345807202457E-3  
 2.752000000000000E10    1.657904501669805E-3   4.218982289387441E-3  
 2.754000000000000E10    3.799399233940903E-3  -1.866306407976026E-3  
 2.756000000000000E10   -2.450813912872718E-3  -3.679568008777778E-3  
