#  HZ   S   RI   R     50.00 
! Rohde & Schwarz ZVA40 4Ports - Version 3.90 - 1145.1110k42 SN: 100403
! Date: 2023-10-04 06:01:31
! Measurement: S12 
! 
 2.200000000000000E10   -4.833004968531895E-4   1.278659246963798E-4  
 2.202000000000000E10   -6.124867722974159E-4  -4.477321454032790E-4  
 2.204000000000000E10   -1.467835048970301E-3   7.371483443421312E-4  
 2.206000000000000E10    6.769559367967304E-4   2.232321174233221E-3  
 2.208000000000000E10    2.204718315624632E-3  -1.639220135984942E-3  
 2.210000000000000E10   -1.197977922856808E-3  -2.473775253747590E-3  
 2.212000000000000E10   -2.258203938254155E-3   1.375267944240477E-3  
 2.214000000000000E10    1.064056632458232E-3   2.244994204374962E-3  
 2.216000000000000E10    1.811161127989180E-3  -1.178238315333147E-3  
 2.218000000000000E10   -1.330323175352532E-3  -7.101033716025995E-4  
 2.220000000000000E10   -5.136315030540573E-4   2.165826634154655E-3  
 2.222000000000000E10    1.526545893284492E-3   5.856017160112970E-4  
 2.224000000000000E10   -3.679920337162912E-4  -3.774099022848532E-4  
 2.226000000000000E10   -4.999086067982717E-4   5.596371047431603E-4  
 2.228000000000000E10   -7.433950959239155E-4   1.101534886402078E-3  
 2.230000000000000E10    1.189077252092829E-4  -3.645084618142391E-6  
 2.232000000000000E10    2.344146278119297E-4   1.132185905589722E-3  
 2.234000000000000E10    1.336553948931396E-3   7.108601676009130E-4  
 2.236000000000000E10    9.991680053644814E-4  -1.057428533385973E-3  
 2.238000000000000E10   -9.417657674930524E-4  -1.483431282395031E-3  
 2.240000000000000E10   -1.638706729863770E-3   1.282087876461446E-3  
 2.242000000000000E10    1.305982004851103E-3   2.118872580467723E-3  
 2.244000000000000E10    2.955637624836527E-3  -3.909233146259794E-4  
 2.246000000000000E10    2.665158399395295E-4  -2.060930157313123E-3  
 2.248000000000000E10   -1.031489933666308E-3  -1.098289532819763E-3  
 2.250000000000000E10   -6.268700180953601E-4   9.044787220773287E-4  
 2.252000000000000E10   -4.611671429302078E-4   6.656932237092406E-4  
 2.254000000000000E10    1.132707540818956E-3   9.730630554258823E-4  
 2.256000000000000E10    1.562172619742341E-3  -4.505235192482360E-4  
 2.258000000000000E10    3.704412665683776E-4  -2.492752377293073E-3  
 2.260000000000000E10   -1.981363966478966E-3  -1.315595618507359E-3  
 2.262000000000000E10   -1.644279283937067E-3   1.210756912769284E-3  
 2.264000000000000E10    6.297661821008660E-4   1.585357487783767E-3  
 2.266000000000000E10    2.087053639115766E-3  -7.099472313711885E-4  
 2.268000000000000E10   -3.079241596424254E-4  -1.906970821437426E-3  
 2.270000000000000E10   -1.490479895437602E-3  -2.894287667913886E-4  
 2.272000000000000E10   -6.281394889811054E-4   3.099050027230987E-4  
 2.274000000000000E10   -8.534785229130648E-4  -1.327085560660635E-4  
 2.276000000000000E10   -6.985481413721573E-4   4.601194050337654E-4  
 2.278000000000000E10    8.843188734317664E-4   6.359647923090961E-4  
 2.280000000000000E10    7.245540291478392E-4  -1.063578405592125E-3  
 2.282000000000000E10   -8.322789108206052E-4  -1.697486331977416E-3  
 2.284000000000000E10   -1.446495727577712E-3   9.383666183566675E-4  
 2.286000000000000E10    1.734825209496194E-4   1.923854906635825E-3  
 2.288000000000000E10    3.902529406332178E-4  -8.996629730972927E-4  
 2.290000000000000E10   -1.230954061611556E-3   2.267680838485831E-4  
 2.292000000000000E10   -3.654483170976164E-4   1.139969732321333E-3  
 2.294000000000000E10    1.311096908466425E-3  -3.380199614184676E-4  
 2.296000000000000E10   -8.711960726941470E-4  -1.288542640395463E-3  
 2.298000000000000E10   -1.420163913280703E-3   1.967833477465319E-4  
 2.300000000000000E10    5.111030241096159E-4   3.093682651524432E-3  
 2.302000000000000E10    2.663619961822406E-3   2.115166753355879E-4  
 2.304000000000000E10    2.547529384173686E-4  -1.323853874055203E-3  
 2.306000000000000E10   -1.087094125978183E-3   8.634791811346076E-4  
 2.308000000000000E10    5.165412476344500E-4   4.283321650291327E-4  
 2.310000000000000E10   -2.768289396044565E-4  -9.216616381308995E-4  
 2.312000000000000E10   -7.553565446869470E-4   1.528821034298744E-3  
 2.314000000000000E10    9.821159146667924E-4   1.991935983824078E-3  
 2.316000000000000E10    3.197163605364040E-3  -1.432554898201488E-3  
 2.318000000000000E10   -5.127686272317078E-4  -2.828929020324722E-3  
 2.320000000000000E10   -3.050184575840831E-3  -2.148675785065279E-4  
 2.322000000000000E10   -1.153371476334542E-4   2.799463196424767E-3  
 2.324000000000000E10    3.827598382486031E-3   4.305593611206859E-4  
 2.326000000000000E10    7.553633367933799E-4  -2.972559697809629E-3  
 2.328000000000000E10   -9.296320058638230E-4  -9.504667104920372E-4  
 2.330000000000000E10    2.071270737360464E-4   1.081444039300550E-3  
 2.332000000000000E10    6.060360210540239E-4  -1.086880882212427E-3  
 2.334000000000000E10   -1.492475239501800E-3   2.055692152680422E-5  
 2.336000000000000E10    4.676750977523625E-4   2.609563467558473E-3  
 2.338000000000000E10    3.535309355356731E-3  -7.881184246798512E-4  
 2.340000000000000E10   -5.139628519827966E-4  -4.659149271901697E-3  
 2.342000000000000E10   -4.600360436597839E-3  -6.002818918204866E-4  
 2.344000000000000E10    1.666727171141247E-4   4.053628537803888E-3  
 2.346000000000000E10    4.361057857749984E-3  -2.577569539425895E-4  
 2.348000000000000E10   -7.392001680273097E-5  -3.638154958025552E-3  
 2.350000000000000E10   -2.508275312720798E-3   7.616767907165922E-4  
 2.352000000000000E10    1.130480042775162E-3   2.299565399880521E-3  
 2.354000000000000E10    1.800769881810993E-3  -2.046500609139912E-3  
 2.356000000000000E10   -3.307402119389735E-3  -1.771413924871013E-3  
 2.358000000000000E10   -1.111512647185009E-3   3.135665669105947E-3  
 2.360000000000000E10    3.749888492166065E-3   1.375132000248414E-3  
 2.362000000000000E10    6.901924207340926E-4  -4.384606203529984E-3  
 2.364000000000000E10   -3.875108246575110E-3  -1.797047511900018E-4  
 2.366000000000000E10   -4.658769375964766E-4   3.635973509517498E-3  
 2.368000000000000E10    3.849564454867505E-3  -3.261400461269659E-4  
 2.370000000000000E10   -1.036726687743794E-3  -3.053513966733590E-3  
 2.372000000000000E10   -3.090187266934663E-3   2.597645536297932E-3  
 2.374000000000000E10    3.144762333249673E-3   3.766857626033016E-3  
 2.376000000000000E10    3.562033918569796E-3  -4.230292339343578E-3  
 2.378000000000000E10   -4.569380456814542E-3  -2.743644610745832E-3  
 2.380000000000000E10   -2.971238311147317E-3   5.576586787356064E-3  
 2.382000000000000E10    4.600985295837745E-3   3.427845062105916E-3  
 2.384000000000000E10    2.910631796112284E-3  -4.218644608044997E-3  
 2.386000000000000E10   -3.948069090256468E-3  -1.979696717171464E-3  
 2.388000000000000E10   -1.357466295303311E-3   3.570915258023888E-3  
 2.390000000000000E10    3.884886711603031E-3   1.296723798986932E-4  
 2.392000000000000E10   -1.648203222430311E-3  -3.229649097193033E-3  
 2.394000000000000E10   -2.790807193377987E-3   3.117556218057871E-3  
 2.396000000000000E10    4.042183310957626E-3   3.207121117156930E-3  
 2.398000000000000E10    3.933304673410021E-3  -5.027015722589567E-3  
 2.400000000000000E10   -5.721789639210329E-3  -3.765562432818115E-3  
 2.402000000000000E10   -2.559389467933215E-3   5.995432380586863E-3  
 2.404000000000000E10    6.269456527661532E-3   3.042843934963457E-3  
 2.406000000000000E10    2.162758770282380E-3  -5.254803865682334E-3  
 2.408000000000000E10   -5.210062547121197E-3  -1.300405157962814E-3  
 2.410000000000000E10   -8.519176262780093E-4   4.208781698253006E-3  
 2.412000000000000E10    4.234927997458726E-3  -9.698292014945764E-4  
 2.414000000000000E10   -1.412381738191471E-3  -4.225172975566238E-3  
 2.416000000000000E10   -4.188647697446868E-3   2.388816836173646E-3  
 2.418000000000000E10    2.948031687992625E-3   4.456624039448798E-3  
 2.420000000000000E10    4.445543629117310E-3  -3.473925171419978E-3  
 2.422000000000000E10   -3.928463818738237E-3  -4.440503747900948E-3  
 2.424000000000000E10   -4.980494733899832E-3   4.390838905237615E-3  
 2.426000000000000E10    4.796056193299592E-3   3.892859589541331E-3  
 2.428000000000000E10    2.522778289858252E-3  -4.804363561561331E-3  
 2.430000000000000E10   -5.510704650077969E-3  -1.229297988174949E-3  
 2.432000000000000E10   -2.414676655462245E-4   5.486335576279089E-3  
 2.434000000000000E10    5.667418125085533E-3  -6.411709546227939E-4  
 2.436000000000000E10   -2.043448621407151E-3  -5.949752143351361E-3  
 2.438000000000000E10   -6.251515995245427E-3   2.435680391499773E-3  
 2.440000000000000E10    1.934368643560447E-3   6.132623646408320E-3  
 2.442000000000000E10    6.428406108170748E-3  -2.627987792948261E-3  
 2.444000000000000E10   -2.659565318026580E-3  -6.109857204137370E-3  
 2.446000000000000E10   -5.188050388824195E-3   2.628643458592705E-3  
 2.448000000000000E10    2.829464545357041E-3   4.204861645121127E-3  
 2.450000000000000E10    3.901094765751623E-3  -3.415100480196998E-3  
 2.452000000000000E10   -4.064728302182630E-3  -2.734836773015559E-3  
 2.454000000000000E10   -1.241366306203418E-3   4.760444426210597E-3  
 2.456000000000000E10    5.683894414687529E-3   7.741554873064160E-4  
 2.458000000000000E10    4.270518056728179E-4  -7.046478596748784E-3  
 2.460000000000000E10   -6.924292887561023E-3   2.253417510473810E-4  
 2.462000000000000E10    6.190633357618935E-4   6.758570962119848E-3  
 2.464000000000000E10    6.837887049186975E-3  -1.106313793570735E-3  
 2.466000000000000E10   -1.205565778946038E-3  -6.275607185671106E-3  
 2.468000000000000E10   -5.565952014876530E-3   1.503244318882935E-3  
 2.470000000000000E10    2.456076297676191E-3   4.443454701686278E-3  
 2.472000000000000E10    4.149280168348923E-3  -3.167246177326888E-3  
 2.474000000000000E10   -4.358569713076577E-3  -3.657900961115956E-3  
 2.476000000000000E10   -2.906256951973774E-3   4.784597083926201E-3  
 2.478000000000000E10    5.750848416937515E-3   2.717027979088016E-3  
 2.480000000000000E10    2.852052159141749E-3  -6.537022971315309E-3  
 2.482000000000000E10   -6.884523056214675E-3  -2.353592470171861E-3  
 2.484000000000000E10   -1.765027365763672E-3   6.986553897149861E-3  
 2.486000000000000E10    6.436963594751433E-3   9.204374218825251E-4  
 2.488000000000000E10   -1.886943277895625E-5  -5.717783642467111E-3  
 2.490000000000000E10   -4.830466059502214E-3   1.147968177974690E-3  
 2.492000000000000E10    1.711405362584628E-3   4.375710792373866E-3  
 2.494000000000000E10    4.114329727599397E-3  -2.642235936946236E-3  
 2.496000000000000E10   -4.301630688132718E-3  -3.944131429307163E-3  
 2.498000000000000E10   -3.289170417701826E-3   4.800822498509660E-3  
 2.500000000000000E10    5.352578649763018E-3   3.791999610257335E-3  
 2.502000000000000E10    4.320953128626570E-3  -5.932180705713108E-3  
 2.504000000000000E10   -5.566521489527077E-3  -3.681197558762506E-3  
 2.506000000000000E10   -2.929434180259705E-3   5.382241390179843E-3  
 2.508000000000000E10    5.832578870467842E-3   3.454887104453519E-3  
 2.510000000000000E10    2.480544470017776E-3  -5.736546940170229E-3  
 2.512000000000000E10   -5.144917871803045E-3  -7.008438988123089E-4  
 2.514000000000000E10   -1.968824972209404E-4   5.644870630931109E-3  
 2.516000000000000E10    5.411091609857976E-3  -1.081654976587743E-3  
 2.518000000000000E10   -2.871176897315309E-3  -5.152279976755381E-3  
 2.520000000000000E10   -4.994344082660973E-3   2.944962849142030E-3  
 2.522000000000000E10    3.004172904184088E-3   5.014995054807514E-3  
 2.524000000000000E10    4.596949554979801E-3  -4.022172419354320E-3  
 2.526000000000000E10   -4.107852990273386E-3  -4.498960333876312E-3  
 2.528000000000000E10   -3.824173414614052E-3   4.007991054095328E-3  
 2.530000000000000E10    4.699746379628778E-3   3.056195011595264E-3  
 2.532000000000000E10    1.880529423942789E-3  -4.927656380459666E-3  
 2.534000000000000E10   -6.179384945426136E-3  -1.284822719753720E-3  
 2.536000000000000E10   -1.080357600585558E-3   6.789713865146041E-3  
 2.538000000000000E10    6.545316602569073E-3  -3.366736964380834E-4  
 2.540000000000000E10   -1.295000227401033E-3  -6.945468019694090E-3  
 2.542000000000000E10   -7.835829630494118E-3   1.246557789272629E-3  
 2.544000000000000E10    1.542080644867383E-3   7.532049261499196E-3  
 2.546000000000000E10    6.290227349381894E-3  -1.976142550120130E-3  
 2.548000000000000E10   -2.591367490822449E-3  -4.960112506523728E-3  
 2.550000000000000E10   -4.188856983091682E-3   3.605366597184911E-3  
 2.552000000000000E10    3.508181194774807E-3   3.688794327899814E-3  
 2.554000000000000E10    1.482849620515481E-3  -3.654173953691497E-3  
 2.556000000000000E10   -5.328357627149671E-3  -2.883092747651972E-4  
 2.558000000000000E10   -3.838494158117101E-4   6.008722237311304E-3  
 2.560000000000000E10    6.186207057908177E-3   7.254084630403668E-5  
 2.562000000000000E10   -1.006019542728609E-4  -7.061271287966520E-3  
 2.564000000000000E10   -7.405906682834029E-3   7.054963061818853E-4  
 2.566000000000000E10    1.703463596641086E-3   7.826108194421977E-3  
 2.568000000000000E10    8.063418092206121E-3  -1.976479252334684E-3  
 2.570000000000000E10   -2.202017931267619E-3  -6.830166501458734E-3  
 2.572000000000000E10   -4.820356727577746E-3   3.610424813814461E-3  
 2.574000000000000E10    4.100744496099651E-3   4.601082648150623E-3  
 2.576000000000000E10    4.178400384262204E-3  -4.754582419991493E-3  
 2.578000000000000E10   -4.955297627020627E-3  -3.263951948611066E-3  
 2.580000000000000E10   -2.193396678194404E-3   4.899968451354653E-3  
 2.582000000000000E10    5.934245127718896E-3   1.130518212448806E-3  
 2.584000000000000E10    1.379433408146724E-3  -7.144623494241387E-3  
 2.586000000000000E10   -6.164351769257337E-3  -1.066278215148486E-3  
 2.588000000000000E10    4.770764135173522E-4   4.985944193322212E-3  
 2.590000000000000E10    6.470911612268537E-3  -1.574609690578654E-3  
 2.592000000000000E10   -2.024354238528758E-3  -6.708629720378667E-3  
 2.594000000000000E10   -5.776954407338053E-3   2.399427961790934E-3  
 2.596000000000000E10    3.300464712083340E-3   4.933367716148496E-3  
 2.598000000000000E10    5.607745959423482E-3  -5.221315775997937E-3  
 2.600000000000000E10   -6.287033145781606E-3  -5.931828578468412E-3  
 2.602000000000000E10   -5.420376721303910E-3   5.538938159588724E-3  
 2.604000000000000E10    5.442202673293650E-3   3.929610975319520E-3  
 2.606000000000000E10    3.092037688475102E-3  -6.294689490459859E-3  
 2.608000000000000E10   -5.877041374333203E-3  -2.989804663229734E-3  
 2.610000000000000E10   -2.280942804645747E-3   4.446028731763363E-3  
 2.612000000000000E10    4.406346532050520E-3   8.231334359152243E-4  
 2.614000000000000E10   -6.769794417778030E-4  -4.845338524319232E-3  
 2.616000000000000E10   -5.798454862087965E-3   1.514551913714968E-3  
 2.618000000000000E10    2.418322692392394E-3   6.308305717539042E-3  
 2.620000000000000E10    5.788224574644119E-3  -3.398512519197539E-3  
 2.622000000000000E10   -4.643239371944219E-3  -5.574425624217838E-3  
 2.624000000000000E10   -5.981982103548944E-3   5.142173147760332E-3  
 2.626000000000000E10    4.205847450066358E-3   6.434333452489227E-3  
 2.628000000000000E10    5.376945424359292E-3  -4.655216878745705E-3  
 2.630000000000000E10   -5.139226152095944E-3  -3.949162579374388E-3  
 2.632000000000000E10   -3.372837352799252E-3   5.007444531656802E-3  
 2.634000000000000E10    5.287036183290184E-3   3.024823614396155E-3  
 2.636000000000000E10    1.609332102816552E-3  -5.028797371778637E-3  
 2.638000000000000E10   -4.985168052371591E-3  -1.122265948652057E-4  
 2.640000000000000E10    8.904051064746454E-4   6.020319357048720E-3  
 2.642000000000000E10    6.114899413660169E-3  -5.408542347140610E-4  
 2.644000000000000E10   -1.347817626083270E-3  -5.379263020586222E-3  
 2.646000000000000E10   -5.546801199670881E-3   2.237566106487066E-3  
 2.648000000000000E10    2.578597748652101E-3   5.854628339875490E-3  
 2.650000000000000E10    5.389041500166059E-3  -2.998257754370570E-3  
 2.652000000000000E10   -3.809720888966695E-3  -4.760380368679762E-3  
 2.654000000000000E10   -3.461470187176019E-3   4.710665845777839E-3  
 2.656000000000000E10    5.142760928720236E-3   2.813013648847118E-3  
 2.658000000000000E10    2.432161942124367E-3  -6.395144853740931E-3  
 2.660000000000000E10   -6.208535865880549E-3  -1.672820581006818E-3  
 2.662000000000000E10   -2.009085874306038E-3   6.390858965460211E-3  
 2.664000000000000E10    6.827554607298225E-3   1.197922043502331E-3  
 2.666000000000000E10    1.515840310730710E-4  -6.669584428891540E-3  
 2.668000000000000E10   -6.275105755776167E-3   2.052463278232608E-4  
 2.670000000000000E10    3.218318779545371E-4   5.292804329656065E-3  
 2.672000000000000E10    4.880360036622733E-3  -1.768498608726077E-3  
 2.674000000000000E10   -2.824648341629654E-3  -4.205449775326997E-3  
 2.676000000000000E10   -4.351016890723258E-3   2.927563706180081E-3  
 2.678000000000000E10    4.230871272739023E-3   3.820090583758429E-3  
 2.680000000000000E10    3.166353417327628E-3  -5.322247568983585E-3  
 2.682000000000000E10   -6.023453606758267E-3  -3.259887569583952E-3  
 2.684000000000000E10   -3.458908409811556E-3   5.939532362390310E-3  
 2.686000000000000E10    5.990284320432693E-3   3.019370924448595E-3  
 2.688000000000000E10    2.255869709188119E-3  -5.852072732523084E-3  
 2.690000000000000E10   -6.009860720951110E-3  -1.887726131826639E-3  
 2.692000000000000E10   -9.421405193279497E-4   5.436655425000936E-3  
 2.694000000000000E10    4.897581995464861E-3  -1.471796640544199E-4  
 2.696000000000000E10   -1.193877251353115E-3  -4.559261025860906E-3  
 2.698000000000000E10   -4.834207647945732E-3   2.074725896818563E-3  
 2.700000000000000E10    3.353798383614048E-3   5.103316099848598E-3  
 2.702000000000000E10    4.484676988795400E-3  -4.117420990951359E-3  
 2.704000000000000E10   -4.304036963731051E-3  -4.300601256545633E-3  
 2.706000000000000E10   -4.025431757327169E-3   4.746624850668013E-3  
 2.708000000000000E10    4.921102256048471E-3   3.881752403685823E-3  
 2.710000000000000E10    3.632893553003669E-3  -4.771769454237074E-3  
 2.712000000000000E10   -4.644862201530486E-3  -2.740682277362794E-3  
 2.714000000000000E10   -1.719190055155195E-3   4.283657937776297E-3  
 2.716000000000000E10    4.829135199543089E-3   1.013147397316061E-3  
 2.718000000000000E10    4.320343214203604E-4  -5.074544867966324E-3  
 2.720000000000000E10   -5.058219307102263E-3   2.443241210130509E-4  
 2.722000000000000E10    1.727756942273118E-3   5.137893022038043E-3  
 2.724000000000000E10    5.971814971417189E-3  -1.951001773704775E-3  
 2.726000000000000E10   -2.044959430349991E-3  -5.659781978465617E-3  
 2.728000000000000E10   -4.714583104941994E-3   2.862544526578859E-3  
 2.730000000000000E10    3.336059860885143E-3   4.072735435329378E-3  
 2.732000000000000E10    3.907784121111035E-3  -3.124720271443948E-3  
 2.734000000000000E10   -3.553064831066877E-3  -3.701755689689890E-3  
 2.736000000000000E10   -2.722588076721877E-3   4.041871521621943E-3  
 2.738000000000000E10    4.591213946696371E-3   2.088377106701955E-3  
 2.740000000000000E10    1.996661550947465E-3  -5.305602040607482E-3  
 2.742000000000000E10   -5.703000351786614E-3  -1.231415546499193E-3  
 2.744000000000000E10   -5.473969795275480E-4   5.598296062089503E-3  
 2.746000000000000E10    5.923631251789630E-3   4.327406713855453E-4  
 2.748000000000000E10   -4.464376596047259E-5  -5.356537760235369E-3  
 2.750000000000000E10   -4.982433456461877E-3   3.980567271355540E-4  
 2.752000000000000E10    7.868593966122717E-4   4.434528585989028E-3  
 2.754000000000000E10    3.644646552857012E-3  -1.845103368395940E-3  
 2.756000000000000E10   -2.588584320619702E-3  -2.858494379324839E-3  
