#  HZ   S   RI   R     50.00 
! Rohde & Schwarz ZVA40 4Ports - Version 3.90 - 1145.1110k42 SN: 100403
! Date: 2023-10-04 06:02:05
! Measurement: S12 
! 
 2.200000000000000E10    3.324533263366902E-4   1.441011195311148E-4  
 2.202000000000000E10    7.024712904240005E-4  -2.120892545462993E-4  
 2.204000000000000E10   -6.948997615836561E-4  -1.366056188999210E-3  
 2.206000000000000E10   -1.540570134238806E-3   8.745347931835568E-4  
 2.208000000000000E10    6.820752532803454E-4   7.146393163566245E-4  
 2.210000000000000E10    8.594957835157402E-4  -1.322695232374826E-3  
 2.212000000000000E10   -8.862894464982674E-4  -7.662249736313243E-4  
 2.214000000000000E10   -1.468347712943796E-3  -6.672750305369846E-5  
 2.216000000000000E10   -1.232558643096127E-3   1.188442678540014E-3  
 2.218000000000000E10   -8.933585104387021E-5   1.962026020919439E-3  
 2.220000000000000E10    1.829190136049874E-3   3.492780733722611E-4  
 2.222000000000000E10   -3.041054924324271E-4  -2.850926342944149E-3  
 2.224000000000000E10   -3.256979420257267E-3   2.571552531662746E-4  
 2.226000000000000E10   -1.744867066008737E-3   2.864625072106719E-3  
 2.228000000000000E10    1.778081703378120E-3   1.541182391520124E-3  
 2.230000000000000E10    6.128448933395703E-5  -3.738451259778231E-4  
 2.232000000000000E10   -6.796289434873870E-5  -6.887065028422512E-4  
 2.234000000000000E10   -8.094276381598320E-6   6.077937141526490E-4  
 2.236000000000000E10   -1.340373844868736E-3  -5.973151705873647E-5  
 2.238000000000000E10   -1.216657179611502E-3   2.124665319570340E-3  
 2.240000000000000E10    1.389933469909011E-3   2.763487587799318E-3  
 2.242000000000000E10    3.101310423517134E-3  -8.877793879946694E-4  
 2.244000000000000E10   -1.106526193325408E-3  -2.567784467828460E-3  
 2.246000000000000E10   -2.529557743400801E-3   1.409257220075233E-3  
 2.248000000000000E10    8.255439151980681E-4   3.714989652507938E-3  
 2.250000000000000E10    3.034591325558722E-3  -8.956591336755082E-4  
 2.252000000000000E10   -8.041758374019992E-4  -1.201290302560665E-3  
 2.254000000000000E10   -1.588245722814463E-3   1.455115550925257E-3  
 2.256000000000000E10    2.588256145827472E-3   1.148024195572361E-3  
 2.258000000000000E10    1.098906743663974E-4  -2.768615879176650E-3  
 2.260000000000000E10   -2.002248362259707E-3  -2.412680386214561E-4  
 2.262000000000000E10    3.675218558782945E-4   2.168458508094773E-3  
 2.264000000000000E10    2.699408913031220E-3  -3.649052773653239E-4  
 2.266000000000000E10    8.562250513932668E-4  -2.742481192399282E-3  
 2.268000000000000E10   -1.464035645767581E-3   1.465431175802223E-4  
 2.270000000000000E10    4.347982776380377E-4   1.593781646079151E-3  
 2.272000000000000E10    1.724265814118553E-3  -1.735374367854092E-3  
 2.274000000000000E10   -2.582471985078882E-3  -1.987381234357599E-3  
 2.276000000000000E10   -2.217979257693514E-3   2.238521883555222E-3  
 2.278000000000000E10    3.673197461466771E-3   9.926658913173014E-4  
 2.280000000000000E10    9.649392814026214E-4  -4.122711994568817E-3  
 2.282000000000000E10   -1.901814859593287E-3  -4.373379822936840E-3  
 2.284000000000000E10   -2.581657267000992E-3   3.154549041937571E-3  
 2.286000000000000E10    3.128531127003953E-3   1.474466665968066E-3  
 2.288000000000000E10    1.068897616278264E-3  -2.959057448606473E-3  
 2.290000000000000E10   -2.742486001807265E-3  -1.431530217814725E-3  
 2.292000000000000E10   -2.457471182424342E-4   2.112851856509224E-3  
 2.294000000000000E10    1.502226652519312E-3  -1.446522212063428E-3  
 2.296000000000000E10   -2.355032840569038E-3  -2.040379917161772E-3  
 2.298000000000000E10   -2.138245854439447E-3   2.801027134410106E-3  
 2.300000000000000E10    3.255379982874729E-3   2.964371575217228E-3  
 2.302000000000000E10    3.176982441800647E-3  -3.553354261384811E-3  
 2.304000000000000E10   -4.980848927516490E-3  -2.885533620428760E-3  
 2.306000000000000E10   -3.779186430620030E-3   4.419892298756167E-3  
 2.308000000000000E10    3.980564040830359E-3   3.307026418042369E-3  
 2.310000000000000E10    1.646102798986249E-3  -4.028420866234228E-3  
 2.312000000000000E10   -3.422951420361642E-3  -4.441977453097934E-4  
 2.314000000000000E10    6.950634588065441E-5   3.372323793882970E-3  
 2.316000000000000E10    3.604302932217252E-3  -9.624980757507728E-4  
 2.318000000000000E10   -2.207122408435680E-3  -3.258475553593598E-3  
 2.320000000000000E10   -3.589983098208904E-3   3.265203136834316E-3  
 2.322000000000000E10    3.967465352616273E-3   4.626113281119615E-3  
 2.324000000000000E10    4.386975429952145E-3  -4.531580518232659E-3  
 2.326000000000000E10   -3.926794146536849E-3  -3.282458907051478E-3  
 2.328000000000000E10   -3.102165035670623E-3   4.185116864391603E-3  
 2.330000000000000E10    3.493731943308376E-3   3.066514313104563E-3  
 2.332000000000000E10    2.512842002033722E-3  -3.288275518571027E-3  
 2.334000000000000E10   -3.553668379026931E-3  -1.220323239977006E-3  
 2.336000000000000E10   -6.517288702525548E-4   4.244900308549404E-3  
 2.338000000000000E10    4.835445593926124E-3  -8.737896914681187E-4  
 2.340000000000000E10   -1.654298124776688E-3  -5.501016799826175E-3  
 2.342000000000000E10   -5.378934394684620E-3   2.286868548253551E-3  
 2.344000000000000E10    3.046589466976002E-3   5.051566549809650E-3  
 2.346000000000000E10    6.315492166322656E-3  -3.478322956652846E-3  
 2.348000000000000E10   -2.817376545863226E-3  -4.514443280640990E-3  
 2.350000000000000E10   -4.013429614133202E-3   3.040371979295742E-3  
 2.352000000000000E10    4.074455500813201E-3   3.798145888140425E-3  
 2.354000000000000E10    2.171047293813899E-3  -4.265557770850137E-3  
 2.356000000000000E10   -5.138611973961815E-3  -1.638652312976774E-3  
 2.358000000000000E10   -8.332522265845910E-4   5.477357190102339E-3  
 2.360000000000000E10    6.788681843318045E-3  -3.243155842937995E-4  
 2.362000000000000E10   -7.711323050898500E-4  -7.301492529222742E-3  
 2.364000000000000E10   -6.997314194450155E-3   1.046696183038876E-3  
 2.366000000000000E10    1.161671243607998E-3   7.230708375573158E-3  
 2.368000000000000E10    6.939115817658603E-3  -1.633348605537321E-3  
 2.370000000000000E10   -1.600455783773214E-3  -5.797493853606284E-3  
 2.372000000000000E10   -5.336110218195245E-3   2.888445087592118E-3  
 2.374000000000000E10    3.526308646542020E-3   3.996293293312192E-3  
 2.376000000000000E10    2.460400181007572E-3  -4.974983807187527E-3  
 2.378000000000000E10   -5.794710537884384E-3  -1.528458044049330E-3  
 2.380000000000000E10   -7.924789788376074E-4   5.934691464062780E-3  
 2.382000000000000E10    7.040816475637257E-3   4.056104044138920E-4  
 2.384000000000000E10   -6.322926419670694E-4  -7.650264014955610E-3  
 2.386000000000000E10   -7.783430861309171E-3  -4.365648310340475E-4  
 2.388000000000000E10    4.601003165589646E-4   8.131341834086925E-3  
 2.390000000000000E10    7.211454299977049E-3  -1.173852848296519E-3  
 2.392000000000000E10   -1.363533170660958E-3  -6.566051917616278E-3  
 2.394000000000000E10   -5.932956060860306E-3   3.212476643966511E-3  
 2.396000000000000E10    3.872057000990026E-3   5.050894309533760E-3  
 2.398000000000000E10    3.506178181851283E-3  -4.719779564766213E-3  
 2.400000000000000E10   -6.396299577318132E-3  -2.879895953810774E-3  
 2.402000000000000E10   -1.333172673184890E-3   7.709893136052415E-3  
 2.404000000000000E10    7.778495899401605E-3   8.133632800308988E-4  
 2.406000000000000E10    2.214619032088194E-4  -7.547148590674624E-3  
 2.408000000000000E10   -8.188338484615088E-3   4.091646460437914E-4  
 2.410000000000000E10    6.559440262208227E-4   6.905038055265322E-3  
 2.412000000000000E10    6.427555024856702E-3  -1.249600849405397E-3  
 2.414000000000000E10   -1.546967250760645E-3  -5.688992911018431E-3  
 2.416000000000000E10   -4.753617162350565E-3   3.063768439460546E-3  
 2.418000000000000E10    3.985715913586319E-3   4.807592515135184E-3  
 2.420000000000000E10    4.233549698255956E-3  -4.833359038457274E-3  
 2.422000000000000E10   -5.904515681322664E-3  -4.591241799062118E-3  
 2.424000000000000E10   -4.351985437097028E-3   7.073923683492467E-3  
 2.426000000000000E10    7.537199853686616E-3   3.732661512913182E-3  
 2.428000000000000E10    3.486283778329380E-3  -8.536025823559612E-3  
 2.430000000000000E10   -7.902814599219710E-3  -2.447347462293692E-3  
 2.432000000000000E10   -7.477327708329540E-4   6.740888231433928E-3  
 2.434000000000000E10    6.589721800992265E-3  -4.136248735449044E-4  
 2.436000000000000E10   -1.013522931316402E-3  -5.987863580230624E-3  
 2.438000000000000E10   -5.716774991014972E-3   2.273407488246448E-3  
 2.440000000000000E10    2.991004526847974E-3   5.754231649916619E-3  
 2.442000000000000E10    5.321357137290761E-3  -4.843046859605238E-3  
 2.444000000000000E10   -5.151678837137297E-3  -5.896025133552030E-3  
 2.446000000000000E10   -5.433556681964546E-3   5.149391654413194E-3  
 2.448000000000000E10    5.362559139030054E-3   5.111815786221996E-3  
 2.450000000000000E10    5.306153238052502E-3  -6.091123766964302E-3  
 2.452000000000000E10   -5.866547115147114E-3  -3.863154139253311E-3  
 2.454000000000000E10   -2.579235529992729E-3   5.868134379852563E-3  
 2.456000000000000E10    6.092370080295950E-3   1.515354510047473E-3  
 2.458000000000000E10    4.876468719885452E-4  -6.571960722794756E-3  
 2.460000000000000E10   -6.847578450106084E-3   1.168531030998565E-3  
 2.462000000000000E10    2.286589180584997E-3   6.495345878647640E-3  
 2.464000000000000E10    6.983372557442635E-3  -2.658361452631652E-3  
 2.466000000000000E10   -2.905522342189215E-3  -7.108484016498551E-3  
 2.468000000000000E10   -7.238500227686018E-3   2.710139116970822E-3  
 2.470000000000000E10    3.332347187097184E-3   6.794457120122388E-3  
 2.472000000000000E10    6.222745432751253E-3  -3.502039835439064E-3  
 2.474000000000000E10   -3.544028571923263E-3  -5.525986693101004E-3  
 2.476000000000000E10   -4.260449990397319E-3   3.982596419518814E-3  
 2.478000000000000E10    5.310585518600419E-3   3.401240028324537E-3  
 2.480000000000000E10    1.659052308241371E-3  -5.500974657479674E-3  
 2.482000000000000E10   -6.706906860927120E-3  -7.438118918798864E-4  
 2.484000000000000E10    3.136863633699250E-4   7.632269116584212E-3  
 2.486000000000000E10    8.448211941868067E-3  -1.013386783597525E-3  
 2.488000000000000E10   -1.824211409257259E-3  -7.776848244247958E-3  
 2.490000000000000E10   -7.745047623757273E-3   1.851762885053176E-3  
 2.492000000000000E10    2.082824532408267E-3   7.205303059890866E-3  
 2.494000000000000E10    7.132733764592558E-3  -2.475635948940180E-3  
 2.496000000000000E10   -3.061409355723299E-3  -5.882728612050414E-3  
 2.498000000000000E10   -4.847127886023372E-3   3.751928496058099E-3  
 2.500000000000000E10    4.465626610908657E-3   4.685244726715609E-3  
 2.502000000000000E10    4.029418050777167E-3  -4.869545868132263E-3  
 2.504000000000000E10   -5.781388754257932E-3  -2.858330743038096E-3  
 2.506000000000000E10   -2.578198836999945E-3   6.423955637728795E-3  
 2.508000000000000E10    6.644664332270622E-3   2.608450944535434E-3  
 2.510000000000000E10    1.702055313216988E-3  -6.780836964026094E-3  
 2.512000000000000E10   -6.962284649489448E-3  -1.179357372166123E-3  
 2.514000000000000E10   -1.369983806398523E-6   7.394971966277808E-3  
 2.516000000000000E10    6.606681476114318E-3  -1.765408887877129E-3  
 2.518000000000000E10   -2.448618368362077E-3  -6.355151272146031E-3  
 2.520000000000000E10   -5.934276588959619E-3   3.473582619335502E-3  
 2.522000000000000E10    4.662615829147399E-3   5.330870568286628E-3  
 2.524000000000000E10    5.470836855238304E-3  -5.342811724403873E-3  
 2.526000000000000E10   -5.892657791264355E-3  -5.632071348372847E-3  
 2.528000000000000E10   -5.363907665014267E-3   5.418751155957580E-3  
 2.530000000000000E10    6.043231929652393E-3   5.193778837565333E-3  
 2.532000000000000E10    4.557337029837072E-3  -6.696854194160551E-3  
 2.534000000000000E10   -6.551364989718422E-3  -4.534285311819986E-3  
 2.536000000000000E10   -2.626150264404714E-3   5.979905836284161E-3  
 2.538000000000000E10    5.751936812885106E-3   2.134103579010116E-4  
 2.540000000000000E10   -8.239544113166630E-4  -6.679155572783202E-3  
 2.542000000000000E10   -6.224768148967996E-3   2.330275747226551E-3  
 2.544000000000000E10    3.443630979745649E-3   5.945790588157252E-3  
 2.546000000000000E10    5.685001349775121E-3  -5.721878173062578E-3  
 2.548000000000000E10   -6.203661556355655E-3  -6.138073804322630E-3  
 2.550000000000000E10   -6.421447469620034E-3   6.707432476105169E-3  
 2.552000000000000E10    6.633059034356847E-3   5.083444120828062E-3  
 2.554000000000000E10    3.774102049646899E-3  -6.916578597156331E-3  
 2.556000000000000E10   -7.272324495716021E-3  -4.117672826396301E-3  
 2.558000000000000E10   -3.625379686127417E-3   6.478488270659000E-3  
 2.560000000000000E10    6.201666168635711E-3   1.700590888503939E-3  
 2.562000000000000E10    8.006990537978709E-4  -6.333092926070094E-3  
 2.564000000000000E10   -6.852617749245837E-3   1.170278192148544E-4  
 2.566000000000000E10    1.235986135725398E-3   7.839042344130576E-3  
 2.568000000000000E10    7.298109267139807E-3  -2.429433196084574E-3  
 2.570000000000000E10   -4.332302662078291E-3  -6.090516602853313E-3  
 2.572000000000000E10   -5.419908760813996E-3   4.968046821886674E-3  
 2.574000000000000E10    5.164376983884722E-3   5.359169997973368E-3  
 2.576000000000000E10    3.876495989970863E-3  -5.560513091040775E-3  
 2.578000000000000E10   -5.888537969440222E-3  -3.085501637542620E-3  
 2.580000000000000E10   -1.717742561595514E-3   6.595644081244245E-3  
 2.582000000000000E10    7.660767558263615E-3   1.901074800116476E-3  
 2.584000000000000E10    1.571426175360102E-3  -8.159877324942499E-3  
 2.586000000000000E10   -7.959767885040492E-3  -1.259659077845754E-4  
 2.588000000000000E10    1.176479214336723E-3   8.722549770027399E-3  
 2.590000000000000E10    9.129881567787379E-3  -3.410841409277055E-4  
 2.592000000000000E10    1.663467214712000E-4  -8.223255455959588E-3  
 2.594000000000000E10   -7.272959977854043E-3   9.164827934000641E-4  
 2.596000000000000E10    2.398938580881804E-3   6.712910457281396E-3  
 2.598000000000000E10    6.692941620713100E-3  -3.347844496602193E-3  
 2.600000000000000E10   -3.731381526449695E-3  -5.286405590595678E-3  
 2.602000000000000E10   -3.399461551452987E-3   4.869305499596521E-3  
 2.604000000000000E10    7.126442535081878E-3   2.519691828638315E-3  
 2.606000000000000E10    2.338461621548049E-3  -8.142997743561864E-3  
 2.608000000000000E10   -7.927655708044767E-3  -1.853441928687971E-3  
 2.610000000000000E10   -1.108700133045204E-3   7.923475088318810E-3  
 2.612000000000000E10    9.052279987372458E-3   9.002192782645579E-4  
 2.614000000000000E10    1.233298797160387E-3  -9.247269306797534E-3  
 2.616000000000000E10   -8.890416298527271E-3  -3.759533792617731E-4  
 2.618000000000000E10    2.763748780125752E-4   8.210681786295027E-3  
 2.620000000000000E10    8.157169388141483E-3  -1.779964601155371E-3  
 2.622000000000000E10   -3.137454361421987E-3  -7.090731582138687E-3  
 2.624000000000000E10   -6.481068849097937E-3   3.581640645279549E-3  
 2.626000000000000E10    4.373797477455810E-3   5.749286006903276E-3  
 2.628000000000000E10    4.363034910056740E-3  -5.973019287921488E-3  
 2.630000000000000E10   -6.878201616927981E-3  -3.785971930483356E-3  
 2.632000000000000E10   -3.599365503760055E-3   7.153201004257426E-3  
 2.634000000000000E10    6.891085096867755E-3   2.497695342754014E-3  
 2.636000000000000E10    1.199650847411249E-3  -7.183066598372534E-3  
 2.638000000000000E10   -7.242184452479705E-3  -2.627128878884832E-4  
 2.640000000000000E10    2.569599655544153E-5   7.150209858082235E-3  
 2.642000000000000E10    7.150817400543019E-3  -1.002884186164010E-3  
 2.644000000000000E10   -2.471873216563836E-3  -6.823620322393253E-3  
 2.646000000000000E10   -7.181443797890097E-3   3.134605372906663E-3  
 2.648000000000000E10    3.354910091729835E-3   7.879456534283236E-3  
 2.650000000000000E10    7.856611919123679E-3  -4.398136923555285E-3  
 2.652000000000000E10   -5.007575673516840E-3  -6.634249206399545E-3  
 2.654000000000000E10   -6.307922245468944E-3   5.118007073178887E-3  
 2.656000000000000E10    5.632339045405388E-3   5.077574751339853E-3  
 2.658000000000000E10    3.243721133912914E-3  -5.530383961740881E-3  
 2.660000000000000E10   -5.185665795579553E-3  -2.361288003157824E-3  
 2.662000000000000E10   -1.149657367932377E-3   5.654341715853661E-3  
 2.664000000000000E10    6.454251444665715E-3  -3.336367481097113E-4  
 2.666000000000000E10   -1.469639428250957E-3  -7.023534853942692E-3  
 2.668000000000000E10   -6.979208905249834E-3   2.169047307688743E-3  
 2.670000000000000E10    3.166406866512261E-3   7.319484691834077E-3  
 2.672000000000000E10    7.283797691343352E-3  -3.843432248686440E-3  
 2.674000000000000E10   -3.615711044403724E-3  -7.682177354581654E-3  
 2.676000000000000E10   -6.959019316127524E-3   3.582414952688851E-3  
 2.678000000000000E10    3.887647690135054E-3   6.071921292459592E-3  
 2.680000000000000E10    5.369166436139494E-3  -4.707918706117198E-3  
 2.682000000000000E10   -4.742390039609745E-3  -4.417394375195727E-3  
 2.684000000000000E10   -3.697696811286733E-3   4.923107335343957E-3  
 2.686000000000000E10    5.973473977064714E-3   2.216295149992220E-3  
 2.688000000000000E10    1.221116930537392E-3  -6.755473266821355E-3  
 2.690000000000000E10   -6.864322494948283E-3  -5.830907666677376E-4  
 2.692000000000000E10   -1.680052940855603E-5   7.047626306302846E-3  
 2.694000000000000E10    7.214025128632784E-3  -6.751784712832887E-4  
 2.696000000000000E10   -1.200571590743493E-3  -6.920088868355379E-3  
 2.698000000000000E10   -6.811555300373584E-3   1.951068436028436E-3  
 2.700000000000000E10    2.564219292253256E-3   6.341031636111438E-3  
 2.702000000000000E10    5.304280290147290E-3  -2.996832481585443E-3  
 2.704000000000000E10   -4.073329793754965E-3  -4.558014828944579E-3  
 2.706000000000000E10   -4.036536585772410E-3   4.667063534725457E-3  
 2.708000000000000E10    5.145066854311153E-3   4.220959468511865E-3  
 2.710000000000000E10    3.725085422047414E-3  -6.219072092790157E-3  
 2.712000000000000E10   -6.248910707654432E-3  -2.827698117471300E-3  
 2.714000000000000E10   -2.395048359176144E-3   7.026106643024832E-3  
 2.716000000000000E10    6.598751060664654E-3   2.157394992536865E-3  
 2.718000000000000E10    1.942110429808963E-3  -5.957030254648998E-3  
 2.720000000000000E10   -5.479668063344434E-3  -2.518505825719331E-4  
 2.722000000000000E10    3.646677923825337E-4   6.155637529445812E-3  
 2.724000000000000E10    6.479689647676423E-3  -9.200739768857602E-4  
 2.726000000000000E10   -2.366199914831668E-3  -5.255302909063175E-3  
 2.728000000000000E10   -4.609998315572739E-3   3.832280868664384E-3  
 2.730000000000000E10    4.614891542587429E-3   5.136745137860999E-3  
 2.732000000000000E10    4.989412642316893E-3  -4.903338412987068E-3  
 2.734000000000000E10   -4.929098271531984E-3  -4.185034485999495E-3  
 2.736000000000000E10   -3.526696600602008E-3   4.994296410586685E-3  
 2.738000000000000E10    5.401905393227935E-3   3.635097382357344E-3  
 2.740000000000000E10    3.187657828675583E-3  -5.147040821611881E-3  
 2.742000000000000E10   -4.852628859225661E-3  -2.033153839875013E-3  
 2.744000000000000E10   -1.317886300967075E-3   4.959959827829152E-3  
 2.746000000000000E10    5.308179155690596E-3  -1.374299167764548E-4  
 2.748000000000000E10   -6.163780162751209E-4  -5.334426707122475E-3  
 2.750000000000000E10   -5.512761330464855E-3   1.692320271104109E-3  
 2.752000000000000E10    2.504908712580800E-3   5.485408735694364E-3  
 2.754000000000000E10    5.631095380522311E-3  -3.448481162195094E-3  
 2.756000000000000E10   -3.623152733780444E-3  -4.971484013367444E-3  
