#  HZ   S   RI   R     50.00 
! Rohde & Schwarz ZVA40 4Ports - Version 3.90 - 1145.1110k42 SN: 100403
! Date: 2023-10-04 06:03:10
! Measurement: S12 
! 
 2.200000000000000E10   -3.149552911054343E-3  -5.643500992391637E-5  
 2.202000000000000E10    1.737904258334311E-4   2.765075565548614E-3  
 2.204000000000000E10    2.198952628532425E-3  -6.736792840911221E-5  
 2.206000000000000E10    3.144101265206700E-4  -1.508405555796344E-3  
 2.208000000000000E10   -2.122759944995778E-4  -4.142655634495895E-4  
 2.210000000000000E10    3.282944908278296E-4  -1.588785657077096E-3  
 2.212000000000000E10   -9.226568254234735E-4  -8.531691200914793E-4  
 2.214000000000000E10   -1.399539993144572E-3   1.074766900273971E-3  
 2.216000000000000E10    7.884873957664240E-4   9.585107181919739E-4  
 2.218000000000000E10    1.156921101937769E-3  -6.876478946651332E-4  
 2.220000000000000E10   -3.272679405199597E-4  -2.985762068419717E-3  
 2.222000000000000E10   -3.280561228166334E-3  -6.382933352142572E-4  
 2.224000000000000E10   -1.405816328770015E-3   2.260012246551924E-3  
 2.226000000000000E10    2.093075425364077E-3   3.411380403122166E-4  
 2.228000000000000E10   -1.634431625348043E-4  -2.944294552435167E-3  
 2.230000000000000E10   -2.926164728705771E-3  -1.634208001632942E-4  
 2.232000000000000E10   -8.613370337116066E-4   1.835796560044400E-3  
 2.234000000000000E10    2.450964297167957E-3  -6.759523421351332E-5  
 2.236000000000000E10   -1.670601748628542E-3  -1.584495177667122E-3  
 2.238000000000000E10   -2.957431279355660E-3   9.292269387515262E-4  
 2.240000000000000E10    9.089628019864904E-5   3.016786009538919E-3  
 2.242000000000000E10    2.061045313894283E-3  -8.277186207124032E-4  
 2.244000000000000E10   -9.945361853169743E-4  -1.970712139154784E-3  
 2.246000000000000E10   -2.241805370431393E-3   9.295128074882086E-4  
 2.248000000000000E10    1.052844112564344E-3   1.986100236536004E-3  
 2.250000000000000E10    7.173198464442976E-4  -1.148144241597038E-3  
 2.252000000000000E10   -2.389054439845495E-3   3.352011012793810E-4  
 2.254000000000000E10    1.100578783166384E-4   3.806208740570582E-3  
 2.256000000000000E10    4.418270429596305E-3  -1.104393923014868E-3  
 2.258000000000000E10   -1.640169066376984E-3  -3.732458368176594E-3  
 2.260000000000000E10   -4.341871623182669E-3   1.524717539723497E-3  
 2.262000000000000E10    1.574385671119671E-3   4.884701076662168E-3  
 2.264000000000000E10    4.592973069520667E-3  -5.078504382254323E-4  
 2.266000000000000E10    4.885665839537978E-4  -3.974738501710817E-3  
 2.268000000000000E10   -3.175076039042324E-3   5.339292620192282E-4  
 2.270000000000000E10    7.330505068239290E-4   3.235328607843258E-3  
 2.272000000000000E10    2.323428241652437E-3  -1.229840810992755E-3  
 2.274000000000000E10   -1.495000360591803E-3  -1.891655883810017E-3  
 2.276000000000000E10   -5.338111277524149E-4   2.613006974570453E-3  
 2.278000000000000E10    3.763967833947390E-3  -4.661100792873185E-4  
 2.280000000000000E10    1.215260599565227E-3  -3.872390836477280E-3  
 2.282000000000000E10   -2.788163998047821E-3  -3.338615337270312E-3  
 2.284000000000000E10    1.464280551317643E-4   4.530478239757940E-3  
 2.286000000000000E10    4.626871290383861E-3   4.507922358243377E-5  
 2.288000000000000E10    6.500402960227802E-4  -5.042926204623655E-3  
 2.290000000000000E10   -4.600938642397523E-3   7.862731263230671E-5  
 2.292000000000000E10    9.844355881796219E-4   3.274273010902107E-3  
 2.294000000000000E10    2.959681631182320E-3  -2.210291408118792E-3  
 2.296000000000000E10   -2.543799651903100E-3  -2.768414880847558E-3  
 2.298000000000000E10   -2.625000532134436E-3   2.496947345207445E-3  
 2.300000000000000E10    3.529571666149423E-3   3.072424238780513E-3  
 2.302000000000000E10    2.862931258277968E-3  -4.326448775827885E-3  
 2.304000000000000E10   -4.926712106680498E-3  -2.833479011314921E-3  
 2.306000000000000E10   -3.668849196401425E-3   4.440154501935467E-3  
 2.308000000000000E10    4.808970552403480E-3   2.496177155990154E-3  
 2.310000000000000E10    9.116794753936119E-4  -5.115003790706396E-3  
 2.312000000000000E10   -4.087415989488363E-3  -5.658382979163434E-4  
 2.314000000000000E10    7.469424303963024E-6   3.694629296660423E-3  
 2.316000000000000E10    3.741970343980938E-3  -1.217475524754264E-3  
 2.318000000000000E10   -2.150623375200667E-3  -4.117171280086041E-3  
 2.320000000000000E10   -4.895426653092727E-3   3.808622815995477E-3  
 2.322000000000000E10    4.124041763134301E-3   5.058097100118175E-3  
 2.324000000000000E10    4.624786524800584E-3  -4.639049031538889E-3  
 2.326000000000000E10   -5.478601233335212E-3  -4.060596955241635E-3  
 2.328000000000000E10   -4.395684925839305E-3   5.059944058302790E-3  
 2.330000000000000E10    4.357562778750435E-3   3.715867234859616E-3  
 2.332000000000000E10    2.051999188552145E-3  -4.300174361560494E-3  
 2.334000000000000E10   -4.423482198035345E-3  -2.147730512660928E-3  
 2.336000000000000E10   -5.660231399815530E-4   5.688643257599324E-3  
 2.338000000000000E10    5.421875015599653E-3  -6.606039605685510E-4  
 2.340000000000000E10   -1.972479469259270E-3  -5.801650724606589E-3  
 2.342000000000000E10   -6.025807640980929E-3   3.099845576798543E-3  
 2.344000000000000E10    3.935528540750966E-3   6.791882799006999E-3  
 2.346000000000000E10    5.977138120215386E-3  -3.697502834256738E-3  
 2.348000000000000E10   -2.977686381200329E-3  -5.121594236698002E-3  
 2.350000000000000E10   -5.761193548096344E-3   4.255955893313512E-3  
 2.352000000000000E10    4.332192940637469E-3   4.397621669340879E-3  
 2.354000000000000E10    3.279375479905866E-3  -3.894384426530451E-3  
 2.356000000000000E10   -5.583454098086804E-3  -2.637896322994493E-3  
 2.358000000000000E10   -4.319154195400188E-4   5.769535258878022E-3  
 2.360000000000000E10    7.170786790084094E-3  -1.368118100799620E-4  
 2.362000000000000E10   -8.807468075247016E-4  -6.966878310777247E-3  
 2.364000000000000E10   -7.436756393872201E-3   2.355799355427735E-3  
 2.366000000000000E10    2.849387892638333E-3   7.689505437156186E-3  
 2.368000000000000E10    7.750788994599134E-3  -2.001746950554662E-3  
 2.370000000000000E10   -2.806207427056506E-3  -7.994234503712505E-3  
 2.372000000000000E10   -6.719088065437973E-3   4.117514268727973E-3  
 2.374000000000000E10    4.514707456110045E-3   5.867547355592251E-3  
 2.376000000000000E10    4.269453551387414E-3  -5.468649935210124E-3  
 2.378000000000000E10   -5.775799887487665E-3  -3.355867229402065E-3  
 2.380000000000000E10   -1.647851189773064E-3   6.723217404214665E-3  
 2.382000000000000E10    7.178181433118880E-3   9.427527693333104E-4  
 2.384000000000000E10    6.716623247484677E-4  -7.857751741539687E-3  
 2.386000000000000E10   -8.483600686304271E-3   1.203892652483773E-4  
 2.388000000000000E10    8.755230082897469E-4   8.338372805155814E-3  
 2.390000000000000E10    8.900469751097262E-3  -1.277660026971716E-3  
 2.392000000000000E10   -1.995096732571255E-3  -8.421055157668889E-3  
 2.394000000000000E10   -7.145812007365748E-3   3.034899506019428E-3  
 2.396000000000000E10    4.102638107724488E-3   6.085368600906804E-3  
 2.398000000000000E10    5.262713908450678E-3  -5.353727727197111E-3  
 2.400000000000000E10   -6.526543525978923E-3  -4.668277892051265E-3  
 2.402000000000000E10   -2.241142181446776E-3   7.514136319514364E-3  
 2.404000000000000E10    8.598831424023956E-3   1.461009815102443E-3  
 2.406000000000000E10    4.301260414649732E-4  -8.790220599621534E-3  
 2.408000000000000E10   -9.532709489576519E-3   2.279700475753543E-4  
 2.410000000000000E10    2.110559134962387E-4   8.463714038953185E-3  
 2.412000000000000E10    8.019393484573811E-3  -1.437019571312703E-3  
 2.414000000000000E10   -1.874791138106957E-3  -7.428115874063224E-3  
 2.416000000000000E10   -6.706020387355238E-3   2.857845029211603E-3  
 2.418000000000000E10    3.992339625256136E-3   6.569989520357922E-3  
 2.420000000000000E10    5.596335453446955E-3  -5.127955111674964E-3  
 2.422000000000000E10   -6.086937297368422E-3  -5.217864789301530E-3  
 2.424000000000000E10   -5.665520846378058E-3   8.002555405255407E-3  
 2.426000000000000E10    9.016080992296338E-3   4.761529184179381E-3  
 2.428000000000000E10    4.156990413321182E-3  -9.079764306079596E-3  
 2.430000000000000E10   -9.617148898541927E-3  -2.988824839121662E-3  
 2.432000000000000E10   -1.309394145209808E-3   8.858518674969673E-3  
 2.434000000000000E10    8.562984876334667E-3   7.074001696310006E-4  
 2.436000000000000E10   -1.792834009393118E-4  -7.476373895769939E-3  
 2.438000000000000E10   -6.854813400423154E-3   1.643545765546151E-3  
 2.440000000000000E10    3.388629149412736E-3   6.008978933095932E-3  
 2.442000000000000E10    6.261946196900681E-3  -4.677930584875867E-3  
 2.444000000000000E10   -5.235354386968538E-3  -6.281709123868495E-3  
 2.446000000000000E10   -5.652802821714431E-3   6.469148560427129E-3  
 2.448000000000000E10    7.610099419252947E-3   5.947983736405149E-3  
 2.450000000000000E10    6.065559136914089E-3  -7.789068622514606E-3  
 2.452000000000000E10   -7.576420641271398E-3  -4.960566759109497E-3  
 2.454000000000000E10   -3.909834951628000E-3   7.677574030822143E-3  
 2.456000000000000E10    7.518554833950475E-3   3.273009322583675E-3  
 2.458000000000000E10    1.496404627687298E-3  -7.562174985650927E-3  
 2.460000000000000E10   -6.993031449383125E-3  -8.304227958433330E-5  
 2.462000000000000E10    1.486672605096828E-3   7.143006892874837E-3  
 2.464000000000000E10    6.971429858822376E-3  -2.866847018594854E-3  
 2.466000000000000E10   -3.309568593977019E-3  -7.314765942282975E-3  
 2.468000000000000E10   -7.197757455287501E-3   4.401112440973520E-3  
 2.470000000000000E10    4.449544649105519E-3   6.795701163355261E-3  
 2.472000000000000E10    6.742324389051646E-3  -5.046916689025238E-3  
 2.474000000000000E10   -5.066105368314311E-3  -6.622206332394853E-3  
 2.476000000000000E10   -5.863752798177302E-3   5.887584673473612E-3  
 2.478000000000000E10    6.024057860486209E-3   5.188559036469087E-3  
 2.480000000000000E10    3.521175385685638E-3  -6.705352454446256E-3  
 2.482000000000000E10   -7.632710912730545E-3  -2.094356153975241E-3  
 2.484000000000000E10   -1.372818296658807E-3   8.467243751510978E-3  
 2.486000000000000E10    8.944660425186157E-3   5.488138231157791E-5  
 2.488000000000000E10   -1.465291010390502E-3  -8.273079351056367E-3  
 2.490000000000000E10   -8.643152017612010E-3   1.831563247833401E-3  
 2.492000000000000E10    2.438593844999559E-3   8.549738849978894E-3  
 2.494000000000000E10    7.589041459141299E-3  -2.932966293883510E-3  
 2.496000000000000E10   -3.699593959026970E-3  -6.165859958855435E-3  
 2.498000000000000E10   -5.873091955436394E-3   4.717005038401112E-3  
 2.500000000000000E10    4.913016076898202E-3   5.148229363840073E-3  
 2.502000000000000E10    3.910550920409150E-3  -5.900680436752737E-3  
 2.504000000000000E10   -7.142402522731572E-3  -2.877053222618997E-3  
 2.506000000000000E10   -2.715980837820098E-3   7.921060896478593E-3  
 2.508000000000000E10    8.765068720094860E-3   2.881965978303924E-3  
 2.510000000000000E10    2.113137918058783E-3  -9.140911279246211E-3  
 2.512000000000000E10   -9.866925189271569E-3  -1.294991801842116E-3  
 2.514000000000000E10   -3.705522613017820E-4   1.005542825441808E-2  
 2.516000000000000E10    9.163125650957227E-3  -2.282848872710019E-4  
 2.518000000000000E10   -1.279234245885164E-3  -7.811262563336641E-3  
 2.520000000000000E10   -6.458704592660070E-3   2.675496012670919E-3  
 2.522000000000000E10    3.946542099583894E-3   5.673977488186210E-3  
 2.524000000000000E10    4.858269938267767E-3  -4.337494086939842E-3  
 2.526000000000000E10   -5.453170277178288E-3  -4.142046207562089E-3  
 2.528000000000000E10   -3.636886132881045E-3   6.297290383372456E-3  
 2.530000000000000E10    8.330582175403833E-3   3.357588342623785E-3  
 2.532000000000000E10    3.516962460707873E-3  -8.543289965018630E-3  
 2.534000000000000E10   -8.735328447073698E-3  -3.377901011845097E-3  
 2.536000000000000E10   -1.685278737568297E-3   9.266407229006290E-3  
 2.538000000000000E10    9.704557363875210E-3   7.672282299608924E-4  
 2.540000000000000E10    5.183942776056938E-4  -9.594043134711683E-3  
 2.542000000000000E10   -8.672205382026732E-3   9.213588418788277E-4  
 2.544000000000000E10    2.878780243918300E-3   7.593875052407384E-3  
 2.546000000000000E10    7.141806825529784E-3  -4.430424771271646E-3  
 2.548000000000000E10   -4.620627907570452E-3  -7.191179494839162E-3  
 2.550000000000000E10   -5.827938439324498E-3   5.188761453609914E-3  
 2.552000000000000E10    6.407844542991370E-3   4.577316052746028E-3  
 2.554000000000000E10    4.217907960992307E-3  -7.061883225105703E-3  
 2.556000000000000E10   -6.939042126759887E-3  -3.909323480911553E-3  
 2.558000000000000E10   -2.449428662657738E-3   6.853437633253634E-3  
 2.560000000000000E10    7.283376355189830E-3   7.019970653345808E-4  
 2.562000000000000E10   -3.739918520295760E-5  -7.699179579503834E-3  
 2.564000000000000E10   -8.382658823393285E-3   1.194078649859875E-3  
 2.566000000000000E10    2.385319559834898E-3   8.943528402596712E-3  
 2.568000000000000E10    8.296454325318337E-3  -4.581494955345988E-3  
 2.570000000000000E10   -5.666525161359459E-3  -8.607010357081890E-3  
 2.572000000000000E10   -8.407596731558442E-3   6.111425929702818E-3  
 2.574000000000000E10    6.285222130827606E-3   7.813666074071080E-3  
 2.576000000000000E10    6.650484749116004E-3  -6.468973006121814E-3  
 2.578000000000000E10   -6.418497941922396E-3  -5.252732080407441E-3  
 2.580000000000000E10   -4.266162868589163E-3   6.248723424505442E-3  
 2.582000000000000E10    6.205175071954727E-3   3.821270947810262E-3  
 2.584000000000000E10    1.894988308777101E-3  -6.041567423380911E-3  
 2.586000000000000E10   -6.890545715577900E-3   7.000361147220247E-4  
 2.588000000000000E10    1.650117497774772E-3   7.505670539103448E-3  
 2.590000000000000E10    7.643111865036190E-3  -1.924334617797285E-3  
 2.592000000000000E10   -2.473665605066344E-3  -7.632406835909933E-3  
 2.594000000000000E10   -8.470905479043722E-3   4.722546669654548E-3  
 2.596000000000000E10    5.181547021493316E-3   8.702734252437949E-3  
 2.598000000000000E10    8.696738048456609E-3  -4.692385264206678E-3  
 2.600000000000000E10   -5.463888286612928E-3  -7.601980294566602E-3  
 2.602000000000000E10   -6.757757393643260E-3   6.985094340052456E-3  
 2.604000000000000E10    7.406000746414065E-3   5.951977334916592E-3  
 2.606000000000000E10    4.413345479406416E-3  -6.952571740839630E-3  
 2.608000000000000E10   -6.917516875546426E-3  -2.980831486638635E-3  
 2.610000000000000E10   -2.105860214214772E-3   7.979298126883805E-3  
 2.612000000000000E10    8.320954977534711E-3   1.639623558730818E-3  
 2.614000000000000E10    1.137158673373051E-3  -8.145752246491611E-3  
 2.616000000000000E10   -8.178989053703845E-3   1.488679672547733E-4  
 2.618000000000000E10    1.197203004267067E-3   9.164782240986824E-3  
 2.620000000000000E10    8.696292177774012E-3  -3.010978049132973E-3  
 2.622000000000000E10   -3.907868085661903E-3  -7.646936981473118E-3  
 2.624000000000000E10   -7.049111416563392E-3   5.185647984035313E-3  
 2.626000000000000E10    6.120388163253665E-3   6.032630277331919E-3  
 2.628000000000000E10    5.653091007843614E-3  -7.006624189671129E-3  
 2.630000000000000E10   -8.330505457706749E-3  -5.483086337335408E-3  
 2.632000000000000E10   -4.132661735638976E-3   8.629467105492950E-3  
 2.634000000000000E10    8.449850254692137E-3   4.066983412485570E-3  
 2.636000000000000E10    3.532927541527897E-3  -9.046718012541533E-3  
 2.638000000000000E10   -8.427989552728832E-3  -2.692880138056353E-3  
 2.640000000000000E10   -1.840451091993600E-3   7.781753549352288E-3  
 2.642000000000000E10    7.171014673076570E-3   6.633012599195354E-4  
 2.644000000000000E10   -5.758988809247967E-4  -6.091984803788364E-3  
 2.646000000000000E10   -6.555164349265397E-3   1.636827335460112E-3  
 2.648000000000000E10    3.393521474208683E-3   5.976687767542899E-3  
 2.650000000000000E10    5.664022348355502E-3  -4.983941034879535E-3  
 2.652000000000000E10   -6.466516817454249E-3  -5.796529701910913E-3  
 2.654000000000000E10   -5.463804292958230E-3   7.298293465282768E-3  
 2.656000000000000E10    7.861694670282304E-3   4.722239042166621E-3  
 2.658000000000000E10    4.685836320277304E-3  -7.874735631048679E-3  
 2.660000000000000E10   -8.091008174233139E-3  -4.226608201861382E-3  
 2.662000000000000E10   -3.198641323251650E-3   8.175704628229141E-3  
 2.664000000000000E10    8.256702218204737E-3   2.803396433591843E-3  
 2.666000000000000E10    1.603235330549069E-3  -7.969865342602134E-3  
 2.668000000000000E10   -7.442219532094896E-3  -8.379001064895419E-5  
 2.670000000000000E10    1.108426076825708E-3   7.217965670861304E-3  
 2.672000000000000E10    7.118038891348988E-3  -2.198412636062130E-3  
 2.674000000000000E10   -2.836089319316670E-3  -7.397647306788713E-3  
 2.676000000000000E10   -6.456914532463998E-3   3.682822309201583E-3  
 2.678000000000000E10    5.191986332647502E-3   5.757412058301270E-3  
 2.680000000000000E10    5.690670805051923E-3  -5.633030436001718E-3  
 2.682000000000000E10   -5.605239770375192E-3  -4.844938754104078E-3  
 2.684000000000000E10   -3.614119021221995E-3   6.184869678691030E-3  
 2.686000000000000E10    7.239660772029311E-3   2.683844097191468E-3  
 2.688000000000000E10    1.462563595850952E-3  -7.588494219817221E-3  
 2.690000000000000E10   -7.708037970587611E-3  -5.915631918469444E-4  
 2.692000000000000E10    1.314852390805754E-4   7.876846822910011E-3  
 2.694000000000000E10    8.592407917603850E-3  -9.806598391151056E-4  
 2.696000000000000E10   -1.673137900070287E-3  -9.107857244089246E-3  
 2.698000000000000E10   -8.268409641459584E-3   1.841099146986380E-3  
 2.700000000000000E10    1.934337036800571E-3   8.178722811862826E-3  
 2.702000000000000E10    7.113065628800541E-3  -3.287291823653504E-3  
 2.704000000000000E10   -3.663609561044723E-3  -5.398338078521192E-3  
 2.706000000000000E10   -4.739574040286243E-3   3.447308932663873E-3  
 2.708000000000000E10    4.118706390727311E-3   3.986484953202307E-3  
 2.710000000000000E10    2.645646076416597E-3  -4.967252025380731E-3  
 2.712000000000000E10   -5.843070917762816E-3  -1.823452883400023E-3  
 2.714000000000000E10   -1.397585161612369E-3   6.711527763400227E-3  
 2.716000000000000E10    6.945060566067696E-3   1.298358693020418E-3  
 2.718000000000000E10   -2.453949418850243E-4  -7.257146877236664E-3  
 2.720000000000000E10   -7.787496724631637E-3   5.206331370573025E-4  
 2.722000000000000E10    2.628746333357412E-4   8.154260576702654E-3  
 2.724000000000000E10    7.094765722285956E-3  -8.350341158802621E-4  
 2.726000000000000E10   -2.063134001218714E-3  -6.018252868670970E-3  
 2.728000000000000E10   -6.142290832940489E-3   2.985922852531076E-3  
 2.730000000000000E10    3.398150554858148E-3   6.003569869790226E-3  
 2.732000000000000E10    4.273031081538647E-3  -3.945826290873811E-3  
 2.734000000000000E10   -4.491354804486036E-3  -3.588924417272210E-3  
 2.736000000000000E10   -3.555182309355587E-3   5.548577639274299E-3  
 2.738000000000000E10    6.047904782462865E-3   3.546791820554063E-3  
 2.740000000000000E10    3.022238204721361E-3  -5.381926777772605E-3  
 2.742000000000000E10   -5.994140170514584E-3  -1.767135021509603E-3  
 2.744000000000000E10   -1.154346537077799E-3   6.162611593026668E-3  
 2.746000000000000E10    5.867230065632612E-3   1.115301813115366E-3  
 2.748000000000000E10    1.115616014430998E-4  -5.393525236286223E-3  
 2.750000000000000E10   -5.083698604721576E-3   1.149736257502809E-3  
 2.752000000000000E10    2.428477571811527E-3   5.388016463257372E-3  
 2.754000000000000E10    4.604512010701001E-3  -3.255730378441513E-3  
 2.756000000000000E10   -3.685109142679721E-3  -4.574600257910788E-3  
