#  HZ   S   RI   R     50.00 
! Rohde & Schwarz ZVA40 4Ports - Version 3.90 - 1145.1110k42 SN: 100403
! Date: 2023-10-04 06:03:44
! Measurement: S12 
! 
 2.200000000000000E10   -2.887587237637490E-3   1.673150720307604E-3  
 2.202000000000000E10    1.773042466084007E-3   3.156681312248111E-3  
 2.204000000000000E10    3.554346156306565E-3  -1.734622870571911E-3  
 2.206000000000000E10   -2.224250216386281E-3  -2.239645837107673E-3  
 2.208000000000000E10   -1.538652912131511E-3   2.586766626336612E-3  
 2.210000000000000E10    3.027655577170663E-3   1.820933000999503E-3  
 2.212000000000000E10    2.530718629714102E-3  -2.667192151420750E-3  
 2.214000000000000E10   -2.630122849950567E-3  -2.386648615356535E-3  
 2.216000000000000E10   -2.800031012156978E-3   2.539010893087834E-3  
 2.218000000000000E10    2.857632585801184E-3   2.802551171043888E-3  
 2.220000000000000E10    2.645044878590852E-3  -3.205712680937722E-3  
 2.222000000000000E10   -2.146097147488035E-3  -3.945396689232439E-3  
 2.224000000000000E10   -2.455992886098102E-3   2.053922653431073E-3  
 2.226000000000000E10    2.040727427811362E-3   7.261114769789856E-4  
 2.228000000000000E10    1.033430027746363E-3  -2.491271108738147E-3  
 2.230000000000000E10   -2.053360920399427E-3  -4.858465363213327E-4  
 2.232000000000000E10    1.099176959542092E-3   1.671071368036792E-3  
 2.234000000000000E10    2.851306649972685E-3  -2.188742029829882E-3  
 2.236000000000000E10   -3.392053302377462E-3  -3.992601239588112E-3  
 2.238000000000000E10   -5.390191072365269E-3   3.366022268892266E-3  
 2.240000000000000E10    3.475426216027699E-3   4.601222142810002E-3  
 2.242000000000000E10    4.073443182278425E-3  -4.409050190588459E-3  
 2.244000000000000E10   -4.309438983909786E-3  -5.220039660343900E-3  
 2.246000000000000E10   -4.501931660342962E-3   3.401425652555190E-3  
 2.248000000000000E10    2.597016267827712E-3   3.947983714169823E-3  
 2.250000000000000E10    3.653086110716686E-3  -4.033320379676297E-3  
 2.252000000000000E10   -5.341203941497952E-3  -2.333451586309820E-3  
 2.254000000000000E10   -1.859290918218903E-3   5.223137908615172E-3  
 2.256000000000000E10    5.743062647525221E-3   5.410600297182100E-4  
 2.258000000000000E10   -1.596431131474674E-3  -5.646885139867663E-3  
 2.260000000000000E10   -6.466011458542198E-3   2.372529605054297E-3  
 2.262000000000000E10    2.254194710985757E-3   6.106433167587966E-3  
 2.264000000000000E10    5.088481906568632E-3  -1.727285503875464E-3  
 2.266000000000000E10   -2.584771194960922E-3  -4.984650004189462E-3  
 2.268000000000000E10   -4.425479244673625E-3   3.366472315974534E-3  
 2.270000000000000E10    3.982959693530574E-3   5.104554031277075E-3  
 2.272000000000000E10    3.724093985510990E-3  -4.823299532290548E-3  
 2.274000000000000E10   -5.778790538897738E-3  -1.875112560810521E-3  
 2.276000000000000E10   -1.967990814591758E-3   6.648912501987070E-3  
 2.278000000000000E10    7.599403703352436E-3   2.052754316537175E-3  
 2.280000000000000E10    1.488467649323866E-3  -7.108366669854149E-3  
 2.282000000000000E10   -5.330130428774282E-3  -4.509363410761580E-3  
 2.284000000000000E10   -7.807254005456343E-4   7.637773785972968E-3  
 2.286000000000000E10    8.023947128094733E-3   2.998164391101454E-4  
 2.288000000000000E10   -2.814621384459315E-4  -6.638387800194323E-3  
 2.290000000000000E10   -5.436070758150891E-3   8.148491688189097E-4  
 2.292000000000000E10    2.937621175078675E-3   5.189973831875250E-3  
 2.294000000000000E10    4.214748012600467E-3  -3.833959635812789E-3  
 2.296000000000000E10   -3.942319337511435E-3  -3.579288197215647E-3  
 2.298000000000000E10   -3.093706356594339E-3   5.036410497268662E-3  
 2.300000000000000E10    6.778996001230553E-3   3.364989024703391E-3  
 2.302000000000000E10    3.664499425212853E-3  -7.435017498210073E-3  
 2.304000000000000E10   -8.494584239087999E-3  -3.114803708740510E-3  
 2.306000000000000E10   -2.728654159000143E-3   8.307482232339680E-3  
 2.308000000000000E10    8.359105733688921E-3   8.048132440308109E-4  
 2.310000000000000E10    3.709275715664262E-4  -7.886457839049399E-3  
 2.312000000000000E10   -6.851889542303979E-3  -1.741047663017525E-5  
 2.314000000000000E10    1.507660024799407E-3   6.149799097329378E-3  
 2.316000000000000E10    6.532645173138008E-3  -2.838404223439284E-3  
 2.318000000000000E10   -4.420688987011090E-3  -6.334040837828070E-3  
 2.320000000000000E10   -6.386926193954423E-3   5.298635718645528E-3  
 2.322000000000000E10    6.163901824038476E-3   6.186049227835611E-3  
 2.324000000000000E10    5.459977517602965E-3  -7.617883442435414E-3  
 2.326000000000000E10   -8.434475341346115E-3  -4.963757673976943E-3  
 2.328000000000000E10   -4.113502160180360E-3   7.820702478056774E-3  
 2.330000000000000E10    6.730259075993672E-3   2.631010764162056E-3  
 2.332000000000000E10    1.727783674141392E-3  -7.215958437882364E-3  
 2.334000000000000E10   -7.175259903306142E-3  -1.179704071546439E-3  
 2.336000000000000E10    8.104310691123828E-4   7.570846879389137E-3  
 2.338000000000000E10    7.459630316589028E-3  -2.111720110406168E-3  
 2.340000000000000E10   -4.081416234839708E-3  -7.993446954060346E-3  
 2.342000000000000E10   -8.108735142741352E-3   6.347194284899160E-3  
 2.344000000000000E10    6.579197797691450E-3   7.378843700280413E-3  
 2.346000000000000E10    6.804837903473526E-3  -7.506928785005584E-3  
 2.348000000000000E10   -7.501453481381759E-3  -5.978204746497795E-3  
 2.350000000000000E10   -5.983761395327747E-3   7.109883998055011E-3  
 2.352000000000000E10    7.182631146861240E-3   4.816100874450058E-3  
 2.354000000000000E10    3.358287911396474E-3  -7.437998516252264E-3  
 2.356000000000000E10   -7.906321727205068E-3  -1.724647358059883E-3  
 2.358000000000000E10   -4.365428703749785E-4   8.018272870685905E-3  
 2.360000000000000E10    8.624760434031487E-3  -1.102181377063971E-3  
 2.362000000000000E10   -2.852845369488932E-3  -8.196508802939206E-3  
 2.364000000000000E10   -8.623078581877053E-3   4.254954488715157E-3  
 2.366000000000000E10    4.242731665726751E-3   8.990542439278215E-3  
 2.368000000000000E10    8.522012270987034E-3  -4.991416615666822E-3  
 2.370000000000000E10   -5.699746980099008E-3  -8.165015198756009E-3  
 2.372000000000000E10   -7.274685514857993E-3   7.116027962183580E-3  
 2.374000000000000E10    7.822692743502557E-3   5.482487729750574E-3  
 2.376000000000000E10    4.151862114667893E-3  -7.994785031769425E-3  
 2.378000000000000E10   -8.568142191506922E-3  -2.251985002658330E-3  
 2.380000000000000E10   -6.739902273693588E-4   8.357397804502398E-3  
 2.382000000000000E10    9.522206615656614E-3   2.586804203019710E-5  
 2.384000000000000E10   -1.178482285467908E-3  -9.359064453747124E-3  
 2.386000000000000E10   -1.018585218116641E-2   1.527937216451392E-3  
 2.388000000000000E10    2.397616975940764E-3   1.046446652617306E-2  
 2.390000000000000E10    9.902117599267513E-3  -3.513177507556975E-3  
 2.392000000000000E10   -4.232710431097075E-3  -9.219830681104213E-3  
 2.394000000000000E10   -8.009346667677164E-3   5.654779088217765E-3  
 2.396000000000000E10    6.850308534922078E-3   6.770900159608573E-3  
 2.398000000000000E10    5.016198119847104E-3  -7.634818641236052E-3  
 2.400000000000000E10   -8.492367865983397E-3  -3.682332608150318E-3  
 2.402000000000000E10   -2.147185768990312E-4   9.898657270241529E-3  
 2.404000000000000E10    1.081922947196290E-2  -4.394077877805103E-4  
 2.406000000000000E10   -1.475350465625525E-3  -1.064607733860612E-2  
 2.408000000000000E10   -1.100471377139911E-2   2.141489312634803E-3  
 2.410000000000000E10    3.144677757518366E-3   1.012316782725975E-2  
 2.412000000000000E10    9.557226090691984E-3  -3.532140312017873E-3  
 2.414000000000000E10   -3.639731672592461E-3  -8.881048124749214E-3  
 2.416000000000000E10   -7.674898108234629E-3   4.091241280548275E-3  
 2.418000000000000E10    5.303794547216967E-3   6.771678861696273E-3  
 2.420000000000000E10    5.222113453783095E-3  -5.996112857246772E-3  
 2.422000000000000E10   -7.653820444829762E-3  -4.966853826772422E-3  
 2.424000000000000E10   -4.372993862489238E-3   9.280789643526077E-3  
 2.426000000000000E10    9.899661992676556E-3   2.422437159111723E-3  
 2.428000000000000E10    1.516243821242824E-3  -1.095462689409033E-2  
 2.430000000000000E10   -1.205802912591025E-2  -3.776571593334666E-4  
 2.432000000000000E10    6.191003703861497E-4   1.130764867411926E-2  
 2.434000000000000E10    1.055325887864456E-2  -1.612062224012334E-3  
 2.436000000000000E10   -2.396466603386216E-3  -9.157827240414918E-3  
 2.438000000000000E10   -8.348545816261321E-3   3.256015756051056E-3  
 2.440000000000000E10    4.553445876808837E-3   8.131479145959020E-3  
 2.442000000000000E10    6.987792672589421E-3  -5.425377225037664E-3  
 2.444000000000000E10   -6.580650369869545E-3  -6.491197302239016E-3  
 2.446000000000000E10   -5.923547898419201E-3   7.971676357556135E-3  
 2.448000000000000E10    8.529902203008533E-3   5.770349933300167E-3  
 2.450000000000000E10    5.139290617080405E-3  -8.883219037670642E-3  
 2.452000000000000E10   -9.431200043763965E-3  -3.923223368474282E-3  
 2.454000000000000E10   -2.802996401442215E-3   9.686229168437421E-3  
 2.456000000000000E10    8.982002502307296E-3   1.789990921679419E-3  
 2.458000000000000E10    2.229788669865229E-4  -8.983488311059773E-3  
 2.460000000000000E10   -8.956809178926051E-3   1.636435321415775E-3  
 2.462000000000000E10    3.407860480365343E-3   8.392298652324826E-3  
 2.464000000000000E10    8.129710739012808E-3  -4.333415592554957E-3  
 2.466000000000000E10   -5.386469973018393E-3  -8.136765973176807E-3  
 2.468000000000000E10   -7.671875093365088E-3   5.947111814748496E-3  
 2.470000000000000E10    6.722275953507051E-3   7.532669784268364E-3  
 2.472000000000000E10    7.185342110460624E-3  -6.706400890834630E-3  
 2.474000000000000E10   -6.674018688499928E-3  -6.934272823855281E-3  
 2.476000000000000E10   -6.321848253719509E-3   7.350166357355192E-3  
 2.478000000000000E10    7.846653868909925E-3   4.938593279803172E-3  
 2.480000000000000E10    3.144577669445425E-3  -7.977639033924788E-3  
 2.482000000000000E10   -8.681445440743119E-3  -1.651472950470634E-3  
 2.484000000000000E10    2.842480898834765E-4   9.047231054864824E-3  
 2.486000000000000E10    9.155959589406848E-3  -2.386353749898262E-3  
 2.488000000000000E10   -3.964853676734492E-3  -9.277534962166101E-3  
 2.490000000000000E10   -9.717729175463319E-3   4.440922843059525E-3  
 2.492000000000000E10    4.729071748442948E-3   9.222484542988241E-3  
 2.494000000000000E10    8.712409879080951E-3  -5.578506126767024E-3  
 2.496000000000000E10   -5.900413641938940E-3  -8.366344787646085E-3  
 2.498000000000000E10   -7.610544213093817E-3   6.579450593562797E-3  
 2.500000000000000E10    6.151199253508821E-3   6.536084139952436E-3  
 2.502000000000000E10    5.110195546876639E-3  -7.105402240995318E-3  
 2.504000000000000E10   -7.982877083122730E-3  -3.529639798216522E-3  
 2.506000000000000E10   -2.851512806955725E-3   8.380185812711716E-3  
 2.508000000000000E10    8.632724289782345E-3   1.810767396818847E-3  
 2.510000000000000E10   -1.393429374729749E-4  -9.783421410247684E-3  
 2.512000000000000E10   -9.881306206807494E-3   1.001238742901478E-3  
 2.514000000000000E10    2.077093959087506E-3   1.054583885706961E-2  
 2.516000000000000E10    9.765313123352826E-3  -3.235029231291264E-3  
 2.518000000000000E10   -3.856875322526321E-3  -9.005264961160719E-3  
 2.520000000000000E10   -8.449880057014525E-3   5.265610700007528E-3  
 2.522000000000000E10    5.953661981038749E-3   6.939652550499886E-3  
 2.524000000000000E10    6.304873735643923E-3  -6.421575846616179E-3  
 2.526000000000000E10   -7.465777336619794E-3  -5.687803146429360E-3  
 2.528000000000000E10   -4.619986924808472E-3   8.307445445097983E-3  
 2.530000000000000E10    9.770296630449593E-3   4.332078329753131E-3  
 2.532000000000000E10    3.167326125549153E-3  -9.581103338859975E-3  
 2.534000000000000E10   -9.663224220275879E-3  -2.367305278312415E-3  
 2.536000000000000E10   -8.577414482715540E-4   1.043288817163557E-2  
 2.538000000000000E10    1.010087609756738E-2   3.743589513760526E-4  
 2.540000000000000E10   -6.182508877827786E-4  -9.484014008194208E-3  
 2.542000000000000E10   -8.179689175449312E-3   2.905162778915837E-3  
 2.544000000000000E10    4.663097439333797E-3   7.504273438826203E-3  
 2.546000000000000E10    7.313791662454605E-3  -6.020057306159288E-3  
 2.548000000000000E10   -6.744851707480848E-3  -6.046591501217336E-3  
 2.550000000000000E10   -5.271504633128643E-3   8.236940018832684E-3  
 2.552000000000000E10    9.794525918550789E-3   4.886721493676305E-3  
 2.554000000000000E10    4.664620850235224E-3  -9.869276545941830E-3  
 2.556000000000000E10   -9.700902039185166E-3  -3.891990083502606E-3  
 2.558000000000000E10   -3.236351622035727E-3   9.868003195151687E-3  
 2.560000000000000E10    1.003822556231171E-2   2.129724394762889E-3  
 2.562000000000000E10    1.111210047383793E-3  -9.692533058114350E-3  
 2.564000000000000E10   -8.885707473382354E-3  -1.777511815816979E-4  
 2.566000000000000E10    1.711945646093227E-3   9.042396442964673E-3  
 2.568000000000000E10    8.711293805390596E-3  -4.618885577656329E-3  
 2.570000000000000E10   -6.011003686580807E-3  -7.800067658536136E-3  
 2.572000000000000E10   -6.770545965991914E-3   6.943756539840251E-3  
 2.574000000000000E10    8.508987375535071E-3   6.163818121422082E-3  
 2.576000000000000E10    4.425356222782284E-3  -9.543687221594155E-3  
 2.578000000000000E10   -9.874750860035420E-3  -3.586330247344449E-3  
 2.580000000000000E10   -3.395603387616575E-3   9.541164850816131E-3  
 2.582000000000000E10    9.657214162871242E-3   2.748645900283009E-3  
 2.584000000000000E10    8.597019550506957E-4  -9.883078164421022E-3  
 2.586000000000000E10   -1.057520904578269E-2   2.828724063874688E-4  
 2.588000000000000E10    6.924632907612249E-4   1.033651165198535E-2  
 2.590000000000000E10    9.721005684696138E-3  -1.700364591670223E-3  
 2.592000000000000E10   -3.596980066504329E-3  -9.329374413937330E-3  
 2.594000000000000E10   -9.739321074448526E-3   4.719656426459551E-3  
 2.596000000000000E10    5.035431182477623E-3   9.455937892198563E-3  
 2.598000000000000E10    8.141295169480145E-3  -6.166888109873980E-3  
 2.600000000000000E10   -6.702615472022444E-3  -6.972887553274632E-3  
 2.602000000000000E10   -6.399710546247661E-3   7.820459664799273E-3  
 2.604000000000000E10    8.340261410921812E-3   4.422524129040539E-3  
 2.606000000000000E10    2.379853773163632E-3  -7.672336825635284E-3  
 2.608000000000000E10   -8.779082796536386E-3  -1.133281941292808E-3  
 2.610000000000000E10   -4.600026295520365E-4   1.021909120026976E-2  
 2.612000000000000E10    1.020326954312623E-2  -4.172644912614487E-4  
 2.614000000000000E10   -9.735467756399885E-4  -1.069961523171514E-2  
 2.616000000000000E10   -1.167344499845058E-2   1.760977480444126E-3  
 2.618000000000000E10    2.290556090883911E-3   1.187636691611260E-2  
 2.620000000000000E10    1.108469138853252E-2  -4.183468176051974E-3  
 2.622000000000000E10   -4.436121147591621E-3  -1.018491690047085E-2  
 2.624000000000000E10   -9.022645885124803E-3   4.819040070287883E-3  
 2.626000000000000E10    5.407656775787473E-3   7.556689844932407E-3  
 2.628000000000000E10    6.089333561249077E-3  -6.751043722033501E-3  
 2.630000000000000E10   -7.581300858873874E-3  -4.194881068542600E-3  
 2.632000000000000E10   -3.248939436161891E-3   8.444689097814262E-3  
 2.634000000000000E10    9.220394189469516E-3   1.806635351385921E-3  
 2.636000000000000E10    7.193837227532640E-4  -9.901681682094932E-3  
 2.638000000000000E10   -1.030041335616261E-2   2.968374719785061E-4  
 2.640000000000000E10    1.614371387404390E-3   1.023367303423584E-2  
 2.642000000000000E10    9.715051739476621E-3  -2.398408338194713E-3  
 2.644000000000000E10   -2.740811294643208E-3  -9.678162867203355E-3  
 2.646000000000000E10   -8.915721555240452E-3   3.858130425214768E-3  
 2.648000000000000E10    5.053480272181332E-3   8.060512249357998E-3  
 2.650000000000000E10    8.014002582058311E-3  -5.657631729263812E-3  
 2.652000000000000E10   -7.028037274722010E-3  -6.947376881726086E-3  
 2.654000000000000E10   -5.547747423406690E-3   7.914486806839705E-3  
 2.656000000000000E10    8.281078888103366E-3   4.635998862795532E-3  
 2.658000000000000E10    3.715742292115465E-3  -9.055361733771861E-3  
 2.660000000000000E10   -8.379935869015753E-3  -2.800929883960635E-3  
 2.662000000000000E10   -1.941788199474104E-3   8.263142546638846E-3  
 2.664000000000000E10    8.548849378712475E-3   9.618508483981714E-4  
 2.666000000000000E10   -5.121295071148779E-4  -7.675011642277241E-3  
 2.668000000000000E10   -7.142485701479018E-3   1.953904342371970E-3  
 2.670000000000000E10    3.284856560640037E-3   7.067980826832354E-3  
 2.672000000000000E10    7.239959319122136E-3  -4.531831364147365E-3  
 2.674000000000000E10   -5.658276088070124E-3  -6.684811087325215E-3  
 2.676000000000000E10   -6.385924236383289E-3   6.923598644789308E-3  
 2.678000000000000E10    7.837154844310135E-3   6.744594604242593E-3  
 2.680000000000000E10    6.249618309084326E-3  -7.777754217386246E-3  
 2.682000000000000E10   -8.080821135081351E-3  -5.520945356693119E-3  
 2.684000000000000E10   -4.901370208244771E-3   8.414288633503020E-3  
 2.686000000000000E10    8.231437532231212E-3   3.870647196890786E-3  
 2.688000000000000E10    2.796788554405794E-3  -7.435332925524563E-3  
 2.690000000000000E10   -6.903490575496107E-3  -1.234243449289352E-3  
 2.692000000000000E10    2.236309392174007E-4   7.399266993161291E-3  
 2.694000000000000E10    7.551323389634490E-3  -1.992725592572242E-3  
 2.696000000000000E10   -2.674438350368291E-3  -6.846761214546859E-3  
 2.698000000000000E10   -6.914195138961077E-3   3.838998614810407E-3  
 2.700000000000000E10    5.239392921794206E-3   6.962250045035034E-3  
 2.702000000000000E10    6.398281489964575E-3  -6.206779100466520E-3  
 2.704000000000000E10   -6.308598793111742E-3  -5.263207305688411E-3  
 2.706000000000000E10   -5.045660480391234E-3   6.418495555408299E-3  
 2.708000000000000E10    6.257050612475723E-3   3.922137548215687E-3  
 2.710000000000000E10    3.373182466020808E-3  -6.999797944445163E-3  
 2.712000000000000E10   -6.938151724170893E-3  -2.530335099436343E-3  
 2.714000000000000E10   -1.665414310991764E-3   7.610432046931237E-3  
 2.716000000000000E10    7.453704485669732E-3   4.247132856107783E-4  
 2.718000000000000E10   -2.767433070403058E-4  -7.537885045167059E-3  
 2.720000000000000E10   -8.342904038727284E-3   5.914445137022995E-4  
 2.722000000000000E10    1.072865357855335E-3   7.869197288528085E-3  
 2.724000000000000E10    6.796742032747716E-3  -1.950375604792498E-3  
 2.726000000000000E10   -2.741380885709077E-3  -7.325470913201571E-3  
 2.728000000000000E10   -6.890175689477474E-3   3.146355214994401E-3  
 2.730000000000000E10    3.636263631051406E-3   5.019722681026906E-3  
 2.732000000000000E10    3.972245496697724E-3  -4.385090316645801E-3  
 2.734000000000000E10   -5.921183095779270E-3  -3.357611625688151E-3  
 2.736000000000000E10   -2.853674086509273E-3   6.356279714964330E-3  
 2.738000000000000E10    6.649860530160368E-3   2.104536950355396E-3  
 2.740000000000000E10    6.858194756205194E-4  -7.142329239286482E-3  
 2.742000000000000E10   -8.179684984497726E-3  -6.494618696706311E-5  
 2.744000000000000E10   -7.364200282609090E-4   8.062573266215622E-3  
 2.746000000000000E10    7.564017898403108E-3   2.192332522099605E-4  
 2.748000000000000E10   -1.114718266762793E-3  -7.249013695400208E-3  
 2.750000000000000E10   -7.311893394216895E-3   1.752227282850072E-3  
 2.752000000000000E10    2.122445526765660E-3   7.004319573752582E-3  
 2.754000000000000E10    5.466867820359767E-3  -2.746673562796786E-3  
 2.756000000000000E10   -4.022693959996104E-3  -4.935334378387779E-3  
