#  HZ   S   RI   R     50.00 
! Rohde & Schwarz ZVA40 4Ports - Version 3.90 - 1145.1110k42 SN: 100403
! Date: 2023-10-04 06:04:43
! Measurement: S12 
! 
 2.200000000000000E10   -5.307010200340301E-3   4.077728208358167E-4  
 2.202000000000000E10    6.871614095871337E-4   4.339802660979331E-3  
 2.204000000000000E10    3.171576929162256E-3  -1.242628248292022E-3  
 2.206000000000000E10   -3.181203675922006E-3  -1.922497598570772E-3  
 2.208000000000000E10   -1.243601720489096E-3   4.285144153982401E-3  
 2.210000000000000E10    3.991087462054566E-3   1.287656217755284E-3  
 2.212000000000000E10    2.268687414471060E-3  -4.013152094557881E-3  
 2.214000000000000E10   -4.456639668205753E-3  -1.090762045350857E-3  
 2.216000000000000E10   -1.295519323321059E-3   4.749486950458959E-3  
 2.218000000000000E10    4.558473738143221E-3   2.431563596474007E-3  
 2.220000000000000E10    2.566600203863345E-3  -5.582334764767438E-3  
 2.222000000000000E10   -4.806394979823381E-3  -2.481291536241770E-3  
 2.224000000000000E10   -5.618462164420635E-4   4.861668800003827E-3  
 2.226000000000000E10    6.010709388647229E-3  -1.206935730806436E-4  
 2.228000000000000E10    1.167644701922654E-4  -5.717348016332835E-3  
 2.230000000000000E10   -4.361750034149736E-3   2.148980383935850E-4  
 2.232000000000000E10    1.021325231704395E-3   4.925610759528354E-3  
 2.234000000000000E10    5.893849825952202E-3  -2.459712064592168E-3  
 2.236000000000000E10   -1.975410923478194E-3  -5.970221303869039E-3  
 2.238000000000000E10   -5.837872944539413E-3   2.311784948688000E-3  
 2.240000000000000E10    3.095025705988519E-3   4.143239435506985E-3  
 2.242000000000000E10    3.283650192315690E-3  -4.166396800428629E-3  
 2.244000000000000E10   -3.807472268817946E-3  -3.799977348535322E-3  
 2.246000000000000E10   -2.510852660634555E-3   3.906017984263599E-3  
 2.248000000000000E10    4.753807006636635E-3   9.772416669875383E-4  
 2.250000000000000E10    5.851036148669664E-4  -6.134565745014697E-3  
 2.252000000000000E10   -7.728155876975507E-3  -7.270005062309792E-4  
 2.254000000000000E10   -1.092190279450733E-3   8.457695250399411E-3  
 2.256000000000000E10    8.807849313598126E-3  -1.152394754171837E-3  
 2.258000000000000E10   -2.566512703197077E-3  -8.845492673572153E-3  
 2.260000000000000E10   -8.798039401881397E-3   1.905244906083681E-3  
 2.262000000000000E10    1.362536051601637E-3   7.407654018606991E-3  
 2.264000000000000E10    6.305529124801979E-3  -1.542392667033710E-3  
 2.266000000000000E10   -2.885418361984193E-3  -5.666805664077401E-3  
 2.268000000000000E10   -4.694776842370629E-3   3.634732027421705E-3  
 2.270000000000000E10    4.244475887389854E-3   4.998565098503605E-3  
 2.272000000000000E10    3.055891793337651E-3  -5.313226807629690E-3  
 2.274000000000000E10   -7.068025617627427E-3  -2.212224761024118E-3  
 2.276000000000000E10   -1.585410456755199E-3   8.213272783905268E-3  
 2.278000000000000E10    7.775887963362038E-3   8.981688552012201E-4  
 2.280000000000000E10    7.952888299769256E-4  -7.192661287263036E-3  
 2.282000000000000E10   -5.896399525227025E-3  -4.786633915500715E-3  
 2.284000000000000E10    3.505110908008646E-5   8.396275166887790E-3  
 2.286000000000000E10    8.160039200447500E-3  -4.359412760095438E-4  
 2.288000000000000E10   -1.957919266715180E-3  -7.256025215610862E-3  
 2.290000000000000E10   -6.777699192753062E-3   3.321743803098798E-3  
 2.292000000000000E10    4.797115980181843E-3   6.449484732002020E-3  
 2.294000000000000E10    5.536072363611311E-3  -5.355554108973593E-3  
 2.296000000000000E10   -5.678059969795868E-3  -5.134243285283446E-3  
 2.298000000000000E10   -4.911168682156131E-3   6.365813926095143E-3  
 2.300000000000000E10    7.395679625915363E-3   5.979651643428952E-3  
 2.302000000000000E10    5.286662664730102E-3  -8.033813151996583E-3  
 2.304000000000000E10   -7.781987893395126E-3  -4.242436873028055E-3  
 2.306000000000000E10   -2.846610441338271E-3   8.079335268121213E-3  
 2.308000000000000E10    8.211506181396544E-3   9.521204774500802E-4  
 2.310000000000000E10   -6.078994265408255E-4  -8.048360701650381E-3  
 2.312000000000000E10   -6.757018854841590E-3   1.909821745357476E-3  
 2.314000000000000E10    3.792728719417937E-3   6.896243896335363E-3  
 2.316000000000000E10    7.270427158800885E-3  -4.894657642580569E-3  
 2.318000000000000E10   -5.735344631830230E-3  -7.570829853648320E-3  
 2.320000000000000E10   -7.854577415855601E-3   7.367331505520269E-3  
 2.322000000000000E10    7.393442036118358E-3   6.498469098005444E-3  
 2.324000000000000E10    6.338778679491952E-3  -8.851138059981167E-3  
 2.326000000000000E10   -8.671882853377610E-3  -5.919253249885514E-3  
 2.328000000000000E10   -3.943188115954399E-3   7.926149584818631E-3  
 2.330000000000000E10    8.127463923301548E-3   2.217695568106137E-3  
 2.332000000000000E10    1.828402237151749E-3  -8.290957892313600E-3  
 2.334000000000000E10   -8.644388639368117E-3  -1.132319499447476E-3  
 2.336000000000000E10    1.354602543869987E-3   9.378760878462344E-3  
 2.338000000000000E10    1.012926228577271E-2  -3.213176954886876E-3  
 2.340000000000000E10   -5.109913705382496E-3  -9.525998728349805E-3  
 2.342000000000000E10   -9.807092719711363E-3   6.343573390040547E-3  
 2.344000000000000E10    7.110111793735996E-3   8.140748599544168E-3  
 2.346000000000000E10    6.339373270748183E-3  -7.558347046142444E-3  
 2.348000000000000E10   -7.063860510243103E-3  -6.231138278963044E-3  
 2.350000000000000E10   -5.634466506307945E-3   7.380836032098159E-3  
 2.352000000000000E10    8.288876211736351E-3   3.774752811295912E-3  
 2.354000000000000E10    2.275273887789808E-3  -8.901770575903356E-3  
 2.356000000000000E10   -1.019998121773824E-2  -7.064559067657683E-4  
 2.358000000000000E10    1.260535369510762E-3   1.035072421655059E-2  
 2.360000000000000E10    1.058835571166128E-2  -2.239484267192893E-3  
 2.362000000000000E10   -3.209889197023585E-3  -1.054630457656458E-2  
 2.364000000000000E10   -1.066152314888313E-2   3.956423213821836E-3  
 2.366000000000000E10    4.260863468516618E-3   1.039368851343170E-2  
 2.368000000000000E10    9.345306141767651E-3  -4.762544733239338E-3  
 2.370000000000000E10   -5.960711510851979E-3  -9.083163109607995E-3  
 2.372000000000000E10   -7.510051247663796E-3   6.998489639954642E-3  
 2.374000000000000E10    8.491207845509052E-3   5.511286464752629E-3  
 2.376000000000000E10    3.340485855005682E-3  -9.598961274605244E-3  
 2.378000000000000E10   -1.006738090654835E-2  -1.354279054794461E-3  
 2.380000000000000E10    1.217033600369177E-4   1.043566968291998E-2  
 2.382000000000000E10    1.070793916005641E-2  -7.867461026762612E-4  
 2.384000000000000E10   -1.368278688460123E-3  -1.124629285186529E-2  
 2.386000000000000E10   -1.242117147194222E-2   2.250067846034654E-3  
 2.388000000000000E10    3.113406943157315E-3   1.144601666601375E-2  
 2.390000000000000E10    1.061041629873216E-2  -4.127908119698986E-3  
 2.392000000000000E10   -5.215190030867234E-3  -1.031773863360286E-2  
 2.394000000000000E10   -9.405496879480779E-3   6.937939819181338E-3  
 2.396000000000000E10    8.381685998756439E-3   7.230607472592965E-3  
 2.398000000000000E10    5.281510530039668E-3  -9.319861826952547E-3  
 2.400000000000000E10   -1.006392698036507E-2  -4.031582153402269E-3  
 2.402000000000000E10   -6.258625144255348E-4   1.189536589663476E-2  
 2.404000000000000E10    1.247995026642457E-2  -2.413974398223218E-4  
 2.406000000000000E10   -1.070188227458857E-3  -1.131816057022661E-2  
 2.408000000000000E10   -1.184716890566051E-2   2.790450118482113E-3  
 2.410000000000000E10    4.003669164376333E-3   1.056537282420322E-2  
 2.412000000000000E10    9.876737603917718E-3  -4.602586355758831E-3  
 2.414000000000000E10   -5.101643706439063E-3  -9.202309942338616E-3  
 2.416000000000000E10   -8.076722093392164E-3   5.977784458082169E-3  
 2.418000000000000E10    7.687534176511690E-3   7.266926812008023E-3  
 2.420000000000000E10    6.562512455275282E-3  -9.489745774772018E-3  
 2.422000000000000E10   -1.004465541336685E-2  -6.472520995885134E-3  
 2.424000000000000E10   -5.319316493114457E-3   1.136008900357410E-2  
 2.426000000000000E10    1.241548924008384E-2   3.769390517845750E-3  
 2.428000000000000E10    3.077250919886865E-3  -1.290238846559078E-2  
 2.430000000000000E10   -1.291824370855466E-2  -1.556385563162621E-3  
 2.432000000000000E10    2.543474938647705E-4   1.182798331137747E-2  
 2.434000000000000E10    1.056056679226458E-2  -2.083886713080574E-3  
 2.436000000000000E10   -3.399254797841422E-3  -9.246428729966283E-3  
 2.438000000000000E10   -8.723606704734266E-3   4.635337681975216E-3  
 2.440000000000000E10    5.763143504736945E-3   7.969077705638483E-3  
 2.442000000000000E10    7.275888579897583E-3  -7.969326863531023E-3  
 2.444000000000000E10   -9.079750394448638E-3  -6.834373838501051E-3  
 2.446000000000000E10   -6.697859120322391E-3   1.017389190383256E-2  
 2.448000000000000E10    1.052336185239255E-2   6.541187176480889E-3  
 2.450000000000000E10    5.465340538648889E-3  -1.122372807003558E-2  
 2.452000000000000E10   -1.159646006999537E-2  -4.170818196143955E-3  
 2.454000000000000E10   -3.207423069397919E-3   1.132717612199485E-2  
 2.456000000000000E10    1.073001412441954E-2   1.996157589019276E-3  
 2.458000000000000E10   -1.308992368649342E-4  -1.075247675180435E-2  
 2.460000000000000E10   -1.002093526767567E-2   2.165516154491343E-3  
 2.462000000000000E10    4.278037435142323E-3   9.790558542590588E-3  
 2.464000000000000E10    8.892932441085577E-3  -5.624439625535160E-3  
 2.466000000000000E10   -5.761581647675484E-3  -9.003726474475116E-3  
 2.468000000000000E10   -8.299141423776746E-3   7.412912149447948E-3  
 2.470000000000000E10    7.995566469617188E-3   7.615251728566364E-3  
 2.472000000000000E10    7.461323082679883E-3  -7.951020961627364E-3  
 2.474000000000000E10   -8.554430096410215E-3  -6.768900173483416E-3  
 2.476000000000000E10   -5.734957667300478E-3   9.354829089716077E-3  
 2.478000000000000E10    9.668456448707730E-3   4.229521728120744E-3  
 2.480000000000000E10    2.955848962301388E-3  -1.023620757041499E-2  
 2.482000000000000E10   -1.100635144393891E-2  -1.451128977350891E-3  
 2.484000000000000E10    7.427072341670282E-4   1.102123921737075E-2  
 2.486000000000000E10    1.126979541731998E-2  -2.859703425201587E-3  
 2.488000000000000E10   -4.098755336599425E-3  -1.095126068685204E-2  
 2.490000000000000E10   -1.035705010872334E-2   4.227918718243018E-3  
 2.492000000000000E10    5.069879029178992E-3   9.482236870098859E-3  
 2.494000000000000E10    9.270791604649276E-3  -6.254274339880794E-3  
 2.496000000000000E10   -6.808989448472858E-3  -7.956339279189706E-3  
 2.498000000000000E10   -6.248548626899719E-3   7.338662690017372E-3  
 2.500000000000000E10    7.178573374403641E-3   5.351052590413019E-3  
 2.502000000000000E10    4.124984669033438E-3  -8.989596273750067E-3  
 2.504000000000000E10   -1.006776845315471E-2  -2.797524692141451E-3  
 2.506000000000000E10   -2.152861387003213E-3   1.002464722841978E-2  
 2.508000000000000E10    1.096785505069420E-2   1.063361785782035E-3  
 2.510000000000000E10   -1.761121902745799E-4  -1.244495966238901E-2  
 2.512000000000000E10   -1.259199046762660E-2   6.486733072961215E-4  
 2.514000000000000E10    2.097409058478661E-3   1.214799232548103E-2  
 2.516000000000000E10    1.092432223958895E-2  -3.400638117454946E-3  
 2.518000000000000E10   -4.444350313860923E-3  -9.425536030903459E-3  
 2.520000000000000E10   -8.474276692140847E-3   5.432311649201438E-3  
 2.522000000000000E10    5.931363702984527E-3   7.418242981657386E-3  
 2.524000000000000E10    6.191490596393123E-3  -7.302397396415472E-3  
 2.526000000000000E10   -8.446200634352863E-3  -4.870736505836248E-3  
 2.528000000000000E10   -4.436254996107891E-3   9.673051710706204E-3  
 2.530000000000000E10    1.137080404441804E-2   3.685005358420312E-3  
 2.532000000000000E10    2.739082876360044E-3  -1.081893371883780E-2  
 2.534000000000000E10   -1.170644001103938E-2  -1.401837893354241E-3  
 2.536000000000000E10   -2.964642844744958E-4   1.232525589875877E-2  
 2.538000000000000E10    1.219355134526268E-2  -3.874097782841091E-5  
 2.540000000000000E10   -1.828312611905858E-3  -1.073807862121612E-2  
 2.542000000000000E10   -9.723250637762249E-3   3.938182839192450E-3  
 2.544000000000000E10    5.766500398749486E-3   9.172547666821629E-3  
 2.546000000000000E10    8.374323602765799E-3  -6.259992806008086E-3  
 2.548000000000000E10   -7.062042306642979E-3  -6.785194040276110E-3  
 2.550000000000000E10   -5.401122471084818E-3   8.556584478355944E-3  
 2.552000000000000E10    9.694895881693810E-3   4.883895395323634E-3  
 2.554000000000000E10    4.527227894868702E-3  -9.388974576722831E-3  
 2.556000000000000E10   -9.407626814208925E-3  -3.386016760487109E-3  
 2.558000000000000E10   -2.038951046415605E-3   1.025675551500171E-2  
 2.560000000000000E10    1.057304471032694E-2   6.269345030887052E-4  
 2.562000000000000E10   -6.434448005165905E-5  -1.039588142884895E-2  
 2.564000000000000E10   -1.023917517159134E-2   1.320488583587576E-3  
 2.566000000000000E10    4.013302663224749E-3   1.072020322317258E-2  
 2.568000000000000E10    1.064292876981199E-2  -6.424579332815483E-3  
 2.570000000000000E10   -7.600817887578160E-3  -9.717648674268276E-3  
 2.572000000000000E10   -8.480439486447722E-3   8.188159903511405E-3  
 2.574000000000000E10    9.218366176355630E-3   7.793928380124271E-3  
 2.576000000000000E10    6.365814391756430E-3  -1.030386897036806E-2  
 2.578000000000000E10   -1.002825901377946E-2  -5.323516350472346E-3  
 2.580000000000000E10   -4.709161410573870E-3   9.465472365263850E-3  
 2.582000000000000E10    9.458807006012648E-3   2.711396416998468E-3  
 2.584000000000000E10    7.509040733566508E-4  -9.749759803526104E-3  
 2.586000000000000E10   -1.026915566762909E-2   2.303821092937142E-4  
 2.588000000000000E10    1.672698272159323E-3   1.000414334703237E-2  
 2.590000000000000E10    9.512164862826467E-3  -3.991357021732256E-3  
 2.592000000000000E10   -5.576011433731765E-3  -1.020117365987971E-2  
 2.594000000000000E10   -1.082670345203951E-2   7.107210753019899E-3  
 2.596000000000000E10    7.037891104118899E-3   9.569203713908792E-3  
 2.598000000000000E10    9.147897595539689E-3  -8.236405206844211E-3  
 2.600000000000000E10   -9.471539524383843E-3  -8.601094770710915E-3  
 2.602000000000000E10   -7.120813999790698E-3   9.927680250257254E-3  
 2.604000000000000E10    9.141867805738002E-3   5.386110220570117E-3  
 2.606000000000000E10    3.574891336029396E-3  -9.015390765853226E-3  
 2.608000000000000E10   -1.013002108084038E-2  -2.462088465108536E-3  
 2.610000000000000E10   -1.489515518187545E-3   1.023741520475596E-2  
 2.612000000000000E10    9.857057069893926E-3   3.576084309315775E-4  
 2.614000000000000E10   -1.285835831367876E-3  -1.063344924477860E-2  
 2.616000000000000E10   -1.072241383371875E-2   1.790476744645275E-3  
 2.618000000000000E10    3.899089948390611E-3   1.121512084500864E-2  
 2.620000000000000E10    1.014708529692143E-2  -5.742819281294942E-3  
 2.622000000000000E10   -5.985146359307692E-3  -9.504150832071900E-3  
 2.624000000000000E10   -8.188926265574992E-3   7.268176676006988E-3  
 2.626000000000000E10    8.175854396540672E-3   7.196158258011565E-3  
 2.628000000000000E10    5.991087091388181E-3  -8.946450660005212E-3  
 2.630000000000000E10   -1.022523251594976E-2  -5.247281194897369E-3  
 2.632000000000000E10   -3.773827804252505E-3   1.079341338481754E-2  
 2.634000000000000E10    1.105831016320735E-2   2.950800902908668E-3  
 2.636000000000000E10    2.000661552301608E-3  -1.173074450343847E-2  
 2.638000000000000E10   -1.136887387838215E-2  -9.604327606211882E-4  
 2.640000000000000E10   -3.503760012790735E-6   1.089631073409692E-2  
 2.642000000000000E10    1.078357663936913E-2  -1.161354695796035E-3  
 2.644000000000000E10   -2.274673039210029E-3  -9.494260069914162E-3  
 2.646000000000000E10   -8.457390067633241E-3   3.738228566362523E-3  
 2.648000000000000E10    5.501724575879052E-3   8.089459035545588E-3  
 2.650000000000000E10    6.588567892322317E-3  -6.744903424987570E-3  
 2.652000000000000E10   -8.521441021002829E-3  -5.638790142256767E-3  
 2.654000000000000E10   -4.826767195481807E-3   1.014221715740860E-2  
 2.656000000000000E10    1.103209913708270E-2   3.091959384619258E-3  
 2.658000000000000E10    2.839677457814105E-3  -1.098993286723271E-2  
 2.660000000000000E10   -1.120184990577400E-2  -2.000286680413410E-3  
 2.662000000000000E10   -5.423304428404663E-4   1.140497619053349E-2  
 2.664000000000000E10    1.049106597201899E-2   4.240242597006727E-4  
 2.666000000000000E10   -1.191814412777603E-4  -9.790011274162680E-3  
 2.668000000000000E10   -9.427414566744119E-3   2.286680843099020E-3  
 2.670000000000000E10    3.406716947210953E-3   8.547913050279021E-3  
 2.672000000000000E10    7.530353264883161E-3  -3.983114758739248E-3  
 2.674000000000000E10   -5.296719027683139E-3  -6.882838380988687E-3  
 2.676000000000000E10   -6.365905806887895E-3   6.137955555459485E-3  
 2.678000000000000E10    7.064758625347167E-3   6.061385589418933E-3  
 2.680000000000000E10    5.271624424494803E-3  -7.704454474151135E-3  
 2.682000000000000E10   -8.819590322673321E-3  -4.036224738229066E-3  
 2.684000000000000E10   -2.780684066237882E-3   9.320570505224168E-3  
 2.686000000000000E10    9.054319933056831E-3   2.036291545664426E-3  
 2.688000000000000E10    4.849847919103922E-4  -8.282752649392933E-3  
 2.690000000000000E10   -8.612769539467990E-3   1.218914781929925E-3  
 2.692000000000000E10    2.204193937359378E-3   8.876374631654471E-3  
 2.694000000000000E10    8.634408004581928E-3  -2.849884476745501E-3  
 2.696000000000000E10   -4.126869956962764E-3  -8.545175718609244E-3  
 2.698000000000000E10   -8.965868735685945E-3   5.159050313523039E-3  
 2.700000000000000E10    5.791100615169853E-3   8.610674063675106E-3  
 2.702000000000000E10    7.675970788113773E-3  -6.419293553335592E-3  
 2.704000000000000E10   -6.774539418984205E-3  -6.290526536758989E-3  
 2.706000000000000E10   -4.996341041987762E-3   6.728083884809166E-3  
 2.708000000000000E10    6.263304618187249E-3   3.822938771918416E-3  
 2.710000000000000E10    2.808417993946932E-3  -6.141022517113015E-3  
 2.712000000000000E10   -6.650196126429364E-3  -1.574641923070885E-3  
 2.714000000000000E10   -9.314095586887561E-5   6.692730210488662E-3  
 2.716000000000000E10    6.950808077817783E-3  -7.473491714335978E-4  
 2.718000000000000E10   -2.266524912556633E-3  -7.601156539749354E-3  
 2.720000000000000E10   -7.911784516181797E-3   2.473538115737028E-3  
 2.722000000000000E10    3.188268310623244E-3   8.004870411241427E-3  
 2.724000000000000E10    7.829355134163052E-3  -4.501683462876827E-3  
 2.726000000000000E10   -4.896466853097081E-3  -7.669630460441113E-3  
 2.728000000000000E10   -6.403068662621081E-3   4.576387727865949E-3  
 2.730000000000000E10    5.017641262384132E-3   5.770235438831151E-3  
 2.732000000000000E10    4.900542058749124E-3  -5.641682422719896E-3  
 2.734000000000000E10   -6.165700469864532E-3  -4.231805854942650E-3  
 2.736000000000000E10   -3.634969965787605E-3   6.285413372097537E-3  
 2.738000000000000E10    6.449826643802226E-3   1.854363792517688E-3  
 2.740000000000000E10    9.376797534059733E-4  -7.092966145137325E-3  
 2.742000000000000E10   -7.703780574956909E-3  -7.819627862772904E-4  
 2.744000000000000E10   -2.946692802652251E-4   6.756756250979379E-3  
 2.746000000000000E10    6.547529541421682E-3  -7.787883223500103E-4  
 2.748000000000000E10   -1.989377342397347E-3  -6.786892452510074E-3  
 2.750000000000000E10   -6.538704765262082E-3   1.934271167556290E-3  
 2.752000000000000E10    2.699102522456087E-3   5.855154420714825E-3  
 2.754000000000000E10    5.043993674917147E-3  -4.137666721362621E-3  
 2.756000000000000E10   -5.652361927786842E-3  -4.531288170255721E-3  
