#  HZ   S   RI   R     50.00 
! Rohde & Schwarz ZVA40 4Ports - Version 3.90 - 1145.1110k42 SN: 100403
! Date: 2023-10-04 06:05:20
! Measurement: S12 
! 
 2.200000000000000E10   -6.964532425627112E-3   1.346144097624347E-3  
 2.202000000000000E10    2.180666953790933E-3   5.895354785025120E-3  
 2.204000000000000E10    5.228413559962064E-3  -3.229586349334568E-3  
 2.206000000000000E10   -4.486436198931187E-3  -4.650571499951184E-3  
 2.208000000000000E10   -5.032369634136558E-3   4.165031074080616E-3  
 2.210000000000000E10    4.375830932985991E-3   4.445088154170662E-3  
 2.212000000000000E10    3.459467639913783E-3  -4.830865073017776E-3  
 2.214000000000000E10   -5.696060601621866E-3  -3.639172733528540E-3  
 2.216000000000000E10   -4.308280011173338E-3   6.520431546960026E-3  
 2.218000000000000E10    6.896705890540034E-3   4.065169254317880E-3  
 2.220000000000000E10    3.644824377261102E-3  -6.540534552186728E-3  
 2.222000000000000E10   -6.560104142408818E-3  -2.935689321020618E-3  
 2.224000000000000E10   -1.591600826941431E-3   7.285478408448398E-3  
 2.226000000000000E10    7.006494503002614E-3   1.788207970093936E-3  
 2.228000000000000E10    1.161010906798765E-3  -4.568304982967675E-3  
 2.230000000000000E10   -4.448023275472224E-3   7.438882166752592E-4  
 2.232000000000000E10    2.115185096045025E-3   5.527517700102180E-3  
 2.234000000000000E10    5.821901955641806E-3  -2.616600511828437E-3  
 2.236000000000000E10   -3.959665278671309E-3  -5.173245852347463E-3  
 2.238000000000000E10   -5.008702981285751E-3   5.454154452309012E-3  
 2.240000000000000E10    7.241456827614456E-3   5.784886889159679E-3  
 2.242000000000000E10    5.819479294586927E-3  -8.154767332598567E-3  
 2.244000000000000E10   -7.222947024274617E-3  -5.698420456610620E-3  
 2.246000000000000E10   -3.996704414021224E-3   6.870766694191843E-3  
 2.248000000000000E10    7.990154903382063E-3   4.080752725712955E-3  
 2.250000000000000E10    4.544495430309326E-3  -8.572678663767874E-3  
 2.252000000000000E10   -8.215375011786819E-3  -2.901476720580831E-3  
 2.254000000000000E10   -8.633052639197558E-4   8.140817866660655E-3  
 2.256000000000000E10    8.852963452227414E-3  -1.531751942820847E-3  
 2.258000000000000E10   -2.613607939565554E-3  -8.947900496423245E-3  
 2.260000000000000E10   -7.901529315859079E-3   3.064211574383080E-3  
 2.262000000000000E10    4.063601285452023E-3   6.857387605123222E-3  
 2.264000000000000E10    7.018601638264954E-3  -4.577226703986526E-3  
 2.266000000000000E10   -5.474130681250244E-3  -8.174875052645803E-3  
 2.268000000000000E10   -7.389288337435573E-3   5.754650977905840E-3  
 2.270000000000000E10    6.493859691545367E-3   5.906537931878120E-3  
 2.272000000000000E10    5.333022156264633E-3  -7.793366035912186E-3  
 2.274000000000000E10   -9.659374132752419E-3  -4.047186579555273E-3  
 2.276000000000000E10   -2.117832889780402E-3   9.881206322461367E-3  
 2.278000000000000E10    9.073707158677280E-3   4.382541956147179E-4  
 2.280000000000000E10   -1.773104236235668E-5  -9.852196322754026E-3  
 2.282000000000000E10   -9.324794635176659E-3  -5.068453319836408E-3  
 2.284000000000000E10    1.049172518833075E-3   1.073512912262231E-2  
 2.286000000000000E10    1.048456213902682E-2  -1.986222749110311E-3  
 2.288000000000000E10   -3.665203606942669E-3  -1.040006766561419E-2  
 2.290000000000000E10   -9.790513780899346E-3   4.400449688546360E-3  
 2.292000000000000E10    5.213463271502405E-3   7.925939571578056E-3  
 2.294000000000000E10    5.793378397356719E-3  -5.875220056623220E-3  
 2.296000000000000E10   -6.591935816686600E-3  -4.764977085869759E-3  
 2.298000000000000E10   -4.085628839675337E-3   7.196557882707566E-3  
 2.300000000000000E10    8.487595478072763E-3   3.861656849039719E-3  
 2.302000000000000E10    2.980536199174821E-3  -9.486496914178133E-3  
 2.304000000000000E10   -1.064892276190221E-2  -1.658073670114391E-3  
 2.306000000000000E10   -1.101067486160900E-3   1.175744296051562E-2  
 2.308000000000000E10    1.194295811001211E-2  -2.111601548904218E-4  
 2.310000000000000E10   -1.559773576445878E-3  -1.101096463389695E-2  
 2.312000000000000E10   -9.989115525968373E-3   2.993702742969617E-3  
 2.314000000000000E10    3.235425130696967E-3   9.250067407265306E-3  
 2.316000000000000E10    9.535109042190015E-3  -3.539347759215161E-3  
 2.318000000000000E10   -6.006082752719522E-3  -7.858235971070826E-3  
 2.320000000000000E10   -7.482843764591962E-3   7.610483327880502E-3  
 2.322000000000000E10    9.145759511739016E-3   6.456267787143588E-3  
 2.324000000000000E10    5.894802568946034E-3  -1.117686950601637E-2  
 2.326000000000000E10   -1.127917133271694E-2  -4.445324593689293E-3  
 2.328000000000000E10   -2.255027880892158E-3   1.237002247944474E-2  
 2.330000000000000E10    1.197347778361291E-2   1.907309822854586E-3  
 2.332000000000000E10    2.030707386438735E-3  -1.073220244143158E-2  
 2.334000000000000E10   -1.075179805047810E-2  -6.407790133380331E-4  
 2.336000000000000E10    1.291760359890759E-3   1.156447851099074E-2  
 2.338000000000000E10    1.082847500219941E-2  -3.525987151078880E-3  
 2.340000000000000E10   -5.375353968702257E-3  -9.322489844635129E-3  
 2.342000000000000E10   -8.751594694331288E-3   7.848166453186423E-3  
 2.344000000000000E10    9.807997616007924E-3   6.503370823338628E-3  
 2.346000000000000E10    6.490080500952900E-3  -1.127785770222545E-2  
 2.348000000000000E10   -1.071861188393086E-2  -5.388415185734630E-3  
 2.350000000000000E10   -4.914575198199600E-3   1.175760396290571E-2  
 2.352000000000000E10    1.262208423577249E-2   3.735168982530013E-3  
 2.354000000000000E10    2.937835524789989E-3  -1.221322978381068E-2  
 2.356000000000000E10   -1.243344403337687E-2  -1.129080192185938E-3  
 2.358000000000000E10    9.557602752465755E-4   1.158556144218892E-2  
 2.360000000000000E10    1.082816300913692E-2  -2.127641026163474E-3  
 2.362000000000000E10   -4.104221239686012E-3  -1.068269822280854E-2  
 2.364000000000000E10   -9.539756574667990E-3   5.649027822073549E-3  
 2.366000000000000E10    6.546622316818684E-3   9.027564781717956E-3  
 2.368000000000000E10    8.983033592812717E-3  -8.342131157405675E-3  
 2.370000000000000E10   -9.317282238043845E-3  -8.724724175408483E-3  
 2.372000000000000E10   -7.417108281515539E-3   1.092670275829732E-2  
 2.374000000000000E10    1.235513214487582E-2   5.853111622855067E-3  
 2.376000000000000E10    4.201741947326809E-3  -1.170306070707738E-2  
 2.378000000000000E10   -1.198118948377669E-2  -1.373822029563598E-3  
 2.380000000000000E10   -7.479802661691792E-7   1.109678007196635E-2  
 2.382000000000000E10    1.155697903595865E-2  -1.327512931311503E-3  
 2.384000000000000E10   -3.339369897730649E-3  -1.165182178374380E-2  
 2.386000000000000E10   -1.132683071773499E-2   4.481577081605792E-3  
 2.388000000000000E10    6.090204347856343E-3   1.188870857004076E-2  
 2.390000000000000E10    1.160486217122525E-2  -7.866910425946116E-3  
 2.392000000000000E10   -8.755263290368021E-3  -1.149787101894617E-2  
 2.394000000000000E10   -1.008554827421904E-2   9.409311693161726E-3  
 2.396000000000000E10    1.076476892922074E-2   8.766875718720257E-3  
 2.398000000000000E10    6.766916078049690E-3  -1.117260043974966E-2  
 2.400000000000000E10   -1.143162616062909E-2  -4.591993987560272E-3  
 2.402000000000000E10   -8.307201278512366E-4   1.201899943407625E-2  
 2.404000000000000E10    1.160942460410297E-2  -1.335794338956475E-3  
 2.406000000000000E10   -3.772676020162180E-3  -1.136186963412911E-2  
 2.408000000000000E10   -1.194813591428101E-2   5.553597933612764E-3  
 2.410000000000000E10    7.116851455066353E-3   1.169254258275032E-2  
 2.412000000000000E10    1.080706249922514E-2  -8.391299867071211E-3  
 2.414000000000000E10   -8.660410530865192E-3  -1.045607170090079E-2  
 2.416000000000000E10   -1.034626958426088E-2   8.850371581502259E-3  
 2.418000000000000E10    1.000600866973400E-2   9.450102923437953E-3  
 2.420000000000000E10    7.705737079959363E-3  -9.538897895254195E-3  
 2.422000000000000E10   -9.987190016545355E-3  -6.541681883390993E-3  
 2.424000000000000E10   -5.036416114307940E-3   1.193681615404785E-2  
 2.426000000000000E10    1.240412576589733E-2   3.010987769812346E-3  
 2.428000000000000E10    6.910666998010129E-4  -1.252580247819424E-2  
 2.430000000000000E10   -1.313599944114685E-2   1.589075720403343E-3  
 2.432000000000000E10    3.487536334432662E-3   1.321237289812416E-2  
 2.434000000000000E10    1.244380744174123E-2  -4.933741758577526E-3  
 2.436000000000000E10   -5.939978524111211E-3  -1.132362277712673E-2  
 2.438000000000000E10   -1.060665433760732E-2   6.054011115338653E-3  
 2.440000000000000E10    7.188134302850813E-3   1.010197866708040E-2  
 2.442000000000000E10    8.544761221855879E-3  -8.191434550099075E-3  
 2.444000000000000E10   -8.605399751104415E-3  -7.877389376517385E-3  
 2.446000000000000E10   -6.417807715479285E-3   9.916320675984025E-3  
 2.448000000000000E10    1.036567240953445E-2   5.628080631140620E-3  
 2.450000000000000E10    3.818898345343769E-3  -1.189586229156703E-2  
 2.452000000000000E10   -1.264833589084446E-2  -2.814718347508460E-3  
 2.454000000000000E10   -1.967708682059310E-3   1.319286774378270E-2  
 2.456000000000000E10    1.329941477160901E-2   7.522194064222276E-4  
 2.458000000000000E10   -6.952162657398731E-4  -1.366785925347358E-2  
 2.460000000000000E10   -1.350510062184185E-2   2.473236498190090E-3  
 2.462000000000000E10    4.310153541155160E-3   1.160248124506325E-2  
 2.464000000000000E10    1.017644966486841E-2  -5.159675667528063E-3  
 2.466000000000000E10   -6.541890383232385E-3  -9.072932647541165E-3  
 2.468000000000000E10   -8.306019008159638E-3   8.130407542921603E-3  
 2.470000000000000E10    9.350367006845772E-3   7.225189765449613E-3  
 2.472000000000000E10    6.049587216693908E-3  -1.025179051794112E-2  
 2.474000000000000E10   -1.109498844016343E-2  -5.489713337738067E-3  
 2.476000000000000E10   -4.864138551056385E-3   1.240326848346740E-2  
 2.478000000000000E10    1.340869173873216E-2   4.350002389401197E-3  
 2.480000000000000E10    3.027578000910580E-3  -1.285356306470931E-2  
 2.482000000000000E10   -1.242582651320845E-2  -1.568166713695973E-3  
 2.484000000000000E10    3.169941519445274E-4   1.266028871759772E-2  
 2.486000000000000E10    1.211845502257347E-2  -2.489249134669080E-3  
 2.488000000000000E10   -3.389026009244844E-3  -1.039320137351751E-2  
 2.490000000000000E10   -9.294747258536518E-3   5.213793367147446E-3  
 2.492000000000000E10    7.233923359308392E-3   9.059986099600792E-3  
 2.494000000000000E10    8.647713577374816E-3  -8.711017435416579E-3  
 2.496000000000000E10   -9.571947739459574E-3  -7.442213653121144E-3  
 2.498000000000000E10   -5.695042142178863E-3   1.010739163029939E-2  
 2.500000000000000E10    1.084104622714222E-2   6.010148208588362E-3  
 2.502000000000000E10    5.997974600177258E-3  -1.108572864905000E-2  
 2.504000000000000E10   -1.117186574265361E-2  -4.546334734186530E-3  
 2.506000000000000E10   -3.002675424795598E-3   1.083166489843279E-2  
 2.508000000000000E10    1.167850370984525E-2   1.968370386748575E-3  
 2.510000000000000E10    1.403602218488231E-4  -1.285301113966852E-2  
 2.512000000000000E10   -1.209477474913001E-2   1.428942210623063E-3  
 2.514000000000000E10    3.984984126873314E-3   1.158118492458016E-2  
 2.516000000000000E10    1.063067070208490E-2  -6.734049296937883E-3  
 2.518000000000000E10   -7.425351417623460E-3  -1.027244818396866E-2  
 2.520000000000000E10   -9.445276111364365E-3   7.517484016716480E-3  
 2.522000000000000E10    8.279297268018127E-3   8.356433827430010E-3  
 2.524000000000000E10    7.069673913065344E-3  -9.257305297069252E-3  
 2.526000000000000E10   -9.879955323413014E-3  -6.264565221499652E-3  
 2.528000000000000E10   -5.848383647389710E-3   9.496384765952826E-3  
 2.530000000000000E10    9.585796855390072E-3   4.076418525073677E-3  
 2.532000000000000E10    1.677606851444580E-3  -1.033212034963071E-2  
 2.534000000000000E10   -1.207251043524593E-2  -1.105168099456932E-3  
 2.536000000000000E10   -8.545867285647546E-5   1.226995233446360E-2  
 2.538000000000000E10    1.144456723704934E-2  -1.983255482628010E-3  
 2.540000000000000E10   -4.257583583239466E-3  -1.251380215398967E-2  
 2.542000000000000E10   -1.291228004265577E-2   5.762576824054122E-3  
 2.544000000000000E10    6.373868265654892E-3   1.159544440452009E-2  
 2.546000000000000E10    9.123393683694303E-3  -7.139068853575736E-3  
 2.548000000000000E10   -8.890137076377869E-3  -7.384748023469001E-3  
 2.550000000000000E10   -6.745240418240428E-3   1.026158093009144E-2  
 2.552000000000000E10    9.398323949426413E-3   5.151254124939442E-3  
 2.554000000000000E10    2.520333160646260E-3  -9.158899192698300E-3  
 2.556000000000000E10   -1.095369656104595E-2  -1.117833860917017E-3  
 2.558000000000000E10   -3.334548298425943E-4   1.187301659956574E-2  
 2.560000000000000E10    1.165495452005416E-2  -7.370100283878855E-4  
 2.562000000000000E10   -1.447425136575475E-3  -1.158646098338068E-2  
 2.564000000000000E10   -1.178808475378901E-2   2.744331519352272E-3  
 2.566000000000000E10    4.331237811129540E-3   1.302459498401731E-2  
 2.568000000000000E10    1.224701164755970E-2  -5.534790048841387E-3  
 2.570000000000000E10   -6.793223612476140E-3  -9.575752075761557E-3  
 2.572000000000000E10   -7.711508311331272E-3   8.090434828773141E-3  
 2.574000000000000E10    9.237727615982294E-3   7.097415276803076E-3  
 2.576000000000000E10    5.419622408226132E-3  -9.854334057308734E-3  
 2.578000000000000E10   -1.038582529872656E-2  -3.286844206741080E-3  
 2.580000000000000E10   -1.412190526025370E-3   1.039771409705281E-2  
 2.582000000000000E10    1.197178557049483E-2   8.582828013459221E-4  
 2.584000000000000E10    7.716958280070685E-4  -1.266777387354523E-2  
 2.586000000000000E10   -1.243891427293420E-2   5.637166832457297E-4  
 2.588000000000000E10    2.723627869272605E-3   1.191500783897936E-2  
 2.590000000000000E10    1.197930728085339E-2  -3.617777721956372E-3  
 2.592000000000000E10   -4.442149773240089E-3  -1.241655997000635E-2  
 2.594000000000000E10   -1.091846765484661E-2   5.843703984282911E-3  
 2.596000000000000E10    7.282424834556878E-3   9.147926582954824E-3  
 2.598000000000000E10    8.760662050917745E-3  -1.011947519145906E-2  
 2.600000000000000E10   -1.067778840661049E-2  -7.816302531864494E-3  
 2.602000000000000E10   -6.063943495973945E-3   1.089107000734657E-2  
 2.604000000000000E10    1.191920624114573E-2   3.351507213665173E-3  
 2.606000000000000E10    2.125627477653325E-3  -1.196122809778899E-2  
 2.608000000000000E10   -1.146010635420680E-2  -2.478753274772316E-3  
 2.610000000000000E10   -1.197442485135980E-3   1.009575440548360E-2  
 2.612000000000000E10    1.011959114111960E-2  -3.997057319793385E-4  
 2.614000000000000E10   -1.202541476232000E-3  -1.061749027576298E-2  
 2.616000000000000E10   -1.080356747843325E-2   2.161343756597489E-3  
 2.618000000000000E10    4.608296265359968E-3   1.092825492378324E-2  
 2.620000000000000E10    1.052315719425678E-2  -6.817351270001382E-3  
 2.622000000000000E10   -8.346934802830219E-3  -1.019122020807117E-2  
 2.624000000000000E10   -9.669647435657680E-3   9.741481509990990E-3  
 2.626000000000000E10    1.053425774443895E-2   8.777718641795218E-3  
 2.628000000000000E10    7.839744561351836E-3  -1.105644588824362E-2  
 2.630000000000000E10   -1.181881385855377E-2  -5.924642493482679E-3  
 2.632000000000000E10   -4.256428394000977E-3   1.124373450875282E-2  
 2.634000000000000E10    1.094109436962754E-2   2.768095844658092E-3  
 2.636000000000000E10    8.378515631193295E-4  -1.061946852132678E-2  
 2.638000000000000E10   -9.830808034166694E-3   3.387330416444456E-4  
 2.640000000000000E10    1.719592590234242E-3   9.508986724540591E-3  
 2.642000000000000E10    9.626582381315529E-3  -3.318184637464583E-3  
 2.644000000000000E10   -4.780481685884297E-3  -9.532872703857720E-3  
 2.646000000000000E10   -9.812242002226412E-3   6.042801134753972E-3  
 2.648000000000000E10    7.632818014826626E-3   9.429874829947949E-3  
 2.650000000000000E10    8.717105491086841E-3  -8.795049740001559E-3  
 2.652000000000000E10   -9.930974338203669E-3  -7.778458879329264E-3  
 2.654000000000000E10   -6.262595939915627E-3   1.107597211375833E-2  
 2.656000000000000E10    1.084991043899208E-2   4.618414386641234E-3  
 2.658000000000000E10    2.776295965304598E-3  -1.059904834255576E-2  
 2.660000000000000E10   -1.122726988978684E-2  -1.117701729526743E-3  
 2.662000000000000E10    1.955794759851415E-4   1.109014055691660E-2  
 2.664000000000000E10    1.043499261140823E-2  -1.891241437988356E-3  
 2.666000000000000E10   -2.820392081048340E-3  -1.058905082754791E-2  
 2.668000000000000E10   -1.088750571943820E-2   3.719894913956523E-3  
 2.670000000000000E10    4.746857564896345E-3   9.868972701951861E-3  
 2.672000000000000E10    8.765449048951268E-3  -5.377776629757136E-3  
 2.674000000000000E10   -6.238633301109076E-3  -8.437185431830585E-3  
 2.676000000000000E10   -7.327444734983146E-3   7.074223773088306E-3  
 2.678000000000000E10    7.462812995072454E-3   5.521517654415220E-3  
 2.680000000000000E10    3.874121903209016E-3  -8.400612627156079E-3  
 2.682000000000000E10   -9.753061342053115E-3  -2.946498047094792E-3  
 2.684000000000000E10   -1.556879287818447E-3   1.026608434040099E-2  
 2.686000000000000E10    1.006386650260538E-2   1.831609770306386E-4  
 2.688000000000000E10   -8.129084308166057E-4  -1.106166315730661E-2  
 2.690000000000000E10   -1.130629691760987E-2   1.889289225800894E-3  
 2.692000000000000E10    2.009193325648084E-3   1.055487128905952E-2  
 2.694000000000000E10    1.014925749041140E-2  -2.933900483185425E-3  
 2.696000000000000E10   -3.978871856816113E-3  -9.662489872425795E-3  
 2.698000000000000E10   -8.989106514491141E-3   4.247157950885594E-3  
 2.700000000000000E10    4.575778613798320E-3   7.596868672408164E-3  
 2.702000000000000E10    6.610082695260644E-3  -6.397371762432158E-3  
 2.704000000000000E10   -7.571006135549396E-3  -5.212082352954894E-3  
 2.706000000000000E10   -3.901502583175898E-3   8.066436508670449E-3  
 2.708000000000000E10    8.611397002823651E-3   2.862610126612708E-3  
 2.710000000000000E10    1.949845056515187E-3  -9.625099366530776E-3  
 2.712000000000000E10   -9.663829812780023E-3  -7.371482861344703E-4  
 2.714000000000000E10    1.320549769729951E-4   9.388563339598477E-3  
 2.716000000000000E10    9.524770081043243E-3  -1.439721439965069E-3  
 2.718000000000000E10   -1.738462073262781E-3  -8.940952364355326E-3  
 2.720000000000000E10   -8.424093131907284E-3   2.622704749228433E-3  
 2.722000000000000E10    3.313309920486063E-3   7.835561351384968E-3  
 2.724000000000000E10    7.843321654945612E-3  -4.782693868037313E-3  
 2.726000000000000E10   -5.876399169210345E-3  -6.753449968528003E-3  
 2.728000000000000E10   -5.908306338824332E-3   6.542373914271593E-3  
 2.730000000000000E10    7.654748973436654E-3   5.535941163543612E-3  
 2.732000000000000E10    4.836188687477261E-3  -7.895226357504726E-3  
 2.734000000000000E10   -7.870486180763692E-3  -4.793463624082506E-3  
 2.736000000000000E10   -3.338168637128547E-3   8.344685542397201E-3  
 2.738000000000000E10    8.316453197039664E-3   1.897331836516969E-3  
 2.740000000000000E10    1.850370332249440E-3  -7.787543872836977E-3  
 2.742000000000000E10   -7.048660947475582E-3  -7.909661644589505E-5  
 2.744000000000000E10    1.296668400755152E-3   6.504971010144800E-3  
 2.746000000000000E10    7.034100650344044E-3  -2.567859017290175E-3  
 2.748000000000000E10   -3.142717439914122E-3  -6.453100766520947E-3  
 2.750000000000000E10   -6.267085904255509E-3   3.881793818436563E-3  
 2.752000000000000E10    5.660577269736677E-3   6.125238141976297E-3  
 2.754000000000000E10    6.204673263709992E-3  -6.703147082589567E-3  
 2.756000000000000E10   -6.868510332424194E-3  -6.110354850534350E-3  
