#  HZ   S   RI   R     50.00 
! Rohde & Schwarz ZVA40 4Ports - Version 3.90 - 1145.1110k42 SN: 100403
! Date: 2023-10-04 06:06:03
! Measurement: S12 
! 
 2.200000000000000E10   -8.658732069307007E-3   1.386746414027584E-3  
 2.202000000000000E10    1.963707142749627E-3   8.935786245274358E-3  
 2.204000000000000E10    8.527900368790142E-3  -2.753336017121910E-3  
 2.206000000000000E10   -2.965447074529948E-3  -8.501426760631148E-3  
 2.208000000000000E10   -7.488623250537785E-3   2.698183337997762E-3  
 2.210000000000000E10    3.084966185269877E-3   4.621601030521561E-3  
 2.212000000000000E10    4.290727509214776E-3  -3.954026724386495E-3  
 2.214000000000000E10   -4.113012961170171E-3  -4.109968507691519E-3  
 2.216000000000000E10   -3.682829492390738E-3   5.248088968073716E-3  
 2.218000000000000E10    5.599900239758426E-3   2.295393765962217E-3  
 2.220000000000000E10    1.240918853000039E-3  -7.242059047712246E-3  
 2.222000000000000E10   -9.070235522813164E-3  -4.589587118744021E-4  
 2.224000000000000E10   -6.454792633121542E-4   9.405714474269189E-3  
 2.226000000000000E10    8.406207409279887E-3  -7.771775770493150E-5  
 2.228000000000000E10   -1.856485388088913E-3  -8.355669058801141E-3  
 2.230000000000000E10   -9.705276082968339E-3   1.710517422907287E-3  
 2.232000000000000E10    1.610900048945041E-3   9.167359770799521E-3  
 2.234000000000000E10    7.992665247002151E-3  -2.475777129802737E-3  
 2.236000000000000E10   -3.607045980970725E-3  -7.041175056656357E-3  
 2.238000000000000E10   -7.004601229709806E-3   5.690601210517343E-3  
 2.240000000000000E10    6.284683571720962E-3   7.445867890055524E-3  
 2.242000000000000E10    5.474641970067751E-3  -6.325127036689082E-3  
 2.244000000000000E10   -7.131875234335894E-3  -4.036425802041777E-3  
 2.246000000000000E10   -3.282027417299105E-3   8.146146188664716E-3  
 2.248000000000000E10    8.075314879533835E-3   4.675523363403045E-3  
 2.250000000000000E10    3.893928162142402E-3  -8.114793294225819E-3  
 2.252000000000000E10   -9.033703572640661E-3  -1.383796190566500E-3  
 2.254000000000000E10   -5.276482105820435E-5   9.348006315121893E-3  
 2.256000000000000E10    9.994202431698795E-3  -1.464790645513858E-3  
 2.258000000000000E10   -2.439388475977466E-3  -8.923899942601565E-3  
 2.260000000000000E10   -7.349871866608737E-3   4.236965723976027E-3  
 2.262000000000000E10    5.710104825993767E-3   7.437550055328757E-3  
 2.264000000000000E10    8.601448738772888E-3  -5.580484921665629E-3  
 2.266000000000000E10   -5.801835810416378E-3  -8.675024262629449E-3  
 2.268000000000000E10   -8.264920958026778E-3   6.732130168529693E-3  
 2.270000000000000E10    7.705038486164995E-3   8.305826384457760E-3  
 2.272000000000000E10    8.190045689843828E-3  -9.157467873592395E-3  
 2.274000000000000E10   -9.256355318939313E-3  -6.347440739773447E-3  
 2.276000000000000E10   -4.547683907730971E-3   8.489228137477767E-3  
 2.278000000000000E10    9.104348253458738E-3   1.630576795832894E-3  
 2.280000000000000E10    6.328961292183521E-4  -9.312707974459045E-3  
 2.282000000000000E10   -7.109465470421128E-3  -5.386612265283475E-3  
 2.284000000000000E10    1.522946115073864E-3   1.007100009155693E-2  
 2.286000000000000E10    1.061635463702260E-2  -3.967210734117543E-3  
 2.288000000000000E10   -5.433745551272295E-3  -1.130589062813669E-2  
 2.290000000000000E10   -1.130382080737036E-2   6.307398150966037E-3  
 2.292000000000000E10    7.657491252757609E-3   9.558041972923093E-3  
 2.294000000000000E10    7.891522749559954E-3  -7.799133098160382E-3  
 2.296000000000000E10   -7.827689711120911E-3  -7.589336615637876E-3  
 2.298000000000000E10   -6.465522226790199E-3   7.963489129906520E-3  
 2.300000000000000E10    8.342408174939919E-3   5.684128911525477E-3  
 2.302000000000000E10    4.092777766345535E-3  -9.617420684662648E-3  
 2.304000000000000E10   -1.074561465793522E-2  -3.094530364251114E-3  
 2.306000000000000E10   -7.526803633481904E-4   1.260831060062628E-2  
 2.308000000000000E10    1.221333060675534E-2  -1.102079239899467E-3  
 2.310000000000000E10   -2.854264424968278E-3  -1.229462535411585E-2  
 2.312000000000000E10   -1.200536094984273E-2   3.820037625700934E-3  
 2.314000000000000E10    3.627796881119139E-3   1.096320595388534E-2  
 2.316000000000000E10    1.038461357529741E-2  -4.702603342593648E-3  
 2.318000000000000E10   -6.296379880950553E-3  -1.011067692888901E-2  
 2.320000000000000E10   -9.119279493461363E-3   7.357808466622373E-3  
 2.322000000000000E10    8.222718650358729E-3   7.987857003172394E-3  
 2.324000000000000E10    6.132356335001532E-3  -9.618196105293464E-3  
 2.326000000000000E10   -1.129387411492644E-2  -3.771190764382482E-3  
 2.328000000000000E10   -1.960007467459946E-3   1.276312249683542E-2  
 2.330000000000000E10    1.230944454437122E-2   1.577956030814676E-3  
 2.332000000000000E10    8.352878685968790E-5  -1.229119370691478E-2  
 2.334000000000000E10   -1.393447335431119E-2   9.781270437088097E-4  
 2.336000000000000E10    1.807973180802946E-3   1.431534127914347E-2  
 2.338000000000000E10    1.396330779243726E-2  -3.471618285402656E-3  
 2.340000000000000E10   -5.825158586958423E-3  -1.304108613840072E-2  
 2.342000000000000E10   -1.152424696192611E-2   7.720958659774624E-3  
 2.344000000000000E10    9.781334207218606E-3   9.415605069079902E-3  
 2.346000000000000E10    8.050792792346329E-3  -1.016722679923987E-2  
 2.348000000000000E10   -1.036898542952258E-2  -5.838558528921567E-3  
 2.350000000000000E10   -4.640770574042108E-3   1.277581269823713E-2  
 2.352000000000000E10    1.387977182457689E-2   4.265371069777757E-3  
 2.354000000000000E10    2.247860807983670E-3  -1.391615583270323E-2  
 2.356000000000000E10   -1.466161177086178E-2  -1.132328552557738E-3  
 2.358000000000000E10    1.220390180606046E-3   1.467145193601027E-2  
 2.360000000000000E10    1.369505055481568E-2  -3.005180038599065E-3  
 2.362000000000000E10   -4.427537576702889E-3  -1.286295805766713E-2  
 2.364000000000000E10   -1.087333768373355E-2   5.488865164807066E-3  
 2.366000000000000E10    7.680946509935893E-3   1.010934209625702E-2  
 2.368000000000000E10    9.305111700086854E-3  -9.341705022961833E-3  
 2.370000000000000E10   -1.113498635822907E-2  -9.096718131331727E-3  
 2.372000000000000E10   -7.501711399527267E-3   1.358088475535624E-2  
 2.374000000000000E10    1.487885037204251E-2   5.402047710958868E-3  
 2.376000000000000E10    3.579336353141116E-3  -1.535403891466558E-2  
 2.378000000000000E10   -1.499270035128575E-2  -2.518592289561639E-3  
 2.380000000000000E10   -1.006528651487315E-3   1.423405020614155E-2  
 2.382000000000000E10    1.360623852815479E-2  -7.252529921970563E-4  
 2.384000000000000E10   -1.291875269089360E-3  -1.262163360661361E-2  
 2.386000000000000E10   -1.225559251906816E-2   2.997065534145804E-3  
 2.388000000000000E10    5.274801631458104E-3   1.175043848343194E-2  
 2.390000000000000E10    1.116463160724379E-2  -7.499789600842632E-3  
 2.392000000000000E10   -9.350931970402598E-3  -9.730078352731653E-3  
 2.394000000000000E10   -8.650391449918971E-3   1.179317667265423E-2  
 2.396000000000000E10    1.356873741315212E-2   7.548427813162562E-3  
 2.398000000000000E10    6.010333854646888E-3  -1.362968799367081E-2  
 2.400000000000000E10   -1.467263023369014E-2  -5.159838408872020E-3  
 2.402000000000000E10   -9.455658546357881E-4   1.522446166200098E-2  
 2.404000000000000E10    1.500449389277492E-2  -5.323623163349112E-4  
 2.406000000000000E10   -1.665077032157569E-3  -1.440716073557269E-2  
 2.408000000000000E10   -1.377920671075117E-2   3.840377787128091E-3  
 2.410000000000000E10    6.329118223220576E-3   1.210708143480588E-2  
 2.412000000000000E10    1.100601683720015E-2  -7.821608640369959E-3  
 2.414000000000000E10   -7.894057009252720E-3  -1.082017140288372E-2  
 2.416000000000000E10   -1.004628068767488E-2   9.539054226479493E-3  
 2.418000000000000E10    1.120972857461311E-2   8.762061042943969E-3  
 2.420000000000000E10    8.357670609257184E-3  -1.174585265107453E-2  
 2.422000000000000E10   -1.270532252965495E-2  -7.843755163776223E-3  
 2.424000000000000E10   -6.244696931389626E-3   1.361643672862556E-2  
 2.426000000000000E10    1.395270184730180E-2   3.621116506110411E-3  
 2.428000000000000E10    1.525358389699250E-3  -1.447298964194488E-2  
 2.430000000000000E10   -1.432082887913566E-2   1.113187310693320E-3  
 2.432000000000000E10    2.820350113324821E-3   1.357627649849746E-2  
 2.434000000000000E10    1.331842935178429E-2  -5.835796306200791E-3  
 2.436000000000000E10   -7.174807607952971E-3  -1.243601467285771E-2  
 2.438000000000000E10   -1.219508571375627E-2   7.758854058920406E-3  
 2.440000000000000E10    9.417263223440386E-3   1.158055264386348E-2  
 2.442000000000000E10    1.082867076911498E-2  -9.899368757032789E-3  
 2.444000000000000E10   -1.047047521569766E-2  -1.009256328688934E-2  
 2.446000000000000E10   -8.955999030149542E-3   1.052307356439997E-2  
 2.448000000000000E10    1.049905113177374E-2   7.074840053974185E-3  
 2.450000000000000E10    5.109576966788154E-3  -1.143416533886921E-2  
 2.452000000000000E10   -1.250471526873298E-2  -3.657751643913798E-3  
 2.454000000000000E10   -1.637681447391515E-3   1.248934410978109E-2  
 2.456000000000000E10    1.310072344494984E-2  -1.230107028034055E-4  
 2.458000000000000E10   -2.377720644290093E-3  -1.440852577798069E-2  
 2.460000000000000E10   -1.455495001573581E-2   4.782893825904466E-3  
 2.462000000000000E10    6.175990944029763E-3   1.338804015540518E-2  
 2.464000000000000E10    1.267592882504687E-2  -7.431453879689798E-3  
 2.466000000000000E10   -8.137237149639987E-3  -1.150779490126297E-2  
 2.468000000000000E10   -1.109766181616578E-2   8.468493644613773E-3  
 2.470000000000000E10    8.807384234387428E-3   9.588232816895470E-3  
 2.472000000000000E10    7.561218415503390E-3  -9.486086477409117E-3  
 2.474000000000000E10   -1.009693002561107E-2  -6.359555700328201E-3  
 2.476000000000000E10   -5.316863040206954E-3   1.155094822752290E-2  
 2.478000000000000E10    1.277983721229248E-2   3.740347576240310E-3  
 2.480000000000000E10    1.653981311392272E-3  -1.307950052432716E-2  
 2.482000000000000E10   -1.368047816504259E-2   1.210608320434403E-4  
 2.484000000000000E10    1.527995540527627E-3   1.467818742094096E-2  
 2.486000000000000E10    1.382974148145877E-2  -3.156471961119678E-3  
 2.488000000000000E10   -4.148049141804222E-3  -1.228634794824757E-2  
 2.490000000000000E10   -1.202476787148044E-2   5.327597500581760E-3  
 2.492000000000000E10    6.548515644681174E-3   1.125620566017460E-2  
 2.494000000000000E10    1.004150696098805E-2  -7.746030489215627E-3  
 2.496000000000000E10   -9.010974026750773E-3  -7.700268870394211E-3  
 2.498000000000000E10   -6.306244278675877E-3   1.015448280668352E-2  
 2.500000000000000E10    1.090808665321674E-2   6.552287552040070E-3  
 2.502000000000000E10    5.300998709572014E-3  -1.164583288482390E-2  
 2.504000000000000E10   -1.235223266121466E-2  -3.508258872898296E-3  
 2.506000000000000E10   -2.886867550841998E-3   1.286467997124419E-2  
 2.508000000000000E10    1.386857744364534E-2   3.059373135329224E-3  
 2.510000000000000E10    1.618039863387821E-3  -1.401573786279187E-2  
 2.512000000000000E10   -1.341583399334922E-2   6.494337858384824E-4  
 2.514000000000000E10    3.647811296104919E-3   1.352868371759541E-2  
 2.516000000000000E10    1.210298552177846E-2  -5.372163228457794E-3  
 2.518000000000000E10   -5.731125107558910E-3  -1.023517738212831E-2  
 2.520000000000000E10   -8.742542733671144E-3   7.994872503331862E-3  
 2.522000000000000E10    9.644455421948806E-3   8.594542538048700E-3  
 2.524000000000000E10    8.010633246158250E-3  -1.059695791627746E-2  
 2.526000000000000E10   -1.132411252183374E-2  -7.077160931658000E-3  
 2.528000000000000E10   -5.742090907006059E-3   1.134405814809725E-2  
 2.530000000000000E10    1.295902102719992E-2   4.709011853265110E-3  
 2.532000000000000E10    4.164136971667176E-3  -1.326067739864811E-2  
 2.534000000000000E10   -1.250967707892414E-2  -3.648916579550132E-3  
 2.536000000000000E10   -2.782247902359814E-4   1.244678738294169E-2  
 2.538000000000000E10    1.287262009282131E-2  -1.829424869356444E-3  
 2.540000000000000E10   -3.145321803458501E-3  -1.344729031552561E-2  
 2.542000000000000E10   -1.231772782921325E-2   5.439931963337585E-3  
 2.544000000000000E10    8.040315413381904E-3   1.030862987681758E-2  
 2.546000000000000E10    9.398714566486888E-3  -1.043025957187638E-2  
 2.548000000000000E10   -1.132844612584449E-2  -9.227689864928834E-3  
 2.550000000000000E10   -7.599472832225729E-3   1.090032506908756E-2  
 2.552000000000000E10    1.112205325625837E-2   4.843034897930920E-3  
 2.554000000000000E10    4.645790097129066E-3  -1.220142917009071E-2  
 2.556000000000000E10   -1.206849043956026E-2  -3.889864448865410E-3  
 2.558000000000000E10   -1.961292744454113E-3   1.164216049073730E-2  
 2.560000000000000E10    1.064970871084370E-2  -4.386618393255048E-4  
 2.562000000000000E10   -1.875154581284733E-3  -1.102467389137019E-2  
 2.564000000000000E10   -1.212690428656060E-2   2.972774509544252E-3  
 2.566000000000000E10    4.200516559649259E-3   1.236993281054311E-2  
 2.568000000000000E10    1.098080829251558E-2  -7.470309159543831E-3  
 2.570000000000000E10   -1.014013735402841E-2  -1.036855793790892E-2  
 2.572000000000000E10   -9.600568548194133E-3   1.042027723451611E-2  
 2.574000000000000E10    1.082148095883895E-2   8.509727384080179E-3  
 2.576000000000000E10    6.641696869337466E-3  -1.189223442634102E-2  
 2.578000000000000E10   -1.188030766206794E-2  -4.010175667644944E-3  
 2.580000000000000E10   -2.844696813554037E-3   1.194299520284403E-2  
 2.582000000000000E10    1.147047954145819E-2   2.360164107813034E-3  
 2.584000000000000E10    8.270213584182784E-4  -1.137845960329287E-2  
 2.586000000000000E10   -1.232608589634765E-2   2.134625996404793E-3  
 2.588000000000000E10    2.753330503765028E-3   1.252904451393988E-2  
 2.590000000000000E10    1.268420690030325E-2  -3.282834237325005E-3  
 2.592000000000000E10   -4.989228204067331E-3  -1.191588296205737E-2  
 2.594000000000000E10   -1.159423052740749E-2   7.240980121423490E-3  
 2.596000000000000E10    8.720047218957916E-3   1.109247407293879E-2  
 2.598000000000000E10    1.034699640877079E-2  -9.213513243594207E-3  
 2.600000000000000E10   -9.660273601184599E-3  -7.630068321304862E-3  
 2.602000000000000E10   -5.322212986357044E-3   1.179106830386445E-2  
 2.604000000000000E10    1.261425329721533E-2   3.345424865983659E-3  
 2.606000000000000E10    2.417178318864899E-3  -1.166833542811219E-2  
 2.608000000000000E10   -1.129158846742939E-2  -7.140686748243752E-4  
 2.610000000000000E10    9.478726806264604E-4   1.237572298850864E-2  
 2.612000000000000E10    1.317505027691368E-2  -7.812915746399085E-4  
 2.614000000000000E10   -1.008810675557470E-3  -1.319802456418984E-2  
 2.616000000000000E10   -1.279900163353887E-2   2.466010188072687E-3  
 2.618000000000000E10    3.720127551787300E-3   1.311295740015339E-2  
 2.620000000000000E10    1.266927458345890E-2  -5.234685442701448E-3  
 2.622000000000000E10   -6.753211127943359E-3  -1.126995318918489E-2  
 2.624000000000000E10   -9.466965944739059E-3   7.904405822046101E-3  
 2.626000000000000E10    9.292555594583973E-3   7.846532746043522E-3  
 2.628000000000000E10    6.372898249537684E-3  -1.082292667706497E-2  
 2.630000000000000E10   -1.165003253845498E-2  -4.828007215110119E-3  
 2.632000000000000E10   -2.719096421060385E-3   1.248868598486297E-2  
 2.634000000000000E10    1.304638241708744E-2   1.359525167572429E-3  
 2.636000000000000E10    4.956508657869563E-4  -1.307231918326579E-2  
 2.638000000000000E10   -1.273997392854653E-2   1.071933347702725E-3  
 2.640000000000000E10    2.359311740292469E-3   1.224601836293005E-2  
 2.642000000000000E10    1.127917489793617E-2  -2.881152093323181E-3  
 2.644000000000000E10   -4.511981540417764E-3  -1.097690948517993E-2  
 2.646000000000000E10   -1.042690715985373E-2   5.493845092132688E-3  
 2.648000000000000E10    7.010269255260937E-3   9.521569183561951E-3  
 2.650000000000000E10    9.014476672746241E-3  -8.537005327525549E-3  
 2.652000000000000E10   -1.055682031437755E-2  -8.101588275167160E-3  
 2.654000000000000E10   -6.112303592090029E-3   1.130675421154592E-2  
 2.656000000000000E10    1.163971074856818E-2   4.849335593462456E-3  
 2.658000000000000E10    3.497789915854810E-3  -1.263186524738558E-2  
 2.660000000000000E10   -1.216062621097080E-2  -1.943405739439186E-3  
 2.662000000000000E10   -8.102613037408446E-4   1.132184002199210E-2  
 2.664000000000000E10    1.072962666512467E-2  -9.509183782938635E-4  
 2.666000000000000E10   -2.155124908313155E-3  -1.077199142309837E-2  
 2.668000000000000E10   -9.886490515782498E-3   3.556080875569023E-3  
 2.670000000000000E10    5.104949981614482E-3   8.662711959914304E-3  
 2.672000000000000E10    8.599739667261019E-3  -6.986631582549308E-3  
 2.674000000000000E10   -8.093102835118771E-3  -8.316642008139752E-3  
 2.676000000000000E10   -7.639539660885930E-3   8.666456997161731E-3  
 2.678000000000000E10    1.028699817834422E-2   6.630225703702308E-3  
 2.680000000000000E10    6.206589627254289E-3  -1.101552230829839E-2  
 2.682000000000000E10   -1.154296472668648E-2  -5.143626447534189E-3  
 2.684000000000000E10   -3.781118844926823E-3   1.103252136090305E-2  
 2.686000000000000E10    1.105165567423683E-2   2.188927603128832E-3  
 2.688000000000000E10    2.898019695294352E-4  -1.047688550897874E-2  
 2.690000000000000E10   -9.747018353664316E-3   3.881278003063926E-4  
 2.692000000000000E10    1.668120054091560E-3   9.461223773541860E-3  
 2.694000000000000E10    9.254000498913229E-3  -3.534517065418186E-3  
 2.696000000000000E10   -4.728246254671831E-3  -9.349173997179605E-3  
 2.698000000000000E10   -8.698004545294680E-3   5.253827694104984E-3  
 2.700000000000000E10    6.807792386098299E-3   8.410702095716260E-3  
 2.702000000000000E10    7.989394318428822E-3  -7.737548236036673E-3  
 2.704000000000000E10   -8.624406662420370E-3  -6.472732246038504E-3  
 2.706000000000000E10   -5.222033054451458E-3   8.931473756092601E-3  
 2.708000000000000E10    8.665467685204931E-3   4.586780785757583E-3  
 2.710000000000000E10    2.868168812710792E-3  -8.979763006209396E-3  
 2.712000000000000E10   -9.108667843975127E-3  -1.280563468753826E-3  
 2.714000000000000E10   -4.206595681353065E-4   9.905313971103169E-3  
 2.716000000000000E10    9.707940538646653E-3  -8.407345267187338E-4  
 2.718000000000000E10   -1.779369345968007E-3  -1.002489570237231E-2  
 2.720000000000000E10   -9.923749661538750E-3   2.966046082292451E-3  
 2.722000000000000E10    3.779824957746314E-3   1.012509144493379E-2  
 2.724000000000000E10    9.528247945127077E-3  -4.259874767740257E-3  
 2.726000000000000E10   -5.050112791650463E-3  -8.514706089044921E-3  
 2.728000000000000E10   -7.536141172749922E-3   5.845470957865473E-3  
 2.730000000000000E10    5.990529549308121E-3   6.503943688585423E-3  
 2.732000000000000E10    5.401631889981218E-3  -6.287334123044275E-3  
 2.734000000000000E10   -7.261497266881634E-3  -4.419536853674799E-3  
 2.736000000000000E10   -2.530904024752090E-3   8.313517377246171E-3  
 2.738000000000000E10    8.682285450049676E-3   1.377365748339798E-3  
 2.740000000000000E10    5.086837120416021E-5  -8.743684753426351E-3  
 2.742000000000000E10   -9.123140727751888E-3   1.293876905037905E-3  
 2.744000000000000E10    1.986014796784730E-3   9.810581148485653E-3  
 2.746000000000000E10    9.208517716615461E-3  -2.518441368010826E-3  
 2.748000000000000E10   -3.016268648934783E-3  -8.281366652227007E-3  
 2.750000000000000E10   -8.252396728494205E-3   3.500906655972358E-3  
 2.752000000000000E10    4.565257477224805E-3   7.963638156070374E-3  
 2.754000000000000E10    7.039729462121613E-3  -4.780704191944096E-3  
 2.756000000000000E10   -5.480949308548588E-3  -5.537276731047314E-3  
