#  HZ   S   RI   R     50.00 
! Rohde & Schwarz ZVA40 4Ports - Version 3.90 - 1145.1110k42 SN: 100403
! Date: 2023-10-04 06:06:49
! Measurement: S12 
! 
 2.200000000000000E10   -8.623422021628358E-3   1.339799911875161E-3  
 2.202000000000000E10    1.922277406265494E-3   8.771739463554695E-3  
 2.204000000000000E10    8.943843378801830E-3  -3.045970355742611E-3  
 2.206000000000000E10   -4.226272452797275E-3  -8.032844722038135E-3  
 2.208000000000000E10   -6.946795037947595E-3   4.538908666290809E-3  
 2.210000000000000E10    5.543129525904078E-3   6.657199097389821E-3  
 2.212000000000000E10    6.737352719937917E-3  -6.870151381008327E-3  
 2.214000000000000E10   -6.381668063113466E-3  -6.555744992510881E-3  
 2.216000000000000E10   -6.570010991708841E-3   6.984447005379479E-3  
 2.218000000000000E10    7.431129983160645E-3   5.905394282308407E-3  
 2.220000000000000E10    4.917635815218091E-3  -8.101194049231708E-3  
 2.222000000000000E10   -9.000282909255475E-3  -5.011034285416827E-3  
 2.224000000000000E10   -3.934987813408952E-3   7.722571586782578E-3  
 2.226000000000000E10    7.805530083714984E-3   1.061320072039962E-3  
 2.228000000000000E10   -9.430439658899559E-4  -7.565315783722326E-3  
 2.230000000000000E10   -8.120364378555678E-3   2.828409369612928E-4  
 2.232000000000000E10    1.931582513861940E-3   7.530212038545869E-3  
 2.234000000000000E10    7.495662546716631E-3  -3.968931399867870E-3  
 2.236000000000000E10   -5.622773940558545E-3  -7.536694007285405E-3  
 2.238000000000000E10   -9.301421116106212E-3   7.001751604548190E-3  
 2.240000000000000E10    7.749647142190952E-3   9.541303399601020E-3  
 2.242000000000000E10    6.983623039559461E-3  -8.632596582174301E-3  
 2.244000000000000E10   -9.468306627240963E-3  -6.753500580089167E-3  
 2.246000000000000E10   -6.820582144428045E-3   9.887231106404215E-3  
 2.248000000000000E10    9.170080098556355E-3   5.382801500672940E-3  
 2.250000000000000E10    4.108557208382990E-3  -8.314011225593276E-3  
 2.252000000000000E10   -1.014194379968103E-2  -2.234578541902010E-3  
 2.254000000000000E10   -8.612787851234316E-4   1.090130496595521E-2  
 2.256000000000000E10    1.091211188759189E-2  -6.048761342754006E-4  
 2.258000000000000E10   -2.657946752151474E-3  -9.840900893323124E-3  
 2.260000000000000E10   -9.533774675219320E-3   4.640287261281628E-3  
 2.262000000000000E10    4.918125858239364E-3   9.666305471910164E-3  
 2.264000000000000E10    9.574484836775810E-3  -4.539853609458078E-3  
 2.266000000000000E10   -5.214096840063576E-3  -9.203078167047352E-3  
 2.268000000000000E10   -8.322619745740667E-3   6.752758119546343E-3  
 2.270000000000000E10    8.185219325241633E-3   7.770915995934047E-3  
 2.272000000000000E10    7.857441523810849E-3  -9.403612522874028E-3  
 2.274000000000000E10   -1.012176573567558E-2  -5.742836423451081E-3  
 2.276000000000000E10   -2.834531773260096E-3   1.136816946382169E-2  
 2.278000000000000E10    1.227634475799277E-2   8.560043916077120E-4  
 2.280000000000000E10    1.266954835045908E-3  -1.232046858058311E-2  
 2.282000000000000E10   -9.028843240230344E-3  -6.897552419104613E-3  
 2.284000000000000E10    7.108629633876262E-4   1.255711312114727E-2  
 2.286000000000000E10    1.278512176941149E-2  -2.315097350219730E-3  
 2.288000000000000E10   -3.369239737367025E-3  -1.253624346281868E-2  
 2.290000000000000E10   -1.139924567542039E-2   4.463046490855049E-3  
 2.292000000000000E10    6.273326333030127E-3   9.310641486081295E-3  
 2.294000000000000E10    7.383558164292481E-3  -7.829881178622600E-3  
 2.296000000000000E10   -7.639028575795237E-3  -6.006422139762435E-3  
 2.298000000000000E10   -5.438122861960437E-3   8.290247395052575E-3  
 2.300000000000000E10    1.023930296651088E-2   5.189907824387774E-3  
 2.302000000000000E10    4.023653309559450E-3  -1.152519973402377E-2  
 2.304000000000000E10   -1.283114729449153E-2  -3.127837451756932E-3  
 2.306000000000000E10   -1.891537518531550E-3   1.385491347173229E-2  
 2.308000000000000E10    1.392507596756332E-2  -1.110059150732923E-4  
 2.310000000000000E10   -1.320311619565473E-3  -1.348171057179570E-2  
 2.312000000000000E10   -1.290346760652028E-2   2.081317270494765E-3  
 2.314000000000000E10    3.193642114638351E-3   1.094361369905528E-2  
 2.316000000000000E10    1.060976969893090E-2  -4.585064569255337E-3  
 2.318000000000000E10   -5.981891117698979E-3  -1.049236292601563E-2  
 2.320000000000000E10   -9.676986490376294E-3   8.438547127298079E-3  
 2.322000000000000E10    9.792602562811226E-3   8.684582760906778E-3  
 2.324000000000000E10    6.748612191586290E-3  -1.202536531491205E-2  
 2.326000000000000E10   -1.301497529493645E-2  -5.739002939662896E-3  
 2.328000000000000E10   -4.530053432972636E-3   1.448421916575171E-2  
 2.330000000000000E10    1.332900991837960E-2   3.073061165196123E-3  
 2.332000000000000E10    1.495973365308601E-3  -1.316365147067700E-2  
 2.334000000000000E10   -1.370151109586004E-2  -1.474687614972936E-3  
 2.336000000000000E10   -5.218324196221147E-5   1.374453534663189E-2  
 2.338000000000000E10    1.344049214094412E-2  -3.442851131694624E-3  
 2.340000000000000E10   -5.480512831127271E-3  -1.283108496863861E-2  
 2.342000000000000E10   -1.209393440512940E-2   8.667260466609150E-3  
 2.344000000000000E10    1.053657976444811E-2   1.015190996986348E-2  
 2.346000000000000E10    8.408166831941344E-3  -1.147817229502834E-2  
 2.348000000000000E10   -1.231489054043777E-2  -6.755413924111053E-3  
 2.350000000000000E10   -7.171575889515225E-3   1.389257785922382E-2  
 2.352000000000000E10    1.381932082585990E-2   6.346112335450016E-3  
 2.354000000000000E10    4.598240193445236E-3  -1.406120098545216E-2  
 2.356000000000000E10   -1.513799000531435E-2  -2.686283965886105E-3  
 2.358000000000000E10    2.652785040879735E-5   1.503927516750991E-2  
 2.360000000000000E10    1.453034649603069E-2  -2.384392399108037E-3  
 2.362000000000000E10   -4.018127612653188E-3  -1.354763313429430E-2  
 2.364000000000000E10   -1.195399599964730E-2   6.464701160439290E-3  
 2.366000000000000E10    7.929281069664285E-3   1.219500423758291E-2  
 2.368000000000000E10    1.144480457878672E-2  -9.270201553590596E-3  
 2.370000000000000E10   -1.060080766910687E-2  -1.084810568136163E-2  
 2.372000000000000E10   -1.002976117888466E-2   1.268794768839143E-2  
 2.374000000000000E10    1.481008782866411E-2   8.276833890704438E-3  
 2.376000000000000E10    6.173280999064446E-3  -1.472403266234323E-2  
 2.378000000000000E10   -1.437388110207394E-2  -3.743411783943884E-3  
 2.380000000000000E10   -1.185493687444250E-3   1.392733494867571E-2  
 2.382000000000000E10    1.399953625514172E-2  -1.067797758878442E-3  
 2.384000000000000E10   -2.024698325840291E-3  -1.394655977492221E-2  
 2.386000000000000E10   -1.376681023975834E-2   4.127348714973778E-3  
 2.388000000000000E10    6.744658370735124E-3   1.430612814147025E-2  
 2.390000000000000E10    1.363425457384437E-2  -8.325866947416216E-3  
 2.392000000000000E10   -1.020240955404006E-2  -1.253105554496869E-2  
 2.394000000000000E10   -1.200627678190358E-2   1.149455987615511E-2  
 2.396000000000000E10    1.224481282406487E-2   1.095094752963632E-2  
 2.398000000000000E10    8.327463612658903E-3  -1.260292436927557E-2  
 2.400000000000000E10   -1.270467301947065E-2  -6.972482835408300E-3  
 2.402000000000000E10   -2.413026173599064E-3   1.430120965233073E-2  
 2.404000000000000E10    1.419426800566725E-2   3.553361611920991E-4  
 2.406000000000000E10   -1.871943619335070E-3  -1.399225275963545E-2  
 2.408000000000000E10   -1.358050567796454E-2   4.754774563480169E-3  
 2.410000000000000E10    6.929697221494280E-3   1.354988969978876E-2  
 2.412000000000000E10    1.328794911387377E-2  -7.923033466795459E-3  
 2.414000000000000E10   -8.646533649880439E-3  -1.217529043788090E-2  
 2.416000000000000E10   -1.243264248478226E-2   9.563121304381639E-3  
 2.418000000000000E10    1.102471488411538E-2   1.171054583392106E-2  
 2.420000000000000E10    1.057983000646345E-2  -1.097795681562275E-2  
 2.422000000000000E10   -1.202280263532884E-2  -9.953534667147324E-3  
 2.424000000000000E10   -8.064870547968894E-3   1.336577758775093E-2  
 2.426000000000000E10    1.461403930443339E-2   5.308499501552433E-3  
 2.428000000000000E10    3.068645906751044E-3  -1.465528467088006E-2  
 2.430000000000000E10   -1.526758627733216E-2  -4.892631886832533E-4  
 2.432000000000000E10    2.680311554286163E-3   1.502857805462554E-2  
 2.434000000000000E10    1.483086837106384E-2  -4.240198468323797E-3  
 2.436000000000000E10   -5.523968138732016E-3  -1.418876802199520E-2  
 2.438000000000000E10   -1.316439927904867E-2   5.831077272887342E-3  
 2.440000000000000E10    7.443706650519744E-3   1.305602234788239E-2  
 2.442000000000000E10    1.193560447427444E-2  -9.104591532377526E-3  
 2.444000000000000E10   -9.915729751810432E-3  -1.070923861698248E-2  
 2.446000000000000E10   -8.945892390329391E-3   1.009892154252157E-2  
 2.448000000000000E10    1.131246262229979E-2   7.633516011992469E-3  
 2.450000000000000E10    6.236734305275604E-3  -1.333453282131814E-2  
 2.452000000000000E10   -1.403250082512386E-2  -4.649998634704389E-3  
 2.454000000000000E10   -3.043154662009329E-3   1.486805381136946E-2  
 2.456000000000000E10    1.553696903283708E-2   1.879584579000948E-3  
 2.458000000000000E10    2.812999355228385E-4  -1.597380120074377E-2  
 2.460000000000000E10   -1.663405122235417E-2   1.337164063443197E-3  
 2.462000000000000E10    3.597736678784713E-3   1.524222875013948E-2  
 2.464000000000000E10    1.341216234141029E-2  -5.036077956901863E-3  
 2.466000000000000E10   -6.433930277125910E-3  -1.265144647913985E-2  
 2.468000000000000E10   -1.157950083143078E-2   7.032508627162315E-3  
 2.470000000000000E10    8.737339987419546E-3   8.987843786599115E-3  
 2.472000000000000E10    7.446142888511531E-3  -9.992880513891578E-3  
 2.474000000000000E10   -1.166719841421582E-2  -7.152016318286769E-3  
 2.476000000000000E10   -6.105801512603648E-3   1.325083657866344E-2  
 2.478000000000000E10    1.436575013212860E-2   5.155092934728600E-3  
 2.480000000000000E10    3.098860150203109E-3  -1.482491433853284E-2  
 2.482000000000000E10   -1.539538390352391E-2  -1.729293671814958E-3  
 2.484000000000000E10   -1.022600610667723E-3   1.568590858369134E-2  
 2.486000000000000E10    1.435299601871520E-2  -1.319136252277531E-3  
 2.488000000000000E10   -3.351047140313312E-3  -1.289955229731277E-2  
 2.490000000000000E10   -1.267432598979212E-2   4.403476938023232E-3  
 2.492000000000000E10    5.334062007023022E-3   1.149023740435951E-2  
 2.494000000000000E10    1.030201537651010E-2  -7.310589280677959E-3  
 2.496000000000000E10   -9.493897232459858E-3  -8.705909713171423E-3  
 2.498000000000000E10   -7.800202671205625E-3   1.079681073315442E-2  
 2.500000000000000E10    1.068673477857374E-2   7.780605315929279E-3  
 2.502000000000000E10    6.488307306426577E-3  -1.119585050037131E-2  
 2.504000000000000E10   -1.261320474441163E-2  -5.041657743277028E-3  
 2.506000000000000E10   -5.231332790572196E-3   1.258938139653765E-2  
 2.508000000000000E10    1.295909055625089E-2   4.756234178785235E-3  
 2.510000000000000E10    2.163477438443806E-3  -1.359211365343072E-2  
 2.512000000000000E10   -1.387800846714526E-2   4.741278480651090E-4  
 2.514000000000000E10    2.804064191877842E-3   1.408976333914325E-2  
 2.516000000000000E10    1.291667629266158E-2  -4.533053739578463E-3  
 2.518000000000000E10   -6.545456169988029E-3  -1.118524727644399E-2  
 2.520000000000000E10   -1.076064191875048E-2   8.826041244901717E-3  
 2.522000000000000E10    9.136900072917342E-3   1.101749532972463E-2  
 2.524000000000000E10    1.003106852294877E-2  -9.233452816260979E-3  
 2.526000000000000E10   -1.026626079692505E-2  -8.434867690084502E-3  
 2.528000000000000E10   -7.412968756398186E-3   1.108890888281167E-2  
 2.530000000000000E10    1.195757085224614E-2   7.020446631941013E-3  
 2.532000000000000E10    5.870206266990863E-3  -1.187231016228907E-2  
 2.534000000000000E10   -1.124611127306707E-2  -3.625904406362679E-3  
 2.536000000000000E10   -8.996345004561590E-4   1.290882183820941E-2  
 2.538000000000000E10    1.400874153478071E-2  -1.589762619005342E-4  
 2.540000000000000E10   -1.715858637908241E-3  -1.390298127080314E-2  
 2.542000000000000E10   -1.350865938002244E-2   4.832264152355492E-3  
 2.544000000000000E10    8.198449737392366E-3   1.301698910538107E-2  
 2.546000000000000E10    1.254533423343673E-2  -9.602214180631563E-3  
 2.548000000000000E10   -9.552435745717958E-3  -1.084237947361544E-2  
 2.550000000000000E10   -8.840730180963874E-3   1.026688443380408E-2  
 2.552000000000000E10    1.218021675595082E-2   6.472821231000125E-3  
 2.554000000000000E10    5.859204902662896E-3  -1.173463114537299E-2  
 2.556000000000000E10   -1.087702455697581E-2  -4.926935434923507E-3  
 2.558000000000000E10   -2.212179293564986E-3   1.145435075159185E-2  
 2.560000000000000E10    1.219013539957814E-2   1.782038702913269E-4  
 2.562000000000000E10   -7.595917049911805E-4  -1.313245671917684E-2  
 2.564000000000000E10   -1.347134090610780E-2   1.557929859700380E-3  
 2.566000000000000E10    3.506805107463151E-3   1.313999481499195E-2  
 2.568000000000000E10    1.335570347146131E-2  -6.577080232091248E-3  
 2.570000000000000E10   -8.090173156233504E-3  -1.304938626708463E-2  
 2.572000000000000E10   -1.151947025209665E-2   8.099609287455678E-3  
 2.574000000000000E10    9.632589120883495E-3   9.580831188941374E-3  
 2.576000000000000E10    7.436242362018675E-3  -1.126288078376092E-2  
 2.578000000000000E10   -1.184316183207557E-2  -5.271645321045071E-3  
 2.580000000000000E10   -4.258995671989396E-3   1.148904260480776E-2  
 2.582000000000000E10    1.167534489650279E-2   2.477997433743440E-3  
 2.584000000000000E10    3.340565053804312E-4  -1.276826049434021E-2  
 2.586000000000000E10   -1.416483809589408E-2   4.464714738787734E-4  
 2.588000000000000E10    1.211794537084643E-3   1.405969483312219E-2  
 2.590000000000000E10    1.329642019118182E-2  -2.041985542746261E-3  
 2.592000000000000E10   -4.213290012557991E-3  -1.361821495811455E-2  
 2.594000000000000E10   -1.392104834667407E-2   6.392301278538071E-3  
 2.596000000000000E10    6.854491351987235E-3   1.321317511610687E-2  
 2.598000000000000E10    1.099077143589966E-2  -8.277590299258009E-3  
 2.600000000000000E10   -1.036621959065087E-2  -8.755748480325565E-3  
 2.602000000000000E10   -7.709252473432571E-3   1.173179541365244E-2  
 2.604000000000000E10    1.224960811669007E-2   6.189356281538494E-3  
 2.606000000000000E10    3.772576405026484E-3  -1.190471919835545E-2  
 2.608000000000000E10   -1.252892377669923E-2  -2.384044426435139E-3  
 2.610000000000000E10   -1.461307794670574E-3   1.362351907300763E-2  
 2.612000000000000E10    1.336164076928981E-2   1.344467353192158E-3  
 2.614000000000000E10    3.514405407258892E-4  -1.270962716080248E-2  
 2.616000000000000E10   -1.344225561479107E-2   1.123601228755433E-3  
 2.618000000000000E10    2.460394374793395E-3   1.389611783088185E-2  
 2.620000000000000E10    1.277236102032475E-2  -4.508108308073133E-3  
 2.622000000000000E10   -6.053903271094896E-3  -1.169997357646935E-2  
 2.624000000000000E10   -1.100828949711286E-2   7.918708637589589E-3  
 2.626000000000000E10    1.026158369495533E-2   1.012583661940880E-2  
 2.628000000000000E10    9.443052811548114E-3  -1.161434175446630E-2  
 2.630000000000000E10   -1.303473088773899E-2  -7.200523818028159E-3  
 2.632000000000000E10   -5.462414075736888E-3   1.366112858522683E-2  
 2.634000000000000E10    1.355134433833882E-2   4.724240920040757E-3  
 2.636000000000000E10    3.330931787786540E-3  -1.373828010400757E-2  
 2.638000000000000E10   -1.337933985632844E-2  -1.094385184842395E-3  
 2.640000000000000E10    4.304925136011661E-5   1.247470293310471E-2  
 2.642000000000000E10    1.198447204660624E-2  -1.763376574672293E-3  
 2.644000000000000E10   -3.088542798650451E-3  -1.170620138873346E-2  
 2.646000000000000E10   -1.084679103223607E-2   4.379927268018946E-3  
 2.648000000000000E10    7.095667780959047E-3   1.092382610659115E-2  
 2.650000000000000E10    1.061200245749205E-2  -8.815839391900227E-3  
 2.652000000000000E10   -9.837969060754404E-3  -9.437640517717227E-3  
 2.654000000000000E10   -8.330454875249416E-3   1.203604860347696E-2  
 2.656000000000000E10    1.289161833119579E-2   6.482643788331188E-3  
 2.658000000000000E10    5.182976965443231E-3  -1.312295679235831E-2  
 2.660000000000000E10   -1.302076081628911E-2  -3.752565295144450E-3  
 2.662000000000000E10   -1.861511540482752E-3   1.262316195061430E-2  
 2.664000000000000E10    1.248472105362453E-2  -1.362319694635517E-4  
 2.666000000000000E10   -1.206287561217323E-3  -1.225433376384899E-2  
 2.668000000000000E10   -1.115217155893333E-2   2.974465198349208E-3  
 2.670000000000000E10    5.181101645575836E-3   1.095528117730282E-2  
 2.672000000000000E10    1.126876764465123E-2  -6.235802589799278E-3  
 2.674000000000000E10   -6.651316827628762E-3  -1.070458386675455E-2  
 2.676000000000000E10   -9.330660017440096E-3   8.197742630727589E-3  
 2.678000000000000E10    9.368762694066390E-3   8.731142792385072E-3  
 2.680000000000000E10    8.007897849893197E-3  -9.617066622013226E-3  
 2.682000000000000E10   -1.015713860397227E-2  -6.786557947634719E-3  
 2.684000000000000E10   -4.219627851853147E-3   1.069178106263280E-2  
 2.686000000000000E10    1.088164813700132E-2   2.428882777167019E-3  
 2.688000000000000E10    9.964170694729546E-4  -1.098687932244502E-2  
 2.690000000000000E10   -1.049025499378331E-2   3.258371443735086E-4  
 2.692000000000000E10    2.287996750965249E-3   1.075995355495252E-2  
 2.694000000000000E10    1.113313529640436E-2  -3.958116110879928E-3  
 2.696000000000000E10   -4.044793633511290E-3  -1.083433080930263E-2  
 2.698000000000000E10   -1.007049629697576E-2   5.093130312161520E-3  
 2.700000000000000E10    5.986645861412399E-3   1.033298345282674E-2  
 2.702000000000000E10    9.613502450520173E-3  -6.720084129483439E-3  
 2.704000000000000E10   -7.522420128225349E-3  -8.026518044061959E-3  
 2.706000000000000E10   -7.432935599354096E-3   7.567143955384381E-3  
 2.708000000000000E10    8.177174750017002E-3   5.846282001584768E-3  
 2.710000000000000E10    4.214781569316983E-3  -8.890202967450023E-3  
 2.712000000000000E10   -9.746797586558387E-3  -2.654797870491166E-3  
 2.714000000000000E10   -1.289545642066514E-3   9.406550118001178E-3  
 2.716000000000000E10    9.575733653036878E-3  -4.238614809537467E-5  
 2.718000000000000E10   -8.878112075763056E-4  -1.004033209756017E-2  
 2.720000000000000E10   -1.057870089425705E-2   1.913753927510697E-3  
 2.722000000000000E10    2.961886537377723E-3   1.006966698332690E-2  
 2.724000000000000E10    8.979675621958450E-3  -3.425831047934480E-3  
 2.726000000000000E10   -4.654014526749961E-3  -9.080608084332198E-3  
 2.728000000000000E10   -8.459950186079368E-3   5.321952834492549E-3  
 2.730000000000000E10    6.148234926513396E-3   7.493612021789886E-3  
 2.732000000000000E10    6.135274787084200E-3  -6.949592381715775E-3  
 2.734000000000000E10   -7.555024596513249E-3  -5.543766659684479E-3  
 2.736000000000000E10   -4.904908855678514E-3   9.061774297151715E-3  
 2.738000000000000E10    9.515222249319777E-3   3.752085438463837E-3  
 2.740000000000000E10    2.295334394148085E-3  -9.596634743502364E-3  
 2.742000000000000E10   -1.007778270286508E-2  -1.136735500040231E-3  
 2.744000000000000E10   -7.264695996127557E-4   9.472694800933823E-3  
 2.746000000000000E10    8.844718802720308E-3   2.448127887078044E-4  
 2.748000000000000E10   -1.013030054309638E-3  -8.778387244092301E-3  
 2.750000000000000E10   -8.056146325543523E-3   2.214963777078083E-3  
 2.752000000000000E10    3.054323424294125E-3   7.643838966032490E-3  
 2.754000000000000E10    6.450691362260841E-3  -4.318125575082377E-3  
 2.756000000000000E10   -5.744473543018103E-3  -5.410371668403968E-3  
