#  HZ   S   RI   R     50.00 
! Rohde & Schwarz ZVA40 4Ports - Version 3.90 - 1145.1110k42 SN: 100403
! Date: 2023-10-04 06:07:25
! Measurement: S12 
! 
 2.200000000000000E10   -1.203797549533192E-2   3.833058781310683E-4  
 2.202000000000000E10    1.335734656095156E-3   1.147385673539247E-2  
 2.204000000000000E10    9.917293151374906E-3  -1.996306524233660E-3  
 2.206000000000000E10   -2.328010950805037E-3  -9.129638245212846E-3  
 2.208000000000000E10   -8.075298988842405E-3   3.769317318074172E-3  
 2.210000000000000E10    4.835577608901076E-3   6.875920240418054E-3  
 2.212000000000000E10    5.757186729169916E-3  -4.343694126873743E-3  
 2.214000000000000E10   -4.964019615727011E-3  -4.929926588374656E-3  
 2.216000000000000E10   -4.187626698694658E-3   7.514992823416833E-3  
 2.218000000000000E10    7.990103971678764E-3   3.186395428201649E-3  
 2.220000000000000E10    3.144514997984516E-3  -9.161250622128137E-3  
 2.222000000000000E10   -9.989321159082465E-3  -3.192560889146989E-3  
 2.224000000000000E10   -3.407802969377372E-4   1.045968363177963E-2  
 2.226000000000000E10    1.162663666764274E-2  -1.068372866974698E-4  
 2.228000000000000E10   -1.939425362706970E-5  -1.114220907038543E-2  
 2.230000000000000E10   -9.815330864512362E-3   5.980379273751169E-4  
 2.232000000000000E10    2.173066121031297E-3   9.311473360867240E-3  
 2.234000000000000E10    9.350985084893182E-3  -3.440322463575285E-3  
 2.236000000000000E10   -3.997915169748012E-3  -9.605206534615718E-3  
 2.238000000000000E10   -9.030942033859901E-3   4.330066476541106E-3  
 2.240000000000000E10    6.069895964174066E-3   7.845191197702661E-3  
 2.242000000000000E10    7.138352448237129E-3  -8.762264726101421E-3  
 2.244000000000000E10   -9.098865179112181E-3  -7.160707013099454E-3  
 2.246000000000000E10   -5.602558318059892E-3   8.504663535859436E-3  
 2.248000000000000E10    9.164981296635233E-3   4.520916794717778E-3  
 2.250000000000000E10    3.126726689515635E-3  -1.006033003795892E-2  
 2.252000000000000E10   -1.178409552085213E-2  -2.213168852904346E-3  
 2.254000000000000E10   -1.337570625764784E-3   1.139758829958737E-2  
 2.256000000000000E10    1.102286543755326E-2  -1.494307069151546E-3  
 2.258000000000000E10   -4.945421489537694E-3  -1.114971644710749E-2  
 2.260000000000000E10   -1.113675000669900E-2   4.915371340757702E-3  
 2.262000000000000E10    5.283631842758041E-3   1.033436269790400E-2  
 2.264000000000000E10    9.551766299409792E-3  -5.739309170166962E-3  
 2.266000000000000E10   -7.135441097489093E-3  -1.003582839621231E-2  
 2.268000000000000E10   -1.007582564488985E-2   8.389286216697656E-3  
 2.270000000000000E10    8.496216265484691E-3   1.038270200660918E-2  
 2.272000000000000E10    9.352120599942282E-3  -8.878492488292977E-3  
 2.274000000000000E10   -1.067579521622974E-2  -6.308143507339992E-3  
 2.276000000000000E10   -4.660758444515523E-3   1.151779050996993E-2  
 2.278000000000000E10    1.121663083904423E-2   3.034318506252021E-3  
 2.280000000000000E10    1.183726006274810E-3  -1.019085636653472E-2  
 2.282000000000000E10   -8.999601908726618E-3  -5.424036193289794E-3  
 2.284000000000000E10    2.403369369858410E-3   1.262463552120607E-2  
 2.286000000000000E10    1.316998303809669E-2  -4.100500642380212E-3  
 2.288000000000000E10   -5.557073600357398E-3  -1.274131164245773E-2  
 2.290000000000000E10   -1.221884624101222E-2   7.281130994670093E-3  
 2.292000000000000E10    8.903769019525498E-3   1.113395864376798E-2  
 2.294000000000000E10    1.000389375258237E-2  -9.290460890042596E-3  
 2.296000000000000E10   -8.793514163699001E-3  -8.395569748245180E-3  
 2.298000000000000E10   -7.436391708324663E-3   9.244360015145503E-3  
 2.300000000000000E10    1.050443034910131E-2   6.489297746156808E-3  
 2.302000000000000E10    5.337092508852948E-3  -1.149304323189426E-2  
 2.304000000000000E10   -1.242766279028729E-2  -3.483131942630280E-3  
 2.306000000000000E10   -1.369388774037361E-3   1.363741084060166E-2  
 2.308000000000000E10    1.395580629468896E-2  -1.058318146533566E-3  
 2.310000000000000E10   -2.848623160389252E-3  -1.429549965541810E-2  
 2.312000000000000E10   -1.337516286002938E-2   3.790564773225924E-3  
 2.314000000000000E10    4.787532350746915E-3   1.246697388705798E-2  
 2.316000000000000E10    1.220378374273423E-2  -5.409820369095542E-3  
 2.318000000000000E10   -6.346072987071239E-3  -1.122919814952184E-2  
 2.320000000000000E10   -1.102151501982007E-2   8.485478116199374E-3  
 2.322000000000000E10    9.502369619440287E-3   9.263714819098823E-3  
 2.324000000000000E10    7.034082038444467E-3  -1.144214632222429E-2  
 2.326000000000000E10   -1.318625140993390E-2  -5.698864340956789E-3  
 2.328000000000000E10   -3.553926107997540E-3   1.407909129920881E-2  
 2.330000000000000E10    1.432193689106498E-2   1.536983903861255E-3  
 2.332000000000000E10    1.023381209961372E-3  -1.456222438719124E-2  
 2.334000000000000E10   -1.531232849811204E-2  -7.960555012687109E-4  
 2.336000000000000E10    1.713858604489360E-3   1.546159453573637E-2  
 2.338000000000000E10    1.605783822014928E-2  -3.334721353894565E-3  
 2.340000000000000E10   -5.272048074402846E-3  -1.469444275426213E-2  
 2.342000000000000E10   -1.337401891942136E-2   7.960384275065735E-3  
 2.344000000000000E10    9.512705320958048E-3   1.095170882763341E-2  
 2.346000000000000E10    8.447652217000723E-3  -1.127194728178438E-2  
 2.348000000000000E10   -1.200851303292438E-2  -7.432090191286989E-3  
 2.350000000000000E10   -7.030541550193448E-3   1.291923130338546E-2  
 2.352000000000000E10    1.411245251074433E-2   4.985151666915044E-3  
 2.354000000000000E10    3.687792072014418E-3  -1.607089140452445E-2  
 2.356000000000000E10   -1.731072380789556E-2  -2.546257226640591E-3  
 2.358000000000000E10   -8.175537755050755E-5   1.694702991517261E-2  
 2.360000000000000E10    1.650766740203835E-2  -2.372639792156406E-3  
 2.362000000000000E10   -4.493567474128213E-3  -1.556057661946397E-2  
 2.364000000000000E10   -1.437566087406594E-2   6.318702784483321E-3  
 2.366000000000000E10    7.287220898433588E-3   1.306935941101983E-2  
 2.368000000000000E10    1.099257814348675E-2  -9.261135797714815E-3  
 2.370000000000000E10   -1.154770819994155E-2  -1.072479668073356E-2  
 2.372000000000000E10   -9.824377775657922E-3   1.408335617452394E-2  
 2.374000000000000E10    1.577835882198997E-2   7.847854794817977E-3  
 2.376000000000000E10    5.426485076895915E-3  -1.694447908084840E-2  
 2.378000000000000E10   -1.702046845457517E-2  -2.882671855331864E-3  
 2.380000000000000E10   -1.699102547718212E-3   1.678983488818631E-2  
 2.382000000000000E10    1.609079679474235E-2   5.053052013863635E-4  
 2.384000000000000E10   -7.197781451395713E-4  -1.513130895909853E-2  
 2.386000000000000E10   -1.499736313417088E-2   2.934203141194303E-3  
 2.388000000000000E10    4.345170244050678E-3   1.459585693373811E-2  
 2.390000000000000E10    1.319650551886298E-2  -7.581319543533027E-3  
 2.392000000000000E10   -1.036772078077775E-2  -1.209077825478744E-2  
 2.394000000000000E10   -1.116746760089882E-2   1.195777882821858E-2  
 2.396000000000000E10    1.419829379301518E-2   8.881549438228831E-3  
 2.398000000000000E10    7.142426351492759E-3  -1.528585687628947E-2  
 2.400000000000000E10   -1.594469035626389E-2  -5.911785585340112E-3  
 2.402000000000000E10   -2.018791154114297E-3   1.684220848255791E-2  
 2.404000000000000E10    1.671205388265662E-2   4.029738852295850E-4  
 2.406000000000000E10   -1.349280119029572E-3  -1.604840916115791E-2  
 2.408000000000000E10   -1.576170435873792E-2   3.471467811323237E-3  
 2.410000000000000E10    4.808540361409541E-3   1.477542739303317E-2  
 2.412000000000000E10    1.265280254301615E-2  -7.053978188196197E-3  
 2.414000000000000E10   -8.094436736428179E-3  -1.182258613698650E-2  
 2.416000000000000E10   -1.216640786151402E-2   9.427546043298207E-3  
 2.418000000000000E10    1.080811378778890E-2   1.043605152517557E-2  
 2.420000000000000E10    1.002868523937650E-2  -1.234340285009239E-2  
 2.422000000000000E10   -1.319091767072678E-2  -9.861364233074710E-3  
 2.424000000000000E10   -8.305061535793357E-3   1.511993938765954E-2  
 2.426000000000000E10    1.551375575945713E-2   5.915550107602030E-3  
 2.428000000000000E10    4.274137558240909E-3  -1.532958244206384E-2  
 2.430000000000000E10   -1.581972671556287E-2  -9.403408694197424E-4  
 2.432000000000000E10    1.748545684677083E-3   1.571143811452203E-2  
 2.434000000000000E10    1.453848081291653E-2  -3.659181053080829E-3  
 2.436000000000000E10   -5.490720926900394E-3  -1.305367799068335E-2  
 2.438000000000000E10   -1.334691702504642E-2   6.889122596476227E-3  
 2.440000000000000E10    8.760378579609096E-3   1.329209531832021E-2  
 2.442000000000000E10    1.297908036212903E-2  -1.019223373441491E-2  
 2.444000000000000E10   -1.072037416452076E-2  -1.224926389113534E-2  
 2.446000000000000E10   -1.050745550310239E-2   1.182815898209810E-2  
 2.448000000000000E10    1.238130396814086E-2   9.846324581303634E-3  
 2.450000000000000E10    8.703915620571934E-3  -1.235745604208205E-2  
 2.452000000000000E10   -1.324976765317842E-2  -6.125282845459878E-3  
 2.454000000000000E10   -3.711238612595480E-3   1.347086597525049E-2  
 2.456000000000000E10    1.388903507904615E-2   2.329872517293552E-3  
 2.458000000000000E10    2.070354552188292E-4  -1.518875462352298E-2  
 2.460000000000000E10   -1.504821842536330E-2   2.778091729851440E-3  
 2.462000000000000E10    5.335204114089720E-3   1.432340977771673E-2  
 2.464000000000000E10    1.450179112725891E-2  -7.189622177975252E-3  
 2.466000000000000E10   -7.681579591007903E-3  -1.394579137559049E-2  
 2.468000000000000E10   -1.278928725514561E-2   8.555679101846181E-3  
 2.470000000000000E10    9.953191780368798E-3   1.141629394260235E-2  
 2.472000000000000E10    1.043702286551707E-2  -1.018498362100218E-2  
 2.474000000000000E10   -1.029368660238106E-2  -9.202527406159788E-3  
 2.476000000000000E10   -8.076462443568744E-3   1.192454317060765E-2  
 2.478000000000000E10    1.326222463103477E-2   6.040526692231651E-3  
 2.480000000000000E10    3.657033132185461E-3  -1.437937158334535E-2  
 2.482000000000000E10   -1.471680287795607E-2  -2.033454898992204E-3  
 2.484000000000000E10    1.727247678502408E-4   1.514646563737188E-2  
 2.486000000000000E10    1.549725954828318E-2  -3.607207683671732E-3  
 2.488000000000000E10   -4.248506607837044E-3  -1.497359672794119E-2  
 2.490000000000000E10   -1.391027685895097E-2   4.400543795782141E-3  
 2.492000000000000E10    6.056482045096345E-3   1.304632607207168E-2  
 2.494000000000000E10    1.225736162450630E-2  -7.968510253704153E-3  
 2.496000000000000E10   -9.407910329173319E-3  -1.075653189036530E-2  
 2.498000000000000E10   -8.378666272619739E-3   9.505619585979730E-3  
 2.500000000000000E10    9.602261474356055E-3   7.332945198868401E-3  
 2.502000000000000E10    5.818311961775180E-3  -1.225775547209196E-2  
 2.504000000000000E10   -1.314065507904161E-2  -5.348930812033359E-3  
 2.506000000000000E10   -4.197601556370501E-3   1.288485476106871E-2  
 2.508000000000000E10    1.427303835225757E-2   2.733637022174662E-3  
 2.510000000000000E10    1.396376101183705E-3  -1.597373679396696E-2  
 2.512000000000000E10   -1.620887059834786E-2   2.128980648308243E-5  
 2.514000000000000E10    1.880364397948142E-3   1.544437886332162E-2  
 2.516000000000000E10    1.373553801386152E-2  -4.286253672034945E-3  
 2.518000000000000E10   -5.991071629978251E-3  -1.245176840166096E-2  
 2.520000000000000E10   -1.191409007878974E-2   6.638459555688314E-3  
 2.522000000000000E10    7.237027297378518E-3   1.000841398490593E-2  
 2.524000000000000E10    7.730153593001887E-3  -9.141265618382022E-3  
 2.526000000000000E10   -1.083774714788888E-2  -7.526809968112502E-3  
 2.528000000000000E10   -7.098532507370692E-3   1.147332409163937E-2  
 2.530000000000000E10    1.293339431867935E-2   6.499131995951757E-3  
 2.532000000000000E10    4.410051587910857E-3  -1.329572265967727E-2  
 2.534000000000000E10   -1.409687452542130E-2  -3.150654960336397E-3  
 2.536000000000000E10   -2.111222896928666E-3   1.527470634027850E-2  
 2.538000000000000E10    1.416296650131699E-2   1.243564334799885E-3  
 2.540000000000000E10   -1.040506494973670E-3  -1.447021217609290E-2  
 2.542000000000000E10   -1.497176093107555E-2   3.966390700952616E-3  
 2.544000000000000E10    6.859142245957628E-3   1.362341194180772E-2  
 2.546000000000000E10    1.160119340056554E-2  -8.054061137954705E-3  
 2.548000000000000E10   -9.589286331902258E-3  -1.001344363612589E-2  
 2.550000000000000E10   -8.595047678682022E-3   1.242144328716677E-2  
 2.552000000000000E10    1.311100764723960E-2   7.491323885915335E-3  
 2.554000000000000E10    6.207553575222846E-3  -1.201515291177202E-2  
 2.556000000000000E10   -1.228964874462690E-2  -4.790854036400560E-3  
 2.558000000000000E10   -3.430820699577453E-3   1.378936375840567E-2  
 2.560000000000000E10    1.293758251995314E-2   2.476775360264583E-3  
 2.562000000000000E10    8.769123451202177E-4  -1.274933073727880E-2  
 2.564000000000000E10   -1.247093794518150E-2   1.038369899106328E-3  
 2.566000000000000E10    3.526465257891687E-3   1.351800099655520E-2  
 2.568000000000000E10    1.306061136710923E-2  -6.108227615186479E-3  
 2.570000000000000E10   -7.624935758940410E-3  -1.174142342642881E-2  
 2.572000000000000E10   -1.014357132953592E-2   1.036682008998469E-2  
 2.574000000000000E10    1.235545957752038E-2   9.828198511968367E-3  
 2.576000000000000E10    8.774040878051892E-3  -1.300420430197846E-2  
 2.578000000000000E10   -1.301090337801725E-2  -6.731984802172519E-3  
 2.580000000000000E10   -4.798256210051477E-3   1.268131317920052E-2  
 2.582000000000000E10    1.334250344370958E-2   3.804472275078297E-3  
 2.584000000000000E10    3.419533699343447E-3  -1.370318412955385E-2  
 2.586000000000000E10   -1.288932700117584E-2  -1.629442032935913E-3  
 2.588000000000000E10    5.008886892028386E-4   1.232101465575397E-2  
 2.590000000000000E10    1.299689158622641E-2  -2.096719083056087E-3  
 2.592000000000000E10   -3.951337639591657E-3  -1.377021890948527E-2  
 2.594000000000000E10   -1.339360956626479E-2   5.706296942662448E-3  
 2.596000000000000E10    7.887159888923634E-3   1.224423901294358E-2  
 2.598000000000000E10    1.179637375753373E-2  -1.046011797734536E-2  
 2.600000000000000E10   -1.141706046473701E-2  -1.123126770835370E-2  
 2.602000000000000E10   -9.297520766267553E-3   1.186173444148153E-2  
 2.604000000000000E10    1.265517977299169E-2   6.222016163519584E-3  
 2.606000000000000E10    4.573791637085378E-3  -1.283960336877499E-2  
 2.608000000000000E10   -1.278323278529570E-2  -3.864695405354723E-3  
 2.610000000000000E10   -2.242412701889407E-3   1.268974338017870E-2  
 2.612000000000000E10    1.211287474143319E-2   4.870984466833761E-4  
 2.614000000000000E10   -6.749516023774049E-4  -1.316514877544250E-2  
 2.616000000000000E10   -1.457161325379275E-2   1.250545165021322E-3  
 2.618000000000000E10    2.613476455735508E-3   1.428778468107339E-2  
 2.620000000000000E10    1.405535395315383E-2  -4.916326535749249E-3  
 2.622000000000000E10   -6.231014194781892E-3  -1.403824113367591E-2  
 2.624000000000000E10   -1.325188226473983E-2   7.651788713701535E-3  
 2.626000000000000E10    8.539329326595180E-3   1.214900356717408E-2  
 2.628000000000000E10    9.972481901058927E-3  -1.000534434570000E-2  
 2.630000000000000E10   -1.174907972745132E-2  -7.899428215750959E-3  
 2.632000000000000E10   -5.955228429229464E-3   1.246560802974273E-2  
 2.634000000000000E10    1.272705943847541E-2   3.451052216405515E-3  
 2.636000000000000E10    1.619799042600789E-3  -1.321999522042461E-2  
 2.638000000000000E10   -1.376774844538886E-2  -2.568398595030885E-4  
 2.640000000000000E10    1.360479904178646E-3   1.364867604570463E-2  
 2.642000000000000E10    1.332161189930048E-2  -2.074670675938251E-3  
 2.644000000000000E10   -2.848292551789200E-3  -1.305816337116994E-2  
 2.646000000000000E10   -1.316954693174921E-2   4.039285799080972E-3  
 2.648000000000000E10    5.725813811295666E-3   1.281471863330808E-2  
 2.650000000000000E10    1.162777734862175E-2  -6.328853763989173E-3  
 2.652000000000000E10   -8.962169042206369E-3  -1.088814171089325E-2  
 2.654000000000000E10   -8.871884871041402E-3   1.103285947465338E-2  
 2.656000000000000E10    1.174870648537763E-2   6.682103383354843E-3  
 2.658000000000000E10    5.006232837331481E-3  -1.276132618659176E-2  
 2.660000000000000E10   -1.347897597588599E-2  -3.285202299593948E-3  
 2.662000000000000E10   -1.815070238080807E-3   1.388519327156246E-2  
 2.664000000000000E10    1.388379864511080E-2   7.212237924250076E-4  
 2.666000000000000E10   -7.376447429123800E-4  -1.326338466606103E-2  
 2.668000000000000E10   -1.331298807053827E-2   2.230134436103981E-3  
 2.670000000000000E10    3.191984556906391E-3   1.273802682408132E-2  
 2.672000000000000E10    1.131467384402640E-2  -4.023118861368857E-3  
 2.674000000000000E10   -5.998609747621231E-3  -1.022238310542889E-2  
 2.676000000000000E10   -9.755407081684098E-3   7.299421442439780E-3  
 2.678000000000000E10    8.578623150242493E-3   8.794213004875928E-3  
 2.680000000000000E10    6.736855386407115E-3  -9.739807515870780E-3  
 2.682000000000000E10   -1.142372289905325E-2  -5.555288284085691E-3  
 2.684000000000000E10   -4.476556510780938E-3   1.269906305242330E-2  
 2.686000000000000E10    1.229464160860516E-2   3.812613700574730E-3  
 2.688000000000000E10    2.602484353701584E-3  -1.218283368507400E-2  
 2.690000000000000E10   -1.258253780542873E-2  -9.311505436926382E-4  
 2.692000000000000E10    4.494026125030359E-4   1.240133587270975E-2  
 2.694000000000000E10    1.148770854342729E-2  -1.248669141205028E-3  
 2.696000000000000E10   -2.923420790466480E-3  -1.021994103211910E-2  
 2.698000000000000E10   -1.006112023605965E-2   4.556856787530705E-3  
 2.700000000000000E10    5.587725681834854E-3   9.669837920228019E-3  
 2.702000000000000E10    8.739882527152076E-3  -6.863571994472295E-3  
 2.704000000000000E10   -8.374010823899880E-3  -7.491156211472116E-3  
 2.706000000000000E10   -6.528937636176124E-3   9.167460870230570E-3  
 2.708000000000000E10    9.390014223754406E-3   6.166928229504265E-3  
 2.710000000000000E10    5.545949228690006E-3  -1.016590630752035E-2  
 2.712000000000000E10   -1.011817358084954E-2  -3.567606050637551E-3  
 2.714000000000000E10   -2.578113642812241E-3   1.006092061288655E-2  
 2.716000000000000E10    1.009759417502210E-2   1.612837499123998E-3  
 2.718000000000000E10    4.002954265160952E-4  -9.704097436042503E-3  
 2.720000000000000E10   -9.497728344285861E-3   1.052921892551240E-3  
 2.722000000000000E10    2.624156237288844E-3   9.237089310772717E-3  
 2.724000000000000E10    9.554864664096385E-3  -4.206559533486143E-3  
 2.726000000000000E10   -4.634753626305610E-3  -8.895049337297678E-3  
 2.728000000000000E10   -8.374407974770293E-3   5.651276864227839E-3  
 2.730000000000000E10    6.894017977174372E-3   7.693485327763483E-3  
 2.732000000000000E10    7.697996450588107E-3  -7.129485602490604E-3  
 2.734000000000000E10   -7.130469501134940E-3  -7.344720201217569E-3  
 2.736000000000000E10   -6.001443223794922E-3   7.798924096277915E-3  
 2.738000000000000E10    8.221321768360212E-3   4.486230915063061E-3  
 2.740000000000000E10    3.082758383243345E-3  -8.831756509607658E-3  
 2.742000000000000E10   -8.377087797271088E-3  -1.949892190168612E-3  
 2.744000000000000E10   -3.037347714780481E-4   7.750230957753956E-3  
 2.746000000000000E10    8.332540746778250E-3  -1.227147848112509E-3  
 2.748000000000000E10   -2.050351045909338E-3  -8.694449934409931E-3  
 2.750000000000000E10   -9.129303332883865E-3   2.531950238335412E-3  
 2.752000000000000E10    4.132272733841091E-3   8.776560047408566E-3  
 2.754000000000000E10    8.339827618328854E-3  -5.226619687164202E-3  
 2.756000000000000E10   -6.104316795244813E-3  -8.143191720591858E-3  
