#  HZ   S   RI   R     50.00 
! Rohde & Schwarz ZVA40 4Ports - Version 3.90 - 1145.1110k42 SN: 100403
! Date: 2023-10-04 06:08:07
! Measurement: S12 
! 
 2.200000000000000E10   -1.125152982422151E-2  -1.319913399129291E-4  
 2.202000000000000E10    1.880409894511104E-3   9.825899469433352E-3  
 2.204000000000000E10    1.048338855616748E-2  -3.084504955040757E-3  
 2.206000000000000E10   -4.541986912954599E-3  -1.054917319561355E-2  
 2.208000000000000E10   -9.759174659848213E-3   5.700322188204154E-3  
 2.210000000000000E10    5.543378691072576E-3   9.073533379705623E-3  
 2.212000000000000E10    7.471248347428627E-3  -6.404936779290438E-3  
 2.214000000000000E10   -7.988455967279151E-3  -7.503844084567390E-3  
 2.216000000000000E10   -7.892326961155050E-3   8.961376734077931E-3  
 2.218000000000000E10    9.624109923606738E-3   6.538126413943246E-3  
 2.220000000000000E10    5.290050656185485E-3  -1.017318441881798E-2  
 2.222000000000000E10   -1.096253268769942E-2  -4.148353007622063E-3  
 2.224000000000000E10   -2.657701697899029E-3   1.202086627017707E-2  
 2.226000000000000E10    1.203350449213758E-2   2.438810108287726E-3  
 2.228000000000000E10    1.342192885203986E-3  -1.006950170267373E-2  
 2.230000000000000E10   -9.943260112777352E-3   1.059537644323427E-3  
 2.232000000000000E10    2.072885305096861E-3   1.007310132263228E-2  
 2.234000000000000E10    9.406744822626934E-3  -2.889802119170781E-3  
 2.236000000000000E10   -4.279750486603007E-3  -8.312734629726037E-3  
 2.238000000000000E10   -7.536454606452026E-3   6.107667257310823E-3  
 2.240000000000000E10    8.622661320259795E-3   8.283723145723343E-3  
 2.242000000000000E10    7.995236199349165E-3  -1.026278207427822E-2  
 2.244000000000000E10   -1.023323091794737E-2  -6.481552802142687E-3  
 2.246000000000000E10   -5.034717760281637E-3   1.101996592478827E-2  
 2.248000000000000E10    1.272733521182090E-2   5.550138346734457E-3  
 2.250000000000000E10    5.463628185680136E-3  -1.328495779307559E-2  
 2.252000000000000E10   -1.270954613573849E-2  -3.993734695541207E-3  
 2.254000000000000E10   -2.206248718721326E-3   1.223100919742137E-2  
 2.256000000000000E10    1.292131381342188E-2  -6.811103867221391E-4  
 2.258000000000000E10   -1.872859633294866E-3  -1.270973472855985E-2  
 2.260000000000000E10   -1.037236640695483E-2   2.367413362662774E-3  
 2.262000000000000E10    4.261922731529921E-3   8.763571910094470E-3  
 2.264000000000000E10    9.176917927106842E-3  -6.087162517360412E-3  
 2.266000000000000E10   -6.766496080672368E-3  -1.013890025205910E-2  
 2.268000000000000E10   -1.015105162514374E-2   7.223549822811037E-3  
 2.270000000000000E10    9.312802867498249E-3   9.606396168237552E-3  
 2.272000000000000E10    8.522533287759870E-3  -1.194943999871612E-2  
 2.274000000000000E10   -1.324301559361629E-2  -7.225487526739016E-3  
 2.276000000000000E10   -6.033623430994339E-3   1.340514671755955E-2  
 2.278000000000000E10    1.245769404340535E-2   2.527418568206485E-3  
 2.280000000000000E10    6.418769789888756E-4  -1.262531796237454E-2  
 2.282000000000000E10   -1.077954785432667E-2  -7.848738998291083E-3  
 2.284000000000000E10    6.128040913608857E-4   1.393793956958689E-2  
 2.286000000000000E10    1.306799345184118E-2  -2.810656718793325E-3  
 2.288000000000000E10   -4.785740195075050E-3  -1.409797536325641E-2  
 2.290000000000000E10   -1.419857467408292E-2   6.727420433890075E-3  
 2.292000000000000E10    8.209040737710893E-3   1.289052801439539E-2  
 2.294000000000000E10    1.107466797111556E-2  -8.470459957607091E-3  
 2.296000000000000E10   -9.096716064959765E-3  -9.212192555423826E-3  
 2.298000000000000E10   -8.397389086894691E-3   9.783295157831162E-3  
 2.300000000000000E10    1.059852243633941E-2   8.041175198741257E-3  
 2.302000000000000E10    5.849478795425966E-3  -1.151883139391430E-2  
 2.304000000000000E10   -1.297103674733080E-2  -3.488400296191685E-3  
 2.306000000000000E10   -1.021076610413729E-3   1.449572425917722E-2  
 2.308000000000000E10    1.544591374113224E-2  -1.345727294392418E-3  
 2.310000000000000E10   -3.040302995941602E-3  -1.550216064788401E-2  
 2.312000000000000E10   -1.413225792930462E-2   5.204490065807477E-3  
 2.314000000000000E10    5.886959625058807E-3   1.387972343945876E-2  
 2.316000000000000E10    1.390667218947783E-2  -6.082904277718626E-3  
 2.318000000000000E10   -7.065709665766917E-3  -1.301371591398493E-2  
 2.320000000000000E10   -1.214346764027141E-2   8.600566623499617E-3  
 2.322000000000000E10    9.263331594411284E-3   1.093847019365057E-2  
 2.324000000000000E10    9.610471490304917E-3  -1.176561898319051E-2  
 2.326000000000000E10   -1.259315208881162E-2  -7.200899970484898E-3  
 2.328000000000000E10   -4.088518093340099E-3   1.373826214694418E-2  
 2.330000000000000E10    1.429791998816654E-2   2.764412449323572E-3  
 2.332000000000000E10    1.330872313701548E-3  -1.459353478276171E-2  
 2.334000000000000E10   -1.494169604848139E-2   1.115505301640951E-4  
 2.336000000000000E10    1.682773025095230E-3   1.613787258975208E-2  
 2.338000000000000E10    1.639484317274764E-2  -3.617458416556474E-3  
 2.340000000000000E10   -5.709927194402553E-3  -1.549515686929226E-2  
 2.342000000000000E10   -1.515912910690531E-2   7.467273622751236E-3  
 2.344000000000000E10    1.026644292869605E-2   1.298120492720045E-2  
 2.346000000000000E10    1.072369530447759E-2  -1.090928338817321E-2  
 2.348000000000000E10   -1.078681330545805E-2  -8.904029527911916E-3  
 2.350000000000000E10   -7.554404975962825E-3   1.230596986715682E-2  
 2.352000000000000E10    1.456153622712009E-2   6.476127353380434E-3  
 2.354000000000000E10    4.940793645801023E-3  -1.568294659955427E-2  
 2.356000000000000E10   -1.709574495907873E-2  -3.302581630123314E-3  
 2.358000000000000E10   -6.570176055902266E-4   1.809991442132741E-2  
 2.360000000000000E10    1.829318283125758E-2  -1.824069477152079E-3  
 2.362000000000000E10   -3.693562757689506E-3  -1.803231000667438E-2  
 2.364000000000000E10   -1.608775625936687E-2   5.367682664655149E-3  
 2.366000000000000E10    7.038510462734848E-3   1.473638438619673E-2  
 2.368000000000000E10    1.349521553493105E-2  -8.399821439525113E-3  
 2.370000000000000E10   -1.044744349201210E-2  -1.289027361781336E-2  
 2.372000000000000E10   -1.117685780627653E-2   1.278512668795884E-2  
 2.374000000000000E10    1.565109222428873E-2   8.818341128062457E-3  
 2.376000000000000E10    5.994346414809115E-3  -1.646713016089052E-2  
 2.378000000000000E10   -1.744317408883944E-2  -4.045829860842787E-3  
 2.380000000000000E10   -1.982127847441007E-3   1.701820571906865E-2  
 2.382000000000000E10    1.713177206693217E-2  -1.868774553486219E-4  
 2.384000000000000E10   -6.888325788168004E-4  -1.675569900544360E-2  
 2.386000000000000E10   -1.639065268682316E-2   2.082947379676625E-3  
 2.388000000000000E10    4.241781716700643E-3   1.596431311918423E-2  
 2.390000000000000E10    1.521699686418288E-2  -7.240355276735500E-3  
 2.392000000000000E10   -9.326539729954675E-3  -1.383654892561026E-2  
 2.394000000000000E10   -1.167741930112243E-2   1.126775683951564E-2  
 2.396000000000000E10    1.355232184869237E-2   1.024198278901167E-2  
 2.398000000000000E10    8.480650751153007E-3  -1.492735452484340E-2  
 2.400000000000000E10   -1.613312854897231E-2  -7.240787395858206E-3  
 2.402000000000000E10   -2.663478997419588E-3   1.709399133687839E-2  
 2.404000000000000E10    1.746490050572902E-2   1.509301604528446E-3  
 2.406000000000000E10    1.659512885225922E-4  -1.749211334390566E-2  
 2.408000000000000E10   -1.685059926239774E-2   2.014055593463127E-3  
 2.410000000000000E10    3.982771289884113E-3   1.574048545444384E-2  
 2.412000000000000E10    1.403932977700606E-2  -5.709766715881415E-3  
 2.414000000000000E10   -7.010980989434756E-3  -1.326260925270617E-2  
 2.416000000000000E10   -1.248012459836900E-2   8.275506173959002E-3  
 2.418000000000000E10    1.053294949815609E-2   1.082648764713667E-2  
 2.420000000000000E10    1.034591326606460E-2  -1.189750322373584E-2  
 2.422000000000000E10   -1.389843731885776E-2  -9.798263228731230E-3  
 2.424000000000000E10   -8.857691660523415E-3   1.588522084057331E-2  
 2.426000000000000E10    1.717740052845329E-2   7.211641539470293E-3  
 2.428000000000000E10    4.846147683565505E-3  -1.731152692809701E-2  
 2.430000000000000E10   -1.760410802671686E-2  -2.845815994078293E-3  
 2.432000000000000E10   -7.773277611704543E-4   1.732604799326509E-2  
 2.434000000000000E10    1.559567012009211E-2  -2.072479590424337E-3  
 2.436000000000000E10   -3.724865593540017E-3  -1.447933592135087E-2  
 2.438000000000000E10   -1.365128555335105E-2   5.440623761387542E-3  
 2.440000000000000E10    7.262215134687722E-3   1.286257317406125E-2  
 2.442000000000000E10    1.189726067241281E-2  -9.032154426677153E-3  
 2.444000000000000E10   -1.029371935874224E-2  -1.114308432443067E-2  
 2.446000000000000E10   -1.096312911249697E-2   1.214332118979655E-2  
 2.448000000000000E10    1.226474484428763E-2   1.005523535422981E-2  
 2.450000000000000E10    8.787436585407704E-3  -1.330308525939472E-2  
 2.452000000000000E10   -1.492940299795009E-2  -6.807698315242305E-3  
 2.454000000000000E10   -5.746611830545589E-3   1.483880876912735E-2  
 2.456000000000000E10    1.461429859045893E-2   4.601166263455525E-3  
 2.458000000000000E10    2.031140655162744E-3  -1.557105698157102E-2  
 2.460000000000000E10   -1.551421012845822E-2   9.908020874718204E-4  
 2.462000000000000E10    3.762135507713538E-3   1.564243069151416E-2  
 2.464000000000000E10    1.491559611167759E-2  -5.384009215049446E-3  
 2.466000000000000E10   -6.950232098461129E-3  -1.330346488975920E-2  
 2.468000000000000E10   -1.327009193482809E-2   8.750599023187533E-3  
 2.470000000000000E10    9.435706509975717E-3   1.256884229951538E-2  
 2.472000000000000E10    1.125147507991642E-2  -9.454664483200759E-3  
 2.474000000000000E10   -1.046622369904071E-2  -1.051303662825376E-2  
 2.476000000000000E10   -9.686237579444423E-3   1.210867843474262E-2  
 2.478000000000000E10    1.287022433825769E-2   7.866139902034774E-3  
 2.480000000000000E10    5.656954701407813E-3  -1.369005066226237E-2  
 2.482000000000000E10   -1.381232708808966E-2  -3.427733972785063E-3  
 2.484000000000000E10   -3.095034277293962E-4   1.495548969251104E-2  
 2.486000000000000E10    1.581757146050222E-2  -2.128346990502905E-3  
 2.488000000000000E10   -3.814535892161075E-3  -1.422297576209530E-2  
 2.490000000000000E10   -1.385306203155778E-2   5.353253232897259E-3  
 2.492000000000000E10    6.362167929182760E-3   1.425245148129761E-2  
 2.494000000000000E10    1.403351570479572E-2  -7.723519927822053E-3  
 2.496000000000000E10   -9.284644824219868E-3  -1.266172496252693E-2  
 2.498000000000000E10   -1.058878659387119E-2   9.380782954394817E-3  
 2.500000000000000E10    9.856971766566858E-3   9.681664436357096E-3  
 2.502000000000000E10    9.117057168623433E-3  -1.088781072758138E-2  
 2.504000000000000E10   -1.100072456756607E-2  -7.107026001904160E-3  
 2.506000000000000E10   -5.012054622056894E-3   1.177975599421188E-2  
 2.508000000000000E10    1.355081720976159E-2   4.059588602103759E-3  
 2.510000000000000E10    2.905453227867838E-3  -1.462112061562948E-2  
 2.512000000000000E10   -1.583063491852954E-2  -2.015029249378131E-4  
 2.514000000000000E10    2.460520976455882E-3   1.573869312414900E-2  
 2.516000000000000E10    1.452571607660502E-2  -4.396956122945994E-3  
 2.518000000000000E10   -5.500770726939663E-3  -1.414239354198799E-2  
 2.520000000000000E10   -1.237313559977338E-2   5.999636647175066E-3  
 2.522000000000000E10    7.180749220424332E-3   1.080979933612980E-2  
 2.524000000000000E10    1.071765014785342E-2  -8.281652815639973E-3  
 2.526000000000000E10   -9.056292445166037E-3  -9.738611435750499E-3  
 2.528000000000000E10   -8.642831031465903E-3   1.028056701761670E-2  
 2.530000000000000E10    1.200181833701208E-2   6.929878261871636E-3  
 2.532000000000000E10    5.530267706490122E-3  -1.356896295328625E-2  
 2.534000000000000E10   -1.484823503415100E-2  -5.066749581601471E-3  
 2.536000000000000E10   -3.420822511543520E-3   1.434430744848214E-2  
 2.538000000000000E10    1.527545199496672E-2   1.233095979841892E-3  
 2.540000000000000E10    6.481345030806551E-5  -1.669041148852557E-2  
 2.542000000000000E10   -1.651314942864701E-2   1.717856503091753E-3  
 2.544000000000000E10    4.291220117011108E-3   1.458877386176027E-2  
 2.546000000000000E10    1.333332594367676E-2  -6.183401477755979E-3  
 2.548000000000000E10   -8.620557724498212E-3  -1.151317075709812E-2  
 2.550000000000000E10   -1.015631892369129E-2   1.014533764100634E-2  
 2.552000000000000E10    1.054957162705250E-2   7.975047716172412E-3  
 2.554000000000000E10    5.434857812360860E-3  -1.179429201874882E-2  
 2.556000000000000E10   -1.331181122804992E-2  -5.780998719274066E-3  
 2.558000000000000E10   -4.983447972335853E-3   1.398665833403356E-2  
 2.560000000000000E10    1.396194798871875E-2   2.404527396720368E-3  
 2.562000000000000E10    1.492751129262615E-3  -1.471930899424478E-2  
 2.564000000000000E10   -1.550888398196548E-2  -3.181219844918815E-4  
 2.566000000000000E10    9.881137157208286E-4   1.587401685537770E-2  
 2.568000000000000E10    1.487427335814573E-2  -3.416257859498728E-3  
 2.570000000000000E10   -6.815141779952683E-3  -1.294649418559857E-2  
 2.572000000000000E10   -1.232317974790931E-2   8.730834058951587E-3  
 2.574000000000000E10    9.347694634925574E-3   1.151091797510162E-2  
 2.576000000000000E10    9.312123671406880E-3  -1.127615766017698E-2  
 2.578000000000000E10   -1.285486077540554E-2  -7.212640688521788E-3  
 2.580000000000000E10   -6.116723481682129E-3   1.330609663273208E-2  
 2.582000000000000E10    1.366053213132545E-2   5.784379769465886E-3  
 2.584000000000000E10    4.344601707998663E-3  -1.386356385773979E-2  
 2.586000000000000E10   -1.371409473358654E-2  -1.596585454535671E-3  
 2.588000000000000E10   -1.204453576065134E-3   1.435375068103895E-2  
 2.590000000000000E10    1.420231035444886E-2  -2.502634361007949E-4  
 2.592000000000000E10   -1.826345403969754E-3  -1.336855790577829E-2  
 2.594000000000000E10   -1.357646315591410E-2   4.458887255168520E-3  
 2.596000000000000E10    7.263005143613555E-3   1.332273162552156E-2  
 2.598000000000000E10    1.320981633034535E-2  -9.089213039260358E-3  
 2.600000000000000E10   -9.957282920368016E-3  -1.175419497303665E-2  
 2.602000000000000E10   -9.918971889419481E-3   1.254243683069944E-2  
 2.604000000000000E10    1.395388570381329E-2   8.236134104663506E-3  
 2.606000000000000E10    7.698242698097602E-3  -1.302154010045342E-2  
 2.608000000000000E10   -1.230628884513862E-2  -6.667904657660984E-3  
 2.610000000000000E10   -4.423356032930315E-3   1.319254864938557E-2  
 2.612000000000000E10    1.304862822871655E-2   3.287423853180371E-3  
 2.614000000000000E10    2.806226439133752E-3  -1.338209130335599E-2  
 2.616000000000000E10   -1.316738847526722E-2  -8.176138217095286E-4  
 2.618000000000000E10    1.461483898310689E-3   1.371645071776584E-2  
 2.620000000000000E10    1.441431016428396E-2  -4.086634042323567E-3  
 2.622000000000000E10   -5.566518302657642E-3  -1.385620515793562E-2  
 2.624000000000000E10   -1.346488768467680E-2   7.173758262069896E-3  
 2.626000000000000E10    9.177089232252911E-3   1.315714220982045E-2  
 2.628000000000000E10    1.178238901775330E-2  -1.081644548685290E-2  
 2.630000000000000E10   -1.188695305609144E-2  -1.084163173800334E-2  
 2.632000000000000E10   -8.186538325389847E-3   1.266790367662907E-2  
 2.634000000000000E10    1.289352620369755E-2   6.073841839679517E-3  
 2.636000000000000E10    4.617466416675597E-3  -1.342826010659337E-2  
 2.638000000000000E10   -1.320409637992270E-2  -2.827463315043133E-3  
 2.640000000000000E10   -5.130965919306618E-4   1.312322469311766E-2  
 2.642000000000000E10    1.307714523863979E-2  -8.253134601545753E-4  
 2.644000000000000E10   -2.178298833314329E-3  -1.342501738690771E-2  
 2.646000000000000E10   -1.366042369045317E-2   3.577424758987036E-3  
 2.648000000000000E10    5.042597957071848E-3   1.346404087962583E-2  
 2.650000000000000E10    1.294927502749488E-2  -6.357630365528166E-3  
 2.652000000000000E10   -8.469158317893744E-3  -1.238262880360708E-2  
 2.654000000000000E10   -1.093242000206374E-2   9.263525746064261E-3  
 2.656000000000000E10    1.027452741982415E-2   8.784563164226711E-3  
 2.658000000000000E10    6.946402805624530E-3  -1.086122298147529E-2  
 2.660000000000000E10   -1.193185383453965E-2  -5.432983103673905E-3  
 2.662000000000000E10   -3.469776740530506E-3   1.265635428717360E-2  
 2.664000000000000E10    1.276298041921109E-2   1.459514933230821E-3  
 2.666000000000000E10   -5.847376485235145E-5  -1.368714706040919E-2  
 2.668000000000000E10   -1.371063449187204E-2   1.534139417344704E-3  
 2.670000000000000E10    2.939657701062970E-3   1.328211528016254E-2  
 2.672000000000000E10    1.339111913694069E-2  -4.057857848238200E-3  
 2.674000000000000E10   -5.057941831182689E-3  -1.292519905837253E-2  
 2.676000000000000E10   -1.144964183913544E-2   6.312609621090815E-3  
 2.678000000000000E10    7.225528475828469E-3   1.003019500058144E-2  
 2.680000000000000E10    9.214415564201772E-3  -8.409825211856514E-3  
 2.682000000000000E10   -9.354679379612207E-3  -7.777908176649362E-3  
 2.684000000000000E10   -6.136040145065635E-3   1.019134430680424E-2  
 2.686000000000000E10    1.122429373208433E-2   4.609910742146894E-3  
 2.688000000000000E10    3.172237178659998E-3  -1.221182610606775E-2  
 2.690000000000000E10   -1.264146709581837E-2  -2.164865887607448E-3  
 2.692000000000000E10   -5.101971783005865E-4   1.237965608015657E-2  
 2.694000000000000E10    1.241868361830711E-2  -1.080060566891916E-3  
 2.696000000000000E10   -2.000168737140484E-3  -1.212479750392959E-2  
 2.698000000000000E10   -1.137319114059210E-2   1.838040872826241E-3  
 2.700000000000000E10    3.396965446881950E-3   1.054248877335340E-2  
 2.702000000000000E10    9.488952637184411E-3  -5.080879811430350E-3  
 2.704000000000000E10   -6.238735164515674E-3  -8.919109648559243E-3  
 2.706000000000000E10   -7.104782212991267E-3   7.076839916408062E-3  
 2.708000000000000E10    8.128007815685123E-3   6.667827110504732E-3  
 2.710000000000000E10    5.349121871404350E-3  -9.539065358694643E-3  
 2.712000000000000E10   -1.070207188604400E-2  -4.292799771064892E-3  
 2.714000000000000E10   -3.587125363992527E-3   1.102311391150579E-2  
 2.716000000000000E10    1.092076627537608E-2   2.424494072329253E-3  
 2.718000000000000E10    1.374866951664444E-3  -1.110445463564247E-2  
 2.720000000000000E10   -1.148512947838754E-2  -1.068482721166220E-3  
 2.722000000000000E10    3.033750308532035E-4   1.098247396294028E-2  
 2.724000000000000E10    9.872547176200897E-3  -1.395331193634775E-3  
 2.726000000000000E10   -2.547851225244813E-3  -9.227244358044118E-3  
 2.728000000000000E10   -8.718584198504686E-3   4.473425186006352E-3  
 2.730000000000000E10    5.119443376315758E-3   7.941626303363591E-3  
 2.732000000000000E10    6.991317932261154E-3  -5.615704285446554E-3  
 2.734000000000000E10   -7.133042963687331E-3  -6.036922102794051E-3  
 2.736000000000000E10   -5.986332806060091E-3   8.325767528731376E-3  
 2.738000000000000E10    8.947893860749900E-3   5.298697797115892E-3  
 2.740000000000000E10    4.068911337526515E-3  -9.004671301227063E-3  
 2.742000000000000E10   -9.058140160050243E-3  -2.774842534563504E-3  
 2.744000000000000E10   -1.645026713958941E-3   9.314792405348271E-3  
 2.746000000000000E10    9.237671853043139E-3   1.368722616462037E-3  
 2.748000000000000E10    4.012862827948993E-4  -8.271215890999883E-3  
 2.750000000000000E10   -8.497549686580896E-3   1.130172473494895E-3  
 2.752000000000000E10    2.740972879109904E-3   8.644278452266008E-3  
 2.754000000000000E10    8.242523064836860E-3  -3.925054217688739E-3  
 2.756000000000000E10   -4.236774140736088E-3  -7.491011288948357E-3  
