#  HZ   S   RI   R     50.00 
! Rohde & Schwarz ZVA40 4Ports - Version 3.90 - 1145.1110k42 SN: 100403
! Date: 2023-10-04 06:09:07
! Measurement: S12 
! 
 2.200000000000000E10   -1.170409901533276E-2  -1.049041053192923E-3  
 2.202000000000000E10    7.942417978483718E-4   1.279909536242485E-2  
 2.204000000000000E10    1.300427687237971E-2  -8.346773920493433E-4  
 2.206000000000000E10   -1.814023125916719E-3  -1.188200301839970E-2  
 2.208000000000000E10   -1.096088244230487E-2   2.078310390061233E-3  
 2.210000000000000E10    3.339598719321657E-3   9.847680979873985E-3  
 2.212000000000000E10    8.741441299207509E-3  -4.769820123328827E-3  
 2.214000000000000E10   -5.096634748042561E-3  -8.949408947955817E-3  
 2.216000000000000E10   -7.321607714402489E-3   6.279985798755661E-3  
 2.218000000000000E10    8.303417707793415E-3   5.907828643103130E-3  
 2.220000000000000E10    5.686350166797638E-3  -1.024269926710986E-2  
 2.222000000000000E10   -1.134401134913787E-2  -3.735005579073913E-3  
 2.224000000000000E10   -2.602687236503698E-3   1.272943840012886E-2  
 2.226000000000000E10    1.231566283968277E-2   1.548305379401427E-3  
 2.228000000000000E10   -3.418501219130121E-4  -1.267160591669381E-2  
 2.230000000000000E10   -1.338817202486098E-2   4.125808591197711E-4  
 2.232000000000000E10    7.530284146923805E-4   1.273971595219337E-2  
 2.234000000000000E10    1.184524607378990E-2  -2.741250085819047E-3  
 2.236000000000000E10   -3.978102176915854E-3  -1.166632102103904E-2  
 2.238000000000000E10   -1.187138477689587E-2   5.295705224853009E-3  
 2.240000000000000E10    6.957107485504821E-3   1.186943077482283E-2  
 2.242000000000000E10    9.489150979788974E-3  -8.364121342310682E-3  
 2.244000000000000E10   -9.688749531051144E-3  -7.264408704941161E-3  
 2.246000000000000E10   -7.159853063058108E-3   1.127399344113655E-2  
 2.248000000000000E10    1.139660240733065E-2   7.055030262563378E-3  
 2.250000000000000E10    4.800564594916068E-3  -1.120676321443170E-2  
 2.252000000000000E10   -1.277011516503990E-2  -2.631515621033032E-3  
 2.254000000000000E10   -1.572967619722476E-3   1.335275947349146E-2  
 2.256000000000000E10    1.365663236356340E-2  -9.041724672442797E-5  
 2.258000000000000E10   -2.697641677514184E-3  -1.254023550427519E-2  
 2.260000000000000E10   -1.128542987862602E-2   4.537653891020455E-3  
 2.262000000000000E10    6.282315618591383E-3   1.124808608437888E-2  
 2.264000000000000E10    1.139289618004113E-2  -6.201972151757218E-3  
 2.266000000000000E10   -6.542482617078349E-3  -1.125605727429502E-2  
 2.268000000000000E10   -1.118736492935568E-2   8.499067829689011E-3  
 2.270000000000000E10    1.023537805303931E-2   1.124590201652609E-2  
 2.272000000000000E10    1.174430325045250E-2  -1.068402855889872E-2  
 2.274000000000000E10   -1.207697571953759E-2  -1.013512586359866E-2  
 2.276000000000000E10   -7.415473359287716E-3   1.241862968890928E-2  
 2.278000000000000E10    1.279637290281244E-2   4.535034342552535E-3  
 2.280000000000000E10    3.299279764178209E-3  -1.312423829222098E-2  
 2.282000000000000E10   -8.417364617343992E-3  -8.889353310223669E-3  
 2.284000000000000E10    2.352038895878650E-4   1.254026332753710E-2  
 2.286000000000000E10    1.348524977220222E-2  -3.034188404853921E-3  
 2.288000000000000E10   -5.134771170560271E-3  -1.394413388334215E-2  
 2.290000000000000E10   -1.346042830846272E-2   6.482032709755004E-3  
 2.292000000000000E10    8.684415050083771E-3   1.278496460872702E-2  
 2.294000000000000E10    1.151769814896397E-2  -1.034827705007047E-2  
 2.296000000000000E10   -1.061754248803482E-2  -1.054576860042289E-2  
 2.298000000000000E10   -1.019668873050250E-2   1.064271229552105E-2  
 2.300000000000000E10    1.140381261939183E-2   9.567930217599496E-3  
 2.302000000000000E10    8.069575123954564E-3  -1.326815283391625E-2  
 2.304000000000000E10   -1.407451959676109E-2  -6.194237736053765E-3  
 2.306000000000000E10   -3.704197937622666E-3   1.523123099468648E-2  
 2.308000000000000E10    1.554425610811450E-2   1.290376876568189E-3  
 2.310000000000000E10   -1.481217179389205E-3  -1.542532641906291E-2  
 2.312000000000000E10   -1.543216453865171E-2   4.067661699082237E-3  
 2.314000000000000E10    4.663164523662999E-3   1.426686445483938E-2  
 2.316000000000000E10    1.357486698543653E-2  -6.036179547663778E-3  
 2.318000000000000E10   -7.204553607152775E-3  -1.302784870495088E-2  
 2.320000000000000E10   -1.293031513341703E-2   8.315443090396002E-3  
 2.322000000000000E10    9.608361171558499E-3   1.216381450649351E-2  
 2.324000000000000E10    1.028803366352804E-2  -1.163139133132063E-2  
 2.326000000000000E10   -1.296029801596887E-2  -7.805857370840386E-3  
 2.328000000000000E10   -4.994355738745071E-3   1.434912846889347E-2  
 2.330000000000000E10    1.446529309032485E-2   3.395737752725836E-3  
 2.332000000000000E10    1.957955286343349E-3  -1.479709360864945E-2  
 2.334000000000000E10   -1.634691847721115E-2  -6.699712848785566E-4  
 2.336000000000000E10    9.459205575694796E-4   1.705577271059156E-2  
 2.338000000000000E10    1.714218204142526E-2  -3.126413015706930E-3  
 2.340000000000000E10   -4.950211005052552E-3  -1.735243614530191E-2  
 2.342000000000000E10   -1.669127971399576E-2   7.272596398252063E-3  
 2.344000000000000E10    9.271222777897492E-3   1.457543860306032E-2  
 2.346000000000000E10    1.185924882884137E-2  -9.748115611728281E-3  
 2.348000000000000E10   -1.007897389354184E-2  -9.829326096223667E-3  
 2.350000000000000E10   -8.883452770533040E-3   1.212465175194666E-2  
 2.352000000000000E10    1.288320557796396E-2   8.115772245218977E-3  
 2.354000000000000E10    6.129759101895616E-3  -1.477882787003182E-2  
 2.356000000000000E10   -1.643644116120413E-2  -4.029932315461338E-3  
 2.358000000000000E10   -1.539051369036315E-3   1.797318627359346E-2  
 2.360000000000000E10    1.878873654641211E-2  -1.235852680110838E-3  
 2.362000000000000E10   -2.879213185224216E-3  -1.860542449867353E-2  
 2.364000000000000E10   -1.670404494507238E-2   5.379727415856905E-3  
 2.366000000000000E10    6.652966767433099E-3   1.601736963493750E-2  
 2.368000000000000E10    1.479566722991876E-2  -7.884533610194922E-3  
 2.370000000000000E10   -9.614546725060791E-3  -1.392199806286953E-2  
 2.372000000000000E10   -1.217872078996152E-2   1.219600281910971E-2  
 2.374000000000000E10    1.443061759346165E-2   1.058185848523863E-2  
 2.376000000000000E10    7.940366354887374E-3  -1.593141845660284E-2  
 2.378000000000000E10   -1.688099635066465E-2  -5.003291487810202E-3  
 2.380000000000000E10   -2.510790436645038E-3   1.741144835250452E-2  
 2.382000000000000E10    1.775783329503611E-2   4.388325396575965E-4  
 2.384000000000000E10    2.515711048545199E-4  -1.795641699573025E-2  
 2.386000000000000E10   -1.756281661801040E-2   1.466404461098136E-3  
 2.388000000000000E10    3.291110275313258E-3   1.712640374898911E-2  
 2.390000000000000E10    1.694995630532503E-2  -5.748058800236322E-3  
 2.392000000000000E10   -8.048254909226671E-3  -1.542589894961566E-2  
 2.394000000000000E10   -1.334656542167068E-2   1.074930682079867E-2  
 2.396000000000000E10    1.262582064373419E-2   1.133817309164442E-2  
 2.398000000000000E10    9.559998870827258E-3  -1.391149393748492E-2  
 2.400000000000000E10   -1.497829530853778E-2  -6.922535540070385E-3  
 2.402000000000000E10   -3.121338078926783E-3   1.676866976777092E-2  
 2.404000000000000E10    1.707644329871982E-2   2.178069800720550E-3  
 2.406000000000000E10    6.063140390324406E-4  -1.813494082307443E-2  
 2.408000000000000E10   -1.820348430192098E-2   1.944529056345346E-3  
 2.410000000000000E10    3.424779060878791E-3   1.649650942999870E-2  
 2.412000000000000E10    1.581702363910154E-2  -4.687020104029216E-3  
 2.414000000000000E10   -5.814803414978087E-3  -1.485982595477253E-2  
 2.416000000000000E10   -1.352564836270176E-2   7.133885985240340E-3  
 2.418000000000000E10    9.502196626272053E-3   1.212279521860182E-2  
 2.420000000000000E10    1.094417643616907E-2  -1.020551138208248E-2  
 2.422000000000000E10   -1.190829667029902E-2  -1.052899306523614E-2  
 2.424000000000000E10   -9.835591627052054E-3   1.509362793876790E-2  
 2.426000000000000E10    1.633425446925685E-2   7.565927575342357E-3  
 2.428000000000000E10    5.234666037722491E-3  -1.763102918630466E-2  
 2.430000000000000E10   -1.771033339900896E-2  -3.382032642548438E-3  
 2.432000000000000E10   -1.122981997468742E-3   1.670086308149621E-2  
 2.434000000000000E10    1.679696020437405E-2  -9.407914676557994E-4  
 2.436000000000000E10   -2.612479525851086E-3  -1.557692914502695E-2  
 2.438000000000000E10   -1.400033931713551E-2   3.818881508777849E-3  
 2.440000000000000E10    5.789971255580895E-3   1.349052097066306E-2  
 2.442000000000000E10    1.314088210347109E-2  -8.017448184546083E-3  
 2.444000000000000E10   -9.933463938068599E-3  -1.236114179482684E-2  
 2.446000000000000E10   -1.149264123523608E-2   1.078897636034526E-2  
 2.448000000000000E10    1.189180352957919E-2   1.055575310601853E-2  
 2.450000000000000E10    9.380470786709338E-3  -1.373372535454109E-2  
 2.452000000000000E10   -1.476124639157206E-2  -8.713625837117434E-3  
 2.454000000000000E10   -7.021384022664279E-3   1.464930400834419E-2  
 2.456000000000000E10    1.501473688404076E-2   5.491951378644444E-3  
 2.458000000000000E10    3.687135911604855E-3  -1.551273855147883E-2  
 2.460000000000000E10   -1.565065071918070E-2  -1.629803260584595E-3  
 2.462000000000000E10    1.354354735667585E-3   1.524280427838676E-2  
 2.464000000000000E10    1.391867164056748E-2  -3.846411629638169E-3  
 2.466000000000000E10   -6.139710123534314E-3  -1.351237893686630E-2  
 2.468000000000000E10   -1.364421960897744E-2   7.348400904447772E-3  
 2.470000000000000E10    8.702170365722850E-3   1.204927871003747E-2  
 2.472000000000000E10    1.122399180894718E-2  -1.035576051799581E-2  
 2.474000000000000E10   -1.174394541885704E-2  -1.141233814996667E-2  
 2.476000000000000E10   -1.056101784342900E-2   1.232681187684648E-2  
 2.478000000000000E10    1.378433083300479E-2   9.305729938205332E-3  
 2.480000000000000E10    7.419319197651930E-3  -1.466185133904219E-2  
 2.482000000000000E10   -1.468444796046242E-2  -4.918187332805246E-3  
 2.484000000000000E10   -2.585861489933450E-3   1.519617959274910E-2  
 2.486000000000000E10    1.500969775952399E-2   3.013437325307677E-4  
 2.488000000000000E10   -2.716522132686805E-3  -1.397071016253904E-2  
 2.490000000000000E10   -1.424946548650041E-2   3.911479776434135E-3  
 2.492000000000000E10    4.880569438682869E-3   1.377815240994096E-2  
 2.494000000000000E10    1.363520679296926E-2  -7.058873205096461E-3  
 2.496000000000000E10   -8.857454551616684E-3  -1.274311184533872E-2  
 2.498000000000000E10   -1.102778944186866E-2   9.733310755109415E-3  
 2.500000000000000E10    9.196368744596839E-3   1.078782396507449E-2  
 2.502000000000000E10    9.105028933845460E-3  -9.973342530429363E-3  
 2.504000000000000E10   -1.093981607118622E-2  -7.022970239631832E-3  
 2.506000000000000E10   -5.850799119798467E-3   1.159924195962958E-2  
 2.508000000000000E10    1.200894257635810E-2   5.824436215334572E-3  
 2.510000000000000E10    3.345292221638374E-3  -1.365320372860879E-2  
 2.512000000000000E10   -1.524746505310759E-2  -8.836242341203615E-4  
 2.514000000000000E10    1.404292397637619E-3   1.596283022081479E-2  
 2.516000000000000E10    1.560249339672737E-2  -3.578228170226794E-3  
 2.518000000000000E10   -4.572211328195408E-3  -1.447555219056085E-2  
 2.520000000000000E10   -1.318695224472322E-2   6.362147876643576E-3  
 2.522000000000000E10    6.833247753093019E-3   1.315203998819925E-2  
 2.524000000000000E10    1.220117823686451E-2  -6.587714116903953E-3  
 2.526000000000000E10   -7.541832921560854E-3  -1.064232946373522E-2  
 2.528000000000000E10   -9.347512241220102E-3   8.844545111060143E-3  
 2.530000000000000E10    1.004988417844288E-2   8.353487181011587E-3  
 2.532000000000000E10    7.541020095231943E-3  -1.096870700712316E-2  
 2.534000000000000E10   -1.170041924342513E-2  -5.578833763138391E-3  
 2.536000000000000E10   -2.870886441087350E-3   1.302013278473169E-2  
 2.538000000000000E10    1.502314794925042E-2   2.103489816363435E-3  
 2.540000000000000E10    1.312673641223228E-3  -1.561885618139058E-2  
 2.542000000000000E10   -1.517450792016462E-2   1.533711136289639E-3  
 2.544000000000000E10    3.943961841287091E-3   1.577720302157104E-2  
 2.546000000000000E10    1.520195114426315E-2  -5.720900066080503E-3  
 2.548000000000000E10   -7.729298682534136E-3  -1.369481705478393E-2  
 2.550000000000000E10   -1.155082258628681E-2   8.621701301308349E-3  
 2.552000000000000E10    9.935660054907203E-3   9.125279320869595E-3  
 2.554000000000000E10    8.292206213809550E-3  -1.161127322120592E-2  
 2.556000000000000E10   -1.115569056128152E-2  -7.594642098410986E-3  
 2.558000000000000E10   -5.332455781172030E-3   1.200265268562362E-2  
 2.560000000000000E10    1.397890431690030E-2   3.340603434480727E-3  
 2.562000000000000E10    2.951095157186501E-3  -1.459039768087678E-2  
 2.564000000000000E10   -1.490409369580448E-2  -2.086161992338020E-3  
 2.566000000000000E10   -3.512414505166817E-4   1.530919302604161E-2  
 2.568000000000000E10    1.528564051841386E-2  -2.736582617217209E-3  
 2.570000000000000E10   -5.107040691655129E-3  -1.446941087488085E-2  
 2.572000000000000E10   -1.274838525569066E-2   5.651897547068074E-3  
 2.574000000000000E10    7.468241557944566E-3   1.141680232831277E-2  
 2.576000000000000E10    9.904180769808590E-3  -1.034829780110158E-2  
 2.578000000000000E10   -1.169801715877838E-2  -8.293908351333812E-3  
 2.580000000000000E10   -6.701451100525446E-3   1.202441073837690E-2  
 2.582000000000000E10    1.294897627667524E-2   5.899467054405250E-3  
 2.584000000000000E10    3.872261331707705E-3  -1.395233513903804E-2  
 2.586000000000000E10   -1.536091911839321E-2  -3.137240419164300E-3  
 2.588000000000000E10   -2.876925951568410E-3   1.481561196851544E-2  
 2.590000000000000E10    1.409182159113698E-2   2.016227062995313E-3  
 2.592000000000000E10   -7.564448367247678E-5  -1.511645683785901E-2  
 2.594000000000000E10   -1.541611543507315E-2   2.145339487469755E-3  
 2.596000000000000E10    3.884164441842586E-3   1.459048921242356E-2  
 2.598000000000000E10    1.338002097327262E-2  -4.869891505222768E-3  
 2.600000000000000E10   -8.278758032247424E-3  -1.164045627228916E-2  
 2.602000000000000E10   -1.023010897915810E-2   1.061648243921809E-2  
 2.604000000000000E10    1.105602996540256E-2   9.523699089186266E-3  
 2.606000000000000E10    7.128290904802270E-3  -1.137953382567503E-2  
 2.608000000000000E10   -1.220545498654246E-2  -6.053800374502316E-3  
 2.610000000000000E10   -5.602009303402156E-3   1.320169318933040E-2  
 2.612000000000000E10    1.315128745045513E-2   5.027833714848384E-3  
 2.614000000000000E10    3.975767001975328E-3  -1.301584305474535E-2  
 2.616000000000000E10   -1.352665142621845E-2  -1.923470914334757E-3  
 2.618000000000000E10   -6.935424444236560E-4   1.421792586916126E-2  
 2.620000000000000E10    1.429713115794584E-2  -9.662552583904471E-4  
 2.622000000000000E10   -2.801826405629981E-3  -1.355607522418723E-2  
 2.624000000000000E10   -1.383854969753884E-2   5.204008703003638E-3  
 2.626000000000000E10    7.195324971689843E-3   1.311557120061480E-2  
 2.628000000000000E10    1.295983442105353E-2  -8.557734254281968E-3  
 2.630000000000000E10   -1.063201119541191E-2  -1.179526798659936E-2  
 2.632000000000000E10   -9.712835919344798E-3   1.204732918995433E-2  
 2.634000000000000E10    1.232523258659057E-2   8.515759982401505E-3  
 2.636000000000000E10    6.969303620280698E-3  -1.251215260708705E-2  
 2.638000000000000E10   -1.264683707267977E-2  -4.596803453750908E-3  
 2.640000000000000E10   -3.304753285192419E-3   1.252333726733923E-2  
 2.642000000000000E10    1.238715925137512E-2   1.462086765968707E-3  
 2.644000000000000E10   -6.947592992219143E-4  -1.277683771331795E-2  
 2.646000000000000E10   -1.225350066670217E-2   2.466438250849024E-3  
 2.648000000000000E10    4.158269599429332E-3   1.259983819909394E-2  
 2.650000000000000E10    1.339382032165304E-2  -6.153896887553856E-3  
 2.652000000000000E10   -7.732745129032992E-3  -1.232907190569677E-2  
 2.654000000000000E10   -1.168224608409219E-2   9.062332130270079E-3  
 2.656000000000000E10    1.001010800246149E-2   1.020256348419935E-2  
 2.658000000000000E10    9.268119698390365E-3  -1.072248670971021E-2  
 2.660000000000000E10   -1.148699369514361E-2  -7.609871885506436E-3  
 2.662000000000000E10   -6.066951958928257E-3   1.169368077535182E-2  
 2.664000000000000E10    1.195417792769149E-2   3.982686524977908E-3  
 2.666000000000000E10    1.788977846445050E-3  -1.221334229921922E-2  
 2.668000000000000E10   -1.184854051098228E-2  -2.550775516283466E-4  
 2.670000000000000E10    1.307682192418724E-3   1.204886112827808E-2  
 2.672000000000000E10    1.205845444928855E-2  -2.622414831421338E-3  
 2.674000000000000E10   -3.743470093468204E-3  -1.193295093253255E-2  
 2.676000000000000E10   -1.211618992965668E-2   5.252557486528531E-3  
 2.678000000000000E10    6.485968100605533E-3   1.172947580926120E-2  
 2.680000000000000E10    1.042162807425484E-2  -7.306644663913176E-3  
 2.682000000000000E10   -7.963642128743231E-3  -9.459079243242741E-3  
 2.684000000000000E10   -8.374428085517138E-3   9.345644386485219E-3  
 2.686000000000000E10    9.844287997111678E-3   6.587928131921217E-3  
 2.688000000000000E10    5.004950129659846E-3  -1.031840173527598E-2  
 2.690000000000000E10   -1.071228261571378E-2  -3.368612393387593E-3  
 2.692000000000000E10   -1.386995681968983E-3   1.162985019618645E-2  
 2.694000000000000E10    1.206765230745077E-2  -1.165725545888563E-4  
 2.696000000000000E10   -1.043130097968970E-3  -1.199288148200139E-2  
 2.698000000000000E10   -1.141524646664038E-2   2.645623579155654E-3  
 2.700000000000000E10    3.454234814853407E-3   1.187953597400338E-2  
 2.702000000000000E10    1.134233229095116E-2  -4.255720210494474E-3  
 2.704000000000000E10   -5.352020380087197E-3  -1.003929664148018E-2  
 2.706000000000000E10   -8.952061703894287E-3   6.333113065920770E-3  
 2.708000000000000E10    6.721142883179709E-3   7.763223460642621E-3  
 2.710000000000000E10    7.085602410370484E-3  -7.553706207545474E-3  
 2.712000000000000E10   -8.376798476092517E-3  -5.567539104958996E-3  
 2.714000000000000E10   -3.993565056589432E-3   8.364400651771575E-3  
 2.716000000000000E10    9.624316066037864E-3   2.709914784645662E-3  
 2.718000000000000E10    2.471967629389837E-3  -1.022675202693790E-2  
 2.720000000000000E10   -1.088698068633676E-2  -1.143378525739536E-3  
 2.722000000000000E10    3.100462563452311E-4   1.042594510363415E-2  
 2.724000000000000E10    1.050368271535263E-2  -9.789057112357114E-4  
 2.726000000000000E10   -2.304432666278444E-3  -1.070063607767224E-2  
 2.728000000000000E10   -9.526317880954593E-3   2.881260152207688E-3  
 2.730000000000000E10    3.288468273240142E-3   7.600946555612609E-3  
 2.732000000000000E10    7.357416150625795E-3  -4.698239761637524E-3  
 2.734000000000000E10   -5.364674405427650E-3  -7.600823417305946E-3  
 2.736000000000000E10   -6.491011095931754E-3   6.277776643401012E-3  
 2.738000000000000E10    7.382521667750552E-3   5.314277252182365E-3  
 2.740000000000000E10    4.232676146784797E-3  -8.292566053569317E-3  
 2.742000000000000E10   -9.501306281890720E-3  -3.655904103652574E-3  
 2.744000000000000E10   -3.099307985394262E-3   9.514644218143076E-3  
 2.746000000000000E10    8.611850207671523E-3   1.773415104253218E-3  
 2.748000000000000E10    7.939494498714339E-4  -9.320327197201550E-3  
 2.750000000000000E10   -9.369652660097927E-3  -1.224487222089010E-4  
 2.752000000000000E10    6.850046702311374E-4   8.659304294269532E-3  
 2.754000000000000E10    7.906423765234649E-3  -1.987533134524711E-3  
 2.756000000000000E10   -3.402434711460955E-3  -6.999430363066495E-3  
