#  HZ   S   RI   R     50.00 
! Rohde & Schwarz ZVA40 4Ports - Version 3.90 - 1145.1110k42 SN: 100403
! Date: 2023-10-04 06:10:09
! Measurement: S12 
! 
 2.200000000000000E10   -1.036309132177848E-2  -6.865645256766584E-3  
 2.202000000000000E10   -6.468434105045162E-3   1.041471901407931E-2  
 2.204000000000000E10    9.883490274660289E-3   4.100690654013306E-3  
 2.206000000000000E10    2.214025720604695E-3  -1.060918730217964E-2  
 2.208000000000000E10   -1.183494635915849E-2  -1.400524486598442E-3  
 2.210000000000000E10   -8.409616220887983E-4   1.207687584974337E-2  
 2.212000000000000E10    1.197243799106218E-2   4.978837112048495E-4  
 2.214000000000000E10   -1.418817131707328E-3  -1.113959401845932E-2  
 2.216000000000000E10   -1.226148942077998E-2   3.578291594749317E-3  
 2.218000000000000E10    4.243789975589607E-3   1.289206779620145E-2  
 2.220000000000000E10    1.159324249601923E-2  -5.540583071706351E-3  
 2.222000000000000E10   -7.716575099038892E-3  -1.101814306457527E-2  
 2.224000000000000E10   -9.845901891821995E-3   9.154800602118485E-3  
 2.226000000000000E10    1.060364548175130E-2   8.351983778993599E-3  
 2.228000000000000E10    8.235878995037638E-3  -1.101515848131385E-2  
 2.230000000000000E10   -1.020218867051881E-2  -7.157730527978856E-3  
 2.232000000000000E10   -5.346173609723337E-3   1.154478706303053E-2  
 2.234000000000000E10    1.238041277974844E-2   4.738028786960058E-3  
 2.236000000000000E10    4.051174179039663E-3  -1.183491894335020E-2  
 2.238000000000000E10   -1.226484138169326E-2  -2.120549635947100E-3  
 2.240000000000000E10    2.409360083674983E-4   1.214044501830358E-2  
 2.242000000000000E10    1.218572462676093E-2  -3.057496571273077E-3  
 2.244000000000000E10   -4.400147976411972E-3  -1.238519698381424E-2  
 2.246000000000000E10   -1.128030552354176E-2   4.953019342792686E-3  
 2.248000000000000E10    7.744234280835372E-3   1.063103579508606E-2  
 2.250000000000000E10    1.116045469825622E-2  -1.024685672018677E-2  
 2.252000000000000E10   -1.130026300961617E-2  -1.161215936008375E-2  
 2.254000000000000E10   -1.033699659456033E-2   1.201854283863213E-2  
 2.256000000000000E10    1.379610640287865E-2   8.565560478018597E-3  
 2.258000000000000E10    6.470492444350384E-3  -1.493890001438558E-2  
 2.260000000000000E10   -1.433117881242652E-2  -6.258752800931688E-3  
 2.262000000000000E10   -4.112495043955278E-3   1.320207124808803E-2  
 2.264000000000000E10    1.234119549917523E-2   2.781458799290704E-3  
 2.266000000000000E10    1.238326220118324E-3  -1.378064788877964E-2  
 2.268000000000000E10   -1.413743458397221E-2   5.941654317211942E-4  
 2.270000000000000E10    1.800749652829836E-3   1.370683789718896E-2  
 2.272000000000000E10    1.412210140551906E-2  -4.438237352587748E-3  
 2.274000000000000E10   -7.782041342579760E-3  -1.425067544914782E-2  
 2.276000000000000E10   -1.310025520797353E-2   9.479588785325177E-3  
 2.278000000000000E10    1.095104336855002E-2   1.149722609261517E-2  
 2.280000000000000E10    9.811107593122870E-3  -1.135564151627477E-2  
 2.282000000000000E10   -4.906352180114482E-3  -1.383749757951591E-2  
 2.284000000000000E10   -7.812494222889654E-3   1.382418967841659E-2  
 2.286000000000000E10    1.374130010663066E-2   6.389644608134404E-3  
 2.288000000000000E10    4.232379062159453E-3  -1.479504340386484E-2  
 2.290000000000000E10   -1.543224749912042E-2  -1.808732282370329E-3  
 2.292000000000000E10    3.992510560237861E-4   1.615443508489989E-2  
 2.294000000000000E10    1.530038821510971E-2  -2.230288100690814E-3  
 2.296000000000000E10   -3.100295543845277E-3  -1.485445314028766E-2  
 2.298000000000000E10   -1.503688156662975E-2   4.013227211544290E-3  
 2.300000000000000E10    5.860142504388932E-3   1.532277048681863E-2  
 2.302000000000000E10    1.518888134160079E-2  -6.897994317114353E-3  
 2.304000000000000E10   -8.968001333414577E-3  -1.356061236583628E-2  
 2.306000000000000E10   -1.156435080338270E-2   1.088127668481320E-2  
 2.308000000000000E10    1.233891856099945E-2   9.591464826371521E-3  
 2.310000000000000E10    6.966884335270152E-3  -1.364813525287900E-2  
 2.312000000000000E10   -1.368153790826909E-2  -5.091437313240022E-3  
 2.314000000000000E10   -2.434341706248233E-3   1.396099851990584E-2  
 2.316000000000000E10    1.517126105318312E-2   9.288575247410336E-4  
 2.318000000000000E10   -1.389294065461399E-4  -1.566597147029825E-2  
 2.320000000000000E10   -1.604501658584923E-2   1.822710819396889E-3  
 2.322000000000000E10    3.554364026058465E-3   1.699051965260878E-2  
 2.324000000000000E10    1.675029008765705E-2  -5.061407224275172E-3  
 2.326000000000000E10   -6.864339396997821E-3  -1.584702151012607E-2  
 2.328000000000000E10   -1.473001600243151E-2   8.982462910353206E-3  
 2.330000000000000E10    1.014615090389270E-2   1.296130602713674E-2  
 2.332000000000000E10    1.123636767442804E-2  -1.091929273388814E-2  
 2.334000000000000E10   -1.209257838490885E-2  -1.034042418177705E-2  
 2.336000000000000E10   -7.622582525073085E-3   1.349850193946622E-2  
 2.338000000000000E10    1.579140539979562E-2   5.841325488290750E-3  
 2.340000000000000E10    3.541074598615523E-3  -1.663141042809002E-2  
 2.342000000000000E10   -1.751485519343987E-2  -1.055391419868101E-3  
 2.344000000000000E10    1.714267516945256E-3   1.758579988381825E-2  
 2.346000000000000E10    1.639277659705840E-2  -3.223449290089775E-3  
 2.348000000000000E10   -4.507229874434415E-3  -1.625517930369824E-2  
 2.350000000000000E10   -1.588278685812838E-2   5.738319712691009E-3  
 2.352000000000000E10    7.274895397131331E-3   1.455363296554424E-2  
 2.354000000000000E10    1.361637783702463E-2  -8.895607548765838E-3  
 2.356000000000000E10   -1.077243604231626E-2  -1.286239043110982E-2  
 2.358000000000000E10   -1.067301727016456E-2   1.331377675523982E-2  
 2.360000000000000E10    1.481864662491716E-2   8.518737187841907E-3  
 2.362000000000000E10    6.157139665447176E-3  -1.681773131713271E-2  
 2.364000000000000E10   -1.791557786054909E-2  -3.767007547139656E-3  
 2.366000000000000E10   -2.288721065269783E-3   1.756989175919443E-2  
 2.368000000000000E10    1.760946348076686E-2   6.901108845340787E-4  
 2.370000000000000E10   -1.170120653114282E-3  -1.812281768070534E-2  
 2.372000000000000E10   -1.816055574454367E-2   2.706301194848493E-3  
 2.374000000000000E10    4.944908811012283E-3   1.802762650186196E-2  
 2.376000000000000E10    1.614948170026764E-2  -7.159410029998981E-3  
 2.378000000000000E10   -1.003920330549590E-2  -1.392477966146544E-2  
 2.380000000000000E10   -1.186393093666993E-2   1.184803515207022E-2  
 2.382000000000000E10    1.318950540735386E-2   1.040729103260674E-2  
 2.384000000000000E10    8.529444399755448E-3  -1.416128288838081E-2  
 2.386000000000000E10   -1.569928691606037E-2  -6.672500574495643E-3  
 2.388000000000000E10   -5.688496457878500E-3   1.727451279293746E-2  
 2.390000000000000E10    1.841971476096660E-2   3.313431298010983E-3  
 2.392000000000000E10    1.205311757075833E-3  -1.897073775762692E-2  
 2.394000000000000E10   -1.941269094822928E-2   8.596884217695333E-4  
 2.396000000000000E10    3.282167206634767E-3   1.850130211096257E-2  
 2.398000000000000E10    1.700842566788197E-2  -5.369930237066001E-3  
 2.400000000000000E10   -7.875516981584951E-3  -1.515330572146922E-2  
 2.402000000000000E10   -1.227657604613341E-2   1.088660748791881E-2  
 2.404000000000000E10    1.297718830755912E-2   1.074687924119644E-2  
 2.406000000000000E10    8.889641379937530E-3  -1.428317252430134E-2  
 2.408000000000000E10   -1.544513981207274E-2  -6.863917398732156E-3  
 2.410000000000000E10   -5.030245840316638E-3   1.689600758254528E-2  
 2.412000000000000E10    1.661841769237071E-2   3.771112009417266E-3  
 2.414000000000000E10    2.384993516898248E-3  -1.671228290069848E-2  
 2.416000000000000E10   -1.698319317074493E-2  -1.131176359194797E-3  
 2.418000000000000E10    5.917252456129063E-4   1.640448888065293E-2  
 2.420000000000000E10    1.568054704694077E-2  -2.073940195259638E-3  
 2.422000000000000E10   -2.816782332956791E-3  -1.571926195174456E-2  
 2.424000000000000E10   -1.572491048136726E-2   5.227958172326908E-3  
 2.426000000000000E10    8.484367164783180E-3   1.422048543463461E-2  
 2.428000000000000E10    1.334323559422046E-2  -1.028390828287229E-2  
 2.430000000000000E10   -1.255052135093138E-2  -1.120571963838302E-2  
 2.432000000000000E10   -9.494465746684000E-3   1.477311569033191E-2  
 2.434000000000000E10    1.536997943185270E-2   8.126134343910962E-3  
 2.436000000000000E10    6.157208626973443E-3  -1.548131951130927E-2  
 2.438000000000000E10   -1.579284662147984E-2  -5.055774425272830E-3  
 2.440000000000000E10   -4.391747977933846E-3   1.532335896627046E-2  
 2.442000000000000E10    1.588009699480608E-2   2.535042272938881E-3  
 2.444000000000000E10    1.082745084204362E-3  -1.550612281425856E-2  
 2.446000000000000E10   -1.496065210085362E-2   7.762164386804216E-4  
 2.448000000000000E10    3.223485764465295E-3   1.442417869111523E-2  
 2.450000000000000E10    1.449072951800190E-2  -4.707989413873293E-3  
 2.452000000000000E10   -7.162406167481095E-3  -1.324894384015352E-2  
 2.454000000000000E10   -1.235673934570514E-2   9.590479487087578E-3  
 2.456000000000000E10    1.034476159838960E-2   1.217758902930655E-2  
 2.458000000000000E10    1.191830646712333E-2  -1.180473485146649E-2  
 2.460000000000000E10   -1.367867429507896E-2  -1.031518363743089E-2  
 2.462000000000000E10   -8.672714524436742E-3   1.409229743876495E-2  
 2.464000000000000E10    1.494718092726544E-2   6.702351267449558E-3  
 2.466000000000000E10    5.660045149852522E-3  -1.504288284922950E-2  
 2.468000000000000E10   -1.443209088756703E-2  -3.572545545466710E-3  
 2.470000000000000E10   -6.521840496134246E-4   1.441907856496982E-2  
 2.472000000000000E10    1.453523125383072E-2  -9.647922561271116E-4  
 2.474000000000000E10   -2.256952619063668E-3  -1.392106423736550E-2  
 2.476000000000000E10   -1.414477766957134E-2   4.374682874185965E-3  
 2.478000000000000E10    6.521935647469945E-3   1.490708952769637E-2  
 2.480000000000000E10    1.408107124734670E-2  -8.627010829513893E-3  
 2.482000000000000E10   -1.026361322146840E-2  -1.338574622059241E-2  
 2.484000000000000E10   -1.238686119904742E-2   1.187316072173417E-2  
 2.486000000000000E10    1.308018938289024E-2   9.548947913572192E-3  
 2.488000000000000E10    7.874131406424567E-3  -1.315357442945242E-2  
 2.490000000000000E10   -1.263590846792795E-2  -6.511053667054512E-3  
 2.492000000000000E10   -4.679263307480142E-3   1.262385674635880E-2  
 2.494000000000000E10    1.370476279407740E-2   2.802336341119371E-3  
 2.496000000000000E10    7.420858382829465E-4  -1.414964924333617E-2  
 2.498000000000000E10   -1.364730007480830E-2   1.465391851525055E-3  
 2.500000000000000E10    2.885788511775900E-3   1.346904467209242E-2  
 2.502000000000000E10    1.394408755004406E-2  -5.086638760985807E-3  
 2.504000000000000E10   -6.451507404563017E-3  -1.353231671964750E-2  
 2.506000000000000E10   -1.223213184857741E-2   5.967635879642330E-3  
 2.508000000000000E10    6.712612812407315E-3   1.235730329062790E-2  
 2.510000000000000E10    1.311663596425206E-2  -8.480470773065463E-3  
 2.512000000000000E10   -9.768071438884363E-3  -1.208534400211647E-2  
 2.514000000000000E10   -9.854539937805384E-3   1.151711618877016E-2  
 2.516000000000000E10    1.262244000099599E-2   7.107467623427510E-3  
 2.518000000000000E10    4.572963458485901E-3  -1.324703634600155E-2  
 2.520000000000000E10   -1.379174742032774E-2  -2.999640950292815E-3  
 2.522000000000000E10   -1.480199694924522E-3   1.236405514646322E-2  
 2.524000000000000E10    1.295893959468231E-2  -6.741734978277236E-6  
 2.526000000000000E10   -1.665845924435416E-3  -1.390224200440571E-2  
 2.528000000000000E10   -1.376767616602592E-2   2.121445613738615E-3  
 2.530000000000000E10    3.171024378389120E-3   1.422653280314989E-2  
 2.532000000000000E10    1.331803429638967E-2  -4.882252600509673E-3  
 2.534000000000000E10   -6.451497378293425E-3  -1.264786181855016E-2  
 2.536000000000000E10   -1.205724876490422E-2   8.196595503250137E-3  
 2.538000000000000E10    8.430195477558300E-3   1.027973112650216E-2  
 2.540000000000000E10    8.491500426316634E-3  -1.000957324868068E-2  
 2.542000000000000E10   -1.222026476170868E-2  -7.408084566122852E-3  
 2.544000000000000E10   -6.151942128781229E-3   1.295916223898530E-2  
 2.546000000000000E10    1.429257373092696E-2   3.912109634256922E-3  
 2.548000000000000E10    1.934502670337679E-3  -1.480223928228952E-2  
 2.550000000000000E10   -1.508179804659449E-2   2.948751807707595E-4  
 2.552000000000000E10    1.720749249216169E-3   1.491423050174490E-2  
 2.554000000000000E10    1.355287298792973E-2  -2.072746749036014E-3  
 2.556000000000000E10   -3.238548451918177E-3  -1.239550457103178E-2  
 2.558000000000000E10   -1.244329242035747E-2   4.932893061777577E-3  
 2.560000000000000E10    5.470969073940069E-3   1.209830946754664E-2  
 2.562000000000000E10    1.075240204227157E-2  -7.026971259620041E-3  
 2.564000000000000E10   -9.080836549401283E-3  -9.877912583760917E-3  
 2.566000000000000E10   -8.478917909087613E-3   1.136656742892228E-2  
 2.568000000000000E10    1.380979246459901E-2   6.743008663761430E-3  
 2.570000000000000E10    4.142055782722309E-3  -1.392174218199216E-2  
 2.572000000000000E10   -1.411592320073396E-2  -1.835384056903422E-3  
 2.574000000000000E10   -1.023928731228807E-3   1.550648926058784E-2  
 2.576000000000000E10    1.553421115386300E-2  -2.819750388880493E-4  
 2.578000000000000E10   -1.889282131742220E-3  -1.465504590305500E-2  
 2.580000000000000E10   -1.375018391991034E-2   3.350716935528908E-3  
 2.582000000000000E10    5.101935443235561E-3   1.285260351141915E-2  
 2.584000000000000E10    1.276007812703028E-2  -6.273380597122014E-3  
 2.586000000000000E10   -7.394343760097399E-3  -1.133270419086330E-2  
 2.588000000000000E10   -9.007278014905751E-3   8.111092465696856E-3  
 2.590000000000000E10    1.011157355969772E-2   8.856965578161180E-3  
 2.592000000000000E10    8.893934282241389E-3  -1.111998283886351E-2  
 2.594000000000000E10   -1.277525533805601E-2  -7.523885040427558E-3  
 2.596000000000000E10   -5.637354552163743E-3   1.353132800431922E-2  
 2.598000000000000E10    1.446446988848038E-2   4.390730086015537E-3  
 2.600000000000000E10    2.729152380197775E-3  -1.570787024684250E-2  
 2.602000000000000E10   -1.495901512680575E-2  -7.267590717674466E-4  
 2.604000000000000E10    1.534665607323404E-3   1.330503431381658E-2  
 2.606000000000000E10    1.278051559347659E-2  -3.697368258144707E-3  
 2.608000000000000E10   -4.052228316140827E-3  -1.210901842569001E-2  
 2.610000000000000E10   -1.143320347182453E-2   4.871304729022086E-3  
 2.612000000000000E10    6.642968059168197E-3   1.068013728945516E-2  
 2.614000000000000E10    1.076790742808953E-2  -8.648027956951410E-3  
 2.616000000000000E10   -1.011731207836419E-2  -1.040205100434832E-2  
 2.618000000000000E10   -9.618965355912224E-3   1.100483408663422E-2  
 2.620000000000000E10    1.184825645759702E-2   8.341932814801112E-3  
 2.622000000000000E10    6.897569852299057E-3  -1.284103564103134E-2  
 2.624000000000000E10   -1.330667463480495E-2  -5.800786486361176E-3  
 2.626000000000000E10   -5.056502312072553E-3   1.295018114615232E-2  
 2.628000000000000E10    1.341504810261540E-2   2.694368697120808E-3  
 2.630000000000000E10    2.758041991910432E-4  -1.399287238018587E-2  
 2.632000000000000E10   -1.299075380666181E-2   1.911647901579272E-3  
 2.634000000000000E10    3.982616908615455E-3   1.206608721986413E-2  
 2.636000000000000E10    1.176225251401775E-2  -5.940089831710793E-3  
 2.638000000000000E10   -6.978038494708017E-3  -1.068422701791860E-2  
 2.640000000000000E10   -1.014444505563006E-2   7.765460497466847E-3  
 2.642000000000000E10    9.185757313389331E-3   1.046462662634440E-2  
 2.644000000000000E10    9.135414788033813E-3  -9.994869382353500E-3  
 2.646000000000000E10   -1.051459679729305E-2  -8.276063425000757E-3  
 2.648000000000000E10   -7.720832334598526E-3   1.206927050952800E-2  
 2.650000000000000E10    1.197998941643164E-2   5.624970552162267E-3  
 2.652000000000000E10    3.678154513181653E-3  -1.266655442304909E-2  
 2.654000000000000E10   -1.285352872218937E-2  -1.308077811700059E-3  
 2.656000000000000E10    8.327896375703858E-4   1.265949933440425E-2  
 2.658000000000000E10    1.247115779551677E-2  -2.565072805737145E-3  
 2.660000000000000E10   -4.013888697954826E-3  -1.197008302551694E-2  
 2.662000000000000E10   -1.138424489181489E-2   5.937620255281217E-3  
 2.664000000000000E10    7.060085088596679E-3   1.112826311145909E-2  
 2.666000000000000E10    1.027947655529715E-2  -7.832480128854513E-3  
 2.668000000000000E10   -9.118685848079622E-3  -9.127628494752571E-3  
 2.670000000000000E10   -8.139187732012942E-3   9.117974928813055E-3  
 2.672000000000000E10    9.361246688058600E-3   6.875476843561046E-3  
 2.674000000000000E10    5.557127879001200E-3  -1.028950139880180E-2  
 2.676000000000000E10   -1.027447721571662E-2  -4.303322377381846E-3  
 2.678000000000000E10   -2.433377550914884E-3   1.074071635957807E-2  
 2.680000000000000E10    1.128387905191630E-2   9.318802422058070E-4  
 2.682000000000000E10   -6.224322787602432E-4  -1.141480490332469E-2  
 2.684000000000000E10   -1.140529962140136E-2   2.324265500647016E-3  
 2.686000000000000E10    3.706115952809341E-3   1.155274486518465E-2  
 2.688000000000000E10    1.091391261434183E-2  -4.611608455888927E-3  
 2.690000000000000E10   -5.306384467985481E-3  -1.077765013906173E-2  
 2.692000000000000E10   -1.008616524632089E-2   6.406613654689863E-3  
 2.694000000000000E10    7.187507362687029E-3   8.688679779879749E-3  
 2.696000000000000E10    7.235794313601218E-3  -7.799513230565935E-3  
 2.698000000000000E10   -7.876641931943595E-3  -6.544110161485151E-3  
 2.700000000000000E10   -4.998550561140291E-3   8.510667452355847E-3  
 2.702000000000000E10    9.078221250092611E-3   3.579846350476146E-3  
 2.704000000000000E10    2.667927838047035E-3  -9.719805151689798E-3  
 2.706000000000000E10   -1.039183390093967E-2  -1.229185309057357E-3  
 2.708000000000000E10   -3.954000308681316E-5   1.022867587744258E-2  
 2.710000000000000E10    1.088056035223417E-2  -9.265130793210119E-4  
 2.712000000000000E10   -2.634576514537912E-3  -1.066358064417727E-2  
 2.714000000000000E10   -9.864259336609393E-3   3.122314141364768E-3  
 2.716000000000000E10    3.461199281446170E-3   9.223649452906102E-3  
 2.718000000000000E10    8.510601095622405E-3  -4.214500979287550E-3  
 2.720000000000000E10   -5.670720856869593E-3  -7.794123797793873E-3  
 2.722000000000000E10   -6.921158870682120E-3   6.047781949746423E-3  
 2.724000000000000E10    7.095284090610221E-3   6.160910546896048E-3  
 2.726000000000000E10    4.531472863163799E-3  -8.059838903136551E-3  
 2.728000000000000E10   -8.535140193998814E-3  -3.080522605159786E-3  
 2.730000000000000E10   -1.918684505653800E-3   9.397353394888341E-3  
 2.732000000000000E10    9.231714735506102E-3   1.646215278015006E-3  
 2.734000000000000E10    7.517277608712902E-4  -9.531495510600507E-3  
 2.736000000000000E10   -9.876121999695897E-3   3.471617064860766E-4  
 2.738000000000000E10    9.295495565311285E-4   9.472241770708934E-3  
 2.740000000000000E10    8.833104307996109E-3  -1.535124061774695E-3  
 2.742000000000000E10   -2.415806906356011E-3  -8.080891566351056E-3  
 2.744000000000000E10   -6.710179412038997E-3   3.632002961239778E-3  
 2.746000000000000E10    4.205128832836635E-3   6.759022377082147E-3  
 2.748000000000000E10    5.857807322172448E-3  -4.666022723540664E-3  
 2.750000000000000E10   -5.384578806115314E-3  -4.671246089856140E-3  
 2.752000000000000E10   -3.952601415221579E-3   6.675446871668100E-3  
 2.754000000000000E10    7.520132872741669E-3   3.580106931622140E-3  
 2.756000000000000E10    2.416756571619771E-3  -7.895233400631696E-3  
