#  HZ   S   RI   R     50.00 
! Rohde & Schwarz ZVA40 4Ports - Version 3.90 - 1145.1110k42 SN: 100403
! Date: 2023-10-04 06:10:41
! Measurement: S12 
! 
 2.200000000000000E10   -6.118761288234964E-3  -1.098718817229383E-2  
 2.202000000000000E10   -8.426554180914536E-3   7.012879592366517E-3  
 2.204000000000000E10    9.722373011754826E-3   8.144919760525227E-3  
 2.206000000000000E10    8.061905886279419E-3  -1.087378387455829E-2  
 2.208000000000000E10   -1.086854323511943E-2  -7.307897336431779E-3  
 2.210000000000000E10   -6.406573520507664E-3   1.136923918966204E-2  
 2.212000000000000E10    1.225251713185571E-2   5.166728806216270E-3  
 2.214000000000000E10    4.779841750860214E-3  -1.350893144262955E-2  
 2.216000000000000E10   -1.347098484984599E-2  -4.629872899386101E-3  
 2.218000000000000E10   -2.762051837635227E-3   1.240213651908562E-2  
 2.220000000000000E10    1.272283893194981E-2   2.574303573510406E-4  
 2.222000000000000E10   -1.175286688521737E-3  -1.275351140066050E-2  
 2.224000000000000E10   -1.198976603336632E-2   3.616193207562901E-3  
 2.226000000000000E10    4.947933251969516E-3   1.039367899647914E-2  
 2.228000000000000E10    9.576597105478868E-3  -5.939709517406300E-3  
 2.230000000000000E10   -8.789274143055081E-3  -8.880807989044115E-3  
 2.232000000000000E10   -9.283219842473045E-3   9.541280160192400E-3  
 2.234000000000000E10    1.036904312786646E-2   8.247559395385906E-3  
 2.236000000000000E10    6.544629315612838E-3  -1.218399329809472E-2  
 2.238000000000000E10   -1.351981222978793E-2  -6.892592718941160E-3  
 2.240000000000000E10   -5.602280129096471E-3   1.475644222227857E-2  
 2.242000000000000E10    1.452746032737196E-2   3.676540502056014E-3  
 2.244000000000000E10    1.627894995181123E-3  -1.357353068306111E-2  
 2.246000000000000E10   -1.392379964818247E-2   3.205758630429045E-4  
 2.248000000000000E10    5.867248364666011E-4   1.488293876172975E-2  
 2.250000000000000E10    1.393356246990152E-2  -2.041600135271438E-3  
 2.252000000000000E10   -4.366179535281844E-3  -1.348488446092233E-2  
 2.254000000000000E10   -1.389706617919728E-2   6.830445869127289E-3  
 2.256000000000000E10    8.732350514037535E-3   1.306537230266258E-2  
 2.258000000000000E10    1.147189320181496E-2  -9.736608131788671E-3  
 2.260000000000000E10   -1.006871683057398E-2  -9.729325305670500E-3  
 2.262000000000000E10   -7.681263159611262E-3   1.086371811106801E-2  
 2.264000000000000E10    1.148439545067959E-2   7.803541346220300E-3  
 2.266000000000000E10    6.614448895561509E-3  -1.213846477912739E-2  
 2.268000000000000E10   -1.291056856280193E-2  -4.713462869403884E-3  
 2.270000000000000E10   -2.869539741368499E-3   1.449869218049571E-2  
 2.272000000000000E10    1.622527424478903E-2   9.781404642126290E-4  
 2.274000000000000E10   -1.477549350966001E-3  -1.675532775698230E-2  
 2.276000000000000E10   -1.601052738260478E-2   3.865487931761891E-3  
 2.278000000000000E10    6.375129407388158E-3   1.534752341103740E-2  
 2.280000000000000E10    1.474104766384699E-2  -7.334415990044363E-3  
 2.282000000000000E10    2.683632861590013E-3  -1.618405326735228E-2  
 2.284000000000000E10   -1.439509284682572E-2   8.369887014850974E-3  
 2.286000000000000E10    9.142892173258588E-3   1.204473912366666E-2  
 2.288000000000000E10    1.194896787637845E-2  -1.142615958815441E-2  
 2.290000000000000E10   -1.253993072896265E-2  -1.002139350748621E-2  
 2.292000000000000E10   -7.058925577439368E-3   1.312720050918870E-2  
 2.294000000000000E10    1.355704152956605E-2   3.992644713434856E-3  
 2.296000000000000E10    2.379331795964390E-3  -1.353885562275536E-2  
 2.298000000000000E10   -1.453727204352617E-2  -1.119994652981404E-3  
 2.300000000000000E10    6.262425074510247E-5   1.523879784508608E-2  
 2.302000000000000E10    1.582191634224728E-2  -2.514960440748837E-3  
 2.304000000000000E10   -5.240127458819188E-3  -1.663866674061865E-2  
 2.306000000000000E10   -1.658173307077959E-2   7.326484701479785E-3  
 2.308000000000000E10    9.208113799104467E-3   1.554810654488392E-2  
 2.310000000000000E10    1.371848670532927E-2  -1.054276101058349E-2  
 2.312000000000000E10   -1.188686033128761E-2  -1.155105675570667E-2  
 2.314000000000000E10   -1.004512869985774E-2   1.266886948724277E-2  
 2.316000000000000E10    1.254471682477742E-2   9.002506936667487E-3  
 2.318000000000000E10    6.730772758601233E-3  -1.346580282552168E-2  
 2.320000000000000E10   -1.587064372142777E-2  -4.653570387745276E-3  
 2.322000000000000E10   -3.089987418206874E-3   1.615967677207664E-2  
 2.324000000000000E10    1.704864681232721E-2   8.021601242944598E-4  
 2.326000000000000E10   -1.475249966460979E-3  -1.702052092878148E-2  
 2.328000000000000E10   -1.609004032798111E-2   3.859739343170077E-3  
 2.330000000000000E10    5.373605526983738E-3   1.608121715253219E-2  
 2.332000000000000E10    1.490438813925721E-2  -6.118246630649082E-3  
 2.334000000000000E10   -7.237976780743338E-3  -1.416926487581804E-2  
 2.336000000000000E10   -1.341409093583934E-2   9.952594526112080E-3  
 2.338000000000000E10    1.149017550051212E-2   1.165398533339612E-2  
 2.340000000000000E10    9.077583759790286E-3  -1.382390869548544E-2  
 2.342000000000000E10   -1.555256344727241E-2  -7.420963724143803E-3  
 2.344000000000000E10   -4.684087340137921E-3   1.615478628082201E-2  
 2.346000000000000E10    1.681938691763207E-2   2.314266319444869E-3  
 2.348000000000000E10    1.573823654325679E-3  -1.674221514258534E-2  
 2.350000000000000E10   -1.740265043918043E-2   4.457272962099523E-4  
 2.352000000000000E10    1.932117280375678E-3   1.742008235305548E-2  
 2.354000000000000E10    1.700445107417181E-2  -2.895453479140997E-3  
 2.356000000000000E10   -4.859254899201915E-3  -1.664418325526640E-2  
 2.358000000000000E10   -1.568859373219311E-2   6.848905351944268E-3  
 2.360000000000000E10    8.938039769418538E-3   1.361597946379334E-2  
 2.362000000000000E10    1.270829842542298E-2  -1.092215129756369E-2  
 2.364000000000000E10   -1.218164726742543E-2  -1.063774988870136E-2  
 2.366000000000000E10   -8.153650414897129E-3   1.370036433218047E-2  
 2.368000000000000E10    1.537801270023920E-2   6.403518636943772E-3  
 2.370000000000000E10    4.733455702080391E-3  -1.666238735197112E-2  
 2.372000000000000E10   -1.796567346900702E-2  -2.977307347464375E-3  
 2.374000000000000E10   -8.020908098842483E-4   1.902289339341223E-2  
 2.376000000000000E10    1.818309398368001E-2  -1.659533110796474E-3  
 2.378000000000000E10   -3.623070071625989E-3  -1.776150194928050E-2  
 2.380000000000000E10   -1.658905018121004E-2   5.088474310468882E-3  
 2.382000000000000E10    6.651227959082462E-3   1.519639452453703E-2  
 2.384000000000000E10    1.427868576138280E-2  -8.485560218105093E-3  
 2.386000000000000E10   -1.000683277379721E-2  -1.319994218647480E-2  
 2.388000000000000E10   -1.145638964953832E-2   1.238593130256049E-2  
 2.390000000000000E10    1.458400345291011E-2   9.602066391380504E-3  
 2.392000000000000E10    7.712538557825610E-3  -1.645915070548654E-2  
 2.394000000000000E10   -1.746204303344712E-2  -6.185745121911168E-3  
 2.396000000000000E10   -3.767492584302090E-3   1.880345540121198E-2  
 2.398000000000000E10    1.838715811027214E-2   9.343717774754623E-4  
 2.400000000000000E10   -7.494755664083641E-4  -1.803928537992761E-2  
 2.402000000000000E10   -1.655848103109747E-2   5.180237028980628E-3  
 2.404000000000000E10    6.566713098436594E-3   1.560126038384624E-2  
 2.406000000000000E10    1.416358666028827E-2  -8.192048844648525E-3  
 2.408000000000000E10   -9.707122982945293E-3  -1.271318484214135E-2  
 2.410000000000000E10   -1.101182310958393E-2   1.187464548274875E-2  
 2.412000000000000E10    1.278374867979437E-2   8.878588152583689E-3  
 2.414000000000000E10    8.129074296448380E-3  -1.409237628104165E-2  
 2.416000000000000E10   -1.515741590992548E-2  -6.566158990608528E-3  
 2.418000000000000E10   -5.152730591362342E-3   1.619931630557403E-2  
 2.420000000000000E10    1.604402228258550E-2   4.284486101823859E-3  
 2.422000000000000E10    3.497695470286999E-3  -1.672244258224964E-2  
 2.424000000000000E10   -1.742754498263821E-2  -1.777806694008177E-3  
 2.426000000000000E10    3.913401469617384E-4   1.783694588812068E-2  
 2.428000000000000E10    1.631526107667014E-2  -2.557828811404761E-3  
 2.430000000000000E10   -5.070893690572120E-3  -1.547637663315982E-2  
 2.432000000000000E10   -1.432086862041615E-2   7.655325141968206E-3  
 2.434000000000000E10    9.609135275240988E-3   1.246891266782768E-2  
 2.436000000000000E10    1.082322894944809E-2  -1.097802439471707E-2  
 2.438000000000000E10   -1.181872125016525E-2  -9.052290872205049E-3  
 2.440000000000000E10   -8.293039951240644E-3   1.329335983609781E-2  
 2.442000000000000E10    1.468385258340277E-2   7.665015160455369E-3  
 2.444000000000000E10    6.511237996164709E-3  -1.496707941987552E-2  
 2.446000000000000E10   -1.543451388715766E-2  -5.332578584784642E-3  
 2.448000000000000E10   -4.127014792175032E-3   1.544362140703015E-2  
 2.450000000000000E10    1.530782744521275E-2   2.294300582434516E-3  
 2.452000000000000E10   -5.856692496308824E-5  -1.544617430772632E-2  
 2.454000000000000E10   -1.463666110066697E-2   1.656193500821246E-3  
 2.456000000000000E10    3.269411601650063E-3   1.407082547666505E-2  
 2.458000000000000E10    1.392270482028835E-2  -5.700809386326000E-3  
 2.460000000000000E10   -8.148658031132072E-3  -1.267766824457794E-2  
 2.462000000000000E10   -1.178962501580827E-2   9.750244498718530E-3  
 2.464000000000000E10    1.058737403945997E-2   1.110686425818130E-2  
 2.466000000000000E10    9.610546636395156E-3  -1.137958685285412E-2  
 2.468000000000000E10   -1.248576820944436E-2  -9.172184712952003E-3  
 2.470000000000000E10   -8.012490055989474E-3   1.315126070403494E-2  
 2.472000000000000E10    1.242782935150899E-2   6.206488687894307E-3  
 2.474000000000000E10    4.803093703230843E-3  -1.278879243182018E-2  
 2.476000000000000E10   -1.336123567307368E-2  -3.817718803475145E-3  
 2.478000000000000E10   -2.121417590387864E-3   1.384355995105580E-2  
 2.480000000000000E10    1.412747785798274E-2  -7.143412658479065E-4  
 2.482000000000000E10   -2.700881515920628E-3  -1.423642842564732E-2  
 2.484000000000000E10   -1.408319509937428E-2   5.695848623872735E-3  
 2.486000000000000E10    8.165351522620767E-3   1.377324404893443E-2  
 2.488000000000000E10    1.210907657514326E-2  -8.954561431892216E-3  
 2.490000000000000E10   -1.003017264883965E-2  -1.086212613154203E-2  
 2.492000000000000E10   -1.022948167519644E-2   1.049298315774649E-2  
 2.494000000000000E10    1.144165691221133E-2   9.672816726379097E-3  
 2.496000000000000E10    7.554658353910781E-3  -1.214872126001865E-2  
 2.498000000000000E10   -1.206111974897794E-2  -5.833936302224174E-3  
 2.500000000000000E10   -4.988308835891075E-3   1.243896529194899E-2  
 2.502000000000000E10    1.316125271841884E-2   2.928002890257631E-3  
 2.504000000000000E10    6.071368206903571E-4  -1.244332347414456E-2  
 2.506000000000000E10   -1.225297045311891E-2   7.916410140751395E-4  
 2.508000000000000E10    1.445801797672175E-3   1.309267603210174E-2  
 2.510000000000000E10    1.329063723096624E-2  -2.605444336950313E-3  
 2.512000000000000E10   -4.886043199803680E-3  -1.372180320322514E-2  
 2.514000000000000E10   -1.368155478849076E-2   6.309689590125345E-3  
 2.516000000000000E10    8.021004410693422E-3   1.230772380949929E-2  
 2.518000000000000E10    1.100367892649956E-2  -9.139466827036813E-3  
 2.520000000000000E10   -9.424005955224857E-3  -9.225308720488101E-3  
 2.522000000000000E10   -7.329875734285452E-3   1.009135341155343E-2  
 2.524000000000000E10    1.033498518518172E-2   6.186286889715120E-3  
 2.526000000000000E10    4.513912732363679E-3  -1.068897295044735E-2  
 2.528000000000000E10   -1.184215824468993E-2  -3.378238085133489E-3  
 2.530000000000000E10   -2.659337835211773E-3   1.307751328567974E-2  
 2.532000000000000E10    1.364396567805670E-2   6.520229635498254E-4  
 2.534000000000000E10   -8.406273482250981E-4  -1.455530434031971E-2  
 2.536000000000000E10   -1.401975986664183E-2   2.273414444061928E-3  
 2.538000000000000E10    4.217420078930445E-3   1.331595814554021E-2  
 2.540000000000000E10    1.336812341469340E-2  -4.964842490153387E-3  
 2.542000000000000E10   -5.672501793014817E-3  -1.252189750084654E-2  
 2.544000000000000E10   -1.077768488903530E-2   7.564116851426661E-3  
 2.546000000000000E10    8.492283523082733E-3   1.006235901149921E-2  
 2.548000000000000E10    7.876727875554934E-3  -9.685932018328458E-3  
 2.550000000000000E10   -1.101183681748807E-2  -5.849748704349622E-3  
 2.552000000000000E10   -4.101096390513703E-3   1.131532224826515E-2  
 2.554000000000000E10    1.194681538618170E-2   2.050455397693440E-3  
 2.556000000000000E10    1.099188073567348E-3  -1.234828279120848E-2  
 2.558000000000000E10   -1.229521390632726E-2  -7.172074201662326E-4  
 2.560000000000000E10    1.198333644424565E-3   1.248138572555035E-2  
 2.562000000000000E10    1.325639488641173E-2  -2.134110429324210E-3  
 2.564000000000000E10   -2.817249071085826E-3  -1.366476196562871E-2  
 2.566000000000000E10   -1.378072352963500E-2   4.920740670058876E-3  
 2.568000000000000E10    6.980543374083936E-3   1.200916303787381E-2  
 2.570000000000000E10    9.805012610740960E-3  -9.032919741002843E-3  
 2.572000000000000E10   -1.025095884688199E-2  -8.794518827926368E-3  
 2.574000000000000E10   -7.622111443197355E-3   1.068512219353579E-2  
 2.576000000000000E10    1.221362457727082E-2   5.361836374504492E-3  
 2.578000000000000E10    3.595419373596087E-3  -1.310296883457340E-2  
 2.580000000000000E10   -1.307397149503231E-2  -2.595776197267696E-3  
 2.582000000000000E10   -1.693407542916248E-3   1.357180785271339E-2  
 2.584000000000000E10    1.356238056905568E-2   5.258192768451409E-4  
 2.586000000000000E10   -2.099851350067183E-3  -1.317422333522700E-2  
 2.588000000000000E10   -1.238583403755911E-2   2.830580742738675E-3  
 2.590000000000000E10    2.551778059569188E-3   1.186399877769873E-2  
 2.592000000000000E10    1.125067268731073E-2  -4.421591060236096E-3  
 2.594000000000000E10   -6.324784219032154E-3  -1.042439541197382E-2  
 2.596000000000000E10   -9.897496696794406E-3   8.044844755204395E-3  
 2.598000000000000E10    9.879218705464155E-3   9.469930228078738E-3  
 2.600000000000000E10    7.816443903720938E-3  -1.080447668209672E-2  
 2.602000000000000E10   -1.287238221266307E-2  -5.856694449903444E-3  
 2.604000000000000E10   -4.248876939527690E-3   1.422276714583859E-2  
 2.606000000000000E10    1.324155100155622E-2   3.772725161979906E-3  
 2.608000000000000E10    2.485154509486165E-3  -1.249561921576969E-2  
 2.610000000000000E10   -1.274040201678872E-2  -1.719898031296907E-3  
 2.612000000000000E10   -6.106478285801131E-4   1.330154997413047E-2  
 2.614000000000000E10    1.255450729513541E-2  -3.823864844889613E-4  
 2.616000000000000E10   -1.626126391784055E-3  -1.212369312997907E-2  
 2.618000000000000E10   -1.141633922816254E-2   3.745226866158191E-3  
 2.620000000000000E10    5.575816903728992E-3   1.112378697143868E-2  
 2.622000000000000E10    1.028634663089179E-2  -7.160738023230806E-3  
 2.624000000000000E10   -8.346866758074611E-3  -9.051485307281837E-3  
 2.626000000000000E10   -8.552776416763663E-3   9.356762457173318E-3  
 2.628000000000000E10    1.140539051266387E-2   7.473616860806942E-3  
 2.630000000000000E10    6.624946210649796E-3  -1.211198326200247E-2  
 2.632000000000000E10   -1.210688377614133E-2  -4.995737021090463E-3  
 2.634000000000000E10   -3.289116975793149E-3   1.255838817451149E-2  
 2.636000000000000E10    1.257613408961333E-2   1.956149015313713E-3  
 2.638000000000000E10    3.540494608387235E-4  -1.210827709292062E-2  
 2.640000000000000E10   -1.156694855308160E-2   8.876655683707213E-4  
 2.642000000000000E10    2.649588408530690E-3   1.116695720702410E-2  
 2.644000000000000E10    1.055813778657466E-2  -4.302076500607655E-3  
 2.646000000000000E10   -5.533044328331016E-3  -1.075348648009822E-2  
 2.648000000000000E10   -1.014235743787140E-2   7.083111835527234E-3  
 2.650000000000000E10    8.597216190537438E-3   9.507122478680685E-3  
 2.652000000000000E10    8.887061092536897E-3  -9.950887149898335E-3  
 2.654000000000000E10   -1.061344420304522E-2  -7.579662167700008E-3  
 2.656000000000000E10   -6.080511724576354E-3   1.125953812152147E-2  
 2.658000000000000E10    1.095064994296990E-2   4.394530522404239E-3  
 2.660000000000000E10    2.746264777670149E-3  -1.118084377958439E-2  
 2.662000000000000E10   -1.124682975932956E-2  -1.380515830533113E-3  
 2.664000000000000E10    3.424776123210904E-4   1.052635611267760E-2  
 2.666000000000000E10    1.067905800300650E-2  -2.411564608337358E-3  
 2.668000000000000E10   -3.847369633149356E-3  -1.016188270295970E-2  
 2.670000000000000E10   -9.292230330174789E-3   4.844871087698266E-3  
 2.672000000000000E10    6.304524446022697E-3   9.223901608493179E-3  
 2.674000000000000E10    9.064552315976471E-3  -6.470120395533741E-3  
 2.676000000000000E10   -7.534898250014521E-3  -8.595314138801768E-3  
 2.678000000000000E10   -7.774778001476079E-3   8.058346429606900E-3  
 2.680000000000000E10    7.921087177237496E-3   6.894398087752052E-3  
 2.682000000000000E10    5.979624824249186E-3  -8.732604765100405E-3  
 2.684000000000000E10   -9.533614298561588E-3  -4.682807964854874E-3  
 2.686000000000000E10   -3.020962860318832E-3   9.029879904119298E-3  
 2.688000000000000E10    9.617656440241262E-3   1.552858353534248E-3  
 2.690000000000000E10    1.108077709659483E-4  -9.967879537725821E-3  
 2.692000000000000E10   -1.016565965255722E-2   1.466710833483376E-3  
 2.694000000000000E10    3.315641049994156E-3   9.844760003034025E-3  
 2.696000000000000E10    9.440747671760619E-3  -3.931914470740594E-3  
 2.698000000000000E10   -5.143922680872493E-3  -9.270440932596102E-3  
 2.700000000000000E10   -8.802098105661571E-3   5.977659617201425E-3  
 2.702000000000000E10    5.987958051264286E-3   8.433669398073107E-3  
 2.704000000000000E10    7.227245339890942E-3  -6.645913192187436E-3  
 2.706000000000000E10   -7.055408714222722E-3  -5.715735285775736E-3  
 2.708000000000000E10   -5.121235255501233E-3   7.188060539192520E-3  
 2.710000000000000E10    7.962055096868426E-3   3.670841178973205E-3  
 2.712000000000000E10    2.501423747162335E-3  -7.779410836519674E-3  
 2.714000000000000E10   -7.936247391626239E-3  -1.097620383006870E-3  
 2.716000000000000E10   -2.172930442156940E-4   8.329694799613208E-3  
 2.718000000000000E10    9.194038604618982E-3  -2.678231967365718E-4  
 2.720000000000000E10   -1.479255817685043E-3  -8.944717148551717E-3  
 2.722000000000000E10   -8.730261179152876E-3   2.103783604979981E-3  
 2.724000000000000E10    3.134183527436107E-3   9.228155948221684E-3  
 2.726000000000000E10    8.368152048205957E-3  -3.987350544775836E-3  
 2.728000000000000E10   -4.454692854778841E-3  -7.717056651017629E-3  
 2.730000000000000E10   -6.371168463374488E-3   4.411523754242808E-3  
 2.732000000000000E10    4.940473620081320E-3   5.412043537944555E-3  
 2.734000000000000E10    5.302358127664775E-3  -5.811286027892493E-3  
 2.736000000000000E10   -6.239891576115042E-3  -4.048876668093726E-3  
 2.738000000000000E10   -2.641148596012499E-3   6.808606267441064E-3  
 2.740000000000000E10    7.399942711344920E-3   1.747822476318106E-3  
 2.742000000000000E10    9.322337446064921E-4  -7.700859918259084E-3  
 2.744000000000000E10   -8.031593170017004E-3  -4.131715650146361E-4  
 2.746000000000000E10    1.604914488098075E-4   7.729226737865247E-3  
 2.748000000000000E10    7.776538506732322E-3  -1.496146371209761E-3  
 2.750000000000000E10   -1.695954666502075E-3  -7.832516217604280E-3  
 2.752000000000000E10   -7.204014807939529E-3   1.974288112251088E-3  
 2.754000000000000E10    3.750655021576677E-3   6.266741824219935E-3  
 2.756000000000000E10    5.442040099296719E-3  -4.508220357820392E-3  
