#  HZ   S   RI   R     50.00 
! Rohde & Schwarz ZVA40 4Ports - Version 3.90 - 1145.1110k42 SN: 100403
! Date: 2023-10-04 06:12:09
! Measurement: S12 
! 
 2.200000000000000E10   -7.312431407626718E-3  -9.836013370659202E-3  
 2.202000000000000E10   -9.029356297105551E-3   9.075492736883462E-3  
 2.204000000000000E10    1.019012092729099E-2   8.883664151653647E-3  
 2.206000000000000E10    6.435691160731949E-3  -9.630184853449464E-3  
 2.208000000000000E10   -1.059668060042895E-2  -5.425619005109184E-3  
 2.210000000000000E10   -4.243603369104676E-3   1.112260977970436E-2  
 2.212000000000000E10    1.149927946971729E-2   3.664976095024031E-3  
 2.214000000000000E10    3.108713783149142E-3  -1.203183011966758E-2  
 2.216000000000000E10   -1.160623083706014E-2  -1.009622736091842E-3  
 2.218000000000000E10    1.313401840889128E-3   1.258969979244284E-2  
 2.220000000000000E10    1.318254033685662E-2  -2.941127946542110E-3  
 2.222000000000000E10   -4.479988579987548E-3  -1.233068638248369E-2  
 2.224000000000000E10   -1.146757591050118E-2   6.891930766869336E-3  
 2.226000000000000E10    8.654337347252294E-3   1.063818941474892E-2  
 2.228000000000000E10    1.000543776899576E-2  -9.726742398925126E-3  
 2.230000000000000E10   -9.862863633316010E-3  -1.016511433408596E-2  
 2.232000000000000E10   -9.182470821542665E-3   1.008898598956876E-2  
 2.234000000000000E10    1.203761115903035E-2   7.424124996759929E-3  
 2.236000000000000E10    6.999314733548090E-3  -1.290627289563417E-2  
 2.238000000000000E10   -1.271282770903781E-2  -6.589451295440085E-3  
 2.240000000000000E10   -4.153454996412620E-3   1.365590310888365E-2  
 2.242000000000000E10    1.330921481712721E-2   1.008704593914445E-3  
 2.244000000000000E10   -9.059436288225697E-4  -1.346291613299400E-2  
 2.246000000000000E10   -1.340654116938822E-2   2.130257991666440E-3  
 2.248000000000000E10    3.720761604199652E-3   1.245978634688072E-2  
 2.250000000000000E10    1.289491489296779E-2  -6.377728030201979E-3  
 2.252000000000000E10   -8.910902222851291E-3  -1.301124441670254E-2  
 2.254000000000000E10   -1.275732586509548E-2   1.002262599649839E-2  
 2.256000000000000E10    1.208758677239530E-2   1.111148446216248E-2  
 2.258000000000000E10    9.155005915090442E-3  -1.321160988300107E-2  
 2.260000000000000E10   -1.333366267499514E-2  -8.210350439185277E-3  
 2.262000000000000E10   -6.524995056679472E-3   1.344048397731967E-2  
 2.264000000000000E10    1.260341788292863E-2   6.051230622688308E-3  
 2.266000000000000E10    4.652766147046350E-3  -1.343965396517888E-2  
 2.268000000000000E10   -1.469725882634521E-2  -2.962032245704904E-3  
 2.270000000000000E10   -1.618253518245183E-3   1.528017816599459E-2  
 2.272000000000000E10    1.602594117866829E-2  -3.699471453728620E-4  
 2.274000000000000E10   -3.716481340234168E-3  -1.567701538442634E-2  
 2.276000000000000E10   -1.468850224046037E-2   6.225993478437886E-3  
 2.278000000000000E10    7.546982538769953E-3   1.384029144537635E-2  
 2.280000000000000E10    1.273648563073948E-2  -8.111321134492755E-3  
 2.282000000000000E10   -5.734623155149166E-4  -1.430408968008123E-2  
 2.284000000000000E10   -1.039763115113601E-2   1.087713614106178E-2  
 2.286000000000000E10    1.211551536107436E-2   9.459516033530235E-3  
 2.288000000000000E10    8.116827462799847E-3  -1.352828388917260E-2  
 2.290000000000000E10   -1.412739456281997E-2  -5.402767055784352E-3  
 2.292000000000000E10   -3.225360502256081E-3   1.497421471867710E-2  
 2.294000000000000E10    1.536248391494155E-2   1.128800173319178E-3  
 2.296000000000000E10   -4.797906785825035E-4  -1.523617948987521E-2  
 2.298000000000000E10   -1.553264554240741E-2   8.231512674683472E-4  
 2.300000000000000E10    3.376029140781611E-3   1.639587432146072E-2  
 2.302000000000000E10    1.740560983307660E-2  -4.805690739885904E-3  
 2.304000000000000E10   -6.443537029554136E-3  -1.631248492049053E-2  
 2.306000000000000E10   -1.458913448732346E-2   8.599304215749726E-3  
 2.308000000000000E10    9.955473913578317E-3   1.330539840273559E-2  
 2.310000000000000E10    1.134909616666846E-2  -1.152497448492795E-2  
 2.312000000000000E10   -1.257457782048732E-2  -8.571735263103619E-3  
 2.314000000000000E10   -7.452149555319920E-3   1.234578533330932E-2  
 2.316000000000000E10    1.295678276801482E-2   4.572426551021636E-3  
 2.318000000000000E10    2.753214037511498E-3  -1.493562405812554E-2  
 2.320000000000000E10   -1.584021223243326E-2  -1.957699914783007E-3  
 2.322000000000000E10    2.477490988894715E-4   1.631029066629708E-2  
 2.324000000000000E10    1.720766373910010E-2  -2.412398280284833E-3  
 2.326000000000000E10   -4.789287660969421E-3  -1.682267332216725E-2  
 2.328000000000000E10   -1.627395756077021E-2   6.823438903666101E-3  
 2.330000000000000E10    7.453769227140583E-3   1.572959870100021E-2  
 2.332000000000000E10    1.353761143400334E-2  -8.092670206679031E-3  
 2.334000000000000E10   -9.854089032160118E-3  -1.353245985228568E-2  
 2.336000000000000E10   -1.237654607393779E-2   1.238498723250814E-2  
 2.338000000000000E10    1.423815151792951E-2   9.318745869677514E-3  
 2.340000000000000E10    7.030994238448329E-3  -1.598966721212491E-2  
 2.342000000000000E10   -1.660436874954030E-2  -4.436843315488659E-3  
 2.344000000000000E10   -1.654027346376097E-3   1.750404108315706E-2  
 2.346000000000000E10    1.702653540996835E-2  -3.973514003519085E-4  
 2.348000000000000E10   -1.637971272430150E-3  -1.574752089800313E-2  
 2.350000000000000E10   -1.653766649542376E-2   3.482302272459492E-3  
 2.352000000000000E10    4.845055198529735E-3   1.628346380311996E-2  
 2.354000000000000E10    1.563143031671643E-2  -6.081801257096231E-3  
 2.356000000000000E10   -8.066496695391834E-3  -1.471229991875589E-2  
 2.358000000000000E10   -1.302926708012819E-2   1.023711438756436E-2  
 2.360000000000000E10    1.217398920562118E-2   1.123099826509133E-2  
 2.362000000000000E10    1.003436255268753E-2  -1.385228248545900E-2  
 2.364000000000000E10   -1.502760936273262E-2  -6.731808651238680E-3  
 2.366000000000000E10   -4.642083600629121E-3   1.638006034772843E-2  
 2.368000000000000E10    1.686798955779523E-2   2.886411981307901E-3  
 2.370000000000000E10    1.407897128956392E-3  -1.750609197188169E-2  
 2.372000000000000E10   -1.822692737914622E-2  -1.821058322093450E-5  
 2.374000000000000E10    2.094192932418082E-3   1.833067031111568E-2  
 2.376000000000000E10    1.779748988337815E-2  -4.419072414748371E-3  
 2.378000000000000E10   -5.811479786643758E-3  -1.641837810166180E-2  
 2.380000000000000E10   -1.442750863498077E-2   7.395688648102805E-3  
 2.382000000000000E10    9.603951650206000E-3   1.278029277455062E-2  
 2.384000000000000E10    1.207760465331376E-2  -1.078167639207095E-2  
 2.386000000000000E10   -1.256970269605517E-2  -1.006750611122698E-2  
 2.388000000000000E10   -8.575287822168320E-3   1.427495636744425E-2  
 2.390000000000000E10    1.625060173682869E-2   6.420011894078925E-3  
 2.392000000000000E10    4.260078421793878E-3  -1.758391642943025E-2  
 2.394000000000000E10   -1.873472239822149E-2  -2.594534962554462E-3  
 2.396000000000000E10   -5.359006365779351E-5   1.914147159550339E-2  
 2.398000000000000E10    1.816731318831444E-2  -2.246127347461879E-3  
 2.400000000000000E10   -4.346136964159086E-3  -1.746962615288794E-2  
 2.402000000000000E10   -1.516331057064235E-2   8.286732889246196E-3  
 2.404000000000000E10    9.039834723807871E-3   1.354455063119531E-2  
 2.406000000000000E10    1.220848551020026E-2  -1.046312705148011E-2  
 2.408000000000000E10   -1.208401093026623E-2  -1.034120883559808E-2  
 2.410000000000000E10   -8.589005505200476E-3   1.326004590373486E-2  
 2.412000000000000E10    1.420621149009094E-2   6.740804004948586E-3  
 2.414000000000000E10    5.448203388368711E-3  -1.509344676742330E-2  
 2.416000000000000E10   -1.597111381124705E-2  -4.306947230361402E-3  
 2.418000000000000E10   -2.538885077228770E-3   1.638311229180545E-2  
 2.420000000000000E10    1.613660389557481E-2   1.207814668305218E-3  
 2.422000000000000E10    4.005448022326164E-5  -1.676145556848496E-2  
 2.424000000000000E10   -1.709249219857156E-2   1.220352758537047E-3  
 2.426000000000000E10    3.538019955158234E-3   1.628315460402519E-2  
 2.428000000000000E10    1.458587584784254E-2  -5.965703778201714E-3  
 2.430000000000000E10   -8.225106110330671E-3  -1.373553380835801E-2  
 2.432000000000000E10   -1.222194451838732E-2   1.042813214007765E-2  
 2.434000000000000E10    1.180955866584554E-2   1.015128387371078E-2  
 2.436000000000000E10    8.389282971620560E-3  -1.300951244775206E-2  
 2.438000000000000E10   -1.392571470933035E-2  -7.024849910521880E-3  
 2.440000000000000E10   -6.124479055870324E-3   1.452432031510398E-2  
 2.442000000000000E10    1.523640466621146E-2   5.290379689540714E-3  
 2.444000000000000E10    3.704884104081430E-3  -1.539239432895556E-2  
 2.446000000000000E10   -1.533640793059021E-2  -2.697071031434462E-3  
 2.448000000000000E10   -1.286917016841471E-3   1.484547578729689E-2  
 2.450000000000000E10    1.481355383293703E-2  -6.740992066625040E-4  
 2.452000000000000E10   -2.713989684707485E-3  -1.407308725174516E-2  
 2.454000000000000E10   -1.299068890511990E-2   4.254828527336940E-3  
 2.456000000000000E10    5.944287433521822E-3   1.274059881689027E-2  
 2.458000000000000E10    1.179120113374665E-2  -8.096638775896281E-3  
 2.460000000000000E10   -1.034047239227220E-2  -1.063984667416662E-2  
 2.462000000000000E10   -9.429254336282611E-3   1.143368991324678E-2  
 2.464000000000000E10    1.215039833914489E-2   8.130889793392271E-3  
 2.466000000000000E10    7.458698877599090E-3  -1.300228340551257E-2  
 2.468000000000000E10   -1.348031242378056E-2  -6.891132681630552E-3  
 2.470000000000000E10   -4.942152183502913E-3   1.351760514080524E-2  
 2.472000000000000E10    1.269886066438630E-2   3.191944691934623E-3  
 2.474000000000000E10    2.554659615270793E-3  -1.301616884302348E-2  
 2.476000000000000E10   -1.311991864349693E-2  -1.601583207957447E-3  
 2.478000000000000E10    9.611017267161515E-4   1.344925630837679E-2  
 2.480000000000000E10    1.363887183833867E-2  -3.005336169735529E-3  
 2.482000000000000E10   -5.355431319912896E-3  -1.297231321223080E-2  
 2.484000000000000E10   -1.270336890593171E-2   7.676585169974715E-3  
 2.486000000000000E10    9.715896914713085E-3   1.128910895204172E-2  
 2.488000000000000E10    9.558375750202686E-3  -1.046214165398851E-2  
 2.490000000000000E10   -1.056977809639648E-2  -9.154972678516060E-3  
 2.492000000000000E10   -8.362934109754860E-3   1.118304289411753E-2  
 2.494000000000000E10    1.170660508796573E-2   6.913618562975898E-3  
 2.496000000000000E10    5.696186999557540E-3  -1.229586714180186E-2  
 2.498000000000000E10   -1.230585196753964E-2  -3.547641579643823E-3  
 2.500000000000000E10   -2.397060685325414E-3   1.206267753150314E-2  
 2.502000000000000E10    1.235201256349683E-2   2.913765183620853E-4  
 2.504000000000000E10   -1.647764067456592E-3  -1.179001864511520E-2  
 2.506000000000000E10   -1.161263545509428E-2   2.870190262910910E-3  
 2.508000000000000E10    3.523106162901968E-3   1.171507179969922E-2  
 2.510000000000000E10    1.221531536430121E-2  -5.340490955859423E-3  
 2.512000000000000E10   -6.829602905781940E-3  -1.263312972150743E-2  
 2.514000000000000E10   -1.136835158104077E-2   7.961763651110232E-3  
 2.516000000000000E10    9.669475664850324E-3   1.034871756564826E-2  
 2.518000000000000E10    8.737838128581643E-3  -1.026244368404150E-2  
 2.520000000000000E10   -1.045485265785828E-2  -7.065004465403035E-3  
 2.522000000000000E10   -5.560006218729541E-3   1.046177837997675E-2  
 2.524000000000000E10    1.050489587942138E-2   3.945370001019910E-3  
 2.526000000000000E10    2.780452341539785E-3  -1.094223617110401E-2  
 2.528000000000000E10   -1.144697674317285E-2  -1.468239788664505E-3  
 2.530000000000000E10    1.149659443058226E-4   1.141428592381999E-2  
 2.532000000000000E10    1.249917491804808E-2  -1.632641833566595E-3  
 2.534000000000000E10   -2.855506099876948E-3  -1.288578845560551E-2  
 2.536000000000000E10   -1.148357847705483E-2   4.495680739637464E-3  
 2.538000000000000E10    5.518912832485512E-3   1.143906411016360E-2  
 2.540000000000000E10    1.115158811444417E-2  -6.053086777683348E-3  
 2.542000000000000E10   -7.586546911625192E-3  -1.020001893630251E-2  
 2.544000000000000E10   -9.125962969847024E-3   8.663533488288522E-3  
 2.546000000000000E10    9.020390221849084E-3   7.471717195585370E-3  
 2.548000000000000E10    5.414623446995392E-3  -1.058965362608433E-2  
 2.550000000000000E10   -1.118024333845824E-2  -3.977804793976247E-3  
 2.552000000000000E10   -1.775899923813995E-3   1.147990190656856E-2  
 2.554000000000000E10    1.166620629373938E-2   6.127041706349701E-5  
 2.556000000000000E10   -4.490677583817160E-4  -1.165629574097693E-2  
 2.558000000000000E10   -1.166889717569575E-2   2.070061098493170E-3  
 2.560000000000000E10    2.872355820727535E-3   1.195394358364865E-2  
 2.562000000000000E10    1.186352164950222E-2  -3.072709063417278E-3  
 2.564000000000000E10   -4.201514297164977E-3  -1.168086443794891E-2  
 2.566000000000000E10   -1.155688182916492E-2   6.131574133178219E-3  
 2.568000000000000E10    7.851241680327803E-3   1.020745787536725E-2  
 2.570000000000000E10    8.309098717290908E-3  -9.087933751288801E-3  
 2.572000000000000E10   -9.197992447298020E-3  -6.213891785591841E-3  
 2.574000000000000E10   -4.470636689802632E-3   1.074927696026862E-2  
 2.576000000000000E10    1.209774171002209E-2   3.220169353880920E-3  
 2.578000000000000E10    1.433497869584244E-3  -1.178546820301563E-2  
 2.580000000000000E10   -1.169473392656073E-2   9.442223381483927E-5  
 2.582000000000000E10    9.643953453633003E-4   1.268573832930997E-2  
 2.584000000000000E10    1.224695419659838E-2  -2.644872394739650E-3  
 2.586000000000000E10   -3.182534084771760E-3  -1.210271631134674E-2  
 2.588000000000000E10   -1.145032671047375E-2   3.840255783870816E-3  
 2.590000000000000E10    4.890042386250570E-3   1.019705203361809E-2  
 2.592000000000000E10    1.021324098110199E-2  -5.816667602630332E-3  
 2.594000000000000E10   -7.024952181382105E-3  -9.928248648066074E-3  
 2.596000000000000E10   -8.610143617261201E-3   8.659136539790779E-3  
 2.598000000000000E10    9.776522056199610E-3   7.332886278163642E-3  
 2.600000000000000E10    5.631184729281813E-3  -1.150432898430154E-2  
 2.602000000000000E10   -1.297369762323797E-2  -3.858467171085067E-3  
 2.604000000000000E10   -1.905511999211740E-3   1.299115398433060E-2  
 2.606000000000000E10    1.191746001131833E-2   1.045062723278534E-3  
 2.608000000000000E10    2.651400773174828E-4  -1.222712581511587E-2  
 2.610000000000000E10   -1.189089787658304E-2   6.126942898845300E-4  
 2.612000000000000E10    1.001338772766758E-3   1.143460354069248E-2  
 2.614000000000000E10    1.087482727598399E-2  -2.180375508032739E-3  
 2.616000000000000E10   -3.606248312280513E-3  -1.042622409295291E-2  
 2.618000000000000E10   -1.052956830244511E-2   4.938310972647741E-3  
 2.620000000000000E10    6.684611726086587E-3   9.128396341111511E-3  
 2.622000000000000E10    7.549537025624886E-3  -7.838739722501487E-3  
 2.624000000000000E10   -8.956173900514841E-3  -7.344242272665724E-3  
 2.626000000000000E10   -6.344495894154534E-3   1.052513200556859E-2  
 2.628000000000000E10    1.136031496571377E-2   5.717047344660386E-3  
 2.630000000000000E10    4.232691833749414E-3  -1.168424467323348E-2  
 2.632000000000000E10   -1.202219515107572E-2  -2.853985788533464E-3  
 2.634000000000000E10   -1.539806275104638E-3   1.212227839278057E-2  
 2.636000000000000E10    1.126448286231607E-2   6.235773162188707E-4  
 2.638000000000000E10   -6.273826365941204E-4  -1.082666707225144E-2  
 2.640000000000000E10   -1.022851967718452E-2   2.279770284076221E-3  
 2.642000000000000E10    3.489857990643941E-3   9.049418033100665E-3  
 2.644000000000000E10    8.910288917832077E-3  -4.456338734598830E-3  
 2.646000000000000E10   -6.023086549248546E-3  -8.396131568588316E-3  
 2.648000000000000E10   -7.578393851872534E-3   7.807856280123815E-3  
 2.650000000000000E10    9.048698993865401E-3   7.407008117297664E-3  
 2.652000000000000E10    6.689550442388281E-3  -9.925754799041897E-3  
 2.654000000000000E10   -1.118484867038205E-2  -5.222714389674366E-3  
 2.656000000000000E10   -3.787352863582782E-3   1.116455707233399E-2  
 2.658000000000000E10    1.094934291904792E-2   2.408954518614337E-3  
 2.660000000000000E10    1.502964732935652E-3  -1.106123410863802E-2  
 2.662000000000000E10   -1.024849049281329E-2   1.098377751986845E-4  
 2.664000000000000E10    1.822195365093648E-3   9.494376718066633E-3  
 2.666000000000000E10    9.478269552346319E-3  -2.721044715144672E-3  
 2.668000000000000E10   -4.173608293058351E-3  -8.606941322796047E-3  
 2.670000000000000E10   -7.716294581769034E-3   5.812705145217478E-3  
 2.672000000000000E10    6.045968359103426E-3   7.392249535769224E-3  
 2.674000000000000E10    6.902122724568471E-3  -7.081053772708401E-3  
 2.676000000000000E10   -8.114847063552588E-3  -6.219441012945026E-3  
 2.678000000000000E10   -5.547853768803179E-3   8.104235981591046E-3  
 2.680000000000000E10    8.304826333187521E-3   4.734260583063588E-3  
 2.682000000000000E10    3.997734631411731E-3  -8.586269628722221E-3  
 2.684000000000000E10   -8.840722730383277E-3  -2.850648350431584E-3  
 2.686000000000000E10   -1.503927538578864E-3   8.431772002950311E-3  
 2.688000000000000E10    8.717229706235230E-3   5.076324068795657E-4  
 2.690000000000000E10   -1.359831781883258E-3  -8.246944227721542E-3  
 2.692000000000000E10   -8.241472358349711E-3   2.354727097554132E-3  
 2.694000000000000E10    3.861719786073081E-3   8.314035192597657E-3  
 2.696000000000000E10    7.450718316249549E-3  -5.318469949997962E-3  
 2.698000000000000E10   -5.677873414242640E-3  -7.187275507021695E-3  
 2.700000000000000E10   -6.887863419251517E-3   6.129113258793950E-3  
 2.702000000000000E10    6.378114339895546E-3   6.290739111136645E-3  
 2.704000000000000E10    5.329138250090182E-3  -7.236043777083978E-3  
 2.706000000000000E10   -6.878238054923713E-3  -4.632230702554807E-3  
 2.708000000000000E10   -4.112660128157586E-3   6.738916097674519E-3  
 2.710000000000000E10    7.449894852470607E-3   2.886479094740935E-3  
 2.712000000000000E10    1.772809649992269E-3  -7.132834405638278E-3  
 2.714000000000000E10   -7.168377022026107E-3  -5.415395680756774E-4  
 2.716000000000000E10    7.374625274678692E-4   7.794983801431954E-3  
 2.718000000000000E10    7.058610528474674E-3  -1.495956501457840E-3  
 2.720000000000000E10   -2.872592813218944E-3  -7.476079714251682E-3  
 2.722000000000000E10   -7.530186383519322E-3   3.761897372896783E-3  
 2.724000000000000E10    4.028165072668344E-3   7.510490075219423E-3  
 2.726000000000000E10    6.866348296171054E-3  -4.762810305692256E-3  
 2.728000000000000E10   -4.770441155415028E-3  -5.829213565448299E-3  
 2.730000000000000E10   -5.107364850118756E-3   4.918842809274793E-3  
 2.732000000000000E10    5.129511904669926E-3   4.519313370110467E-3  
 2.734000000000000E10    3.964257251936942E-3  -5.193401215365157E-3  
 2.736000000000000E10   -5.870629713172093E-3  -2.407075226074085E-3  
 2.738000000000000E10   -1.838973112171516E-3   6.455036142142490E-3  
 2.740000000000000E10    6.451601861044765E-3   4.672663253586507E-4  
 2.742000000000000E10   -9.215472564392258E-4  -6.616666243644431E-3  
 2.744000000000000E10   -6.346125213894993E-3   1.033237182127778E-3  
 2.746000000000000E10    2.205681550549343E-3   6.589684984646738E-3  
 2.748000000000000E10    6.671653914963827E-3  -2.630589413456619E-3  
 2.750000000000000E10   -2.145565405953676E-3  -6.182227458339185E-3  
 2.752000000000000E10   -5.813673516968265E-3   3.121010624454357E-3  
 2.754000000000000E10    3.862397541524842E-3   5.414430488599464E-3  
 2.756000000000000E10    4.448872292414308E-3  -3.563096950529143E-3  
