#  HZ   S   RI   R     50.00 
! Rohde & Schwarz ZVA40 4Ports - Version 3.90 - 1145.1110k42 SN: 100403
! Date: 2023-10-04 06:13:07
! Measurement: S12 
! 
 2.200000000000000E10   -8.661441388539970E-3  -8.659749408252537E-3  
 2.202000000000000E10   -8.060167310759425E-3   9.406665863934904E-3  
 2.204000000000000E10    9.990953491069377E-3   6.208566162968054E-3  
 2.206000000000000E10    4.737408948130906E-3  -1.173320261295885E-2  
 2.208000000000000E10   -1.222308765864000E-2  -4.770688916323707E-3  
 2.210000000000000E10   -3.717297513503581E-3   1.241069613024592E-2  
 2.212000000000000E10    1.292700157500804E-2   2.733383182203397E-3  
 2.214000000000000E10    2.203297481173649E-3  -1.267421653028578E-2  
 2.216000000000000E10   -1.363530929666013E-2   2.522186196074472E-4  
 2.218000000000000E10    6.783939097658731E-4   1.420784188667312E-2  
 2.220000000000000E10    1.286329067079350E-2  -1.969020086107776E-3  
 2.222000000000000E10   -4.645023407647386E-3  -1.192286569857970E-2  
 2.224000000000000E10   -1.185047504259273E-2   6.784794793929905E-3  
 2.226000000000000E10    8.456739946268499E-3   9.969005011953414E-3  
 2.228000000000000E10    9.012216061819345E-3  -8.291820180602372E-3  
 2.230000000000000E10   -9.072013548575342E-3  -8.326569572091103E-3  
 2.232000000000000E10   -6.885117152705789E-3   1.114898623200133E-2  
 2.234000000000000E10    1.223362336168066E-2   6.751838198397309E-3  
 2.236000000000000E10    5.694807798136026E-3  -1.192410296062008E-2  
 2.238000000000000E10   -1.277416414814070E-2  -3.815953648881987E-3  
 2.240000000000000E10   -1.714019294013269E-3   1.455735188210383E-2  
 2.242000000000000E10    1.431463775224984E-2  -7.241162384161726E-4  
 2.244000000000000E10   -1.870697407866828E-3  -1.352034555748105E-2  
 2.246000000000000E10   -1.315784448524937E-2   3.083924646489322E-3  
 2.248000000000000E10    5.155376507900655E-3   1.277344924164936E-2  
 2.250000000000000E10    1.424925442552194E-2  -7.087342528393492E-3  
 2.252000000000000E10   -8.664609747938812E-3  -1.325847447151318E-2  
 2.254000000000000E10   -1.224589854246005E-2   1.031888608122245E-2  
 2.256000000000000E10    1.241137069882825E-2   1.129682274768129E-2  
 2.258000000000000E10    8.656959806103259E-3  -1.316840050276369E-2  
 2.260000000000000E10   -1.243900449480861E-2  -7.927009282866493E-3  
 2.262000000000000E10   -5.782311171060428E-3   1.213660603389144E-2  
 2.264000000000000E10    1.159908063709736E-2   4.575966566335410E-3  
 2.266000000000000E10    2.884923014789820E-3  -1.333141495706514E-2  
 2.268000000000000E10   -1.379464648198336E-2  -1.696504856226966E-3  
 2.270000000000000E10    4.672904615290463E-4   1.442315411986783E-2  
 2.272000000000000E10    1.491595810512081E-2  -3.612700311350636E-3  
 2.274000000000000E10   -6.389208108885214E-3  -1.549729215912521E-2  
 2.276000000000000E10   -1.442913606297225E-2   8.235275570768863E-3  
 2.278000000000000E10    9.402096795383841E-3   1.332737790653482E-2  
 2.280000000000000E10    1.162252627545968E-2  -1.048793079098687E-2  
 2.282000000000000E10   -2.618606711621396E-3  -1.540643617045134E-2  
 2.284000000000000E10   -1.154264353681356E-2   1.250376342795789E-2  
 2.286000000000000E10    1.265344873536378E-2   9.161604219116271E-3  
 2.288000000000000E10    7.119121350115165E-3  -1.428086834494025E-2  
 2.290000000000000E10   -1.499773754039779E-2  -4.676323325838894E-3  
 2.292000000000000E10   -2.865486312657595E-3   1.480989687843248E-2  
 2.294000000000000E10    1.466951204929501E-2   4.423235031936201E-4  
 2.296000000000000E10   -1.239802673808299E-3  -1.427595119457692E-2  
 2.298000000000000E10   -1.438106095883995E-2   2.608256050734781E-3  
 2.300000000000000E10    4.725631064502522E-3   1.600673701614142E-2  
 2.302000000000000E10    1.553868007613346E-2  -6.125870044343174E-3  
 2.304000000000000E10   -8.508553786668927E-3  -1.444892730796710E-2  
 2.306000000000000E10   -1.351964072091505E-2   1.121797040104866E-2  
 2.308000000000000E10    1.211313606472686E-2   1.110640389379114E-2  
 2.310000000000000E10    9.216972917784005E-3  -1.310820027720183E-2  
 2.312000000000000E10   -1.388569868868217E-2  -7.506539754103869E-3  
 2.314000000000000E10   -4.622114414814860E-3   1.363310310989618E-2  
 2.316000000000000E10    1.517376163974404E-2   3.078987778280862E-3  
 2.318000000000000E10    1.834024740674067E-3  -1.572316803503782E-2  
 2.320000000000000E10   -1.583953422959894E-2  -6.325123013084522E-5  
 2.322000000000000E10    2.279779000673443E-3   1.667765318416059E-2  
 2.324000000000000E10    1.682492671534419E-2  -3.783804917475209E-3  
 2.326000000000000E10   -5.945552198681980E-3  -1.649413211271167E-2  
 2.328000000000000E10   -1.525394053896889E-2   7.563169347122312E-3  
 2.330000000000000E10    8.381134364753962E-3   1.359593018423766E-2  
 2.332000000000000E10    1.215252518886700E-2  -1.006452518049628E-2  
 2.334000000000000E10   -1.079093664884567E-2  -1.207434240495786E-2  
 2.336000000000000E10   -9.654430090449750E-3   1.215627952478826E-2  
 2.338000000000000E10    1.460019516525790E-2   7.109299913281575E-3  
 2.340000000000000E10    4.888129449682310E-3  -1.513752463506535E-2  
 2.342000000000000E10   -1.665813836734742E-2  -2.377424782025628E-3  
 2.344000000000000E10    1.186251397484739E-4   1.684731978457421E-2  
 2.346000000000000E10    1.615783164743334E-2  -2.136572642484680E-3  
 2.348000000000000E10   -4.464408033527434E-3  -1.570993603672832E-2  
 2.350000000000000E10   -1.619889447465539E-2   5.257925222394988E-3  
 2.352000000000000E10    6.723688886268064E-3   1.572361646685749E-2  
 2.354000000000000E10    1.442402723478153E-2  -8.013120444957167E-3  
 2.356000000000000E10   -9.485644812230021E-3  -1.376338425325230E-2  
 2.358000000000000E10   -1.212143478915095E-2   1.108689937973395E-2  
 2.360000000000000E10    1.215359044726938E-2   1.074716454604641E-2  
 2.362000000000000E10    8.303974173031747E-3  -1.392245583701879E-2  
 2.364000000000000E10   -1.539734913967550E-2  -5.770597665105015E-3  
 2.366000000000000E10   -3.930325998226181E-3   1.587533100973815E-2  
 2.368000000000000E10    1.615564513485879E-2   1.843183730670717E-3  
 2.370000000000000E10   -7.209193572634831E-4  -1.684995042160153E-2  
 2.372000000000000E10   -1.713524840306491E-2   2.516256514354609E-3  
 2.374000000000000E10    4.415014758706093E-3   1.754020259249955E-2  
 2.376000000000000E10    1.656494708731771E-2  -5.631731997709721E-3  
 2.378000000000000E10   -7.801951083820313E-3  -1.433268928667530E-2  
 2.380000000000000E10   -1.328200724674389E-2   1.002782263094559E-2  
 2.382000000000000E10    1.105515647213906E-2   1.199690549401566E-2  
 2.384000000000000E10    1.017216598847881E-2  -1.147239853162319E-2  
 2.386000000000000E10   -1.281345367897302E-2  -8.992433606181294E-3  
 2.388000000000000E10   -6.730702647473663E-3   1.457319030305371E-2  
 2.390000000000000E10    1.640330965165049E-2   4.700763471191749E-3  
 2.392000000000000E10    3.217274570488371E-3  -1.752014900557697E-2  
 2.394000000000000E10   -1.757400832138956E-2  -2.874479141610209E-4  
 2.396000000000000E10    1.559404146973975E-3   1.864197698887438E-2  
 2.398000000000000E10    1.768300880212337E-2  -3.974758394178934E-3  
 2.400000000000000E10   -5.408594210166484E-3  -1.623443665448576E-2  
 2.402000000000000E10   -1.369252975564450E-2   8.898497035261244E-3  
 2.404000000000000E10    9.836542594712228E-3   1.192333234939724E-2  
 2.406000000000000E10    1.119138841750100E-2  -1.096605224302039E-2  
 2.408000000000000E10   -1.159547962015495E-2  -9.165957511868328E-3  
 2.410000000000000E10   -6.872025725897402E-3   1.272851647809148E-2  
 2.412000000000000E10    1.396931870840490E-2   4.816222295630723E-3  
 2.414000000000000E10    3.730389653355815E-3  -1.451731449924409E-2  
 2.416000000000000E10   -1.493703573942184E-2  -2.395229501416907E-3  
 2.418000000000000E10   -3.334101029395242E-4   1.580394885968417E-2  
 2.420000000000000E10    1.565121725434437E-2  -6.956065444683190E-4  
 2.422000000000000E10   -1.429570591426455E-3  -1.669227436650544E-2  
 2.424000000000000E10   -1.633458980359137E-2   3.141107605188154E-3  
 2.426000000000000E10    5.068084516096860E-3   1.520300260744989E-2  
 2.428000000000000E10    1.462813717080280E-2  -7.223988155601546E-3  
 2.430000000000000E10   -8.800510782748461E-3  -1.291177142411470E-2  
 2.432000000000000E10   -1.077138824621216E-2   1.016261120093986E-2  
 2.434000000000000E10    1.156522094970569E-2   8.864914823789150E-3  
 2.436000000000000E10    7.455549435690045E-3  -1.251483010128140E-2  
 2.438000000000000E10   -1.292604551417753E-2  -5.404514813562855E-3  
 2.440000000000000E10   -4.366325214505196E-3   1.370326033793390E-2  
 2.442000000000000E10    1.464769412996247E-2   2.918939499068074E-3  
 2.444000000000000E10    1.342423121968750E-3  -1.488632016116753E-2  
 2.446000000000000E10   -1.500536949606612E-2  -8.540604067093227E-4  
 2.448000000000000E10    6.056353449821472E-4   1.453843037597835E-2  
 2.450000000000000E10    1.420592516660690E-2  -1.876742186141200E-3  
 2.452000000000000E10   -3.705999872181565E-3  -1.316074247006327E-2  
 2.454000000000000E10   -1.220113254385069E-2   5.369476013584063E-3  
 2.456000000000000E10    6.326566595816985E-3   1.111378293717280E-2  
 2.458000000000000E10    1.063676318153739E-2  -8.287600358016789E-3  
 2.460000000000000E10   -1.010828430298716E-2  -9.062662371434271E-3  
 2.462000000000000E10   -7.272251852555201E-3   1.095768524101004E-2  
 2.464000000000000E10    1.200538559351116E-2   6.444777012802661E-3  
 2.466000000000000E10    5.703503411496058E-3  -1.262058771681041E-2  
 2.468000000000000E10   -1.268679741770029E-2  -4.476088797673583E-3  
 2.470000000000000E10   -3.299873904325068E-3   1.287735655205324E-2  
 2.472000000000000E10    1.236733712721616E-2   2.645002183271572E-3  
 2.474000000000000E10    1.681931898929179E-3  -1.216199813643470E-2  
 2.476000000000000E10   -1.203336752951145E-2  -4.842515390919289E-4  
 2.478000000000000E10    1.395164421410300E-3   1.251477823825553E-2  
 2.480000000000000E10    1.156618178356439E-2  -3.533323557348922E-3  
 2.482000000000000E10   -5.427128518931568E-3  -1.129882736131549E-2  
 2.484000000000000E10   -1.028376951580867E-2   7.390122482320294E-3  
 2.486000000000000E10    9.638614486902952E-3   9.201844164635986E-3  
 2.488000000000000E10    7.614892092533410E-3  -1.046831556595862E-2  
 2.490000000000000E10   -1.048813672969118E-2  -6.707290303893387E-3  
 2.492000000000000E10   -6.277641223277897E-3   1.084099290892482E-2  
 2.494000000000000E10    1.152762089623138E-2   5.761640320997685E-3  
 2.496000000000000E10    4.140238685067743E-3  -1.185546652413905E-2  
 2.498000000000000E10   -1.165431452682242E-2  -2.782867377391085E-3  
 2.500000000000000E10   -2.082367122056894E-3   1.136069995118305E-2  
 2.502000000000000E10    1.121909962967038E-2   1.789953230399988E-4  
 2.504000000000000E10   -1.727621507598087E-3  -1.079759304411709E-2  
 2.506000000000000E10   -9.876340278424323E-3   2.542629255913198E-3  
 2.508000000000000E10    3.637573900050484E-3   1.025331381242722E-2  
 2.510000000000000E10    1.057346205925569E-2  -5.333032488124445E-3  
 2.512000000000000E10   -7.011075591435656E-3  -9.928930550813675E-3  
 2.514000000000000E10   -9.521228610537946E-3   9.129146754276007E-3  
 2.516000000000000E10    9.734371677041054E-3   8.600697736255825E-3  
 2.518000000000000E10    7.019035168923438E-3  -9.986622841097415E-3  
 2.520000000000000E10   -1.036337262485176E-2  -5.636777554173023E-3  
 2.522000000000000E10   -4.471836495213211E-3   1.008304505376145E-2  
 2.524000000000000E10    9.907867584843189E-3   3.243112179916352E-3  
 2.526000000000000E10    2.068175832391717E-3  -9.892777539789677E-3  
 2.528000000000000E10   -9.649570391047746E-3  -8.116747085296083E-4  
 2.530000000000000E10    7.731528785370756E-4   1.046841498464346E-2  
 2.532000000000000E10    1.098031247965992E-2  -2.257938962429762E-3  
 2.534000000000000E10   -3.894538313033991E-3  -1.014258112991229E-2  
 2.536000000000000E10   -9.977342211641371E-3   5.401073023676872E-3  
 2.538000000000000E10    5.790081660961732E-3   1.004553149687126E-2  
 2.540000000000000E10    9.224349865689874E-3  -6.996411655563861E-3  
 2.542000000000000E10   -8.070302603300661E-3  -8.848012599628419E-3  
 2.544000000000000E10   -7.856055919546634E-3   8.399915474001318E-3  
 2.546000000000000E10    9.459540422540158E-3   6.124004925368354E-3  
 2.548000000000000E10    5.070853745564818E-3  -9.486894996371120E-3  
 2.550000000000000E10   -9.790770825929940E-3  -3.177531514666043E-3  
 2.552000000000000E10   -8.570254285586998E-4   9.882939106319100E-3  
 2.554000000000000E10    9.664731100201607E-3  -2.395797346252948E-4  
 2.556000000000000E10   -1.610611267096829E-3  -9.075739711988717E-3  
 2.558000000000000E10   -1.005514623830095E-2   2.383057682891376E-3  
 2.560000000000000E10    3.164016001392156E-3   9.834351018071175E-3  
 2.562000000000000E10    9.518891456536949E-3  -4.707385029178113E-3  
 2.564000000000000E10   -5.564354098169133E-3  -9.823832428082824E-3  
 2.566000000000000E10   -9.836927871219814E-3   6.444512604502961E-3  
 2.568000000000000E10    8.078947255853564E-3   8.248382597230375E-3  
 2.570000000000000E10    6.419849960366264E-3  -8.505906327627599E-3  
 2.572000000000000E10   -8.765266451518983E-3  -4.894538549706340E-3  
 2.574000000000000E10   -4.238148918375373E-3   9.862423292361200E-3  
 2.576000000000000E10    9.449270553886890E-3   2.177139554987662E-3  
 2.578000000000000E10    2.351591765545891E-4  -9.474612248595804E-3  
 2.580000000000000E10   -1.049296237761155E-2   5.914305802434683E-4  
 2.582000000000000E10    1.534637136501260E-3   1.035444316221401E-2  
 2.584000000000000E10    1.010043389396742E-2  -2.910229071858339E-3  
 2.586000000000000E10   -3.780634579015896E-3  -1.027475867886096E-2  
 2.588000000000000E10   -9.937187889590859E-3   4.621625965228304E-3  
 2.590000000000000E10    5.344655248336494E-3   9.269778151065111E-3  
 2.592000000000000E10    8.989599125925452E-3  -5.015136994188651E-3  
 2.594000000000000E10   -6.591697921976447E-3  -8.393737371079624E-3  
 2.596000000000000E10   -7.101703609805554E-3   7.690473459661007E-3  
 2.598000000000000E10    8.759925956837833E-3   6.311958743026480E-3  
 2.600000000000000E10    3.995997685706243E-3  -9.507774258963764E-3  
 2.602000000000000E10   -9.966493991669267E-3  -2.914513665018603E-3  
 2.604000000000000E10   -7.905023230705410E-4   1.090454589575529E-2  
 2.606000000000000E10    1.037647295743227E-2  -4.888154344371287E-4  
 2.608000000000000E10   -5.357436966733076E-4  -1.041773625183851E-2  
 2.610000000000000E10   -1.055278594139963E-2   1.644087322347332E-3  
 2.612000000000000E10    2.548897566157393E-3   1.024246192537248E-2  
 2.614000000000000E10    1.012231846107170E-2  -3.062155825318769E-3  
 2.616000000000000E10   -3.404530085390434E-3  -9.890825662296265E-3  
 2.618000000000000E10   -9.416279208380729E-3   4.580473207170144E-3  
 2.620000000000000E10    5.974947765935212E-3   7.973296451382339E-3  
 2.622000000000000E10    7.007290667388588E-3  -6.451615452533588E-3  
 2.624000000000000E10   -7.825296488590539E-3  -5.921322794165462E-3  
 2.626000000000000E10   -5.015306174755096E-3   8.627466217149049E-3  
 2.628000000000000E10    9.269138157833368E-3   3.730011900188401E-3  
 2.630000000000000E10    2.358274097787216E-3  -1.092196442186832E-2  
 2.632000000000000E10   -1.086038933135569E-2  -1.215376927575562E-3  
 2.634000000000000E10   -3.564087346603628E-4   1.024107774719596E-2  
 2.636000000000000E10    1.071083615534008E-2  -6.771705848223064E-4  
 2.638000000000000E10   -1.725688343867660E-3  -1.030088600236923E-2  
 2.640000000000000E10   -9.208185947500169E-3   2.701894045458175E-3  
 2.642000000000000E10    3.372962615685538E-3   8.439841098152101E-3  
 2.644000000000000E10    7.564669911516830E-3  -3.911248466465622E-3  
 2.646000000000000E10   -5.734515259973705E-3  -6.906078284373507E-3  
 2.648000000000000E10   -6.283792899921536E-3   6.863904302008450E-3  
 2.650000000000000E10    7.305815262952820E-3   5.359413917176426E-3  
 2.652000000000000E10    4.187392391031608E-3  -8.764715574216098E-3  
 2.654000000000000E10   -9.662216412834823E-3  -3.250035122619011E-3  
 2.656000000000000E10   -1.879822084447369E-3   9.761717985384166E-3  
 2.658000000000000E10    9.891764319036156E-3   1.489968046371359E-3  
 2.660000000000000E10    8.455487513856497E-4  -9.258534177206457E-3  
 2.662000000000000E10   -9.528082504402846E-3   8.739403929212131E-4  
 2.664000000000000E10    1.638684698264115E-3   9.126508841291070E-3  
 2.666000000000000E10    8.024769776966423E-3  -1.966331888979767E-3  
 2.668000000000000E10   -3.306557817268185E-3  -7.231102703372017E-3  
 2.670000000000000E10   -6.285515963099897E-3   4.027067392598838E-3  
 2.672000000000000E10    5.065590899903327E-3   5.285202438244596E-3  
 2.674000000000000E10    5.042932840296999E-3  -5.987246986478567E-3  
 2.676000000000000E10   -6.657543272012845E-3  -4.465626028832048E-3  
 2.678000000000000E10   -3.378323541255668E-3   7.528925896622241E-3  
 2.680000000000000E10    7.799987768521532E-3   3.332919106469490E-3  
 2.682000000000000E10    3.022711156518199E-3  -8.192805398721248E-3  
 2.684000000000000E10   -8.501722419168800E-3  -1.951885336893611E-3  
 2.686000000000000E10   -1.037497986544622E-3   8.142684586346149E-3  
 2.688000000000000E10    7.775974518153817E-3   5.547191904042848E-6  
 2.690000000000000E10   -8.209767729567830E-4  -7.782574713928625E-3  
 2.692000000000000E10   -6.731915433192626E-3   1.913656058604829E-3  
 2.694000000000000E10    3.026791382580996E-3   5.778923252364621E-3  
 2.696000000000000E10    5.603012017672882E-3  -4.507927864324302E-3  
 2.698000000000000E10   -4.585804825183004E-3  -4.694910981925204E-3  
 2.700000000000000E10   -4.293061094358563E-3   5.088952631922439E-3  
 2.702000000000000E10    5.907179118366912E-3   3.849259883281775E-3  
 2.704000000000000E10    3.426333452807739E-3  -6.210891529917717E-3  
 2.706000000000000E10   -6.470848456956446E-3  -2.910895273089409E-3  
 2.708000000000000E10   -2.733308458118700E-3   6.027919298503548E-3  
 2.710000000000000E10    6.315764185274020E-3   2.353944684728049E-3  
 2.712000000000000E10    1.054885164194275E-3  -6.136905547464266E-3  
 2.714000000000000E10   -5.710270808776841E-3  -9.769344651431311E-4  
 2.716000000000000E10    1.581382707627199E-4   5.232417519437149E-3  
 2.718000000000000E10    5.250676040304825E-3  -8.589848548581358E-4  
 2.720000000000000E10   -1.980422530323267E-3  -5.486994574312121E-3  
 2.722000000000000E10   -5.054223089246079E-3   2.891162570449524E-3  
 2.724000000000000E10    3.642862109700218E-3   4.917449841741473E-3  
 2.726000000000000E10    4.639354883693159E-3  -4.363321437267587E-3  
 2.728000000000000E10   -4.887435468845069E-3  -3.951476697693579E-3  
 2.730000000000000E10   -4.287295974791050E-3   4.734581860247999E-3  
 2.732000000000000E10    4.657358600525186E-3   3.730235082912259E-3  
 2.734000000000000E10    2.880101426853798E-3  -4.807371122296900E-3  
 2.736000000000000E10   -4.943214735249057E-3  -2.988621898111887E-3  
 2.738000000000000E10   -2.289449723321013E-3   5.038409028202295E-3  
 2.740000000000000E10    5.167472001630813E-3   6.399897210940253E-4  
 2.742000000000000E10    1.730706298985751E-4  -4.949117195792496E-3  
 2.744000000000000E10   -4.650967108318582E-3   1.037016598274931E-3  
 2.746000000000000E10    1.569452411786187E-3   4.942400584695861E-3  
 2.748000000000000E10    4.769745806697756E-3  -2.141859760740772E-3  
 2.750000000000000E10   -2.874786805477925E-3  -4.278500477084890E-3  
 2.752000000000000E10   -4.995319031877443E-3   3.470488678431138E-3  
 2.754000000000000E10    3.661908325739205E-3   4.274715029168874E-3  
 2.756000000000000E10    3.715944578289054E-3  -4.099480807781220E-3  
