#  HZ   S   RI   R     50.00 
! Rohde & Schwarz ZVA40 4Ports - Version 3.90 - 1145.1110k42 SN: 100403
! Date: 2023-10-04 06:14:02
! Measurement: S12 
! 
 2.200000000000000E10   -1.018722614207945E-2  -8.108266130875563E-3  
 2.202000000000000E10   -6.167193992951070E-3   9.961232314708468E-3  
 2.204000000000000E10    1.206382989585109E-2   4.755115865918924E-3  
 2.206000000000000E10    4.348739299530280E-3  -1.262747927376040E-2  
 2.208000000000000E10   -1.145079358957446E-2  -3.120077485618822E-3  
 2.210000000000000E10   -1.710562551352268E-3   1.214271244134579E-2  
 2.212000000000000E10    1.164993809743464E-2   1.145718239968119E-3  
 2.214000000000000E10   -1.736108215837362E-4  -1.161897718702676E-2  
 2.216000000000000E10   -1.245651817407634E-2   2.238678124740545E-3  
 2.218000000000000E10    2.975995336100823E-3   1.085538639745209E-2  
 2.220000000000000E10    1.059430694567709E-2  -6.192885576183471E-3  
 2.222000000000000E10   -8.324653952513472E-3  -1.085915573639795E-2  
 2.224000000000000E10   -8.769386421590752E-3   9.419000427442370E-3  
 2.226000000000000E10    1.111922936979681E-2   7.369850995928573E-3  
 2.228000000000000E10    6.524547278786486E-3  -1.186632328426640E-2  
 2.230000000000000E10   -1.235214349071612E-2  -5.472720667512476E-3  
 2.232000000000000E10   -5.327060142008122E-3   1.353208312593779E-2  
 2.234000000000000E10    1.267443218057451E-2   4.281091332359210E-3  
 2.236000000000000E10    2.069625559897759E-3  -1.331946157552011E-2  
 2.238000000000000E10   -1.443904079678759E-2  -1.182403035727475E-3  
 2.240000000000000E10    6.426644612815835E-4   1.405636051003967E-2  
 2.242000000000000E10    1.298015034535638E-2  -3.091946282438585E-3  
 2.244000000000000E10   -4.380956501336186E-3  -1.223245998335187E-2  
 2.246000000000000E10   -1.147941128419916E-2   6.233252466245176E-3  
 2.248000000000000E10    8.183242267477908E-3   1.133994996234833E-2  
 2.250000000000000E10    1.117010738471436E-2  -8.470704678074981E-3  
 2.252000000000000E10   -1.143961511479574E-2  -9.072504174582718E-3  
 2.254000000000000E10   -8.472739102217020E-3   1.314543630178378E-2  
 2.256000000000000E10    1.381957328248973E-2   6.796773270707490E-3  
 2.258000000000000E10    3.896910395951636E-3  -1.422451270991587E-2  
 2.260000000000000E10   -1.334544319979614E-2  -2.871785291290507E-3  
 2.262000000000000E10   -1.185110683991297E-3   1.311548376088467E-2  
 2.264000000000000E10    1.340855992748402E-2  -1.341236824572434E-4  
 2.266000000000000E10   -5.932778763622082E-4  -1.361579101467214E-2  
 2.268000000000000E10   -1.342600392308668E-2   2.444589619926774E-3  
 2.270000000000000E10    4.804830728517118E-3   1.375155984896992E-2  
 2.272000000000000E10    1.487129692031886E-2  -6.171522112254024E-3  
 2.274000000000000E10   -8.071859157098515E-3  -1.358016844187659E-2  
 2.276000000000000E10   -1.200811531271029E-2   1.006143448466901E-2  
 2.278000000000000E10    1.073075962995063E-2   1.034056857315591E-2  
 2.280000000000000E10    9.489824016782222E-3  -1.170070413172653E-2  
 2.282000000000000E10   -4.725247659735032E-3  -1.413020416748623E-2  
 2.284000000000000E10   -6.856045008589717E-3   1.244573368785495E-2  
 2.286000000000000E10    1.334494671027642E-2   4.376383358703606E-3  
 2.288000000000000E10    2.661927170038325E-3  -1.445666800282197E-2  
 2.290000000000000E10   -1.414369628946588E-2  -8.441256325681934E-4  
 2.292000000000000E10    2.090540783001416E-3   1.420840368791687E-2  
 2.294000000000000E10    1.398727962714474E-2  -4.133625185659184E-3  
 2.296000000000000E10   -5.582389944720489E-3  -1.356509173547238E-2  
 2.298000000000000E10   -1.382260060836416E-2   6.634175067119941E-3  
 2.300000000000000E10    7.722306137566193E-3   1.411407178784430E-2  
 2.302000000000000E10    1.316612027403608E-2  -9.936081229170668E-3  
 2.304000000000000E10   -1.194745895463711E-2  -1.251567662711750E-2  
 2.306000000000000E10   -1.140211298843497E-2   1.272497848367493E-2  
 2.308000000000000E10    1.385912939531409E-2   8.582178798860696E-3  
 2.310000000000000E10    6.829442997059232E-3  -1.458514459955040E-2  
 2.312000000000000E10   -1.492918183066649E-2  -3.905008947413080E-3  
 2.314000000000000E10   -1.716356685506071E-3   1.478175627926248E-2  
 2.316000000000000E10    1.524741294088017E-2   6.112420011845643E-4  
 2.318000000000000E10   -1.693685553050273E-3  -1.410994887373818E-2  
 2.320000000000000E10   -1.452570453693625E-2   4.661722100991028E-3  
 2.322000000000000E10    5.798150808004721E-3   1.522917629426956E-2  
 2.324000000000000E10    1.452764889654645E-2  -7.654483410078683E-3  
 2.326000000000000E10   -9.498305626038928E-3  -1.370630851943133E-2  
 2.328000000000000E10   -1.228749158599385E-2   1.148798747999535E-2  
 2.330000000000000E10    1.272896453156136E-2   1.044296326381300E-2  
 2.332000000000000E10    9.761541748957825E-3  -1.328888561238273E-2  
 2.334000000000000E10   -1.343277649175434E-2  -7.540071014773275E-3  
 2.336000000000000E10   -5.450577211377095E-3   1.538018011251552E-2  
 2.338000000000000E10    1.650978370344092E-2   3.517008577091474E-3  
 2.340000000000000E10    6.074348966649268E-4  -1.652438851488114E-2  
 2.342000000000000E10   -1.699715206450492E-2   1.798825966716322E-3  
 2.344000000000000E10    4.516826938470331E-3   1.659098793243174E-2  
 2.346000000000000E10    1.536336223853141E-2  -6.898770773204888E-3  
 2.348000000000000E10   -7.768458543068846E-3  -1.449618918013584E-2  
 2.350000000000000E10   -1.336236033603200E-2   8.490373056702083E-3  
 2.352000000000000E10    1.021344221862819E-2   1.249388644646388E-2  
 2.354000000000000E10    1.180018763079715E-2  -1.100412494997727E-2  
 2.356000000000000E10   -1.163043597352953E-2  -9.746062174599501E-3  
 2.358000000000000E10   -8.638991340376379E-3   1.295598291744682E-2  
 2.360000000000000E10    1.411509290574031E-2   5.774149858098099E-3  
 2.362000000000000E10    3.047591694894436E-3  -1.603244165744400E-2  
 2.364000000000000E10   -1.579806217887381E-2  -3.828010545134930E-4  
 2.366000000000000E10    1.024398167942309E-3   1.493678904171247E-2  
 2.368000000000000E10    1.592420299493824E-2  -3.867481502311421E-3  
 2.370000000000000E10   -5.549401516418584E-3  -1.601722986379173E-2  
 2.372000000000000E10   -1.569515847768344E-2   6.773713869733911E-3  
 2.374000000000000E10    8.230943351009046E-3   1.551791043493722E-2  
 2.376000000000000E10    1.402967738795269E-2  -9.622000196941372E-3  
 2.378000000000000E10   -1.157871052510018E-2  -1.178071950198500E-2  
 2.380000000000000E10   -1.041419715875236E-2   1.200175603480602E-2  
 2.382000000000000E10    1.242290255686385E-2   8.258790495347057E-3  
 2.384000000000000E10    6.149241236926173E-3  -1.310151589586894E-2  
 2.386000000000000E10   -1.398273474751477E-2  -4.581867836805031E-3  
 2.388000000000000E10   -2.979151422550785E-3   1.502062709460006E-2  
 2.390000000000000E10    1.564024756771687E-2   4.598156276216514E-4  
 2.392000000000000E10   -2.236689634628419E-3  -1.602642765828932E-2  
 2.394000000000000E10   -1.685457577877969E-2   4.627639657428517E-3  
 2.396000000000000E10    6.497393625977566E-3   1.623073866539926E-2  
 2.398000000000000E10    1.417813169700821E-2  -8.490330644235655E-3  
 2.400000000000000E10   -9.731664811624796E-3  -1.209736595592403E-2  
 2.402000000000000E10   -9.612445707716688E-3   1.204884189701261E-2  
 2.404000000000000E10    1.258002664144442E-2   8.048548265833233E-3  
 2.406000000000000E10    6.848642160093732E-3  -1.187187987488869E-2  
 2.408000000000000E10   -1.317543290315371E-2  -4.834726223180041E-3  
 2.410000000000000E10   -2.740815302786359E-3   1.434421294106869E-2  
 2.412000000000000E10    1.394355979300599E-2   1.419263750335631E-3  
 2.414000000000000E10   -3.535412286055362E-4  -1.416969805177359E-2  
 2.416000000000000E10   -1.434246660119243E-2   2.210688062859845E-3  
 2.418000000000000E10    3.407236333941910E-3   1.482646544081945E-2  
 2.420000000000000E10    1.430753578006261E-2  -4.389875030028634E-3  
 2.422000000000000E10   -4.926294644974405E-3  -1.392786230371712E-2  
 2.424000000000000E10   -1.352808867795829E-2   6.645398527325597E-3  
 2.426000000000000E10    8.503259073222580E-3   1.261707709090842E-2  
 2.428000000000000E10    1.084433498726867E-2  -9.240820490049373E-3  
 2.430000000000000E10   -1.081926994265814E-2  -8.295268004985701E-3  
 2.432000000000000E10   -6.433416232084710E-3   1.174149110283906E-2  
 2.434000000000000E10    1.253329274823045E-2   4.460108833882259E-3  
 2.436000000000000E10    3.009045197586602E-3  -1.304763190273661E-2  
 2.438000000000000E10   -1.277702854349627E-2  -1.423240908934531E-3  
 2.440000000000000E10    8.544815774769177E-5   1.354224620899913E-2  
 2.442000000000000E10    1.398802230596630E-2  -1.149907196122513E-3  
 2.444000000000000E10   -1.958707535095527E-3  -1.423902538135735E-2  
 2.446000000000000E10   -1.386150766938954E-2   3.478543232176889E-3  
 2.448000000000000E10    4.017906095441504E-3   1.308761413292814E-2  
 2.450000000000000E10    1.233393180882558E-2  -5.489561165632040E-3  
 2.452000000000000E10   -6.824046651672688E-3  -1.145858938525635E-2  
 2.454000000000000E10   -9.657063601480331E-3   7.214618878606416E-3  
 2.456000000000000E10    8.013886780645407E-3   8.426390989370702E-3  
 2.458000000000000E10    7.451122124166432E-3  -9.972434074370540E-3  
 2.460000000000000E10   -1.092126323601406E-2  -5.463636349304579E-3  
 2.462000000000000E10   -3.678229351180562E-3   1.158870997460326E-2  
 2.464000000000000E10    1.237968329860451E-2   2.609125899653009E-3  
 2.466000000000000E10    1.110373040262402E-3  -1.256871288023831E-2  
 2.468000000000000E10   -1.240606973624381E-2   5.860916558475537E-5  
 2.470000000000000E10    6.752268192258271E-4   1.215689171112899E-2  
 2.472000000000000E10    1.115365486475639E-2  -1.303954625996084E-3  
 2.474000000000000E10   -2.567600882230181E-3  -1.127278763942741E-2  
 2.476000000000000E10   -1.072898918391729E-2   3.242377287961062E-3  
 2.478000000000000E10    4.315195312301512E-3   1.027499320753122E-2  
 2.480000000000000E10    9.558626981743146E-3  -5.803629874208127E-3  
 2.482000000000000E10   -7.453525396613259E-3  -8.313294665640569E-3  
 2.484000000000000E10   -6.858981113055052E-3   9.311255411375896E-3  
 2.486000000000000E10    1.037748812450445E-2   5.477930929828290E-3  
 2.488000000000000E10    4.049818975545350E-3  -1.067204213813966E-2  
 2.490000000000000E10   -1.086753980689537E-2  -3.033638473652900E-3  
 2.492000000000000E10   -2.802206822252629E-3   1.092204855922319E-2  
 2.494000000000000E10    1.172694478736958E-2   2.115461646098993E-3  
 2.496000000000000E10    2.995575640341031E-4  -1.146070416780276E-2  
 2.498000000000000E10   -1.066993521362747E-2   3.431461962293270E-4  
 2.500000000000000E10    1.350947290006843E-3   9.959871993487468E-3  
 2.502000000000000E10    9.674582724983338E-3  -3.108282803168549E-3  
 2.504000000000000E10   -3.716561190685752E-3  -8.454841628918075E-3  
 2.506000000000000E10   -7.405612121146987E-3   4.517809976732679E-3  
 2.508000000000000E10    5.305145864895167E-3   7.976962738212023E-3  
 2.510000000000000E10    7.658747848836356E-3  -7.473370360003173E-3  
 2.512000000000000E10   -8.953910230957263E-3  -6.866255399472721E-3  
 2.514000000000000E10   -5.883687318601005E-3   1.000154009125254E-2  
 2.516000000000000E10    1.077777426780813E-2   4.639386985218152E-3  
 2.518000000000000E10    3.173443076775584E-3  -1.104974391728320E-2  
 2.520000000000000E10   -1.081589357909252E-2  -2.307958275878264E-3  
 2.522000000000000E10   -1.528071675465981E-3   9.780523764675309E-3  
 2.524000000000000E10    9.675972803051991E-3   3.113634524396503E-4  
 2.526000000000000E10   -8.916194854009518E-4  -8.870378935171175E-3  
 2.528000000000000E10   -8.860596671183885E-3   1.289401201006513E-3  
 2.530000000000000E10    2.730353859078605E-3   9.182929401504225E-3  
 2.532000000000000E10    7.958494064951083E-3  -4.422958936629584E-3  
 2.534000000000000E10   -5.771573711626843E-3  -7.889781197263801E-3  
 2.536000000000000E10   -7.459264691988210E-3   6.652463914178952E-3  
 2.538000000000000E10    7.724291004706174E-3   6.463057725795807E-3  
 2.540000000000000E10    6.403998930181842E-3  -8.632780486550473E-3  
 2.542000000000000E10   -9.258846400371112E-3  -5.693918664292141E-3  
 2.544000000000000E10   -3.909376041747237E-3   9.490692646977550E-3  
 2.546000000000000E10    9.597601289897284E-3   3.167083172684215E-3  
 2.548000000000000E10    1.725513846622562E-3  -9.383546849676350E-3  
 2.550000000000000E10   -9.213855451889685E-3  -7.545066290123815E-5  
 2.552000000000000E10    1.383593516152359E-3   8.440601670372416E-3  
 2.554000000000000E10    7.714094854236464E-3  -2.671969848961453E-3  
 2.556000000000000E10   -4.002011130978644E-3  -7.453860092027753E-3  
 2.558000000000000E10   -7.111533777333534E-3   4.791149250650051E-3  
 2.560000000000000E10    5.988265947962645E-3   6.905837783961033E-3  
 2.562000000000000E10    6.623673091326054E-3  -6.873185128824844E-3  
 2.564000000000000E10   -7.139454148727964E-3  -6.474894518760266E-3  
 2.566000000000000E10   -6.153797363822378E-3   8.369305452106346E-3  
 2.568000000000000E10    9.226386599038960E-3   5.359016142392648E-3  
 2.570000000000000E10    3.624053046451081E-3  -9.352218440653815E-3  
 2.572000000000000E10   -8.718444737496611E-3  -2.611208290545619E-3  
 2.574000000000000E10   -1.329910458252925E-3   8.711040020898508E-3  
 2.576000000000000E10    8.607963026406651E-3  -1.041158313228152E-3  
 2.578000000000000E10   -1.284587916984492E-3  -8.558000416087452E-3  
 2.580000000000000E10   -7.925669382530032E-3   2.659004032238954E-3  
 2.582000000000000E10    4.182375661002880E-3   6.936305396720854E-3  
 2.584000000000000E10    7.802040259775822E-3  -5.116940455991426E-3  
 2.586000000000000E10   -6.135320481917006E-3  -7.281656351096899E-3  
 2.588000000000000E10   -6.577405587449903E-3   6.404712730272877E-3  
 2.590000000000000E10    6.529655472149898E-3   6.413628177142527E-3  
 2.592000000000000E10    5.866475553830242E-3  -7.633320101376739E-3  
 2.594000000000000E10   -8.232788447458006E-3  -5.596257907654945E-3  
 2.596000000000000E10   -4.300445251828933E-3   8.290542446047766E-3  
 2.598000000000000E10    8.447069577414368E-3   2.771169923107664E-3  
 2.600000000000000E10    1.432845557246765E-3  -9.376027418511512E-3  
 2.602000000000000E10   -8.968206848294358E-3   2.610235827376073E-4  
 2.604000000000000E10    1.499376686979304E-3   9.068790743185673E-3  
 2.606000000000000E10    8.150427546752326E-3  -2.979873774620501E-3  
 2.608000000000000E10   -3.622283662480186E-3  -7.876293047957006E-3  
 2.610000000000000E10   -8.172504927642876E-3   4.163024254012271E-3  
 2.612000000000000E10    4.454330117368954E-3   7.865206787755597E-3  
 2.614000000000000E10    7.416131157697237E-3  -4.606718586728675E-3  
 2.616000000000000E10   -5.535443903681880E-3  -7.212022291241738E-3  
 2.618000000000000E10   -6.374724961460743E-3   5.930046396315447E-3  
 2.620000000000000E10    6.449625170716899E-3   5.944238019765180E-3  
 2.622000000000000E10    4.456971691524814E-3  -6.793250811824692E-3  
 2.624000000000000E10   -6.882245822907862E-3  -3.342829784287460E-3  
 2.626000000000000E10   -2.199732356075401E-3   8.083840025392419E-3  
 2.628000000000000E10    8.964086263404170E-3   6.010192199710218E-4  
 2.630000000000000E10   -3.501672274950352E-4  -8.935194764490007E-3  
 2.632000000000000E10   -8.837902927552932E-3   1.789346005011794E-3  
 2.634000000000000E10    2.905642893438198E-3   8.901793662516866E-3  
 2.636000000000000E10    9.007536044919107E-3  -3.594933162730740E-3  
 2.638000000000000E10   -4.181841864465241E-3  -8.065197418545722E-3  
 2.640000000000000E10   -7.373014208042150E-3   4.212783371713158E-3  
 2.642000000000000E10    5.103047458305809E-3   6.450756991853268E-3  
 2.644000000000000E10    5.351475320821919E-3  -5.368726306187455E-3  
 2.646000000000000E10   -5.662768296133436E-3  -5.232918604178849E-3  
 2.648000000000000E10   -3.520553680345984E-3   6.105080232828186E-3  
 2.650000000000000E10    6.571987390543654E-3   2.297027797794726E-3  
 2.652000000000000E10    1.526867254256104E-3  -7.804240265159024E-3  
 2.654000000000000E10   -8.474952529468283E-3  -1.766304901948956E-4  
 2.656000000000000E10    8.132067217729855E-4   8.196989914722508E-3  
 2.658000000000000E10    8.253353107647854E-3  -1.477703622867921E-3  
 2.660000000000000E10   -2.873208803066518E-3  -8.500556397848413E-3  
 2.662000000000000E10   -8.368373466510093E-3   3.110477509380871E-3  
 2.664000000000000E10    3.386973145552474E-3   7.141363093978725E-3  
 2.666000000000000E10    6.101219016272808E-3  -4.135351809054555E-3  
 2.668000000000000E10   -4.734502816063468E-3  -5.573663082941494E-3  
 2.670000000000000E10   -4.264868548489176E-3   5.155107427526673E-3  
 2.672000000000000E10    5.156601163434971E-3   3.559180705906329E-3  
 2.674000000000000E10    2.757518207999965E-3  -5.660257044837636E-3  
 2.676000000000000E10   -6.311183289653854E-3  -1.254508874581006E-3  
 2.678000000000000E10   -8.421793418165180E-4   6.674309330264805E-3  
 2.680000000000000E10    6.652962845691945E-3   2.783351690140989E-4  
 2.682000000000000E10   -3.182692221912475E-4  -6.964922642509919E-3  
 2.684000000000000E10   -7.586533686662733E-3   1.280831769918223E-3  
 2.686000000000000E10    1.536842800760496E-3   6.974350818381936E-3  
 2.688000000000000E10    6.501318001937761E-3  -1.833399582665152E-3  
 2.690000000000000E10   -2.328650557501533E-3  -6.114026092291169E-3  
 2.692000000000000E10   -5.224387906309858E-3   3.338432799864677E-3  
 2.694000000000000E10    3.652571093425650E-3   4.104682883735222E-3  
 2.696000000000000E10    3.398052661850670E-3  -3.982004252975457E-3  
 2.698000000000000E10   -4.524152861449693E-3  -2.304274976268061E-3  
 2.700000000000000E10   -1.889912171463948E-3   5.264239354801248E-3  
 2.702000000000000E10    5.621091811917722E-3   1.089032342861174E-3  
 2.704000000000000E10    7.771314139972674E-4  -5.281191576614219E-3  
 2.706000000000000E10   -6.094847579333873E-3  -1.875634116359493E-4  
 2.708000000000000E10    1.340810667436188E-4   5.956892206995690E-3  
 2.710000000000000E10    5.562463268688589E-3  -4.451825701039525E-4  
 2.712000000000000E10   -7.931484454957172E-4  -5.578561579568486E-3  
 2.714000000000000E10   -4.972775523128803E-3   9.401576537584333E-4  
 2.716000000000000E10    1.143216237551314E-3   4.511786288276198E-3  
 2.718000000000000E10    3.989361542608094E-3  -1.908563174310984E-3  
 2.720000000000000E10   -2.413946206161199E-3  -3.564661905329558E-3  
 2.722000000000000E10   -2.994536381720536E-3   3.484669016870612E-3  
 2.724000000000000E10    3.856822439956886E-3   2.200180359523074E-3  
 2.726000000000000E10    1.716856658958932E-3  -4.239051191689214E-3  
 2.728000000000000E10   -4.742932626868424E-3  -1.279295196809471E-3  
 2.730000000000000E10   -1.187483505077580E-3   4.445149357707123E-3  
 2.732000000000000E10    4.865318657721218E-3   7.580816860581763E-4  
 2.734000000000000E10    9.151862971066294E-4  -4.601902390277246E-3  
 2.736000000000000E10   -4.263304339474416E-3  -1.119579244232227E-3  
 2.738000000000000E10   -2.965651131461300E-4   4.513095273068757E-3  
 2.740000000000000E10    4.095567500371544E-3  -1.915507728256216E-4  
 2.742000000000000E10   -9.422110477999013E-4  -3.382790202977049E-3  
 2.744000000000000E10   -2.876710268083116E-3   1.260235924291919E-3  
 2.746000000000000E10    1.519106453770291E-3   2.652927664712479E-3  
 2.748000000000000E10    2.429762450901762E-3  -2.668805761913973E-3  
 2.750000000000000E10   -3.154461152917065E-3  -2.422299551653850E-3  
 2.752000000000000E10   -1.767223684964847E-3   2.920110160630429E-3  
 2.754000000000000E10    3.845672616989759E-3   1.610767176543959E-3  
 2.756000000000000E10    1.638567628106102E-3  -4.301627656786877E-3  
