#  HZ   S   RI   R     50.00 
! Rohde & Schwarz ZVA40 4Ports - Version 3.90 - 1145.1110k42 SN: 100403
! Date: 2023-10-04 06:15:31
! Measurement: S12 
! 
 2.200000000000000E10   -6.475877831690013E-3  -8.233042957726866E-3  
 2.202000000000000E10   -7.808091497281566E-3   8.355202822713181E-3  
 2.204000000000000E10    8.608760399511084E-3   7.271388793014921E-3  
 2.206000000000000E10    5.957481334917247E-3  -9.271046612411737E-3  
 2.208000000000000E10   -1.086788150132634E-2  -4.913901895633899E-3  
 2.210000000000000E10   -4.660019287257455E-3   1.097407878842205E-2  
 2.212000000000000E10    1.140091774868779E-2   3.606575213780161E-3  
 2.214000000000000E10    2.785064258205239E-3  -1.159992034081370E-2  
 2.216000000000000E10   -1.237978480639868E-2  -1.222694216266973E-3  
 2.218000000000000E10    1.171790489024716E-3   1.313547705649398E-2  
 2.220000000000000E10    1.322901403182186E-2  -1.788611923984718E-3  
 2.222000000000000E10   -4.057607729919255E-3  -1.203239453025162E-2  
 2.224000000000000E10   -1.117931178305298E-2   7.161157860537060E-3  
 2.226000000000000E10    7.826783432392404E-3   1.042406802298501E-2  
 2.228000000000000E10    8.966766559751704E-3  -8.673921227455139E-3  
 2.230000000000000E10   -9.211300057359040E-3  -8.629510150058195E-3  
 2.232000000000000E10   -7.842278864700347E-3   9.798910788958892E-3  
 2.234000000000000E10    1.150087302085012E-2   6.162160570966080E-3  
 2.236000000000000E10    6.173251458676532E-3  -1.208429486723617E-2  
 2.238000000000000E10   -1.213548998930492E-2  -4.684963962063193E-3  
 2.240000000000000E10   -1.834241797041614E-3   1.286613443517126E-2  
 2.242000000000000E10    1.343386151711457E-2   3.816365415332257E-4  
 2.244000000000000E10   -1.743189484841423E-3  -1.236703875474632E-2  
 2.246000000000000E10   -1.249632326653227E-2   2.935855460236780E-3  
 2.248000000000000E10    4.104574487428181E-3   1.192548178369179E-2  
 2.250000000000000E10    1.182057659025304E-2  -6.959048041608185E-3  
 2.252000000000000E10   -9.274018550058827E-3  -1.263122295495123E-2  
 2.254000000000000E10   -1.198853834648617E-2   9.625422506360337E-3  
 2.256000000000000E10    1.215696602594107E-2   1.001337807974778E-2  
 2.258000000000000E10    8.508959028404206E-3  -1.374841021606699E-2  
 2.260000000000000E10   -1.263586012646556E-2  -7.543700572568923E-3  
 2.262000000000000E10   -5.494861383340322E-3   1.272040905314498E-2  
 2.264000000000000E10    1.226551353465766E-2   5.117080916534178E-3  
 2.266000000000000E10    3.523972336552106E-3  -1.315466983942315E-2  
 2.268000000000000E10   -1.417691109236330E-2  -1.188057172839763E-3  
 2.270000000000000E10    7.385266371784383E-6   1.394635683391243E-2  
 2.272000000000000E10    1.416064123623073E-2  -2.485505261574872E-3  
 2.274000000000000E10   -5.781770189059898E-3  -1.419283522409387E-2  
 2.276000000000000E10   -1.319388393312693E-2   7.498305974877439E-3  
 2.278000000000000E10    8.840144000714645E-3   1.214219207759015E-2  
 2.280000000000000E10    1.125305329333060E-2  -9.729182260343805E-3  
 2.282000000000000E10   -2.272722987981979E-3  -1.375573078985326E-2  
 2.284000000000000E10   -9.199119376717135E-3   1.213681887020357E-2  
 2.286000000000000E10    1.252254834980704E-2   8.297059364849702E-3  
 2.288000000000000E10    6.815307715442032E-3  -1.298956136452034E-2  
 2.290000000000000E10   -1.404765190090984E-2  -3.760929423151538E-3  
 2.292000000000000E10   -2.495297412679065E-3   1.409931946545839E-2  
 2.294000000000000E10    1.383557610097341E-2  -1.464320953346032E-4  
 2.296000000000000E10   -1.440130083210534E-3  -1.371137736714445E-2  
 2.298000000000000E10   -1.376751749194227E-2   1.940034919243772E-3  
 2.300000000000000E10    3.915182882337831E-3   1.418022334109992E-2  
 2.302000000000000E10    1.501663189264946E-2  -6.226359226275235E-3  
 2.304000000000000E10   -7.797305122949183E-3  -1.412292843451724E-2  
 2.306000000000000E10   -1.241942145861685E-2   9.732480626553297E-3  
 2.308000000000000E10    1.115825123270042E-2   1.165589978336357E-2  
 2.310000000000000E10    9.644517995184287E-3  -1.197534264065325E-2  
 2.312000000000000E10   -1.290275054634549E-2  -7.232429750729352E-3  
 2.314000000000000E10   -5.741820452385582E-3   1.297199766850099E-2  
 2.316000000000000E10    1.303137841750868E-2   3.477889935311396E-3  
 2.318000000000000E10    1.469569502660306E-3  -1.486078635207377E-2  
 2.320000000000000E10   -1.484767443616875E-2   6.370364644681104E-5  
 2.322000000000000E10    2.013200042711105E-3   1.463792653521523E-2  
 2.324000000000000E10    1.590711082099006E-2  -4.757890696055256E-3  
 2.326000000000000E10   -6.130063600721769E-3  -1.537712616845965E-2  
 2.328000000000000E10   -1.458487371564843E-2   7.768523006234318E-3  
 2.330000000000000E10    8.978110854513943E-3   1.363654853776097E-2  
 2.332000000000000E10    1.209922187263146E-2  -9.699324407847598E-3  
 2.334000000000000E10   -1.153282457380556E-2  -1.167227528640069E-2  
 2.336000000000000E10   -1.027865597279742E-2   1.229898951714858E-2  
 2.338000000000000E10    1.324472815031186E-2   7.371605694061145E-3  
 2.340000000000000E10    4.714991024229676E-3  -1.455145070212893E-2  
 2.342000000000000E10   -1.501658000051975E-2  -2.987133404531051E-3  
 2.344000000000000E10   -1.511105438112281E-5   1.555641592130996E-2  
 2.346000000000000E10    1.483422424644232E-2  -2.026446269155713E-3  
 2.348000000000000E10   -3.908200407749973E-3  -1.433386511052959E-2  
 2.350000000000000E10   -1.455806242302060E-2   6.064274872187525E-3  
 2.352000000000000E10    7.100223781890236E-3   1.447627187008038E-2  
 2.354000000000000E10    1.273479638621211E-2  -8.053891971940175E-3  
 2.356000000000000E10   -9.704377065645531E-3  -1.272919937036932E-2  
 2.358000000000000E10   -1.191527885384858E-2   1.103678400977515E-2  
 2.360000000000000E10    1.254725563921966E-2   9.844493208220229E-3  
 2.362000000000000E10    8.324084774358198E-3  -1.361428655218333E-2  
 2.364000000000000E10   -1.385276543442160E-2  -5.393925777752884E-3  
 2.366000000000000E10   -2.852940575394314E-3   1.469478145008907E-2  
 2.368000000000000E10    1.504265170660801E-2   1.756019431923050E-3  
 2.370000000000000E10   -6.174921290948987E-4  -1.494592774542980E-2  
 2.372000000000000E10   -1.550820458214730E-2   2.594760742795188E-3  
 2.374000000000000E10    4.445585131179541E-3   1.571637854794972E-2  
 2.376000000000000E10    1.464792128535919E-2  -6.019165666657500E-3  
 2.378000000000000E10   -7.926417601993308E-3  -1.380566845182329E-2  
 2.380000000000000E10   -1.195922039914876E-2   8.987615699879825E-3  
 2.382000000000000E10    1.035542576573789E-2   1.034725716453977E-2  
 2.384000000000000E10    9.780316904652864E-3  -1.060354584478773E-2  
 2.386000000000000E10   -1.092895283363760E-2  -7.969826227054000E-3  
 2.388000000000000E10   -6.118361736298539E-3   1.246298104524612E-2  
 2.390000000000000E10    1.370588724967092E-2   4.007630923297256E-3  
 2.392000000000000E10    2.158266506739892E-3  -1.432161897537299E-2  
 2.394000000000000E10   -1.557371279341169E-2  -2.707059212525564E-5  
 2.396000000000000E10    2.968809880258050E-3   1.535192396841012E-2  
 2.398000000000000E10    1.458603274659254E-2  -4.958563935360871E-3  
 2.400000000000000E10   -6.306670518824831E-3  -1.471298371325247E-2  
 2.402000000000000E10   -1.214828342199326E-2   8.576445659855381E-3  
 2.404000000000000E10    9.234233817551285E-3   1.090813489281572E-2  
 2.406000000000000E10    9.774106205441058E-3  -1.002537563908845E-2  
 2.408000000000000E10   -1.044821445248090E-2  -8.736576419323683E-3  
 2.410000000000000E10   -6.671445080428384E-3   1.135666758636944E-2  
 2.412000000000000E10    1.103438928839751E-2   4.662026389269158E-3  
 2.414000000000000E10    3.284831407654565E-3  -1.161579665495083E-2  
 2.416000000000000E10   -1.229335914831609E-2  -1.458558232116047E-3  
 2.418000000000000E10   -2.340350547456183E-4   1.214223762508482E-2  
 2.420000000000000E10    1.238790125353262E-2  -1.382875481795054E-3  
 2.422000000000000E10   -2.289599971845746E-3  -1.303709420608357E-2  
 2.424000000000000E10   -1.378966530319303E-2   3.244119885494001E-3  
 2.426000000000000E10    5.577703472226858E-3   1.330874444101937E-2  
 2.428000000000000E10    1.217913025175221E-2  -6.633764249272645E-3  
 2.430000000000000E10   -7.557799253845587E-3  -1.171641828841530E-2  
 2.432000000000000E10   -9.616038150852546E-3   8.613458223408088E-3  
 2.434000000000000E10    9.267576911952347E-3   8.203699311707169E-3  
 2.436000000000000E10    6.436009673052467E-3  -1.004589797230437E-2  
 2.438000000000000E10   -1.023312169127166E-2  -4.622577194822952E-3  
 2.440000000000000E10   -3.980779722041916E-3   1.065191029920243E-2  
 2.442000000000000E10    1.181229058420286E-2   1.959717123099836E-3  
 2.444000000000000E10    9.437191656616051E-4  -1.224957889644429E-2  
 2.446000000000000E10   -1.218091702321544E-2   1.380512053401617E-4  
 2.448000000000000E10    1.279205247556092E-3   1.180054576252587E-2  
 2.450000000000000E10    1.250335702206940E-2  -1.894446188089205E-3  
 2.452000000000000E10   -3.319694063975476E-3  -1.139948860509321E-2  
 2.454000000000000E10   -1.026628233375959E-2   4.080656653968617E-3  
 2.456000000000000E10    4.810127706150524E-3   9.963306249119341E-3  
 2.458000000000000E10    8.846078882925212E-3  -5.601786484476179E-3  
 2.460000000000000E10   -7.316438743146136E-3  -7.496145204640925E-3  
 2.462000000000000E10   -6.293578757322393E-3   8.044395595788956E-3  
 2.464000000000000E10    9.290572343161330E-3   4.606662303558551E-3  
 2.466000000000000E10    3.465713067271281E-3  -1.003506805864163E-2  
 2.468000000000000E10   -1.044735108735040E-2  -2.658381876244675E-3  
 2.470000000000000E10   -1.046860756105161E-3   1.069413631921634E-2  
 2.472000000000000E10    1.096814815537073E-2   7.808202826709021E-4  
 2.474000000000000E10    7.283326394826872E-4  -1.121110512758605E-2  
 2.476000000000000E10   -1.065691222902387E-2  -1.361544764222344E-5  
 2.478000000000000E10    1.017442584270611E-3   1.123164771706797E-2  
 2.480000000000000E10    1.019612728850916E-2  -2.500587426766288E-3  
 2.482000000000000E10   -3.770916104258504E-3  -9.569404239300638E-3  
 2.484000000000000E10   -8.566005562897772E-3   4.590221215039492E-3  
 2.486000000000000E10    6.746544153429568E-3   6.905556278070435E-3  
 2.488000000000000E10    5.402808703365736E-3  -7.085410121362656E-3  
 2.490000000000000E10   -7.470082666259259E-3  -4.547469463432208E-3  
 2.492000000000000E10   -3.678850291180424E-3   8.273003477370367E-3  
 2.494000000000000E10    9.289474866818637E-3   3.192046657204628E-3  
 2.496000000000000E10    2.024129084020387E-3  -9.743962087668479E-3  
 2.498000000000000E10   -9.414079017005861E-3  -9.070461310329847E-4  
 2.500000000000000E10   -1.139870943006827E-3   9.617750241886824E-3  
 2.502000000000000E10    9.325990744400770E-3  -7.006172381807119E-5  
 2.504000000000000E10   -7.624066511198180E-4  -8.684144268045202E-3  
 2.506000000000000E10   -7.903923076810315E-3   1.263879708858440E-3  
 2.508000000000000E10    1.667163302045083E-3   7.782700820825994E-3  
 2.510000000000000E10    8.067585993558168E-3  -2.767343197774608E-3  
 2.512000000000000E10   -4.628848022548482E-3  -7.152248916099779E-3  
 2.514000000000000E10   -6.188484359881841E-3   6.065582609153353E-3  
 2.516000000000000E10    7.178597836173140E-3   6.104181229602546E-3  
 2.518000000000000E10    4.742926263133995E-3  -7.996350090252236E-3  
 2.520000000000000E10   -8.337820268934593E-3  -3.860126133076847E-3  
 2.522000000000000E10   -3.574345617380459E-3   8.702073595486581E-3  
 2.524000000000000E10    8.319260203279555E-3   2.250951030873694E-3  
 2.526000000000000E10    2.411921959719621E-3  -8.283274015411735E-3  
 2.528000000000000E10   -8.297477994346991E-3  -1.637523670069641E-3  
 2.530000000000000E10   -3.154073219775455E-4   8.058222447289154E-3  
 2.532000000000000E10    8.374551427550614E-3  -8.844838575896574E-4  
 2.534000000000000E10   -1.523839058791054E-3  -7.235744618810713E-3  
 2.536000000000000E10   -6.808418183936738E-3   2.907896363467444E-3  
 2.538000000000000E10    4.442222561920062E-3   6.940573541214690E-3  
 2.540000000000000E10    6.500016461359337E-3  -4.856145169469528E-3  
 2.542000000000000E10   -6.502282558358274E-3  -5.904018325963989E-3  
 2.544000000000000E10   -4.947679321048781E-3   7.265267995535396E-3  
 2.546000000000000E10    7.673373605939560E-3   4.965674903360196E-3  
 2.548000000000000E10    3.595338130253367E-3  -8.486259728670120E-3  
 2.550000000000000E10   -8.008836273802444E-3  -2.723187681112904E-3  
 2.552000000000000E10   -1.669816709181760E-3   8.393769181566313E-3  
 2.554000000000000E10    7.688760277233087E-3   5.763839644714608E-4  
 2.556000000000000E10    8.254644797034416E-5  -7.015241164481267E-3  
 2.558000000000000E10   -6.918707600561902E-3   9.431748894712655E-4  
 2.560000000000000E10    2.074911397357937E-3   6.402128885383718E-3  
 2.562000000000000E10    5.839255944010802E-3  -3.138610132737085E-3  
 2.564000000000000E10   -3.876370748912450E-3  -6.255624946788885E-3  
 2.566000000000000E10   -6.086079883971252E-3   5.312193316058256E-3  
 2.568000000000000E10    6.392796349246055E-3   5.579112854320556E-3  
 2.570000000000000E10    4.918140461086296E-3  -7.175528488005512E-3  
 2.572000000000000E10   -7.127430973923765E-3  -3.736831487913150E-3  
 2.574000000000000E10   -3.538933706295211E-3   7.614238376845606E-3  
 2.576000000000000E10    7.351830179686658E-3   2.764657307125162E-3  
 2.578000000000000E10    1.507427972683217E-3  -6.989973742747679E-3  
 2.580000000000000E10   -6.670432107057422E-3  -3.384327110325103E-4  
 2.582000000000000E10    2.933597397714038E-4   6.458424570155330E-3  
 2.584000000000000E10    6.327116279862821E-3  -1.290571453864686E-3  
 2.586000000000000E10   -2.493486834282521E-3  -6.148389118607156E-3  
 2.588000000000000E10   -5.470902367960662E-3   3.207316578482278E-3  
 2.590000000000000E10    4.040280997287482E-3   6.510375649668276E-3  
 2.592000000000000E10    6.084427062887698E-3  -5.016079841880128E-3  
 2.594000000000000E10   -5.179320243769325E-3  -5.717727224691771E-3  
 2.596000000000000E10   -5.849097273312509E-3   6.656218698481098E-3  
 2.598000000000000E10    6.572976213647053E-3   5.122077069245279E-3  
 2.600000000000000E10    4.519341120612808E-3  -6.715990981319919E-3  
 2.602000000000000E10   -7.098336252965964E-3  -3.504025335132610E-3  
 2.604000000000000E10   -1.934473792061908E-3   6.873349149827845E-3  
 2.606000000000000E10    6.809728307416663E-3   6.974932166485814E-4  
 2.608000000000000E10   -6.574470171472058E-5  -6.291945494012907E-3  
 2.610000000000000E10   -6.199271403602324E-3   7.409802674374078E-4  
 2.612000000000000E10    2.176575915655121E-3   6.520895636640489E-3  
 2.614000000000000E10    6.151439592940733E-3  -2.745810168562457E-3  
 2.616000000000000E10   -3.372769788256846E-3  -6.500799398054369E-3  
 2.618000000000000E10   -6.489859617431648E-3   3.732568489795085E-3  
 2.620000000000000E10    4.526635195361450E-3   6.381157043506391E-3  
 2.622000000000000E10    5.725422030081973E-3  -5.149210963281803E-3  
 2.624000000000000E10   -5.093321145977825E-3  -5.194604236749001E-3  
 2.626000000000000E10   -4.748217717860825E-3   5.409818899352104E-3  
 2.628000000000000E10    5.779986779089086E-3   3.414854792936239E-3  
 2.630000000000000E10    2.262211521156132E-3  -5.844410887220874E-3  
 2.632000000000000E10   -6.336422462482005E-3  -1.310162537265569E-3  
 2.634000000000000E10   -4.760294706329660E-5   6.224093900527805E-3  
 2.636000000000000E10    6.207059923326597E-3  -1.060631206200924E-3  
 2.638000000000000E10   -1.840147211623844E-3  -6.467558865551837E-3  
 2.640000000000000E10   -6.086332010454498E-3   2.340804749110248E-3  
 2.642000000000000E10    2.688724111067131E-3   6.049285366316326E-3  
 2.644000000000000E10    5.763328255852684E-3  -2.952089584141504E-3  
 2.646000000000000E10   -3.203679305443075E-3  -5.307539977366105E-3  
 2.648000000000000E10   -5.454580197692849E-3   3.852496491163038E-3  
 2.650000000000000E10    3.777729376452044E-3   5.063513614004478E-3  
 2.652000000000000E10    4.019083840830717E-3  -4.225107521051541E-3  
 2.654000000000000E10   -5.247763692750596E-3  -2.751134139543865E-3  
 2.656000000000000E10   -1.516388307209127E-3   5.127664742758498E-3  
 2.658000000000000E10    5.521990402485244E-3   7.387136247416493E-4  
 2.660000000000000E10   -9.712945637829762E-5  -5.706658645067364E-3  
 2.662000000000000E10   -5.842501515871845E-3   1.018610288156197E-3  
 2.664000000000000E10    2.131281034962740E-3   6.352883821818978E-3  
 2.666000000000000E10    5.809372407384217E-3  -2.103972728946246E-3  
 2.668000000000000E10   -2.501701907021925E-3  -5.876965005882084E-3  
 2.670000000000000E10   -5.568852327996865E-3   3.135566606943030E-3  
 2.672000000000000E10    2.894064789870754E-3   4.714216949651018E-3  
 2.674000000000000E10    4.582500332617201E-3  -3.089188707235735E-3  
 2.676000000000000E10   -3.555567316652741E-3  -3.613212960772216E-3  
 2.678000000000000E10   -2.601783162390348E-3   3.564208665920887E-3  
 2.680000000000000E10    3.995352206402458E-3   1.748898837831803E-3  
 2.682000000000000E10    1.799511497665662E-3  -4.159274161793292E-3  
 2.684000000000000E10   -5.047264960012399E-3  -4.743914614664391E-4  
 2.686000000000000E10    4.464479825401213E-4   5.211690237047151E-3  
 2.688000000000000E10    5.659705086145550E-3  -9.674363082012860E-4  
 2.690000000000000E10   -1.488551934016869E-3  -5.428523581940681E-3  
 2.692000000000000E10   -5.942665957263671E-3   1.801582759071607E-3  
 2.694000000000000E10    2.345435052120592E-3   4.543407718301751E-3  
 2.696000000000000E10    4.315259007853456E-3  -2.091138179821428E-3  
 2.698000000000000E10   -2.180697389121633E-3  -4.271644444088452E-3  
 2.700000000000000E10   -3.000013144628611E-3   2.173448054236360E-3  
 2.702000000000000E10    2.471083564159926E-3   2.244226292532403E-3  
 2.704000000000000E10    2.144651080016047E-3  -2.915685836342163E-3  
 2.706000000000000E10   -2.671254347660579E-3  -1.476764111430384E-3  
 2.708000000000000E10   -8.241834420914529E-4   3.557762211130466E-3  
 2.710000000000000E10    3.893163295288105E-3   7.068039576552110E-5  
 2.712000000000000E10    1.676921648652296E-5  -4.278955078916624E-3  
 2.714000000000000E10   -4.243694405886345E-3   5.554839026444824E-4  
 2.716000000000000E10    3.165934649587143E-4   3.937593013688456E-3  
 2.718000000000000E10    4.019530941150151E-3  -7.942766133055557E-4  
 2.720000000000000E10   -1.321029863902368E-3  -4.013736237538979E-3  
 2.722000000000000E10   -3.621622221544385E-3   1.063585666997824E-3  
 2.724000000000000E10    1.834199611039367E-3   2.761847033980303E-3  
 2.726000000000000E10    2.380530815571547E-3  -1.905646247905679E-3  
 2.728000000000000E10   -1.935305437655188E-3  -1.567746396176517E-3  
 2.730000000000000E10   -1.086528180167079E-3   2.301886997884139E-3  
 2.732000000000000E10    2.355663273192477E-3   8.999740039143944E-4  
 2.734000000000000E10    3.877568979078205E-4  -2.604653273010626E-3  
 2.736000000000000E10   -3.455486301390920E-3   2.197390574565361E-5  
 2.738000000000000E10   -8.684528384037549E-4   3.259030694607645E-3  
 2.740000000000000E10    3.320641000755131E-3   1.277389339975343E-4  
 2.742000000000000E10   -1.735129616378117E-4  -3.800221304118168E-3  
 2.744000000000000E10   -3.297114213637542E-3  -1.074838739896222E-4  
 2.746000000000000E10    1.713229312372278E-4   2.678980359632988E-3  
 2.748000000000000E10    2.629291215271223E-3  -3.267060942562239E-4  
 2.750000000000000E10   -8.813527547317790E-4  -1.964712289918680E-3  
 2.752000000000000E10   -1.513697698101169E-3   1.304701763729099E-3  
 2.754000000000000E10    1.401640613039490E-3   1.810402529372368E-3  
 2.756000000000000E10    7.550048103439622E-4  -1.925741402374115E-3  
