#  HZ   S   RI   R     50.00 
! Rohde & Schwarz ZVA40 4Ports - Version 3.90 - 1145.1110k42 SN: 100403
! Date: 2023-10-04 06:16:16
! Measurement: S12 
! 
 2.200000000000000E10   -5.970696711301571E-3  -8.951288997195661E-3  
 2.202000000000000E10   -7.646173671673751E-3   5.999660144880181E-3  
 2.204000000000000E10    8.035635793930851E-3   6.421514714020304E-3  
 2.206000000000000E10    6.286510517384158E-3  -8.881830501195509E-3  
 2.208000000000000E10   -9.044124912179541E-3  -5.629024959489470E-3  
 2.210000000000000E10   -3.647513081887155E-3   9.465573049965315E-3  
 2.212000000000000E10    1.075279948418029E-2   3.210620623576688E-3  
 2.214000000000000E10    2.567690273281187E-3  -1.209978113911348E-2  
 2.216000000000000E10   -1.232769851048943E-2  -1.207615970997722E-3  
 2.218000000000000E10   -4.468060803901608E-4   1.303670500783483E-2  
 2.220000000000000E10    1.298482312995475E-2  -1.826775754125265E-3  
 2.222000000000000E10   -3.180171157509903E-3  -1.320992646651575E-2  
 2.224000000000000E10   -1.197689025866566E-2   4.905303856503451E-3  
 2.226000000000000E10    6.151685996883316E-3   9.634446432755794E-3  
 2.228000000000000E10    9.233258184394799E-3  -6.902786270075012E-3  
 2.230000000000000E10   -8.113441203022376E-3  -8.058057203015778E-3  
 2.232000000000000E10   -7.271561524248682E-3   8.910121905501001E-3  
 2.234000000000000E10    1.001749691204168E-2   6.395021773641929E-3  
 2.236000000000000E10    4.149827520450344E-3  -1.140402076998726E-2  
 2.238000000000000E10   -1.337766277720220E-2  -3.152547607896850E-3  
 2.240000000000000E10   -2.114845037795021E-3   1.389164647844154E-2  
 2.242000000000000E10    1.350791003642371E-2  -1.104855349467471E-4  
 2.244000000000000E10   -2.307227565324865E-3  -1.358875499863643E-2  
 2.246000000000000E10   -1.315620008244878E-2   3.110012325123535E-3  
 2.248000000000000E10    2.874528594475123E-3   1.339610432478366E-2  
 2.250000000000000E10    1.322121592238545E-2  -4.668752433644841E-3  
 2.252000000000000E10   -6.939380804396933E-3  -1.133071221556747E-2  
 2.254000000000000E10   -1.124237395561067E-2   8.906376824597828E-3  
 2.256000000000000E10    1.045570998394396E-2   1.005565758532612E-2  
 2.258000000000000E10    7.021758046903415E-3  -1.130906714388402E-2  
 2.260000000000000E10   -1.192962223285576E-2  -5.523955936951097E-3  
 2.262000000000000E10   -4.378466288471827E-3   1.215725594374817E-2  
 2.264000000000000E10    1.217104303941596E-2   4.282714420696721E-3  
 2.266000000000000E10    3.123750442682649E-3  -1.342535998264793E-2  
 2.268000000000000E10   -1.329009583423613E-2  -1.499554231486400E-3  
 2.270000000000000E10    3.290414446155410E-5   1.460547322494676E-2  
 2.272000000000000E10    1.429415027087089E-2  -1.306322001255467E-3  
 2.274000000000000E10   -3.515976357448380E-3  -1.360634146112716E-2  
 2.276000000000000E10   -1.221617015835363E-2   6.000275177939329E-3  
 2.278000000000000E10    6.970728107262403E-3   1.081256563338684E-2  
 2.280000000000000E10    9.867902466794476E-3  -8.285302596050315E-3  
 2.282000000000000E10   -2.122499041433912E-3  -1.309274400409777E-2  
 2.284000000000000E10   -8.582951362768654E-3   1.123847971757641E-2  
 2.286000000000000E10    1.265370138571598E-2   7.068017948768102E-3  
 2.288000000000000E10    6.565179530298337E-3  -1.439267540990841E-2  
 2.290000000000000E10   -1.467029773630202E-2  -4.533773488219595E-3  
 2.292000000000000E10   -2.754016879407573E-3   1.448625782359159E-2  
 2.294000000000000E10    1.449585598311387E-2   1.258681822946528E-3  
 2.296000000000000E10    9.655497558469506E-5  -1.357087883661734E-2  
 2.298000000000000E10   -1.304719853942515E-2   7.037693226266129E-4  
 2.300000000000000E10    2.157859609724255E-3   1.317340805690037E-2  
 2.302000000000000E10    1.279539531969931E-2  -4.639787704945775E-3  
 2.304000000000000E10   -7.234518463519635E-3  -1.239023835660191E-2  
 2.306000000000000E10   -1.084978762082756E-2   9.107599420531187E-3  
 2.308000000000000E10    1.055972176982323E-2   9.180951456073672E-3  
 2.310000000000000E10    7.708550583629403E-3  -1.227291822578991E-2  
 2.312000000000000E10   -1.350605386687676E-2  -6.451092645875178E-3  
 2.314000000000000E10   -5.470165364386048E-3   1.391925091593294E-2  
 2.316000000000000E10    1.459671417251229E-2   4.297159655834548E-3  
 2.318000000000000E10    2.569633310486097E-3  -1.459048814285779E-2  
 2.320000000000000E10   -1.489281552494504E-2  -7.928947266009345E-4  
 2.322000000000000E10    6.469181130341895E-4   1.451795287721325E-2  
 2.324000000000000E10    1.396290170669090E-2  -2.422055029455805E-3  
 2.326000000000000E10   -4.097077089681989E-3  -1.355231941124657E-2  
 2.328000000000000E10   -1.260206410370302E-2   5.997848162223818E-3  
 2.330000000000000E10    8.545952456188388E-3   1.155362598365173E-2  
 2.332000000000000E10    1.057424527971307E-2  -9.074667039385531E-3  
 2.334000000000000E10   -1.049481946392916E-2  -9.685046039521694E-3  
 2.336000000000000E10   -8.398889338423032E-3   1.300603051640792E-2  
 2.338000000000000E10    1.392997681978159E-2   7.533964257163461E-3  
 2.340000000000000E10    5.134730479767313E-3  -1.456783558387542E-2  
 2.342000000000000E10   -1.521122235863004E-2  -3.613691695136367E-3  
 2.344000000000000E10   -1.308202965446981E-3   1.529206630220870E-2  
 2.346000000000000E10    1.437113522115396E-2  -9.706128198558872E-4  
 2.348000000000000E10   -2.297360762895551E-3  -1.323003682773560E-2  
 2.350000000000000E10   -1.246146373159718E-2   3.491039653454209E-3  
 2.352000000000000E10    6.302794601651840E-3   1.223831874813186E-2  
 2.354000000000000E10    1.150819382746704E-2  -7.632636905327672E-3  
 2.356000000000000E10   -8.678322767082136E-3  -1.021412466798211E-2  
 2.358000000000000E10   -9.943285382178146E-3   1.099575126863783E-2  
 2.360000000000000E10    1.272340436844388E-2   9.128460740612354E-3  
 2.362000000000000E10    6.819598176662112E-3  -1.352718521957286E-2  
 2.364000000000000E10   -1.420029221480945E-2  -5.281814981572097E-3  
 2.366000000000000E10   -3.572288756913622E-3   1.389188148459652E-2  
 2.368000000000000E10    1.405662569595734E-2   2.081225306028500E-3  
 2.370000000000000E10    8.558718614040117E-4  -1.415941841696622E-2  
 2.372000000000000E10   -1.325681831076508E-2   4.034573960325361E-4  
 2.374000000000000E10    2.844014106813120E-3   1.275466646620771E-2  
 2.376000000000000E10    1.229222556867171E-2  -5.368612844904419E-3  
 2.378000000000000E10   -6.695295571262250E-3  -1.078736300405581E-2  
 2.380000000000000E10   -9.520868763502222E-3   8.403134845138993E-3  
 2.382000000000000E10    1.004738956544315E-2   8.646377289551310E-3  
 2.384000000000000E10    7.720082285231911E-3  -1.108710792323109E-2  
 2.386000000000000E10   -1.244794601370813E-2  -7.132568971428555E-3  
 2.388000000000000E10   -5.906769543798873E-3   1.326598179002758E-2  
 2.390000000000000E10    1.385810128704179E-2   4.676669828768354E-3  
 2.392000000000000E10    2.585660311524407E-3  -1.436269319674466E-2  
 2.394000000000000E10   -1.434133252041647E-2  -1.580398838086694E-3  
 2.396000000000000E10    7.125358583834895E-4   1.393614940752741E-2  
 2.398000000000000E10    1.235275275394088E-2  -2.911113766458584E-3  
 2.400000000000000E10   -4.188847542536678E-3  -1.130280092911562E-2  
 2.402000000000000E10   -9.623397760151420E-3   7.774586130835814E-3  
 2.404000000000000E10    7.914929134130944E-3   7.697999950323720E-3  
 2.406000000000000E10    7.568895583972335E-3  -9.363234727061354E-3  
 2.408000000000000E10   -1.079768804629566E-2  -5.985243493341841E-3  
 2.410000000000000E10   -5.516172477655346E-3   1.141988456220133E-2  
 2.412000000000000E10    1.186996879550861E-2   4.094160449312767E-3  
 2.414000000000000E10    2.228525943792192E-3  -1.163255124265561E-2  
 2.416000000000000E10   -1.215999679698143E-2  -2.025830459388089E-3  
 2.418000000000000E10   -3.784101049859601E-4   1.172871956077870E-2  
 2.420000000000000E10    1.051533775171265E-2   4.828404257750663E-6  
 2.422000000000000E10   -1.379414771690790E-3  -1.053850296739256E-2  
 2.424000000000000E10   -1.053175319248112E-2   2.834902754329960E-3  
 2.426000000000000E10    4.278338430594886E-3   1.021111188310897E-2  
 2.428000000000000E10    9.064026664418634E-3  -6.007413729093969E-3  
 2.430000000000000E10   -7.676745033677435E-3  -7.877603937231470E-3  
 2.432000000000000E10   -7.532581472332822E-3   9.374099841807038E-3  
 2.434000000000000E10    9.622613484680187E-3   6.350858318910468E-3  
 2.436000000000000E10    5.545290510781342E-3  -9.434522922674660E-3  
 2.438000000000000E10   -9.925115096848458E-3  -4.439795069629327E-3  
 2.440000000000000E10   -4.038755856527132E-3   1.009861163765891E-2  
 2.442000000000000E10    9.824678083532490E-3   3.851883864626871E-3  
 2.444000000000000E10    1.959907152922824E-3  -8.896717758034356E-3  
 2.446000000000000E10   -9.311779147537891E-3  -7.745875195723784E-4  
 2.448000000000000E10   -5.494133593231254E-5   8.979197940789163E-3  
 2.450000000000000E10    8.767642495513428E-3  -1.276732728001662E-3  
 2.452000000000000E10   -3.371474656887585E-3  -8.231642947066575E-3  
 2.454000000000000E10   -7.909670988738071E-3   4.505464803514769E-3  
 2.456000000000000E10    5.407890228525503E-3   7.750834582111565E-3  
 2.458000000000000E10    7.704679119342472E-3  -6.834036568761803E-3  
 2.460000000000000E10   -8.042552843107842E-3  -6.680357946606819E-3  
 2.462000000000000E10   -6.108157056587515E-3   8.642429362225812E-3  
 2.464000000000000E10    8.711342619790230E-3   5.460413114633411E-3  
 2.466000000000000E10    4.402286842378089E-3  -8.740444922295865E-3  
 2.468000000000000E10   -8.577138381951954E-3  -3.601974647608586E-3  
 2.470000000000000E10   -2.459274734064820E-3   8.325052222062368E-3  
 2.472000000000000E10    7.545101801952114E-3   1.434195879483013E-3  
 2.474000000000000E10    5.240258924459340E-4  -7.933938490168657E-3  
 2.476000000000000E10   -7.838305013137870E-3   2.145731425571285E-4  
 2.478000000000000E10    2.275890283272020E-3   7.852275222830940E-3  
 2.480000000000000E10    8.279077243059874E-3  -3.188909691743902E-3  
 2.482000000000000E10   -4.723067875602283E-3  -7.654028442630079E-3  
 2.484000000000000E10   -7.230493421957362E-3   5.495400830113795E-3  
 2.486000000000000E10    6.743892525264528E-3   6.848333054222167E-3  
 2.488000000000000E10    5.361285402614158E-3  -6.654931905359263E-3  
 2.490000000000000E10   -6.369992268446367E-3  -4.662366627599113E-3  
 2.492000000000000E10   -4.325963538576616E-3   6.497073747596005E-3  
 2.494000000000000E10    6.636303485720418E-3   3.107256718067220E-3  
 2.496000000000000E10    2.423384778012405E-3  -6.810838443925604E-3  
 2.498000000000000E10   -6.614646674279356E-3  -1.133925587964768E-3  
 2.500000000000000E10   -1.811813223184799E-4   6.138700045994483E-3  
 2.502000000000000E10    7.044190835586051E-3  -8.420113795182260E-4  
 2.504000000000000E10   -2.043680306087481E-3  -6.365174656821182E-3  
 2.506000000000000E10   -6.508572398161050E-3   2.032233340287348E-3  
 2.508000000000000E10    2.813521901771310E-3   7.230500134028262E-3  
 2.510000000000000E10    7.327222734602401E-3  -3.432357898418559E-3  
 2.512000000000000E10   -4.375675864139339E-3  -7.753893431072356E-3  
 2.514000000000000E10   -6.643251432251418E-3   4.795529664988862E-3  
 2.516000000000000E10    5.239858721324708E-3   5.386580127378693E-3  
 2.518000000000000E10    5.030397616792470E-3  -6.017084422637709E-3  
 2.520000000000000E10   -5.248294804914622E-3  -3.903421640643501E-3  
 2.522000000000000E10   -2.721111246501096E-3   5.421717985882424E-3  
 2.524000000000000E10    5.957688394119032E-3   1.450142707653868E-3  
 2.526000000000000E10    6.525942112602934E-4  -5.245889857178554E-3  
 2.528000000000000E10   -6.201440639415523E-3  -1.547348292660900E-4  
 2.530000000000000E10    8.628940358903492E-4   6.346240224957001E-3  
 2.532000000000000E10    6.214199958776590E-3  -1.990054064663127E-3  
 2.534000000000000E10   -2.688179449251038E-3  -6.911325683176983E-3  
 2.536000000000000E10   -6.480222797108581E-3   2.548743741499493E-3  
 2.538000000000000E10    2.941968705272302E-3   6.137452881375793E-3  
 2.540000000000000E10    6.116766548075248E-3  -4.175135203695390E-3  
 2.542000000000000E10   -3.798411198658869E-3  -5.842771894094767E-3  
 2.544000000000000E10   -4.814792195247719E-3   4.586706458212575E-3  
 2.546000000000000E10    4.478036720684031E-3   3.541067722835578E-3  
 2.548000000000000E10    2.502802828530548E-3  -5.254166062513832E-3  
 2.550000000000000E10   -5.524639291252242E-3  -1.444723144231830E-3  
 2.552000000000000E10   -7.962444251461420E-4   5.414185536210425E-3  
 2.554000000000000E10    5.226314242463559E-3  -7.224569276331749E-4  
 2.556000000000000E10   -1.356087117528659E-3  -5.777456070063636E-3  
 2.558000000000000E10   -6.586524861631915E-3   1.111661534196173E-3  
 2.560000000000000E10    2.047075700829737E-3   6.324697213131003E-3  
 2.562000000000000E10    5.715716146369232E-3  -2.549907398133655E-3  
 2.564000000000000E10   -2.569105414295336E-3  -5.678893481672276E-3  
 2.566000000000000E10   -5.701513964595506E-3   3.235132464396884E-3  
 2.568000000000000E10    3.515930358844344E-3   5.006433562812163E-3  
 2.570000000000000E10    3.917112004273804E-3  -3.548990904164384E-3  
 2.572000000000000E10   -4.372553477878682E-3  -2.955211588414386E-3  
 2.574000000000000E10   -2.187543934269343E-3   4.599349900672678E-3  
 2.576000000000000E10    5.419883880676935E-3   1.438669345589005E-3  
 2.578000000000000E10    2.712274990699370E-4  -5.915142130106688E-3  
 2.580000000000000E10   -5.438932716060663E-3   5.981625859021733E-4  
 2.582000000000000E10    7.109978482731094E-4   6.079138871427858E-3  
 2.584000000000000E10    6.070579274819465E-3  -1.586400861924631E-3  
 2.586000000000000E10   -1.582247696205741E-3  -6.186614540638402E-3  
 2.588000000000000E10   -6.062107790057780E-3   2.034151830230258E-3  
 2.590000000000000E10    2.172280226659495E-3   5.472126842505531E-3  
 2.592000000000000E10    5.378760797611903E-3  -2.477679341609473E-3  
 2.594000000000000E10   -2.961217687698081E-3  -4.924792810925283E-3  
 2.596000000000000E10   -4.026483442430617E-3   3.600650468797539E-3  
 2.598000000000000E10    3.907242569766822E-3   3.451886976108654E-3  
 2.600000000000000E10    2.595752786874073E-3  -4.780763054441195E-3  
 2.602000000000000E10   -5.410422098066192E-3  -1.757572977112432E-3  
 2.604000000000000E10   -5.903060621221812E-4   5.774986049800646E-3  
 2.606000000000000E10    5.401412043283926E-3   3.011943266528760E-5  
 2.608000000000000E10   -4.011707048903190E-4  -6.507906891783932E-3  
 2.610000000000000E10   -5.709181295969756E-3   6.945636064301652E-4  
 2.612000000000000E10    6.348362421704223E-4   5.523164814803749E-3  
 2.614000000000000E10    5.904282370465808E-3  -1.187415206914011E-3  
 2.616000000000000E10   -1.650871902711515E-3  -4.935526663757628E-3  
 2.618000000000000E10   -4.414118331624195E-3   1.787726328984718E-3  
 2.620000000000000E10    2.283918085595360E-3   4.077897350725834E-3  
 2.622000000000000E10    3.263627399064717E-3  -2.761547131740372E-3  
 2.624000000000000E10   -3.552224827217287E-3  -3.140645056191715E-3  
 2.626000000000000E10   -2.253641609058832E-3   3.999532680609264E-3  
 2.628000000000000E10    4.672249888244551E-3   1.775715724761540E-3  
 2.630000000000000E10    1.404838735652447E-3  -5.757895036367700E-3  
 2.632000000000000E10   -4.991685447748750E-3  -8.051325635278772E-4  
 2.634000000000000E10   -5.488996621352271E-4   5.493471679073991E-3  
 2.636000000000000E10    5.778791473858291E-3   4.396039457787992E-5  
 2.638000000000000E10   -2.782009041197853E-4  -5.311347453243798E-3  
 2.640000000000000E10   -4.646859935746761E-3   7.488041346732643E-4  
 2.642000000000000E10    9.722504455567105E-4   4.130801971768960E-3  
 2.644000000000000E10    4.024065392513876E-3  -1.392071355439839E-3  
 2.646000000000000E10   -1.896163464152778E-3  -2.761600613666815E-3  
 2.648000000000000E10   -2.030839095823467E-3   2.225867221568478E-3  
 2.650000000000000E10    3.456105128861964E-3   2.155493690224830E-3  
 2.652000000000000E10    1.711510433779040E-3  -3.827574444585480E-3  
 2.654000000000000E10   -4.074684609804535E-3  -1.528432529084967E-3  
 2.656000000000000E10   -6.398891050594102E-4   4.701695455878507E-3  
 2.658000000000000E10    4.804842559678946E-3   3.771848287215107E-4  
 2.660000000000000E10    2.859506455479277E-4  -5.221652954787714E-3  
 2.662000000000000E10   -4.676595846831333E-3  -3.235212550407596E-4  
 2.664000000000000E10    3.198174990757252E-4   4.055155059177196E-3  
 2.666000000000000E10    4.230357742926572E-3  -4.165818313595082E-4  
 2.668000000000000E10   -6.927158133294142E-4  -3.512845592922531E-3  
 2.670000000000000E10   -2.638437539644656E-3   1.335333147835627E-3  
 2.672000000000000E10    1.784818801752408E-3   2.232562317658449E-3  
 2.674000000000000E10    2.112538240908179E-3  -1.984475007702713E-3  
 2.676000000000000E10   -2.864448915715911E-3  -1.490337146606180E-3  
 2.678000000000000E10   -1.159277581791685E-3   2.962273218145128E-3  
 2.680000000000000E10    3.468457936833147E-3   9.081601087927993E-4  
 2.682000000000000E10    9.204626558130258E-4  -3.827230086244526E-3  
 2.684000000000000E10   -4.442114553967258E-3  -1.503321839663840E-3  
 2.686000000000000E10   -4.578373177537287E-4   4.001076362328604E-3  
 2.688000000000000E10    3.760324321774533E-3   6.055160979201446E-5  
 2.690000000000000E10   -9.766461477056510E-5  -3.707220779688214E-3  
 2.692000000000000E10   -2.999756348799565E-3   3.034234365486555E-4  
 2.694000000000000E10    1.043197224134929E-3   2.517461685783928E-3  
 2.696000000000000E10    1.947717133589322E-3  -1.093548195967742E-3  
 2.698000000000000E10   -1.432576760635129E-3  -1.574174310007948E-3  
 2.700000000000000E10   -1.793640262803820E-3   2.469877010298660E-3  
 2.702000000000000E10    2.086896616674494E-3   1.036713913890708E-3  
 2.704000000000000E10    1.095662256830110E-3  -2.592496894067153E-3  
 2.706000000000000E10   -3.464826069830451E-3  -9.998779673878744E-4  
 2.708000000000000E10   -1.374048686557217E-3   3.159781659633154E-3  
 2.710000000000000E10    3.303689800304710E-3   1.038006998896890E-3  
 2.712000000000000E10    4.702963890395040E-4  -3.275611104982090E-3  
 2.714000000000000E10   -2.964383957078098E-3  -3.442976667429321E-4  
 2.716000000000000E10    2.043413307237785E-4   2.663037881575292E-3  
 2.718000000000000E10    1.911812209982600E-3   1.488886636593634E-4  
 2.720000000000000E10   -6.567849982275220E-4  -1.831186854360567E-3  
 2.722000000000000E10   -1.619680863768735E-3   1.540203844342614E-3  
 2.724000000000000E10    1.490032037509081E-3   1.795410619706672E-3  
 2.726000000000000E10    1.025901654429617E-3  -2.200092714701896E-3  
 2.728000000000000E10   -2.554075796069810E-3  -9.493584138908773E-4  
 2.730000000000000E10   -8.265978713097866E-4   2.601121155748842E-3  
 2.732000000000000E10    2.974927963805385E-3   7.365693627434666E-4  
 2.734000000000000E10    1.184086404464324E-3  -2.385583946306724E-3  
 2.736000000000000E10   -2.293920113515924E-3  -8.271780529867101E-4  
 2.738000000000000E10   -1.839867754824809E-4   2.575827267719433E-3  
 2.740000000000000E10    2.153627112420509E-3   9.236937776222476E-4  
 2.742000000000000E10    4.196229502895221E-5  -1.308048432292708E-3  
 2.744000000000000E10   -1.349952937744092E-3   6.018540734658018E-4  
 2.746000000000000E10    9.685951040410146E-4   1.148598325016792E-3  
 2.748000000000000E10    7.676440473005641E-4  -1.007942235901282E-3  
 2.750000000000000E10   -1.184873529382458E-3  -8.354373399015458E-4  
 2.752000000000000E10   -3.842810726837342E-4   1.558582131110597E-3  
 2.754000000000000E10    2.249998844490619E-3   5.600978774964460E-4  
 2.756000000000000E10    1.210004138556542E-3  -1.728974601974187E-3  
