#  HZ   S   RI   R     50.00 
! Rohde & Schwarz ZVA40 4Ports - Version 3.90 - 1145.1110k42 SN: 100403
! Date: 2023-10-04 06:16:51
! Measurement: S12 
! 
 2.200000000000000E10   -5.961127128102817E-3  -8.330231270520017E-3  
 2.202000000000000E10   -7.179085179814138E-3   7.259742291353177E-3  
 2.204000000000000E10    8.346201982931234E-3   6.805715049267747E-3  
 2.206000000000000E10    5.356674198992550E-3  -7.848474415368401E-3  
 2.208000000000000E10   -9.144265248323791E-3  -3.976992225943832E-3  
 2.210000000000000E10   -2.758076971076662E-3   1.049255525867920E-2  
 2.212000000000000E10    1.010704798682127E-2   2.268932104925625E-3  
 2.214000000000000E10    1.700761957181385E-3  -1.095071679446846E-2  
 2.216000000000000E10   -1.123943274433259E-2   1.486142484736774E-4  
 2.218000000000000E10    1.584971763804788E-3   1.173604890936986E-2  
 2.220000000000000E10    1.209937829116825E-2  -3.086011758568930E-3  
 2.222000000000000E10   -4.234745196299627E-3  -1.128242150298320E-2  
 2.224000000000000E10   -9.860128586296924E-3   6.639472732786089E-3  
 2.226000000000000E10    7.908439918537624E-3   8.521674462826923E-3  
 2.228000000000000E10    7.458173808117863E-3  -8.590766577981412E-3  
 2.230000000000000E10   -8.847358200000599E-3  -6.629490417253692E-3  
 2.232000000000000E10   -5.173396988539025E-3   9.921692821080796E-3  
 2.234000000000000E10    1.155032606038731E-2   4.149231113842689E-3  
 2.236000000000000E10    3.159422318276484E-3  -1.266629550082143E-2  
 2.238000000000000E10   -1.253212915617041E-2  -2.499572681699647E-3  
 2.240000000000000E10   -5.832208335050382E-4   1.338493816729169E-2  
 2.242000000000000E10    1.367549678252544E-2  -2.067983732558787E-3  
 2.244000000000000E10   -2.539217766752699E-3  -1.270543914870359E-2  
 2.246000000000000E10   -1.188164697668981E-2   2.610921015730128E-3  
 2.248000000000000E10    4.081574057636317E-3   1.061513536842540E-2  
 2.250000000000000E10    1.111317094182596E-2  -6.434638045902830E-3  
 2.252000000000000E10   -7.966270699398592E-3  -1.018456392921507E-2  
 2.254000000000000E10   -9.099022892769426E-3   8.841262257192284E-3  
 2.256000000000000E10    1.086889771977440E-2   6.824843701906502E-3  
 2.258000000000000E10    4.745494821690954E-3  -1.257785721099936E-2  
 2.260000000000000E10   -1.214024334331043E-2  -4.216950030240696E-3  
 2.262000000000000E10   -2.808956403896445E-3   1.199291802186053E-2  
 2.264000000000000E10    1.248127188591752E-2   2.093808634526795E-3  
 2.266000000000000E10    8.904179649107391E-4  -1.362567956675775E-2  
 2.268000000000000E10   -1.378717336046975E-2  -1.593593929101189E-4  
 2.270000000000000E10    1.440717207515263E-3   1.392820755427238E-2  
 2.272000000000000E10    1.332563112373464E-2  -3.394148054212565E-3  
 2.274000000000000E10   -4.767850849020761E-3  -1.301287602109369E-2  
 2.276000000000000E10   -1.197980060533155E-2   6.908362978720106E-3  
 2.278000000000000E10    8.056423932430334E-3   1.078377976955380E-2  
 2.280000000000000E10    9.428140590898693E-3  -9.308600332587957E-3  
 2.282000000000000E10   -4.173330205958337E-3  -1.232717464154121E-2  
 2.284000000000000E10   -7.375415894784965E-3   1.177555916365236E-2  
 2.286000000000000E10    1.301435026107356E-2   6.156013369036373E-3  
 2.288000000000000E10    4.334276694862638E-3  -1.315434918797109E-2  
 2.290000000000000E10   -1.374961766123306E-2  -2.744104305747896E-3  
 2.292000000000000E10   -6.268953297876578E-4   1.413295663951431E-2  
 2.294000000000000E10    1.333341091230977E-2  -4.931028424834949E-4  
 2.296000000000000E10   -1.470669471018482E-3  -1.228076347615570E-2  
 2.298000000000000E10   -1.186483126366511E-2   2.523171264328994E-3  
 2.300000000000000E10    4.512497973337304E-3   1.232688737218268E-2  
 2.302000000000000E10    1.198353493236937E-2  -6.477972172433510E-3  
 2.304000000000000E10   -8.055462109041400E-3  -1.060331464395858E-2  
 2.306000000000000E10   -9.417493216460571E-3   1.055492424347904E-2  
 2.308000000000000E10    1.204488695657346E-2   8.212624597945251E-3  
 2.310000000000000E10    6.670042726909742E-3  -1.303246684256010E-2  
 2.312000000000000E10   -1.383759369491600E-2  -4.736824965220876E-3  
 2.314000000000000E10   -3.896647496731021E-3   1.334687553753611E-2  
 2.316000000000000E10    1.426074421033263E-2   2.394931714661652E-3  
 2.318000000000000E10    9.215175214194460E-4  -1.398175138456281E-2  
 2.320000000000000E10   -1.339423590980005E-2   2.841507107405050E-4  
 2.322000000000000E10    1.812201855500462E-3   1.296177614131011E-2  
 2.324000000000000E10    1.269127886916976E-2  -3.370602466020500E-3  
 2.326000000000000E10   -5.397143904701807E-3  -1.214085909305140E-2  
 2.328000000000000E10   -1.064713676169049E-2   7.936712907394394E-3  
 2.330000000000000E10    9.084638280910440E-3   9.522927808575332E-3  
 2.332000000000000E10    8.064407462370582E-3  -1.081736330525018E-2  
 2.334000000000000E10   -1.197905531444121E-2  -7.170382064941805E-3  
 2.336000000000000E10   -6.237786677957047E-3   1.308946625795215E-2  
 2.338000000000000E10    1.406151661649346E-2   4.196783091174439E-3  
 2.340000000000000E10    2.810702702845447E-3  -1.531545376928989E-2  
 2.342000000000000E10   -1.509214444376994E-2  -1.056351997249294E-3  
 2.344000000000000E10    1.400558281602571E-3   1.454242646286730E-2  
 2.346000000000000E10    1.360371753980871E-2  -2.745085454080254E-3  
 2.348000000000000E10   -4.141144112509210E-3  -1.166365110839251E-2  
 2.350000000000000E10   -1.153262519801501E-2   5.594600421318319E-3  
 2.352000000000000E10    6.986020183830988E-3   1.044167022337206E-2  
 2.354000000000000E10    8.793859262368642E-3  -7.724215385678690E-3  
 2.356000000000000E10   -9.934729911037721E-3  -8.220228948630393E-3  
 2.358000000000000E10   -7.667706217034720E-3   1.124346793221775E-2  
 2.360000000000000E10    1.235396828269586E-2   5.740236731071491E-3  
 2.362000000000000E10    4.237192042637616E-3  -1.377135296934284E-2  
 2.364000000000000E10   -1.381991035304964E-2  -2.197168974817032E-3  
 2.366000000000000E10   -5.643707390845520E-4   1.347489606996533E-2  
 2.368000000000000E10    1.270720933098346E-2  -4.550414960249327E-4  
 2.370000000000000E10   -1.326067540503573E-3  -1.222806093574036E-2  
 2.372000000000000E10   -1.177304252632894E-2   3.068036621698411E-3  
 2.374000000000000E10    4.826331758522429E-3   1.147397825843655E-2  
 2.376000000000000E10    1.023259313660674E-2  -6.357131787808612E-3  
 2.378000000000000E10   -7.753633923130110E-3  -8.215237961849198E-3  
 2.380000000000000E10   -7.288166067155544E-3   9.689383616205305E-3  
 2.382000000000000E10    1.037380677007604E-2   6.437305622966960E-3  
 2.384000000000000E10    5.733762802265119E-3  -1.030077112955041E-2  
 2.386000000000000E10   -1.125431075342931E-2  -4.991200279619079E-3  
 2.388000000000000E10   -3.810648027865682E-3   1.224963471759111E-2  
 2.390000000000000E10    1.272160396911204E-2   2.556127004936570E-3  
 2.392000000000000E10    1.618061896806466E-3  -1.319195884570945E-2  
 2.394000000000000E10   -1.204854415846057E-2   6.465412288889638E-4  
 2.396000000000000E10    2.827296786563238E-3   1.177717513928656E-2  
 2.398000000000000E10    1.042269288154785E-2  -4.772686959768180E-3  
 2.400000000000000E10   -5.459417989186477E-3  -8.754109687288292E-3  
 2.402000000000000E10   -6.857600630610250E-3   7.974519801791757E-3  
 2.404000000000000E10    8.765888225752860E-3   4.998608746973332E-3  
 2.406000000000000E10    4.799446243850980E-3  -1.006884453818202E-2  
 2.408000000000000E10   -1.092983687703963E-2  -3.966009997384390E-3  
 2.410000000000000E10   -2.876282334909774E-3   1.095074605836999E-2  
 2.412000000000000E10    1.164354680804536E-2   1.622112573386403E-3  
 2.414000000000000E10    8.417897061008262E-4  -1.171705612796359E-2  
 2.416000000000000E10   -1.088227548461873E-2  -9.814298264245736E-4  
 2.418000000000000E10    1.026428368277266E-3   1.071920144022442E-2  
 2.420000000000000E10    9.314329581684433E-3  -1.722670142044080E-3  
 2.422000000000000E10   -1.932225310156355E-3  -9.551967668812722E-3  
 2.424000000000000E10   -8.838069232297130E-3   3.598667710321024E-3  
 2.426000000000000E10    4.683228580688592E-3   7.666045639780350E-3  
 2.428000000000000E10    6.846545329608489E-3  -6.920626692590304E-3  
 2.430000000000000E10   -7.984830386703834E-3  -5.908836537855677E-3  
 2.432000000000000E10   -5.031310800404754E-3   8.652944496134296E-3  
 2.434000000000000E10    9.082259872229770E-3   3.370672773598926E-3  
 2.436000000000000E10    2.426710998406634E-3  -9.140683803707361E-3  
 2.438000000000000E10   -9.232130745658651E-3  -2.118342443282018E-3  
 2.440000000000000E10   -1.662361682974733E-3   9.292130125686526E-3  
 2.442000000000000E10    8.839561458444223E-3   9.300387328039506E-4  
 2.444000000000000E10   -4.343615610196139E-4  -8.673648248077370E-3  
 2.446000000000000E10   -8.298067070427351E-3   6.170090318846633E-4  
 2.448000000000000E10    1.609923348951270E-3   7.795463825459592E-3  
 2.450000000000000E10    7.625888705661055E-3  -2.972587324620690E-3  
 2.452000000000000E10   -3.952187667891849E-3  -7.021011595497839E-3  
 2.454000000000000E10   -6.306964343821164E-3   5.446499249956105E-3  
 2.456000000000000E10    6.007841744576581E-3   5.920592375332490E-3  
 2.458000000000000E10    5.675387117662467E-3  -7.027884013950825E-3  
 2.460000000000000E10   -7.595935887366068E-3  -4.803776035259944E-3  
 2.462000000000000E10   -4.060359431605320E-3   8.174217407940887E-3  
 2.464000000000000E10    8.042523462790996E-3   3.345128759974614E-3  
 2.466000000000000E10    2.728443843807327E-3  -7.959713373566046E-3  
 2.468000000000000E10   -7.155445942771621E-3  -2.052874340733979E-3  
 2.470000000000000E10   -9.088343367693597E-4   7.120810230844654E-3  
 2.472000000000000E10    6.688826790195890E-3   3.626595068908500E-4  
 2.474000000000000E10   -5.956502691333299E-4  -6.175080379762221E-3  
 2.476000000000000E10   -5.992829639581032E-3   1.640511767618591E-3  
 2.478000000000000E10    3.413479178561829E-3   6.103037878347095E-3  
 2.480000000000000E10    5.678719579009339E-3  -4.118233890039846E-3  
 2.482000000000000E10   -5.301489291014150E-3  -5.284782964736223E-3  
 2.484000000000000E10   -4.765492420119699E-3   6.088979447667953E-3  
 2.486000000000000E10    6.742327117535751E-3   3.958846755267587E-3  
 2.488000000000000E10    3.528480032400694E-3  -6.613016055780463E-3  
 2.490000000000000E10   -6.376419180014636E-3  -3.296051672805334E-3  
 2.492000000000000E10   -3.065364613576094E-3   6.271325888519641E-3  
 2.494000000000000E10    6.494109897175804E-3   2.271292483783327E-3  
 2.496000000000000E10    1.327227186266100E-3  -5.929721199208871E-3  
 2.498000000000000E10   -5.861090365215205E-3  -4.740913077512232E-4  
 2.500000000000000E10    3.904377495018707E-4   5.665818040142767E-3  
 2.502000000000000E10    5.185877627809532E-3  -8.624807751402841E-4  
 2.504000000000000E10   -2.170727304473985E-3  -5.201539315748960E-3  
 2.506000000000000E10   -4.805343553016428E-3   2.458738053974230E-3  
 2.508000000000000E10    3.119024866464315E-3   5.520263897778932E-3  
 2.510000000000000E10    5.252627182926517E-3  -4.297784209484235E-3  
 2.512000000000000E10   -4.363723826827481E-3  -4.524190822849050E-3  
 2.514000000000000E10   -4.433806963788811E-3   5.430790573882405E-3  
 2.516000000000000E10    5.211085910559632E-3   4.025407921290025E-3  
 2.518000000000000E10    3.161951983202016E-3  -4.487749196414370E-3  
 2.520000000000000E10   -5.065026387455873E-3  -2.200534465373494E-3  
 2.522000000000000E10   -1.510692958618165E-3   5.019942305807490E-3  
 2.524000000000000E10    4.218259062326979E-3   1.176054971438134E-3  
 2.526000000000000E10   -3.962259488616837E-4  -4.687997527071275E-3  
 2.528000000000000E10   -4.707558146037627E-3   4.194264465695596E-4  
 2.530000000000000E10    1.922602081322111E-3   5.092074199637864E-3  
 2.532000000000000E10    4.959108657203615E-3  -2.594174246041803E-3  
 2.534000000000000E10   -2.562504087109119E-3  -5.210047274886165E-3  
 2.536000000000000E10   -4.547303346043918E-3   3.850862460240023E-3  
 2.538000000000000E10    3.469943967502331E-3   4.915279016131535E-3  
 2.540000000000000E10    5.012103370972909E-3  -3.949271813326050E-3  
 2.542000000000000E10   -4.191001666185912E-3  -3.714363956532907E-3  
 2.544000000000000E10   -3.485068195004715E-3   4.035354562802240E-3  
 2.546000000000000E10    4.339163533586543E-3   2.570801119873067E-3  
 2.548000000000000E10    1.983899353945162E-3  -4.207798781862948E-3  
 2.550000000000000E10   -4.001838198746555E-3  -9.654563000367489E-4  
 2.552000000000000E10    5.747458922087390E-4   3.901504194800509E-3  
 2.554000000000000E10    4.115387011552230E-3  -9.771728537089075E-4  
 2.556000000000000E10   -1.222907394549111E-3  -3.990225712186657E-3  
 2.558000000000000E10   -4.155091104621533E-3   2.267497282446129E-3  
 2.560000000000000E10    2.905428198573645E-3   3.972225313191302E-3  
 2.562000000000000E10    4.096381839190144E-3  -2.898875605751528E-3  
 2.564000000000000E10   -3.209612819773611E-3  -3.967203098000027E-3  
 2.566000000000000E10   -3.815797732386272E-3   3.304513207694981E-3  
 2.568000000000000E10    3.568987180187833E-3   3.226120181352599E-3  
 2.570000000000000E10    2.911578594648745E-3  -3.917913960322039E-3  
 2.572000000000000E10   -3.305791764432797E-3  -2.099827292113332E-3  
 2.574000000000000E10   -1.044837785229902E-3   3.578189356630901E-3  
 2.576000000000000E10    3.856446608551778E-3   3.587720807445294E-4  
 2.578000000000000E10   -3.719842311511457E-4  -3.862095767544815E-3  
 2.580000000000000E10   -3.673793951747939E-3   9.814303994062357E-4  
 2.582000000000000E10    1.133648927861941E-3   3.838278473267565E-3  
 2.584000000000000E10    4.056589299580082E-3  -2.007176030019764E-3  
 2.586000000000000E10   -2.063825158984400E-3  -4.113167888135649E-3  
 2.588000000000000E10   -4.407396612805314E-3   2.196752506279154E-3  
 2.590000000000000E10    2.710532338824123E-3   4.071206683875062E-3  
 2.592000000000000E10    3.923947922885418E-3  -2.390860430750763E-3  
 2.594000000000000E10   -2.886229976866162E-3  -3.380354250111850E-3  
 2.596000000000000E10   -2.657163862750167E-3   2.824899875122355E-3  
 2.598000000000000E10    2.902419550082414E-3   2.357832308916841E-3  
 2.600000000000000E10    1.420549224349088E-3  -3.498734600725584E-3  
 2.602000000000000E10   -3.192200500052422E-3  -8.627949027868453E-4  
 2.604000000000000E10    7.175508062573499E-5   3.864906160742976E-3  
 2.606000000000000E10    3.925433906260878E-3  -9.643835164752090E-4  
 2.608000000000000E10   -8.050108308452764E-4  -3.865270344249439E-3  
 2.610000000000000E10   -4.450749889656436E-3   1.522931721410714E-3  
 2.612000000000000E10    1.542289730423363E-3   4.405409854371101E-3  
 2.614000000000000E10    4.185235899058171E-3  -1.399145403411239E-3  
 2.616000000000000E10   -1.987615974940127E-3  -4.086138593265787E-3  
 2.618000000000000E10   -3.769945284147980E-3   1.670100984483725E-3  
 2.620000000000000E10    1.894821891255560E-3   3.423431247938424E-3  
 2.622000000000000E10    2.647425397299230E-3  -1.992107376281638E-3  
 2.624000000000000E10   -2.223914405476535E-3  -2.406607782177161E-3  
 2.626000000000000E10   -1.446124193535070E-3   3.380038859177148E-3  
 2.628000000000000E10    3.384354055015137E-3   1.051253702826216E-3  
 2.630000000000000E10    2.624115209073352E-4  -3.501183480693726E-3  
 2.632000000000000E10   -3.937745350413024E-3   9.487131128480542E-4  
 2.634000000000000E10    4.425618108143681E-4   4.490956140216440E-3  
 2.636000000000000E10    4.371343376988079E-3  -9.550436770950910E-4  
 2.638000000000000E10   -1.684300021224772E-3  -3.725506845512427E-3  
 2.640000000000000E10   -3.990500692452770E-3   1.400710843881825E-3  
 2.642000000000000E10    1.997184590436518E-3   3.400752579182154E-3  
 2.644000000000000E10    2.762446092674509E-3  -1.502913255535532E-3  
 2.646000000000000E10   -1.717368197205360E-3  -2.232429647847312E-3  
 2.648000000000000E10   -1.431836510164430E-3   2.281192617374472E-3  
 2.650000000000000E10    2.089547098876210E-3   1.307886721406248E-3  
 2.652000000000000E10    5.911096868658206E-4  -2.788908335787710E-3  
 2.654000000000000E10   -3.128353760985192E-3   1.057496427279148E-4  
 2.656000000000000E10    3.833315827250772E-4   3.319197759992676E-3  
 2.658000000000000E10    3.263695623900276E-3  -8.607723311797599E-4  
 2.660000000000000E10   -7.428887329297140E-4  -3.545118597685359E-3  
 2.662000000000000E10   -3.634857195720542E-3   9.667434442235390E-4  
 2.664000000000000E10    1.018225621010060E-3   3.423457390454132E-3  
 2.666000000000000E10    3.458787734416546E-3  -1.055608558090171E-3  
 2.668000000000000E10   -1.324778573689400E-3  -2.925741355284117E-3  
 2.670000000000000E10   -2.314157074579271E-3   1.394532671838533E-3  
 2.672000000000000E10    1.945427420650958E-3   1.717764111162978E-3  
 2.674000000000000E10    7.375447830781923E-4  -1.609071256098105E-3  
 2.676000000000000E10   -2.294285393872997E-3  -3.662587123471894E-4  
 2.678000000000000E10    4.895307563401730E-5   2.326524681848241E-3  
 2.680000000000000E10    1.968747103092028E-3  -2.984648858728178E-4  
 2.682000000000000E10   -8.001124424481532E-4  -2.661730730324052E-3  
 2.684000000000000E10   -2.990442539157812E-3   3.963992794524529E-4  
 2.686000000000000E10    4.608798976732942E-4   3.415700950426981E-3  
 2.688000000000000E10    2.589390503999312E-3  -7.096072595231817E-4  
 2.690000000000000E10   -3.261161377849930E-4  -2.822665912390221E-3  
 2.692000000000000E10   -2.514550851628883E-3   1.206825874760398E-3  
 2.694000000000000E10    8.309017603096436E-4   2.138702078809729E-3  
 2.696000000000000E10    1.424613155904808E-3  -9.521512056380743E-4  
 2.698000000000000E10   -1.078493274690118E-3  -5.964254264654301E-4  
 2.700000000000000E10   -6.459767746491707E-4   1.514045194198843E-3  
 2.702000000000000E10    1.633234267501393E-3  -1.180973965801968E-4  
 2.704000000000000E10   -2.612662203773652E-4  -1.456153648177860E-3  
 2.706000000000000E10   -1.929315838424373E-3   2.602917320473352E-4  
 2.708000000000000E10    7.439355867973063E-4   1.923156860357267E-3  
 2.710000000000000E10    2.326613106561126E-3  -2.316308914487308E-4  
 2.712000000000000E10   -1.900045497222891E-4  -2.432407687592786E-3  
 2.714000000000000E10   -1.808425766284927E-3   1.082199494117919E-4  
 2.716000000000000E10    3.005300914082909E-4   2.066465829557274E-3  
 2.718000000000000E10    1.496141549068852E-3   2.117407900641410E-4  
 2.720000000000000E10   -1.934446993345773E-4  -1.540954172014608E-3  
 2.722000000000000E10   -1.151383625256131E-3   3.827004820777802E-4  
 2.724000000000000E10    7.919352501630783E-4   4.444743703970744E-4  
 2.726000000000000E10    7.087932654030738E-4  -1.484802603954449E-3  
 2.728000000000000E10   -1.373341960061225E-3   1.261310188169773E-4  
 2.730000000000000E10    2.620976415528276E-4   1.583902074344223E-3  
 2.732000000000000E10    1.948465920577291E-3  -2.863854379029363E-4  
 2.734000000000000E10   -3.195656713614881E-4  -1.935829641297460E-3  
 2.736000000000000E10   -2.209324058640050E-3  -5.893768445730530E-5  
 2.738000000000000E10   -3.872969500662293E-8   2.016501748585142E-3  
 2.740000000000000E10    1.377739052259130E-3  -1.343294238722592E-4  
 2.742000000000000E10   -8.869292048530042E-5  -1.897995532999630E-3  
 2.744000000000000E10   -1.628475058168988E-3  -4.080137350683799E-4  
 2.746000000000000E10   -2.782455663918881E-5   9.069039406313095E-4  
 2.748000000000000E10    9.267599534723559E-4  -4.637888191609818E-4  
 2.750000000000000E10   -7.689756976105855E-4  -1.535326484827237E-4  
 2.752000000000000E10   -1.807439705316938E-4   1.088036175133311E-3  
 2.754000000000000E10    1.261982088180957E-3  -3.249696578677686E-5  
 2.756000000000000E10   -7.043825871733134E-4  -1.318423330303631E-3  
