#  HZ   S   RI   R     50.00 
! Rohde & Schwarz ZVA40 4Ports - Version 3.90 - 1145.1110k42 SN: 100403
! Date: 2023-10-04 06:18:35
! Measurement: S12 
! 
 2.200000000000000E10   -6.631549811572768E-3  -7.663807547942270E-3  
 2.202000000000000E10   -6.554796804266516E-3   6.655956218310166E-3  
 2.204000000000000E10    6.732436224410776E-3   5.230797039985191E-3  
 2.206000000000000E10    4.086442786501721E-3  -8.591195073677227E-3  
 2.208000000000000E10   -9.357419068692252E-3  -3.302651504782261E-3  
 2.210000000000000E10   -2.752995682385517E-3   8.968554320745170E-3  
 2.212000000000000E10    9.254413234884851E-3   9.044217958944500E-4  
 2.214000000000000E10    5.637758326884068E-4  -1.059436413925141E-2  
 2.216000000000000E10   -1.220668318273965E-2   1.673185868639848E-3  
 2.218000000000000E10    2.284731221152470E-3   1.187950407620519E-2  
 2.220000000000000E10    1.164872545632534E-2  -3.758845163247315E-3  
 2.222000000000000E10   -6.587465977645479E-3  -1.094368952908553E-2  
 2.224000000000000E10   -1.010845725249965E-2   7.410859674564563E-3  
 2.226000000000000E10    7.982239083503373E-3   8.858359637088142E-3  
 2.228000000000000E10    6.914403733389918E-3  -8.498306560795754E-3  
 2.230000000000000E10   -9.585215899278410E-3  -5.724641152482946E-3  
 2.232000000000000E10   -4.936200086376630E-3   1.042116404278204E-2  
 2.234000000000000E10    1.058337805443443E-2   3.816286083747400E-3  
 2.236000000000000E10    1.923566062032478E-3  -1.075920452421997E-2  
 2.238000000000000E10   -1.228605530923232E-2   9.940411084130574E-5  
 2.240000000000000E10    1.145795151387574E-3   1.285657912376337E-2  
 2.242000000000000E10    1.264057923981454E-2  -2.706013448914746E-3  
 2.244000000000000E10   -4.442969504452776E-3  -1.083233146346174E-2  
 2.246000000000000E10   -1.053808574215509E-2   5.550760499318130E-3  
 2.248000000000000E10    6.463779536716174E-3   1.058998533699196E-2  
 2.250000000000000E10    1.044747796549927E-2  -7.134373670851346E-3  
 2.252000000000000E10   -8.898507716367021E-3  -7.774799523758702E-3  
 2.254000000000000E10   -6.869347984320484E-3   1.041741887456738E-2  
 2.256000000000000E10    1.137866603676230E-2   5.892897373996675E-3  
 2.258000000000000E10    2.980634180858033E-3  -1.160743983928114E-2  
 2.260000000000000E10   -1.069767240551300E-2  -2.107794014591491E-3  
 2.262000000000000E10   -9.059081667146529E-4   1.126217230921611E-2  
 2.264000000000000E10    1.153529850125779E-2   5.351681666070363E-4  
 2.266000000000000E10    7.863691298553022E-4  -1.241579222551081E-2  
 2.268000000000000E10   -1.217589092266280E-2   1.224690209710388E-3  
 2.270000000000000E10    2.663105515239295E-3   1.245997105434071E-2  
 2.272000000000000E10    1.268202523351647E-2  -4.067553381901234E-3  
 2.274000000000000E10   -4.974945644789841E-3  -1.153197008534335E-2  
 2.276000000000000E10   -1.023453913512640E-2   6.572013713594060E-3  
 2.278000000000000E10    8.170977554982528E-3   8.555880034691654E-3  
 2.280000000000000E10    6.810634986322839E-3  -9.179907268844545E-3  
 2.282000000000000E10   -4.490627616178244E-3  -1.059151369554456E-2  
 2.284000000000000E10   -4.834315353946295E-3   1.010648767987732E-2  
 2.286000000000000E10    1.160561227879953E-2   3.074659281992354E-3  
 2.288000000000000E10    1.923156894918066E-3  -1.288499878137372E-2  
 2.290000000000000E10   -1.326035584497731E-2  -9.250912717106985E-4  
 2.292000000000000E10    8.244543068940402E-4   1.277182521880604E-2  
 2.294000000000000E10    1.229105367383454E-2  -2.437937419017544E-3  
 2.296000000000000E10   -3.109733745077392E-3  -1.220436950097792E-2  
 2.298000000000000E10   -1.197612096439116E-2   3.823481263680151E-3  
 2.300000000000000E10    4.604050176567398E-3   1.136425137519836E-2  
 2.302000000000000E10    1.013680340838619E-2  -7.127256605599541E-3  
 2.304000000000000E10   -8.739056895137765E-3  -8.910524134989828E-3  
 2.306000000000000E10   -8.186207094695419E-3   9.180021268548444E-3  
 2.308000000000000E10    1.048730855109170E-2   6.313519239483867E-3  
 2.310000000000000E10    3.966779815527843E-3  -1.146826705371495E-2  
 2.312000000000000E10   -1.248088436841499E-2  -3.007461593369953E-3  
 2.314000000000000E10   -1.221059617819265E-3   1.235121127683669E-2  
 2.316000000000000E10    1.244742247217801E-2   5.690960615538643E-4  
 2.318000000000000E10   -9.311879530287115E-4  -1.272651151521131E-2  
 2.320000000000000E10   -1.193687679187860E-2   2.484332770109177E-3  
 2.322000000000000E10    2.887820257456042E-3   1.262497589050327E-2  
 2.324000000000000E10    1.133782729448285E-2  -4.660680759116076E-3  
 2.326000000000000E10   -6.441108263970818E-3  -1.065381703665480E-2  
 2.328000000000000E10   -9.240593280992471E-3   7.800140869221650E-3  
 2.330000000000000E10    9.091914806049317E-3   7.733384125458542E-3  
 2.332000000000000E10    6.362356885802001E-3  -1.002357141987886E-2  
 2.334000000000000E10   -1.078137238800991E-2  -5.086692428449169E-3  
 2.336000000000000E10   -3.507910641928902E-3   1.210297168290708E-2  
 2.338000000000000E10    1.325950589671265E-2   2.856320010323543E-3  
 2.340000000000000E10    7.417255874315742E-4  -1.304823410464451E-2  
 2.342000000000000E10   -1.382708958408330E-2   1.027009913741495E-3  
 2.344000000000000E10    3.043454027647385E-3   1.404680820996873E-2  
 2.346000000000000E10    1.174168616125826E-2  -3.894040324667003E-3  
 2.348000000000000E10   -5.513924261322245E-3  -1.086751143157017E-2  
 2.350000000000000E10   -9.653052125941031E-3   5.638094931782689E-3  
 2.352000000000000E10    6.864838804176543E-3   8.176478397217579E-3  
 2.354000000000000E10    7.562313410744537E-3  -7.979443646036089E-3  
 2.356000000000000E10   -8.984015876194462E-3  -6.219572278496344E-3  
 2.358000000000000E10   -4.501138064370025E-3   1.017308676091489E-2  
 2.360000000000000E10    1.178248377982527E-2   3.086533521127421E-3  
 2.362000000000000E10    1.349953361568623E-3  -1.279085292480886E-2  
 2.364000000000000E10   -1.253847632324323E-2   9.033083497342886E-4  
 2.366000000000000E10    1.968902954104124E-3   1.184983883285895E-2  
 2.368000000000000E10    1.179133864934556E-2  -2.808150977216428E-3  
 2.370000000000000E10   -3.832455742667662E-3  -1.123714233108331E-2  
 2.372000000000000E10   -1.138570620969404E-2   4.397901218908373E-3  
 2.374000000000000E10    5.649200109473895E-3   9.923671881551854E-3  
 2.376000000000000E10    8.399240818107501E-3  -6.717140953696799E-3  
 2.378000000000000E10   -7.900649448856711E-3  -7.059675568598323E-3  
 2.380000000000000E10   -5.516885445103981E-3   8.069978182902560E-3  
 2.382000000000000E10    8.709770903806202E-3   3.938115143682808E-3  
 2.384000000000000E10    2.664178977283882E-3  -9.467250085435808E-3  
 2.386000000000000E10   -9.939419163856655E-3  -1.549686694488628E-3  
 2.388000000000000E10   -8.992897364805685E-4   1.053379733639304E-2  
 2.390000000000000E10    1.113327394705266E-2  -9.200665726893931E-4  
 2.392000000000000E10   -2.187161786423530E-3  -1.121774244529661E-2  
 2.394000000000000E10   -1.165594981284812E-2   3.725937680428615E-3  
 2.396000000000000E10    4.421951707627159E-3   1.020418402913492E-2  
 2.398000000000000E10    8.746553547098301E-3  -5.735509890655521E-3  
 2.400000000000000E10   -6.351316216751002E-3  -7.198783227067906E-3  
 2.402000000000000E10   -5.615311602014117E-3   7.396250905003399E-3  
 2.404000000000000E10    8.230349529185332E-3   4.086522807483561E-3  
 2.406000000000000E10    2.841485169483349E-3  -7.907813414931297E-3  
 2.408000000000000E10   -8.539625530829653E-3  -2.167321443266701E-3  
 2.410000000000000E10   -1.472862114724194E-4   9.721430513309315E-3  
 2.412000000000000E10    8.958890350186266E-3  -1.373892341689498E-4  
 2.414000000000000E10   -1.439967329133651E-3  -8.965679386164993E-3  
 2.416000000000000E10   -8.895696752006188E-3   2.280177544889739E-3  
 2.418000000000000E10    2.336111083423020E-3   8.857411346980371E-3  
 2.420000000000000E10    8.172595844371244E-3  -2.800425354507752E-3  
 2.422000000000000E10   -3.306702834379394E-3  -7.851127971662208E-3  
 2.424000000000000E10   -7.605830294778571E-3   4.364607557363343E-3  
 2.426000000000000E10    5.373643893108238E-3   6.186654514749534E-3  
 2.428000000000000E10    5.048586492193863E-3  -5.381866729294416E-3  
 2.430000000000000E10   -6.688154964649584E-3  -3.624218035838567E-3  
 2.432000000000000E10   -2.313179535121890E-3   7.332517037866637E-3  
 2.434000000000000E10    7.813207601429895E-3   8.843560735840583E-4  
 2.436000000000000E10   -2.675414857549185E-4  -7.509970739192795E-3  
 2.438000000000000E10   -7.682472933083773E-3  -1.044636613585226E-4  
 2.440000000000000E10    4.019948614768509E-4   8.236490510171279E-3  
 2.442000000000000E10    8.433073860942386E-3  -1.564985961522325E-3  
 2.444000000000000E10   -1.262788906387868E-3  -8.337125531397760E-3  
 2.446000000000000E10   -7.497000413422938E-3   2.159707426471869E-3  
 2.448000000000000E10    2.604249079013243E-3   6.869927921798080E-3  
 2.450000000000000E10    6.216173271241132E-3  -2.876992431993131E-3  
 2.452000000000000E10   -3.254054881836055E-3  -5.192073927901220E-3  
 2.454000000000000E10   -4.595512255036738E-3   3.959908975957660E-3  
 2.456000000000000E10    4.159946991421748E-3   3.136402236123104E-3  
 2.458000000000000E10    2.663031300471630E-3  -5.100403199321590E-3  
 2.460000000000000E10   -5.879050950170495E-3  -2.071167504254845E-3  
 2.462000000000000E10   -1.077551547496114E-3   6.462827121140435E-3  
 2.464000000000000E10    6.577269341505598E-3   4.865099526796257E-4  
 2.466000000000000E10   -4.675047674140842E-5  -6.826177814218681E-3  
 2.468000000000000E10   -6.892783909279387E-3   5.744033514929470E-4  
 2.470000000000000E10    7.081114090397023E-4   6.918892278918065E-3  
 2.472000000000000E10    6.012549405568279E-3  -7.726124003966106E-4  
 2.474000000000000E10   -1.630246828426607E-3  -6.091904011555016E-3  
 2.476000000000000E10   -5.573078640736640E-3   1.954588649823563E-3  
 2.478000000000000E10    2.983665079227649E-3   5.124109178723302E-3  
 2.480000000000000E10    3.997527590399841E-3  -3.355127155373339E-3  
 2.482000000000000E10   -3.625905061198864E-3  -3.200757913873531E-3  
 2.484000000000000E10   -2.432465083984425E-3   4.899046536593232E-3  
 2.486000000000000E10    5.478162936924491E-3   1.749997973092832E-3  
 2.488000000000000E10    1.734513865812914E-3  -4.973431721737143E-3  
 2.490000000000000E10   -5.575729781412520E-3  -8.419509376835777E-4  
 2.492000000000000E10   -6.720351138937986E-4   5.844196464749984E-3  
 2.494000000000000E10    6.265256903134286E-3   4.363291600384400E-4  
 2.496000000000000E10   -2.720521933952114E-5  -5.288195301545784E-3  
 2.498000000000000E10   -5.017609350034036E-3  -8.417662448323426E-5  
 2.500000000000000E10    9.625701686672983E-4   4.419005526870024E-3  
 2.502000000000000E10    3.927657293388620E-3  -1.037982728121278E-3  
 2.504000000000000E10   -1.240157089341665E-3  -3.228194662369788E-3  
 2.506000000000000E10   -2.616372956254054E-3   1.819610297388863E-3  
 2.508000000000000E10    2.222729410277680E-3   2.595543439383619E-3  
 2.510000000000000E10    2.394144772551954E-3  -3.201132385584060E-3  
 2.512000000000000E10   -4.131863533984870E-3  -1.935926153237233E-3  
 2.514000000000000E10   -1.941152993822470E-3   4.119818375329487E-3  
 2.516000000000000E10    4.896299025858752E-3   9.830264243646525E-4  
 2.518000000000000E10    7.269649886438856E-4  -4.935142191243358E-3  
 2.520000000000000E10   -4.908685557893477E-3  -1.682165049714968E-3  
 2.522000000000000E10   -2.314023199687654E-4   4.360281513072550E-3  
 2.524000000000000E10    4.409659784869291E-3   2.962239650514675E-4  
 2.526000000000000E10    1.825900535550318E-4  -4.113895745831542E-3  
 2.528000000000000E10   -3.246804139052983E-3   3.449548303251504E-4  
 2.530000000000000E10    4.829859226447297E-4   3.154558675305452E-3  
 2.532000000000000E10    2.586483125924133E-3  -1.528008706372930E-3  
 2.534000000000000E10   -2.057779587630648E-3  -2.169932988181245E-3  
 2.536000000000000E10   -2.462346805259585E-3   2.308550821908284E-3  
 2.538000000000000E10    2.830748991982546E-3   1.718477033136878E-3  
 2.540000000000000E10    1.972470388864167E-3  -3.537091877660714E-3  
 2.542000000000000E10   -4.250789395882748E-3  -2.207156860094983E-3  
 2.544000000000000E10   -1.357238354103174E-3   4.000853718025610E-3  
 2.546000000000000E10    3.805219232162926E-3   1.506546435848577E-3  
 2.548000000000000E10    9.428689027117798E-4  -3.286569553893060E-3  
 2.550000000000000E10   -3.737756087502930E-3  -5.127484901095158E-4  
 2.552000000000000E10   -9.236686037183972E-5   3.300685748399701E-3  
 2.554000000000000E10    1.888545692054322E-3  -1.173320229099772E-4  
 2.556000000000000E10   -1.271863893634873E-3  -2.413627451460343E-3  
 2.558000000000000E10   -1.825044997531222E-3   1.811389531212626E-3  
 2.560000000000000E10    1.784473057341529E-3   1.491970731876791E-3  
 2.562000000000000E10    1.083465278497897E-3  -2.513125778932590E-3  
 2.564000000000000E10   -2.767325597233139E-3  -9.085275178222219E-4  
 2.566000000000000E10   -1.234769137226977E-3   3.321821830468252E-3  
 2.568000000000000E10    3.253037990361918E-3   1.425867889338406E-3  
 2.570000000000000E10    1.251600773684913E-3  -3.433573801885359E-3  
 2.572000000000000E10   -3.323044962598942E-3  -1.055697826814139E-3  
 2.574000000000000E10   -1.427874303772114E-3   3.175589881720953E-3  
 2.576000000000000E10    3.011106586200185E-3   5.801031638839049E-4  
 2.578000000000000E10    1.419216962403880E-4  -2.108365508320276E-3  
 2.580000000000000E10   -1.792869868950220E-3  -2.170130628655898E-4  
 2.582000000000000E10    9.563234816596378E-4   1.388294433127157E-3  
 2.584000000000000E10    1.310652653046418E-3  -2.114663293468766E-4  
 2.586000000000000E10   -1.612187777936924E-3  -1.121617529861396E-3  
 2.588000000000000E10   -1.022685279167490E-3   2.218322217231616E-3  
 2.590000000000000E10    2.177038091758732E-3   1.631881292269100E-3  
 2.592000000000000E10    9.576714128343156E-4  -2.297366860148031E-3  
 2.594000000000000E10   -2.790971993817948E-3  -1.558504856802756E-3  
 2.596000000000000E10   -1.465202378312824E-3   2.789662707073148E-3  
 2.598000000000000E10    2.632289128086995E-3   1.199053465825273E-3  
 2.600000000000000E10    1.459169463487342E-3  -2.919848775491118E-3  
 2.602000000000000E10   -2.550758974393830E-3  -6.723998194502201E-4  
 2.604000000000000E10   -2.745237097769859E-4   2.271886391099542E-3  
 2.606000000000000E10    2.047435555141419E-3   8.696715734402005E-5  
 2.608000000000000E10   -7.451825131283840E-4  -1.617261772480561E-3  
 2.610000000000000E10   -1.887589205580298E-3   8.236653593485244E-4  
 2.612000000000000E10    1.900558978377376E-3   1.386267431371380E-3  
 2.614000000000000E10    1.311590240220539E-3  -1.602888787601842E-3  
 2.616000000000000E10   -2.071563736535609E-3  -2.277678395330440E-3  
 2.618000000000000E10   -1.558110729092732E-3   2.494455700798426E-3  
 2.620000000000000E10    2.042296604486182E-3   1.560543289087946E-3  
 2.622000000000000E10    1.859114523540484E-3  -2.379147692408878E-3  
 2.624000000000000E10   -2.283404923218768E-3  -1.066430020728149E-3  
 2.626000000000000E10   -1.332297961198492E-3   1.758556380082155E-3  
 2.628000000000000E10    1.576670772919897E-3   8.414506683038781E-4  
 2.630000000000000E10    2.064784814592713E-5  -1.440903004549909E-3  
 2.632000000000000E10   -1.656182728765998E-3   4.678808591052075E-5  
 2.634000000000000E10    7.231682939163875E-4   1.175421744846972E-3  
 2.636000000000000E10    1.501128466770751E-3  -1.210893151437631E-3  
 2.638000000000000E10   -1.852278477599612E-3  -1.430046308087185E-3  
 2.640000000000000E10   -1.692317862762138E-3   1.964535629667807E-3  
 2.642000000000000E10    2.252284495625645E-3   1.798262677766616E-3  
 2.644000000000000E10    1.319272152613848E-3  -2.064856562355999E-3  
 2.646000000000000E10   -2.117992175044492E-3  -1.297442093346035E-3  
 2.648000000000000E10   -1.577643695782172E-3   2.082926548609976E-3  
 2.650000000000000E10    1.258268832316389E-3   1.153146895376267E-3  
 2.652000000000000E10    1.271590524993371E-3  -1.384720788337290E-3  
 2.654000000000000E10   -1.424311187292915E-3  -5.504061373358127E-4  
 2.656000000000000E10    7.499316748749152E-5   1.388828270137310E-3  
 2.658000000000000E10    1.188401824038010E-3  -5.114381137900637E-4  
 2.660000000000000E10   -7.388161975541152E-4  -7.405484047922073E-4  
 2.662000000000000E10   -1.181655221444089E-3   1.541550787806045E-3  
 2.664000000000000E10    1.976775289222132E-3   1.774723376001930E-3  
 2.666000000000000E10    1.493722218583571E-3  -1.899744627735345E-3  
 2.668000000000000E10   -2.359808240726125E-3  -1.074658852303401E-3  
 2.670000000000000E10   -1.309472274442669E-3   2.453135501127690E-3  
 2.672000000000000E10    2.238016968476586E-3   1.094140970963053E-3  
 2.674000000000000E10    1.114926708396524E-3  -1.763551899784943E-3  
 2.676000000000000E10   -1.348486632196000E-3  -9.864007915894035E-4  
 2.678000000000000E10   -3.614573670347454E-4   1.026710913720308E-3  
 2.680000000000000E10    8.906114981073188E-4  -2.739462074714538E-4  
 2.682000000000000E10    6.433174323206004E-5  -6.944283541088225E-4  
 2.684000000000000E10   -5.059422874182928E-4   8.620234784757486E-4  
 2.686000000000000E10    1.434353256627219E-3   5.056880727352109E-4  
 2.688000000000000E10    7.268943427334307E-4  -1.628424579394050E-3  
 2.690000000000000E10   -1.542029334814288E-3  -7.966415396367665E-4  
 2.692000000000000E10   -1.386400468618376E-3   1.771649425791111E-3  
 2.694000000000000E10    1.811132806324167E-3   4.709748036475503E-4  
 2.696000000000000E10    1.170399853435811E-3  -1.798065524781123E-3  
 2.698000000000000E10   -1.741720701829763E-3  -1.208855017466703E-3  
 2.700000000000000E10   -4.229962778481422E-4   8.199087005777983E-4  
 2.702000000000000E10    9.450071174796904E-4   7.696712345932610E-4  
 2.704000000000000E10    4.057315254613059E-5  -2.831402389347204E-4  
 2.706000000000000E10   -3.799868218266056E-4   1.585160443937639E-4  
 2.708000000000000E10    2.883729184759432E-4   3.514170648486470E-4  
 2.710000000000000E10   -1.848704724807249E-4  -7.080143768689595E-4  
 2.712000000000000E10   -1.297990911552915E-3  -4.920174033031799E-4  
 2.714000000000000E10   -7.242520769068506E-4   1.072680817742366E-3  
 2.716000000000000E10    9.196873288601637E-4   2.086149512976476E-4  
 2.718000000000000E10    1.147231894719880E-3  -1.676290619798238E-3  
 2.720000000000000E10   -1.480089311371557E-3  -8.867338201525854E-4  
 2.722000000000000E10   -9.333488942502299E-4   1.205829321406782E-3  
 2.724000000000000E10    1.154135094111553E-3   8.141771104419604E-4  
 2.726000000000000E10    6.365187200572109E-4  -5.698493832824170E-4  
 2.728000000000000E10   -6.571204121428309E-4  -1.628734917176189E-4  
 2.730000000000000E10   -1.274967105473479E-4   2.058244535874110E-4  
 2.732000000000000E10   -2.581903013378906E-4  -3.188232294633053E-4  
 2.734000000000000E10   -4.852748897974379E-4  -3.575799582904438E-4  
 2.736000000000000E10    1.819590047489328E-4   5.017185249016620E-4  
 2.738000000000000E10    5.631258882203838E-4   1.867359919742739E-4  
 2.740000000000000E10    7.938589114928618E-4  -8.141017442540033E-4  
 2.742000000000000E10   -6.583898484677775E-4  -4.378850935609080E-4  
 2.744000000000000E10   -6.076989429857349E-4   9.400327799085062E-4  
 2.746000000000000E10    6.217623467819067E-4   1.182627329399111E-3  
 2.748000000000000E10    8.448612734355265E-4  -4.436144045030233E-4  
 2.750000000000000E10   -6.400687752829981E-4  -6.693907744192984E-4  
 2.752000000000000E10   -4.699301807704615E-4   2.548301358729077E-4  
 2.754000000000000E10    1.556466299916792E-4  -4.050596564297848E-5  
 2.756000000000000E10   -2.738436778599862E-4  -7.351392059717909E-5  
