#  HZ   S   RI   R     50.00 
! Rohde & Schwarz ZVA40 4Ports - Version 3.90 - 1145.1110k42 SN: 100403
! Date: 2023-10-04 06:19:29
! Measurement: S12 
! 
 2.200000000000000E10   -6.852551567135379E-3  -4.425264196470380E-3  
 2.202000000000000E10   -3.753984565264545E-3   7.353302149567753E-3  
 2.204000000000000E10    7.485231675673276E-3   3.415818064240739E-3  
 2.206000000000000E10    3.125603107037023E-3  -7.387374818790704E-3  
 2.208000000000000E10   -8.047579816775397E-3  -9.930919841281138E-4  
 2.210000000000000E10   -2.934896583610680E-4   8.700135163962841E-3  
 2.212000000000000E10    9.205197915434837E-3   3.792005472860183E-4  
 2.214000000000000E10   -6.129330395197030E-4  -9.251809795387089E-3  
 2.216000000000000E10   -9.519825922325254E-3   2.643481013365090E-3  
 2.218000000000000E10    4.832977429032326E-3   9.472870442550629E-3  
 2.220000000000000E10    9.740856185089797E-3  -5.695066385669634E-3  
 2.222000000000000E10   -6.308455485850573E-3  -8.995823096483946E-3  
 2.224000000000000E10   -6.659142585704103E-3   8.104634762275964E-3  
 2.226000000000000E10    9.021144884172827E-3   6.144105660496280E-3  
 2.228000000000000E10    5.595675931544974E-3  -8.987690147478133E-3  
 2.230000000000000E10   -8.975004020612687E-3  -3.636108056525700E-3  
 2.232000000000000E10   -2.515266489353962E-3   9.536911966279149E-3  
 2.234000000000000E10    1.066393102519214E-2   7.913605222711340E-4  
 2.236000000000000E10   -4.364386386441765E-4  -1.044939865823835E-2  
 2.238000000000000E10   -1.100841752486303E-2   1.654801839322317E-3  
 2.240000000000000E10    4.448610474355519E-3   1.015385380014777E-2  
 2.242000000000000E10    1.110349310329184E-2  -6.347057846141979E-3  
 2.244000000000000E10   -6.865267379907891E-3  -9.946189355105162E-3  
 2.246000000000000E10   -8.728887070901692E-3   7.345338643062860E-3  
 2.248000000000000E10    8.043245936278254E-3   8.178569318260998E-3  
 2.250000000000000E10    7.142280723201111E-3  -9.517717931885272E-3  
 2.252000000000000E10   -9.811032272409648E-3  -6.619447929551825E-3  
 2.254000000000000E10   -5.320284515619278E-3   9.898581367451698E-3  
 2.256000000000000E10    1.017080218298361E-2   2.758017857559025E-3  
 2.258000000000000E10    1.071453993063187E-3  -1.119274576194584E-2  
 2.260000000000000E10   -1.000191515777260E-2  -8.968829642981291E-4  
 2.262000000000000E10    1.023804674332496E-3   9.092298685573041E-3  
 2.264000000000000E10    9.435772430151701E-3  -2.214334861491807E-3  
 2.266000000000000E10   -2.901293744798750E-3  -1.050187047803775E-2  
 2.268000000000000E10   -1.028389204293490E-2   4.554082610411570E-3  
 2.270000000000000E10    5.516727193025872E-3   9.857175464276224E-3  
 2.272000000000000E10    9.083820914383978E-3  -6.726476858602837E-3  
 2.274000000000000E10   -8.809734892565757E-3  -8.831168990582228E-3  
 2.276000000000000E10   -7.978262961842120E-3   9.465791168622673E-3  
 2.278000000000000E10    9.720357018522918E-3   6.104452273575589E-3  
 2.280000000000000E10    4.472866741707549E-3  -9.967039222829044E-3  
 2.282000000000000E10   -6.428880995372310E-3  -8.673873671796173E-3  
 2.284000000000000E10   -1.639580565097276E-3   1.084657176397741E-2  
 2.286000000000000E10    1.094450516393408E-2   8.931423835747410E-4  
 2.288000000000000E10   -6.538463931065053E-4  -1.107334269909188E-2  
 2.290000000000000E10   -1.116511208238080E-2   3.314966175821610E-3  
 2.292000000000000E10    3.854110356769525E-3   1.146732678171247E-2  
 2.294000000000000E10    9.861612576059997E-3  -5.170614807866514E-3  
 2.296000000000000E10   -5.907042097533122E-3  -9.101515403017402E-3  
 2.298000000000000E10   -8.963775762822479E-3   6.848939054179937E-3  
 2.300000000000000E10    7.485551293939352E-3   7.747911993646994E-3  
 2.302000000000000E10    6.937201833352447E-3  -7.977148285135627E-3  
 2.304000000000000E10   -8.640850603114814E-3  -5.596409027930349E-3  
 2.306000000000000E10   -3.792170391534455E-3   9.089905186556280E-3  
 2.308000000000000E10    1.042442879406735E-2   3.201821324182674E-3  
 2.310000000000000E10    9.255165932700038E-4  -9.840073937084526E-3  
 2.312000000000000E10   -1.000546565046534E-2   1.114901067921892E-3  
 2.314000000000000E10    2.844619928509928E-3   1.065251545514911E-2  
 2.316000000000000E10    9.870293724816293E-3  -3.404363786103204E-3  
 2.318000000000000E10   -5.029547814046964E-3  -1.042501418851316E-2  
 2.320000000000000E10   -9.790258191060275E-3   5.698353284969926E-3  
 2.322000000000000E10    5.745575414039195E-3   9.146106720436364E-3  
 2.324000000000000E10    9.514633158687502E-3  -8.059135812800378E-3  
 2.326000000000000E10   -8.312349324114621E-3  -8.245355100370944E-3  
 2.328000000000000E10   -6.437741307308897E-3   8.466842176858336E-3  
 2.330000000000000E10    9.697079251054674E-3   4.813219158677384E-3  
 2.332000000000000E10    3.330816209199838E-3  -8.937800128478557E-3  
 2.334000000000000E10   -9.386834688484669E-3  -2.477250585798174E-3  
 2.336000000000000E10   -7.650799998373259E-4   9.714563959278166E-3  
 2.338000000000000E10    1.028542598942295E-2  -1.048196478222963E-3  
 2.340000000000000E10   -3.499564569210634E-3  -1.096347573911771E-2  
 2.342000000000000E10   -1.049577904632315E-2   4.581690154736862E-3  
 2.344000000000000E10    6.546529359184206E-3   8.907868061214685E-3  
 2.346000000000000E10    8.212885237298906E-3  -7.806240057107061E-3  
 2.348000000000000E10   -7.774018740747124E-3  -8.010184101294726E-3  
 2.350000000000000E10   -6.690513691864908E-3   7.767246337607503E-3  
 2.352000000000000E10    8.307798940222710E-3   6.057054968550801E-3  
 2.354000000000000E10    4.584958922350779E-3  -8.928534807637334E-3  
 2.356000000000000E10   -9.399945905897766E-3  -3.813139002886601E-3  
 2.358000000000000E10   -2.352466894080862E-3   1.015671499771997E-2  
 2.360000000000000E10    1.053302991203964E-2  -3.327416061438271E-5  
 2.362000000000000E10   -1.860163902165368E-3  -1.065844256663695E-2  
 2.364000000000000E10   -9.846656757872552E-3   4.125821724301204E-3  
 2.366000000000000E10    4.569794284179807E-3   8.908725692890585E-3  
 2.368000000000000E10    8.885223476681858E-3  -5.231893999734893E-3  
 2.370000000000000E10   -6.572948565008119E-3  -8.150097797624767E-3  
 2.372000000000000E10   -8.070286014117301E-3   7.546258391812444E-3  
 2.374000000000000E10    7.950126950163394E-3   7.307436986593530E-3  
 2.376000000000000E10    5.476638296386227E-3  -8.658817445393652E-3  
 2.378000000000000E10   -8.730176428798586E-3  -4.129338252823800E-3  
 2.380000000000000E10   -2.321767635294236E-3   8.663475688081235E-3  
 2.382000000000000E10    8.889817050658166E-3   1.262212841538712E-3  
 2.384000000000000E10    3.153658790324698E-4  -8.067950606346130E-3  
 2.386000000000000E10   -8.102557330857962E-3   2.175296045606956E-3  
 2.388000000000000E10    3.182629618095234E-3   8.605763316154480E-3  
 2.390000000000000E10    8.532311883755028E-3  -4.119412740692496E-3  
 2.392000000000000E10   -5.519197380635887E-3  -7.801040657795966E-3  
 2.394000000000000E10   -7.279421610292047E-3   6.775261979782954E-3  
 2.396000000000000E10    7.954731816425920E-3   6.573678168933839E-3  
 2.398000000000000E10    5.673435633070767E-3  -7.924356381408870E-3  
 2.400000000000000E10   -7.594820141093805E-3  -4.737049603136256E-3  
 2.402000000000000E10   -2.090042136842385E-3   8.490745502058417E-3  
 2.404000000000000E10    7.814501441316679E-3   2.139517637260724E-3  
 2.406000000000000E10    1.042204261466395E-3  -7.633824541699141E-3  
 2.408000000000000E10   -6.860933819552884E-3   5.290674107527593E-4  
 2.410000000000000E10    1.550961300381459E-3   7.037891919026151E-3  
 2.412000000000000E10    6.108476052759215E-3  -3.309632389573380E-3  
 2.414000000000000E10   -3.555531511665322E-3  -5.377003893954679E-3  
 2.416000000000000E10   -5.668368597980589E-3   4.011836485005915E-3  
 2.418000000000000E10    5.006582970963791E-3   4.675583360949531E-3  
 2.420000000000000E10    5.601533455774188E-3  -5.796087294584140E-3  
 2.422000000000000E10   -6.250672100577503E-3  -5.293574417009950E-3  
 2.424000000000000E10   -4.950538248522207E-3   6.484374840511009E-3  
 2.426000000000000E10    6.723957048961893E-3   3.695306892041117E-3  
 2.428000000000000E10    2.661567530594766E-3  -7.138609478715807E-3  
 2.430000000000000E10   -6.444696453399956E-3  -2.763950033113360E-3  
 2.432000000000000E10   -1.211322123708669E-3   6.200326984981075E-3  
 2.434000000000000E10    6.154481292469427E-3  -6.720830970152747E-4  
 2.436000000000000E10   -9.620387208997272E-4  -5.777931510237977E-3  
 2.438000000000000E10   -5.251689959550276E-3   1.727378410578240E-3  
 2.440000000000000E10    2.634849952301011E-3   5.369487975258380E-3  
 2.442000000000000E10    5.400367808761075E-3  -3.775281118578278E-3  
 2.444000000000000E10   -4.446099686902016E-3  -4.718930926173925E-3  
 2.446000000000000E10   -4.886487673502415E-3   4.669186280807480E-3  
 2.448000000000000E10    4.839581437408924E-3   4.446365201147273E-3  
 2.450000000000000E10    3.502579638734460E-3  -4.843166650971398E-3  
 2.452000000000000E10   -4.696997202700004E-3  -3.379127447260544E-3  
 2.454000000000000E10   -2.490056547685526E-3   5.076621106127277E-3  
 2.456000000000000E10    4.770607221871615E-3   2.089978443109430E-3  
 2.458000000000000E10    1.204787251481321E-3  -4.260141839040443E-3  
 2.460000000000000E10   -4.705392988398671E-3   4.916244068908782E-5  
 2.462000000000000E10    1.015505160467001E-3   4.681115300627425E-3  
 2.464000000000000E10    4.450361680937931E-3  -1.514145144028589E-3  
 2.466000000000000E10   -2.735384739935398E-3  -4.601642460329458E-3  
 2.468000000000000E10   -4.309993906645104E-3   2.209033162216656E-3  
 2.470000000000000E10    3.450583142694086E-3   4.262714122887701E-3  
 2.472000000000000E10    4.219329828629270E-3  -3.700076646055095E-3  
 2.474000000000000E10   -3.488526446744800E-3  -4.655799013562501E-3  
 2.476000000000000E10   -3.862444718834013E-3   3.721912042237818E-3  
 2.478000000000000E10    4.081223509274423E-3   3.196739606210031E-3  
 2.480000000000000E10    2.551623547333293E-3  -3.484447326627560E-3  
 2.482000000000000E10   -3.613611741457135E-3  -2.048273541731760E-3  
 2.484000000000000E10   -1.455949510273058E-3   3.263920618337579E-3  
 2.486000000000000E10    3.102334711002186E-3  -2.473559118243429E-5  
 2.488000000000000E10   -7.777831706334837E-4  -3.316596819786355E-3  
 2.490000000000000E10   -3.736607774044387E-3   7.426200536428951E-4  
 2.492000000000000E10    1.897841313621029E-3   3.407116077141836E-3  
 2.494000000000000E10    3.156325081363320E-3  -2.628100759466179E-3  
 2.496000000000000E10   -2.879769337596372E-3  -3.515462361974642E-3  
 2.498000000000000E10   -3.338776747114025E-3   3.268555243266746E-3  
 2.500000000000000E10    2.660423924680799E-3   3.280687000369653E-3  
 2.502000000000000E10    2.868618365027942E-3  -3.200712555553764E-3  
 2.504000000000000E10   -3.086170123424381E-3  -2.168648075894453E-3  
 2.506000000000000E10   -2.459582028677687E-3   2.204805772635154E-3  
 2.508000000000000E10    2.500626040273346E-3   1.348889381915797E-3  
 2.510000000000000E10    8.398857644351665E-4  -2.657878096215427E-3  
 2.512000000000000E10   -2.837775784428231E-3  -6.376058845489752E-4  
 2.514000000000000E10    7.470128475688398E-4   2.553557060309686E-3  
 2.516000000000000E10    2.466153062414378E-3  -9.343500241811853E-4  
 2.518000000000000E10   -1.266133440367412E-3  -2.563766945968382E-3  
 2.520000000000000E10   -2.670884030521847E-3   1.987428127904423E-3  
 2.522000000000000E10    1.565433733048849E-3   3.067562123760581E-3  
 2.524000000000000E10    2.472981184837408E-3  -1.878333991044201E-3  
 2.526000000000000E10   -1.702393354207743E-3  -2.332944553927518E-3  
 2.528000000000000E10   -2.864060210413300E-3   1.923560681461822E-3  
 2.530000000000000E10    1.181362153147347E-3   1.694870959909167E-3  
 2.532000000000000E10    2.389386019785889E-3  -1.389246433973312E-3  
 2.534000000000000E10   -1.603473378054332E-3  -1.102313188312110E-3  
 2.536000000000000E10   -4.383389259601245E-4   1.303839890169911E-3  
 2.538000000000000E10    1.756654171913397E-3   6.900624539412092E-4  
 2.540000000000000E10   -4.754406418214785E-4  -1.448912873456720E-3  
 2.542000000000000E10   -1.677389489486814E-3   1.121805747970939E-3  
 2.544000000000000E10    1.142863817221951E-3   2.375738054979593E-3  
 2.546000000000000E10    1.756704194121994E-3  -1.490612994530238E-3  
 2.548000000000000E10   -1.456496509490535E-3  -2.592924676719122E-3  
 2.550000000000000E10   -2.392679976765066E-3   1.925077209307347E-3  
 2.552000000000000E10    1.856280483480077E-3   2.490476588718593E-3  
 2.554000000000000E10    2.666576867341064E-3  -1.710146192635875E-3  
 2.556000000000000E10   -1.308177052123938E-3  -1.528207809315063E-3  
 2.558000000000000E10   -1.398150037857704E-3   1.262813158973586E-3  
 2.560000000000000E10    1.336795074166730E-3   1.363797848171089E-3  
 2.562000000000000E10    8.700108555785846E-4  -1.144639245467261E-3  
 2.564000000000000E10   -1.055241838912480E-3  -1.785663985174324E-4  
 2.566000000000000E10    1.729460718706832E-4   1.281384160392918E-3  
 2.568000000000000E10    1.683900853095111E-3  -9.423338487977162E-4  
 2.570000000000000E10   -8.166287625499535E-4  -1.943179013323970E-3  
 2.572000000000000E10   -1.713875484711025E-3   1.012749657093082E-3  
 2.574000000000000E10    1.383640978019685E-3   1.744943299854640E-3  
 2.576000000000000E10    2.281954075442627E-3  -1.568408042658120E-3  
 2.578000000000000E10   -1.294542991672643E-3  -1.708347532257903E-3  
 2.580000000000000E10   -1.540304103400558E-3   1.075224849046208E-3  
 2.582000000000000E10    1.245942592504434E-3   1.264932616322767E-3  
 2.584000000000000E10    5.999733475618996E-4  -1.088027966034133E-3  
 2.586000000000000E10   -7.806814937794115E-4  -7.684544216317590E-4  
 2.588000000000000E10    2.362221730436431E-4   9.146058982878458E-4  
 2.590000000000000E10    9.645154459576588E-4  -8.991627364594024E-4  
 2.592000000000000E10   -1.004392452159664E-3  -1.516087810159661E-3  
 2.594000000000000E10   -1.198605532408692E-3   1.510174821305554E-3  
 2.596000000000000E10    1.127621195337270E-3   1.196926670672838E-3  
 2.598000000000000E10    1.677916698099580E-3  -1.716731982014608E-3  
 2.600000000000000E10   -1.363596500596032E-3  -1.870800595497713E-3  
 2.602000000000000E10   -2.026541726081632E-3   9.435666288482025E-4  
 2.604000000000000E10    1.178402038931381E-3   1.492231429438107E-3  
 2.606000000000000E10    1.253558708413038E-3  -8.337289400515147E-4  
 2.608000000000000E10   -6.639544444624335E-4  -9.308814769610763E-4  
 2.610000000000000E10   -4.268457178113749E-4   5.273178048810223E-4  
 2.612000000000000E10    5.649961320841612E-5   2.660775044205366E-4  
 2.614000000000000E10   -2.355424421693897E-4  -5.052551186963683E-4  
 2.616000000000000E10   -5.855184572283179E-4   7.507640366384294E-4  
 2.618000000000000E10    8.095662014966365E-4   8.117197139654309E-4  
 2.620000000000000E10    1.014330096950289E-3  -1.372258338960819E-3  
 2.622000000000000E10   -1.047801903041545E-3  -1.579150761244819E-3  
 2.624000000000000E10   -1.652267324971035E-3   1.017625068925554E-3  
 2.626000000000000E10    9.319604723714292E-4   1.463402302761097E-3  
 2.628000000000000E10    1.769219685229473E-3  -8.076727754087187E-4  
 2.630000000000000E10   -7.730811594228726E-4  -1.756700614350848E-3  
 2.632000000000000E10   -1.248409324034583E-3   1.802327308269014E-4  
 2.634000000000000E10    3.758235761779361E-4   1.199022430228069E-3  
 2.636000000000000E10    5.534753690881189E-4  -5.874511189176701E-4  
 2.638000000000000E10   -3.676748019643128E-4  -6.089113521738909E-4  
 2.640000000000000E10   -1.657770746987808E-4   9.962456788343843E-4  
 2.642000000000000E10    8.481740223942325E-4  -6.219673650775803E-4  
 2.644000000000000E10   -5.341645155567676E-4  -1.067098288331181E-3  
 2.646000000000000E10   -1.080128044122830E-3   9.801070555113256E-4  
 2.648000000000000E10    1.133792924520094E-3   1.224075575009920E-3  
 2.650000000000000E10    1.348464655166026E-3  -1.077922810509335E-3  
 2.652000000000000E10   -5.036621441831812E-4  -1.395094499457628E-3  
 2.654000000000000E10   -1.553340254758950E-3   4.178505878371652E-4  
 2.656000000000000E10    6.182428260217421E-4   1.351272017927840E-3  
 2.658000000000000E10    9.224280074704438E-4  -6.929084483999759E-4  
 2.660000000000000E10   -7.179214335337747E-4  -6.465736005338840E-4  
 2.662000000000000E10   -2.853289479389787E-4   1.282306284338119E-4  
 2.664000000000000E10    2.883103152271360E-4  -1.192047507174721E-4  
 2.666000000000000E10   -2.679731296666432E-4  -8.199739531846717E-4  
 2.668000000000000E10   -6.704035185975954E-4   7.199039537226781E-4  
 2.670000000000000E10    9.802212080103345E-4   8.840793889248744E-4  
 2.672000000000000E10    1.199668433400802E-3  -1.585691818036139E-3  
 2.674000000000000E10   -9.823513319133781E-4  -1.169748749816790E-3  
 2.676000000000000E10   -9.685531622380950E-4   8.472366753267124E-4  
 2.678000000000000E10    7.880129051045515E-4   1.016591995721683E-3  
 2.680000000000000E10    1.152692086179741E-3  -9.366487211082131E-4  
 2.682000000000000E10   -6.531949077270838E-5  -9.482536916038953E-4  
 2.684000000000000E10   -1.152653101598844E-3   6.366938799828859E-5  
 2.686000000000000E10    1.319247230640031E-4   3.295285496278666E-4  
 2.688000000000000E10    2.592041255411459E-4  -3.154271632865857E-5  
 2.690000000000000E10   -5.273042697808705E-4  -2.929311340267304E-4  
 2.692000000000000E10    4.112067836103961E-4   5.528899055207148E-4  
 2.694000000000000E10    9.883295642794110E-4  -8.011638055904768E-4  
 2.696000000000000E10   -1.046624325681478E-3  -8.589750432292931E-4  
 2.698000000000000E10   -1.244152867002413E-3   1.090333047613967E-3  
 2.700000000000000E10    9.696035995148122E-4   1.412732919561677E-3  
 2.702000000000000E10    9.362230048282072E-4  -7.041826247586869E-4  
 2.704000000000000E10   -5.771895084762946E-4  -1.266465202206746E-3  
 2.706000000000000E10   -8.074852885329165E-4   8.572135120630264E-4  
 2.708000000000000E10    4.347060530562885E-5   7.020589910098352E-4  
 2.710000000000000E10    8.040604370762594E-4   7.187518076534616E-5  
 2.712000000000000E10   -2.128733285644557E-4   3.503124025883153E-4  
 2.714000000000000E10    1.536421041237190E-4   3.401639478397556E-4  
 2.716000000000000E10    2.915740988100879E-4  -4.291804434615187E-4  
 2.718000000000000E10   -1.004236182780005E-3  -4.077240409969818E-4  
 2.720000000000000E10   -8.159084172802977E-4   1.345579818007536E-3  
 2.722000000000000E10    1.235357442055829E-3   9.568038876750507E-4  
 2.724000000000000E10    9.457200358156115E-4  -1.290789034101181E-3  
 2.726000000000000E10   -9.485991322435439E-4  -1.158045910415240E-3  
 2.728000000000000E10   -8.382114538107999E-4   1.254521353985183E-3  
 2.730000000000000E10    6.401342980097979E-4   9.232768934452906E-4  
 2.732000000000000E10    5.852089961990714E-4  -2.008677656704094E-4  
 2.734000000000000E10   -2.329631497559603E-4   2.210429247497814E-4  
 2.736000000000000E10   -7.652340445929440E-5   1.737134798531770E-4  
 2.738000000000000E10   -4.434119291545358E-4  -2.666181153472280E-4  
 2.740000000000000E10   -6.936136196600273E-4   2.191421181123587E-4  
 2.742000000000000E10   -2.465860270604026E-4   6.110772337706294E-4  
 2.744000000000000E10    1.360496869892813E-3  -1.407792606187286E-4  
 2.746000000000000E10    4.141100289416499E-4  -1.478466117987409E-3  
 2.748000000000000E10   -1.383251947117969E-3  -3.808269466389902E-4  
 2.750000000000000E10   -1.962828646355774E-4   1.499775957199745E-3  
 2.752000000000000E10    1.188880458357744E-3   6.982791019254364E-4  
 2.754000000000000E10    3.531177153490717E-4  -1.113304737373255E-3  
 2.756000000000000E10   -6.694490657537244E-4  -9.854697191258310E-5  
