#  HZ   S   RI   R     50.00 
! Rohde & Schwarz ZVA40 4Ports - Version 3.90 - 1145.1110k42 SN: 100403
! Date: 2023-10-04 06:20:16
! Measurement: S12 
! 
 2.200000000000000E10   -7.827050936612068E-3  -1.353713990738470E-3  
 2.202000000000000E10   -1.178470447484870E-3   8.076634079770884E-3  
 2.204000000000000E10    8.201840126275783E-3  -4.677316003380838E-4  
 2.206000000000000E10   -9.963413026525814E-4  -8.820834558719071E-3  
 2.208000000000000E10   -9.369403305754531E-3   7.903577804881934E-4  
 2.210000000000000E10    1.896855938866793E-3   7.260316726387828E-3  
 2.212000000000000E10    7.550634862127481E-3  -3.103133043623529E-3  
 2.214000000000000E10   -5.000658142307657E-3  -8.285846997750923E-3  
 2.216000000000000E10   -7.168467867813888E-3   5.455742000776809E-3  
 2.218000000000000E10    6.835153555584839E-3   6.497240199678345E-3  
 2.220000000000000E10    4.508731844907743E-3  -8.053322071646107E-3  
 2.222000000000000E10   -9.787282135221176E-3  -3.778372703891364E-3  
 2.224000000000000E10   -3.282269946794258E-3   1.031260938543710E-2  
 2.226000000000000E10    9.084059172892012E-3   6.728633356942737E-4  
 2.228000000000000E10   -7.394315271085361E-4  -9.803650380490581E-3  
 2.230000000000000E10   -1.053736900576041E-2   1.058792995081603E-3  
 2.232000000000000E10    1.850092735367070E-3   9.332144723884994E-3  
 2.234000000000000E10    9.391749150381656E-3  -3.158060084388126E-3  
 2.236000000000000E10   -4.631933641576325E-3  -8.314747312397230E-3  
 2.238000000000000E10   -8.655252178868977E-3   5.479432149513741E-3  
 2.240000000000000E10    6.828008237789618E-3   8.117719848087290E-3  
 2.242000000000000E10    6.142307824120508E-3  -7.489667657864629E-3  
 2.244000000000000E10   -9.296378200815525E-3  -4.584669681207743E-3  
 2.246000000000000E10   -4.051952992085717E-3   1.013256219812320E-2  
 2.248000000000000E10    9.243866294127656E-3   3.181354230946454E-3  
 2.250000000000000E10    1.892270182452194E-3  -1.022832870512502E-2  
 2.252000000000000E10   -1.017147909442429E-2  -8.311799026614608E-4  
 2.254000000000000E10    4.285927263936173E-4   1.065272537016426E-2  
 2.256000000000000E10    1.094133070000680E-2  -7.086698269631597E-4  
 2.258000000000000E10   -2.122488969234837E-3  -8.820328523142962E-3  
 2.260000000000000E10   -8.564763527829200E-3   3.610619141909410E-3  
 2.262000000000000E10    4.940304794217809E-3   8.288843557238579E-3  
 2.264000000000000E10    7.521206178353168E-3  -4.378823528895737E-3  
 2.266000000000000E10   -6.110471897045500E-3  -6.586186220374657E-3  
 2.268000000000000E10   -5.644812692480627E-3   7.408376459352439E-3  
 2.270000000000000E10    8.879263747076038E-3   5.668040514137829E-3  
 2.272000000000000E10    5.041768366936594E-3  -9.455783147132024E-3  
 2.274000000000000E10   -1.051647472922923E-2  -4.165992881098646E-3  
 2.276000000000000E10   -1.561140590183641E-3   1.176776110878564E-2  
 2.278000000000000E10    1.163273457859759E-2   6.277721724927687E-4  
 2.280000000000000E10   -7.779952011333080E-5  -1.071540560587891E-2  
 2.282000000000000E10   -8.504892830387689E-3  -4.644231628844864E-3  
 2.284000000000000E10    2.142158056813059E-3   9.348447536467575E-3  
 2.286000000000000E10    9.480105385591742E-3  -3.125125670521811E-3  
 2.288000000000000E10   -4.175102285444154E-3  -8.973362575488864E-3  
 2.290000000000000E10   -8.016062303795479E-3   5.336991718650097E-3  
 2.292000000000000E10    7.372115036559990E-3   6.450968241551891E-3  
 2.294000000000000E10    5.240006619715132E-3  -8.524427496013232E-3  
 2.296000000000000E10   -8.520028841303429E-3  -4.317147782785469E-3  
 2.298000000000000E10   -2.735234008468979E-3   8.737496824323898E-3  
 2.300000000000000E10    9.873371731373482E-3   2.059858011307370E-3  
 2.302000000000000E10    1.372836627979268E-3  -9.819165225053439E-3  
 2.304000000000000E10   -1.030885094587575E-2  -1.083078614101396E-3  
 2.306000000000000E10    4.368221151480611E-4   1.056530137066147E-2  
 2.308000000000000E10    9.907953852234641E-3  -1.648442008900020E-3  
 2.310000000000000E10   -3.284775059000822E-3  -9.947637961886358E-3  
 2.312000000000000E10   -9.334657996078022E-3   4.841544816372334E-3  
 2.314000000000000E10    5.216578727413435E-3   7.101974821125623E-3  
 2.316000000000000E10    7.036625425826060E-3  -6.783234459362575E-3  
 2.318000000000000E10   -7.243885998832411E-3  -5.207896674619406E-3  
 2.320000000000000E10   -4.407410542626167E-3   7.860863815949415E-3  
 2.322000000000000E10    9.214537836669479E-3   4.249567011356703E-3  
 2.324000000000000E10    2.795913386762550E-3  -9.869507870462257E-3  
 2.326000000000000E10   -1.094690884201555E-2  -1.359579706331715E-3  
 2.328000000000000E10    4.605637573149579E-4   1.079200757158105E-2  
 2.330000000000000E10    9.799537656363100E-3  -1.114713349579688E-3  
 2.332000000000000E10   -1.614921241980483E-3  -9.016717947815778E-3  
 2.334000000000000E10   -8.668304184539011E-3   1.915781904244795E-3  
 2.336000000000000E10    3.393506583051931E-3   9.059847328899195E-3  
 2.338000000000000E10    8.306553510919912E-3  -5.068677673989441E-3  
 2.340000000000000E10   -6.172636929477449E-3  -6.265464464377146E-3  
 2.342000000000000E10   -4.921337544146809E-3   7.822191919331090E-3  
 2.344000000000000E10    8.588163589593023E-3   3.433483768276346E-3  
 2.346000000000000E10    1.512352062945865E-3  -7.995285122888163E-3  
 2.348000000000000E10   -8.739535711356439E-3  -8.783639723333181E-4  
 2.350000000000000E10   -5.845130835950840E-4   9.429772817384219E-3  
 2.352000000000000E10    9.551965929858852E-3  -6.396420610599307E-5  
 2.354000000000000E10   -5.976831362204393E-4  -9.521622938336805E-3  
 2.356000000000000E10   -9.835676304646768E-3   1.720207630569348E-3  
 2.358000000000000E10    2.899582672398537E-3   9.572569477313664E-3  
 2.360000000000000E10    8.387925452552736E-3  -3.948620855226181E-3  
 2.362000000000000E10   -4.770339462993434E-3  -6.978384521062253E-3  
 2.364000000000000E10   -5.885226986720227E-3   5.050590127211763E-3  
 2.366000000000000E10    5.980683341476833E-3   4.419976023200434E-3  
 2.368000000000000E10    3.251107427786337E-3  -6.709663462970639E-3  
 2.370000000000000E10   -7.110783506504959E-3  -2.991456107338308E-3  
 2.372000000000000E10   -1.301499585679267E-3   7.894130372733343E-3  
 2.374000000000000E10    8.680327737238258E-3   3.068236568424254E-4  
 2.376000000000000E10   -8.229159848269774E-4  -8.953175733040553E-3  
 2.378000000000000E10   -8.505807898472995E-3   1.894886055197276E-3  
 2.380000000000000E10    2.700396602449473E-3   8.183125210052822E-3  
 2.382000000000000E10    7.411181875795592E-3  -3.257480420870706E-3  
 2.384000000000000E10   -3.617358159317519E-3  -6.745496320945676E-3  
 2.386000000000000E10   -6.912444423505804E-3   3.543502532920684E-3  
 2.388000000000000E10    4.760258740134304E-3   5.123672173795058E-3  
 2.390000000000000E10    3.834373019344639E-3  -5.626224367006216E-3  
 2.392000000000000E10   -6.725528939568903E-3  -3.435090271523222E-3  
 2.394000000000000E10   -1.947211072547361E-3   6.409405745216645E-3  
 2.396000000000000E10    6.704946128593292E-3   1.163981040917861E-3  
 2.398000000000000E10   -8.738930578147119E-4  -7.215533336420776E-3  
 2.400000000000000E10   -7.059316711092833E-3   5.897640699004114E-4  
 2.402000000000000E10    2.262820700707380E-3   7.323923386138631E-3  
 2.404000000000000E10    5.886987317353487E-3  -3.431142695262679E-3  
 2.406000000000000E10   -3.225068307074253E-3  -6.244396907277405E-3  
 2.408000000000000E10   -6.338718270853860E-3   3.693666547405883E-3  
 2.410000000000000E10    3.770090246689506E-3   4.988938457245240E-3  
 2.412000000000000E10    4.240156165906228E-3  -3.877128629028448E-3  
 2.414000000000000E10   -4.299052052374464E-3  -2.717228046094533E-3  
 2.416000000000000E10   -2.977392330649309E-3   4.208227215713123E-3  
 2.418000000000000E10    5.027553790569073E-3   2.043609099018795E-3  
 2.420000000000000E10    6.357986667353544E-4  -4.792875934072072E-3  
 2.422000000000000E10   -5.594937196292449E-3  -2.022382449240467E-4  
 2.424000000000000E10    1.244466635398567E-3   6.147725358459866E-3  
 2.426000000000000E10    5.655445078446064E-3  -1.086207601474598E-3  
 2.428000000000000E10   -1.879938147794746E-3  -5.913253578910371E-3  
 2.430000000000000E10   -5.450266402476700E-3   2.853102858352941E-3  
 2.432000000000000E10    2.454097326335614E-3   5.819625424919650E-3  
 2.434000000000000E10    5.393557486968348E-3  -2.481261950379121E-3  
 2.436000000000000E10   -2.923763480794150E-3  -3.641256376795354E-3  
 2.438000000000000E10   -3.674034847790608E-3   2.897942020354094E-3  
 2.440000000000000E10    2.999927226483123E-3   3.122459211226669E-3  
 2.442000000000000E10    2.340308879865916E-3  -3.106913747615181E-3  
 2.444000000000000E10   -3.575534065021202E-3  -8.438011664111400E-4  
 2.446000000000000E10   -1.222317882820789E-4   3.664172811113531E-3  
 2.448000000000000E10    4.453777994058328E-3  -2.246004262360657E-4  
 2.450000000000000E10   -1.228356899446226E-3  -4.158790070505347E-3  
 2.452000000000000E10   -4.400735793751665E-3   1.576053155076806E-3  
 2.454000000000000E10    1.357359766188893E-3   4.001559107564390E-3  
 2.456000000000000E10    4.388512948935386E-3  -1.556772375806759E-3  
 2.458000000000000E10   -1.706705293145205E-3  -4.186730053334031E-3  
 2.460000000000000E10   -3.989231772720814E-3   1.579326535647851E-3  
 2.462000000000000E10    1.862493903900031E-3   3.150130061840173E-3  
 2.464000000000000E10    2.827635877110879E-3  -2.136320601493935E-3  
 2.466000000000000E10   -2.146393455404905E-3  -1.591474701854168E-3  
 2.468000000000000E10   -1.143703834713961E-3   1.993621201108908E-3  
 2.470000000000000E10    2.039410399447661E-3   1.106688948311785E-3  
 2.472000000000000E10   -2.709125094497722E-4  -2.312935384907178E-3  
 2.474000000000000E10   -3.157611248752801E-3   6.986431781115243E-4  
 2.476000000000000E10    2.035058085994024E-4   2.819352819642518E-3  
 2.478000000000000E10    3.491505372949177E-3  -8.895744940673467E-4  
 2.480000000000000E10   -1.269574250727601E-3  -3.097485985563253E-3  
 2.482000000000000E10   -3.257885344282840E-3   9.737767918522877E-4  
 2.484000000000000E10    1.362772480206331E-3   3.490201028398587E-3  
 2.486000000000000E10    2.972427968416014E-3  -1.015486796404730E-3  
 2.488000000000000E10   -8.177923928087694E-4  -2.106759573507588E-3  
 2.490000000000000E10   -1.836052304497571E-3   1.135446808802954E-3  
 2.492000000000000E10    1.389039982313989E-3   2.288037127073039E-3  
 2.494000000000000E10    1.718496127978142E-4  -1.519700062090124E-3  
 2.496000000000000E10   -1.443051251953875E-3   6.723975218392297E-5  
 2.498000000000000E10    3.267163185682875E-4   1.878735557511391E-3  
 2.500000000000000E10    2.229510297183879E-3  -9.337588426205912E-4  
 2.502000000000000E10   -8.233687544816348E-4  -2.060675922621158E-3  
 2.504000000000000E10   -2.020074200117961E-3   1.097310730074241E-3  
 2.506000000000000E10    1.699171137261146E-3   2.179280285417917E-3  
 2.508000000000000E10    2.823914808686823E-3  -4.625953281447437E-4  
 2.510000000000000E10   -8.606059755038586E-4  -1.944172764524410E-3  
 2.512000000000000E10   -1.495399143095710E-3   9.037145441652683E-4  
 2.514000000000000E10    1.233777640663902E-3   1.813075504287554E-3  
 2.516000000000000E10    6.711646406074578E-4  -8.899689696590940E-4  
 2.518000000000000E10   -2.753842756533231E-4  -6.332238444883842E-4  
 2.520000000000000E10    3.311146873841153E-5   8.453126438325853E-4  
 2.522000000000000E10    1.100649201362103E-3  -7.037132513687538E-4  
 2.524000000000000E10   -1.038184072399417E-5  -1.279975389479660E-3  
 2.526000000000000E10   -1.248486121767201E-3   1.062477010691509E-3  
 2.528000000000000E10    1.512579359769006E-3   1.002661294023710E-3  
 2.530000000000000E10    1.735687499603955E-3  -1.281440612729057E-3  
 2.532000000000000E10   -9.722290560603142E-4  -1.631417391763534E-3  
 2.534000000000000E10   -1.234070034115575E-3   2.342481053574375E-4  
 2.536000000000000E10    9.204083917211392E-4   1.139320502261398E-3  
 2.538000000000000E10    7.954718762448465E-4  -5.723552849303815E-4  
 2.540000000000000E10    1.616561845381170E-4  -1.744172490361962E-3  
 2.542000000000000E10    1.928123823518035E-4  -3.022670045993436E-4  
 2.544000000000000E10   -9.084966671935035E-5  -2.425615732590813E-4  
 2.546000000000000E10    6.080110392314708E-5  -4.899704438230401E-4  
 2.548000000000000E10    1.466852908151850E-4   4.460408931663551E-4  
 2.550000000000000E10    6.217903019205551E-4   4.883558965502743E-4  
 2.552000000000000E10    6.332533389468154E-4  -1.325473602264538E-3  
 2.554000000000000E10   -1.084733432435314E-3  -8.519278080711956E-4  
 2.556000000000000E10   -1.667324284426286E-3   7.608394867020252E-4  
 2.558000000000000E10    5.815226090817305E-4   1.116802891374391E-3  
 2.560000000000000E10    9.099854305532062E-4  -7.367102266471193E-4  
 2.562000000000000E10   -6.542614580666850E-4  -1.712385038445063E-3  
 2.564000000000000E10   -1.142842863373517E-3  -1.949600432453735E-4  
 2.566000000000000E10   -2.552119647134532E-4   5.093165873404359E-4  
 2.568000000000000E10   -4.618295325542476E-5   2.976896300879162E-4  
 2.570000000000000E10   -2.010983084801410E-4  -3.447835388215026E-4  
 2.572000000000000E10    6.138386561360676E-4  -3.243176900014078E-4  
 2.574000000000000E10   -2.861794594082312E-4  -1.046944726567745E-3  
 2.576000000000000E10   -1.105203285987955E-3   2.755657762776309E-5  
 2.578000000000000E10   -2.490578078777617E-4   1.172769532786333E-3  
 2.580000000000000E10    1.222279485773470E-3   7.426706465594180E-4  
 2.582000000000000E10    2.406836340469454E-4  -9.963583584067237E-4  
 2.584000000000000E10   -1.497759480116656E-3  -9.707883068585943E-4  
 2.586000000000000E10   -9.687236342870165E-4   1.554234847390035E-3  
 2.588000000000000E10    3.110571874458401E-4   8.439232769887894E-4  
 2.590000000000000E10    4.019260002223746E-4  -1.721943060601916E-4  
 2.592000000000000E10   -1.352024772813820E-4  -6.651483012376502E-5  
 2.594000000000000E10   -4.281343831280537E-5  -5.002852788038581E-5  
 2.596000000000000E10   -1.075137881301203E-5  -3.742489300293528E-4  
 2.598000000000000E10   -6.643233109571156E-4   4.950919380917185E-4  
 2.600000000000000E10    1.893429519839174E-4   9.161223633782356E-4  
 2.602000000000000E10    1.315914512815652E-3   1.461725656781709E-5  
 2.604000000000000E10   -8.042442044597919E-5  -4.885057869614684E-4  
 2.606000000000000E10   -1.208303463499760E-3  -2.246191667154562E-4  
 2.608000000000000E10   -1.486327074360361E-4   1.421779479642282E-3  
 2.610000000000000E10    4.640822035071324E-4   4.201246144930337E-4  
 2.612000000000000E10    4.530759294993914E-4  -5.072534515875304E-4  
 2.614000000000000E10    7.618110289975277E-5  -1.752881692596020E-4  
 2.616000000000000E10   -1.698832007832607E-4   2.266617435111584E-4  
 2.618000000000000E10    1.736581729119280E-4  -1.203672491811858E-4  
 2.620000000000000E10   -2.547641061028116E-4   6.843752048553142E-4  
 2.622000000000000E10   -9.592243166456349E-5   1.020422718283953E-3  
 2.624000000000000E10    9.768524491846620E-4  -4.088483001396526E-4  
 2.626000000000000E10    4.171284528808883E-5  -7.226119396364084E-4  
 2.628000000000000E10   -1.729435242850741E-3   2.207442121431313E-4  
 2.630000000000000E10    2.320745150541370E-4   1.132740494540485E-3  
 2.632000000000000E10    1.524597091702162E-3   6.275075252233364E-4  
 2.634000000000000E10    2.557433549554844E-4  -7.581667168778949E-4  
 2.636000000000000E10   -4.471344914236397E-4  -7.806794765201630E-4  
 2.638000000000000E10   -5.287309611503588E-4   7.988209085851850E-4  
 2.640000000000000E10    2.082778682961362E-4   4.024589926387989E-5  
 2.642000000000000E10    2.761207047115022E-4  -9.113505589652959E-5  
 2.644000000000000E10    2.267937776423423E-5   4.324185435962136E-4  
 2.646000000000000E10    6.814325570303481E-4  -6.251490478916821E-4  
 2.648000000000000E10   -1.423219388101416E-4  -6.754053770237078E-4  
 2.650000000000000E10   -1.426781725967885E-3   1.602706842049884E-4  
 2.652000000000000E10    5.032116473557835E-4   1.470570300625695E-3  
 2.654000000000000E10    1.585179374160362E-3  -6.190983262968075E-4  
 2.656000000000000E10    1.858281464137690E-4  -1.031673496072472E-3  
 2.658000000000000E10   -1.308064312979695E-3  -6.937192108580348E-5  
 2.660000000000000E10   -2.378088841794579E-4   5.828003986607655E-4  
 2.662000000000000E10    6.850403865428234E-4   3.442152094521589E-4  
 2.664000000000000E10    2.638550483879953E-4  -4.863459171247087E-4  
 2.666000000000000E10    2.693990438160654E-4  -1.513903785053117E-4  
 2.668000000000000E10    3.450742546817764E-5  -1.664909748342325E-4  
 2.670000000000000E10   -4.004654676919017E-4  -4.507358034970821E-4  
 2.672000000000000E10   -6.321984155874816E-4   3.449620387527830E-4  
 2.674000000000000E10    3.280710154740518E-4   1.253425793038332E-3  
 2.676000000000000E10    1.109090883346653E-3  -6.408642693713773E-4  
 2.678000000000000E10   -5.597769802534458E-4  -1.251151337783085E-3  
 2.680000000000000E10   -1.668148055614438E-3   1.797962152068067E-4  
 2.682000000000000E10    1.137452743762424E-4   1.370318977933493E-3  
 2.684000000000000E10    1.207102115586167E-3   5.891914207722948E-5  
 2.686000000000000E10    5.388237159422715E-4  -8.339222699760285E-4  
 2.688000000000000E10   -8.414940507464053E-4  -1.457021420776528E-4  
 2.690000000000000E10   -1.921617563027667E-4   2.986574809256126E-4  
 2.692000000000000E10    1.924734408476070E-4   6.379991227731807E-4  
 2.694000000000000E10   -2.440323722794346E-4   4.762077864484127E-6  
 2.696000000000000E10    2.795609431132107E-4   5.170869478661189E-4  
 2.698000000000000E10    9.799440426832007E-4   6.562651773833750E-5  
 2.700000000000000E10   -6.599379867111566E-4  -1.326294350292301E-3  
 2.702000000000000E10   -1.450130036573682E-3   3.470156580078765E-4  
 2.704000000000000E10    8.230654502767720E-4   1.666744156864297E-3  
 2.706000000000000E10    1.483218760768068E-3  -9.623130428337845E-5  
 2.708000000000000E10    1.520618502581783E-4  -1.702310843938903E-3  
 2.710000000000000E10   -1.306649870457477E-3   3.476404569937586E-4  
 2.712000000000000E10   -5.956032341600803E-4   1.070355306183046E-3  
 2.714000000000000E10    1.379947388159053E-3  -1.588857071510574E-5  
 2.716000000000000E10    1.640673310703278E-4  -4.687493269557308E-4  
 2.718000000000000E10   -4.130991083002300E-4  -3.340130507467620E-4  
 2.720000000000000E10    2.922824226061493E-4   1.902585598259066E-4  
 2.722000000000000E10   -1.837295069435641E-4  -2.895756933867233E-4  
 2.724000000000000E10   -7.643545691280451E-4   5.606036359040445E-5  
 2.726000000000000E10    2.014818462043877E-4   1.062032957634074E-3  
 2.728000000000000E10    1.428827466952498E-3  -1.315536195534151E-6  
 2.730000000000000E10   -1.440209607608267E-4  -1.864245380602370E-3  
 2.732000000000000E10   -1.430262496796786E-3  -8.196799672077759E-5  
 2.734000000000000E10   -2.364500273870362E-4   1.641762233703048E-3  
 2.736000000000000E10    1.828639584346092E-3  -1.243501938859026E-4  
 2.738000000000000E10    3.134047208277480E-4  -1.202880382152216E-3  
 2.740000000000000E10   -1.052113964306045E-3   5.677427070622798E-4  
 2.742000000000000E10    3.565924976101087E-4   7.861531025810109E-4  
 2.744000000000000E10    1.729668844063781E-4  -1.607047019547281E-5  
 2.746000000000000E10   -6.945301411178662E-4   1.286212243485352E-4  
 2.748000000000000E10   -2.033651382760127E-5   8.480487504129997E-4  
 2.750000000000000E10    1.121520362175943E-3   7.006159044919968E-5  
 2.752000000000000E10    6.119766708323482E-5  -1.599663722117839E-3  
 2.754000000000000E10   -1.503462703112746E-3   7.250006711956303E-5  
 2.756000000000000E10    1.443559581275622E-4   1.856785943346040E-3  
