#  HZ   S   RI   R     50.00 
! Rohde & Schwarz ZVA40 4Ports - Version 3.90 - 1145.1110k42 SN: 100403
! Date: 2023-10-04 06:20:59
! Measurement: S12 
! 
 2.200000000000000E10   -7.197369443019852E-3   2.866224705940113E-3  
 2.202000000000000E10    2.965057312394492E-3   6.405449428712018E-3  
 2.204000000000000E10    7.007514825090766E-3  -3.505460030282848E-3  
 2.206000000000000E10   -4.022140492452309E-3  -6.035227372194640E-3  
 2.208000000000000E10   -5.066614554380067E-3   4.483094700844958E-3  
 2.210000000000000E10    5.716956307878718E-3   5.520876846276224E-3  
 2.212000000000000E10    4.536165113677271E-3  -5.957631918136030E-3  
 2.214000000000000E10   -6.242243223823607E-3  -3.718875006597955E-3  
 2.216000000000000E10   -1.987664840271464E-3   7.968930382048711E-3  
 2.218000000000000E10    8.649069524835795E-3   9.012764548970154E-4  
 2.220000000000000E10    1.356463199044811E-4  -8.688480447744951E-3  
 2.222000000000000E10   -8.564330142689869E-3   1.862261444330216E-3  
 2.224000000000000E10    3.618330039898865E-3   8.576960797654465E-3  
 2.226000000000000E10    8.642358036013320E-3  -4.563607377349399E-3  
 2.228000000000000E10   -4.232691950164735E-3  -7.537744735600427E-3  
 2.230000000000000E10   -6.972585309995338E-3   5.425668190582655E-3  
 2.232000000000000E10    6.639870043727569E-3   6.592153804376721E-3  
 2.234000000000000E10    5.786635534605011E-3  -6.873373655253090E-3  
 2.236000000000000E10   -6.837497116066515E-3  -4.869608004810289E-3  
 2.238000000000000E10   -3.542694743373431E-3   7.114942724001594E-3  
 2.240000000000000E10    8.173154958058149E-3   2.486766083166003E-3  
 2.242000000000000E10    1.196831808556453E-3  -9.754233789863065E-3  
 2.244000000000000E10   -8.702282037120313E-3   2.105398845060336E-4  
 2.246000000000000E10    1.552485686261207E-3   8.475996291963384E-3  
 2.248000000000000E10    8.355531143024564E-3  -3.025241137947887E-3  
 2.250000000000000E10   -3.598710631194990E-3  -8.086542016826570E-3  
 2.252000000000000E10   -8.396575984079391E-3   4.478382208617404E-3  
 2.254000000000000E10    5.322621145751327E-3   7.357291498919949E-3  
 2.256000000000000E10    6.361092906445265E-3  -6.199948795256205E-3  
 2.258000000000000E10   -7.464013076969422E-3  -5.649440994602628E-3  
 2.260000000000000E10   -5.523955012904480E-3   6.316559534752742E-3  
 2.262000000000000E10    6.861185916932300E-3   3.733496705535799E-3  
 2.264000000000000E10    2.644326792506035E-3  -7.332435066928156E-3  
 2.266000000000000E10   -8.050114964134991E-3  -2.938167483080179E-3  
 2.268000000000000E10   -2.074672480375739E-3   8.091958792647347E-3  
 2.270000000000000E10    8.049991360167041E-3   5.681519596691942E-4  
 2.272000000000000E10   -9.056429662450682E-4  -9.445721691008657E-3  
 2.274000000000000E10   -1.033931848360226E-2   1.591412874404341E-3  
 2.276000000000000E10    3.320734984299634E-3   9.586072905221954E-3  
 2.278000000000000E10    8.141537837218493E-3  -4.862793022766709E-3  
 2.280000000000000E10   -5.033500186982565E-3  -7.221155217848718E-3  
 2.282000000000000E10   -9.091507963603362E-3   5.936962625128217E-4  
 2.284000000000000E10    5.772279051598162E-3   6.130976253189147E-3  
 2.286000000000000E10    5.434381615486927E-3  -6.282015820033848E-3  
 2.288000000000000E10   -7.056648551952094E-3  -3.725177986780182E-3  
 2.290000000000000E10   -2.848132382496260E-3   8.137728553265333E-3  
 2.292000000000000E10    8.379792387131602E-3   1.317936377745355E-3  
 2.294000000000000E10   -5.347214409994194E-4  -8.017459535039961E-3  
 2.296000000000000E10   -8.482605335302651E-3   1.114518381655216E-3  
 2.298000000000000E10    2.091174916131422E-3   8.575700892833993E-3  
 2.300000000000000E10    8.747291867621243E-3  -2.570045042375568E-3  
 2.302000000000000E10   -3.729397147253621E-3  -9.274376730900258E-3  
 2.304000000000000E10   -8.627189235994592E-3   4.517679612035863E-3  
 2.306000000000000E10    6.046882030204870E-3   8.313783182529733E-3  
 2.308000000000000E10    7.410522390273400E-3  -7.042237237328664E-3  
 2.310000000000000E10   -6.994354102062061E-3  -5.904533099965192E-3  
 2.312000000000000E10   -4.165968275628984E-3   7.900749886175618E-3  
 2.314000000000000E10    7.485403999453411E-3   2.948518478660844E-3  
 2.316000000000000E10    1.291340366151417E-3  -7.645491627044976E-3  
 2.318000000000000E10   -8.192177629098296E-3  -2.673470244189957E-4  
 2.320000000000000E10    1.539152996201665E-4   7.565478968899697E-3  
 2.322000000000000E10    8.170371380401775E-3  -1.700116346910363E-3  
 2.324000000000000E10   -3.860811943013687E-3  -8.510909538017586E-3  
 2.326000000000000E10   -8.137107914080843E-3   4.509376507485285E-3  
 2.328000000000000E10    6.004647861118428E-3   7.590914930915460E-3  
 2.330000000000000E10    6.212677675648592E-3  -6.111163296736777E-3  
 2.332000000000000E10   -6.090980867156759E-3  -5.672764818882570E-3  
 2.334000000000000E10   -5.568316410062835E-3   7.256090670125559E-3  
 2.336000000000000E10    7.717519009020180E-3   4.924738663248718E-3  
 2.338000000000000E10    2.574337660917081E-3  -7.774069512379356E-3  
 2.340000000000000E10   -8.077686594333500E-3  -1.012550019368064E-3  
 2.342000000000000E10   -1.671093982622551E-4   7.591512912767939E-3  
 2.344000000000000E10    7.367075639194809E-3  -1.528163560578832E-3  
 2.346000000000000E10   -2.574051053670701E-3  -7.246619628858753E-3  
 2.348000000000000E10   -6.316170023637824E-3   3.238286546547897E-3  
 2.350000000000000E10    4.165358157479204E-3   7.109725876944140E-3  
 2.352000000000000E10    6.227495468920097E-3  -5.108398298034445E-3  
 2.354000000000000E10   -5.148965195985511E-3  -5.824041378218681E-3  
 2.356000000000000E10   -5.348082981072366E-3   6.967637833440676E-3  
 2.358000000000000E10    7.043216872261837E-3   4.656005243305117E-3  
 2.360000000000000E10    3.360270158736967E-3  -7.360412797424942E-3  
 2.362000000000000E10   -6.999453704338521E-3  -2.320994375622831E-3  
 2.364000000000000E10   -1.036718786053825E-3   6.537222623592243E-3  
 2.366000000000000E10    6.815092958277091E-3  -4.235384967614664E-4  
 2.368000000000000E10   -1.193746880744584E-3  -6.118373741628602E-3  
 2.370000000000000E10   -5.375363078201190E-3   2.555047220084816E-3  
 2.372000000000000E10    3.873866458889097E-3   6.101692648371682E-3  
 2.374000000000000E10    4.967297427356243E-3  -4.907368071144447E-3  
 2.376000000000000E10   -4.961500933859497E-3  -4.866462404606864E-3  
 2.378000000000000E10   -4.473251436138526E-3   6.004419934470207E-3  
 2.380000000000000E10    5.878944153664634E-3   3.368447796674445E-3  
 2.382000000000000E10    3.547522326698527E-3  -6.675944459857419E-3  
 2.384000000000000E10   -6.236195564270020E-3  -2.906832669395953E-3  
 2.386000000000000E10   -2.045162371359766E-3   5.847468448337168E-3  
 2.388000000000000E10    6.368903559632599E-3   1.244197963387705E-3  
 2.390000000000000E10   -2.731519916778780E-4  -5.861733516212553E-3  
 2.392000000000000E10   -4.460279771592468E-3   5.636624209728325E-4  
 2.394000000000000E10    1.893873028166127E-3   4.687183711212128E-3  
 2.396000000000000E10    3.949242469388992E-3  -2.951771486550570E-3  
 2.398000000000000E10   -3.738397717825137E-3  -3.733061457751319E-3  
 2.400000000000000E10   -2.712133864406496E-3   4.260202927980572E-3  
 2.402000000000000E10    5.157072213478386E-3   2.194065280491486E-3  
 2.404000000000000E10    1.918891619425267E-3  -5.716777057386935E-3  
 2.406000000000000E10   -5.047103390097618E-3  -1.278850111702923E-3  
 2.408000000000000E10   -1.943603201652877E-3   5.487678630743176E-3  
 2.410000000000000E10    5.878990195924416E-3   2.890877949539572E-4  
 2.412000000000000E10    3.126435922240489E-4  -4.227439989335835E-3  
 2.414000000000000E10   -4.397484561195597E-3  -6.306729374045972E-4  
 2.416000000000000E10    8.368988201254979E-4   3.392976737814024E-3  
 2.418000000000000E10    3.669268058729358E-3  -9.556579389027320E-4  
 2.420000000000000E10   -2.281435503391549E-3  -3.239183322875761E-3  
 2.422000000000000E10   -2.264533090055920E-3   2.516598542570137E-3  
 2.424000000000000E10    2.801322014420293E-3   2.505125987227075E-3  
 2.426000000000000E10    1.888367900392041E-3  -3.641194067313336E-3  
 2.428000000000000E10   -3.973540835431777E-3  -1.832029112847522E-3  
 2.430000000000000E10   -2.247651442303322E-3   4.288977012038231E-3  
 2.432000000000000E10    3.939338930649683E-3   1.156424943474121E-3  
 2.434000000000000E10    9.971459949156269E-4  -4.382659040857106E-3  
 2.436000000000000E10   -3.742502623936161E-3  -1.080143716535531E-3  
 2.438000000000000E10   -7.350896921707317E-4   2.945905216620304E-3  
 2.440000000000000E10    3.272307978477329E-3   4.463575496629346E-4  
 2.442000000000000E10   -5.609398103842977E-4  -2.955768795800395E-3  
 2.444000000000000E10   -2.376684176851995E-3   8.209952648030594E-4  
 2.446000000000000E10    1.336305627773982E-3   2.270733049954288E-3  
 2.448000000000000E10    1.288818857574370E-3  -2.504106712876819E-3  
 2.450000000000000E10   -2.400901052169502E-3  -1.246967520273756E-3  
 2.452000000000000E10   -9.719789086375386E-4   3.060397502849810E-3  
 2.454000000000000E10    3.227494104066864E-3   7.563000526715769E-4  
 2.456000000000000E10    1.155631049186923E-3  -3.433730424148962E-3  
 2.458000000000000E10   -3.206353925634176E-3  -1.096921972930431E-3  
 2.460000000000000E10   -5.596244973276043E-4   3.447130220592953E-3  
 2.462000000000000E10    3.281839162809774E-3   8.965658744273242E-4  
 2.464000000000000E10    1.891831798275234E-4  -2.604011169751175E-3  
 2.466000000000000E10   -1.908685429953039E-3  -1.736406684358371E-4  
 2.468000000000000E10    5.853187267348403E-4   1.803398059564643E-3  
 2.470000000000000E10    9.585519510437734E-4  -8.094137374428101E-4  
 2.472000000000000E10   -7.283830636879429E-4  -1.106898147554603E-3  
 2.474000000000000E10   -2.160902386094676E-4   1.665848983975593E-3  
 2.476000000000000E10    1.977723914023954E-3   1.865109288701206E-4  
 2.478000000000000E10    6.669476679235231E-4  -2.663108185515739E-3  
 2.480000000000000E10   -2.544760543969460E-3  -8.817416744477669E-5  
 2.482000000000000E10    1.958201883098809E-4   2.750415456830524E-3  
 2.484000000000000E10    2.826036710757762E-3  -1.700669918136555E-5  
 2.486000000000000E10   -4.182994707662147E-4  -2.478185822837986E-3  
 2.488000000000000E10   -1.998244602873456E-3  -3.031522728633718E-4  
 2.490000000000000E10    8.273405046566040E-5   1.335142282187007E-3  
 2.492000000000000E10    9.238607963197865E-4  -1.887372127384879E-4  
 2.494000000000000E10   -5.042719258199213E-4  -9.444245370104909E-4  
 2.496000000000000E10   -2.500935825082706E-4   3.057097746932413E-4  
 2.498000000000000E10    7.606068429595325E-4  -1.456401205359725E-4  
 2.500000000000000E10    8.964108633335854E-5  -1.493644427682739E-3  
 2.502000000000000E10   -2.329504131921567E-3   5.222306717769243E-4  
 2.504000000000000E10    2.035969146163552E-6   1.678484739386477E-3  
 2.506000000000000E10    1.963866998266894E-3  -4.002659716206836E-4  
 2.508000000000000E10   -1.059894791978877E-3  -2.421674216748215E-3  
 2.510000000000000E10   -2.579603751655668E-3  -5.415626710600918E-4  
 2.512000000000000E10   -1.556877957682445E-4   2.151630091248080E-3  
 2.514000000000000E10    1.167748116131406E-3  -5.799990176456049E-4  
 2.516000000000000E10   -5.395647967816331E-4  -1.188747679407243E-3  
 2.518000000000000E10   -5.452961740957107E-4   6.475591326307040E-4  
 2.520000000000000E10    1.538227356832067E-4   2.636516837810632E-4  
 2.522000000000000E10   -5.443155605462380E-4  -8.639268053229898E-4  
 2.524000000000000E10   -1.612121581274550E-3   1.142199966125190E-3  
 2.526000000000000E10    3.736924500117311E-4   1.629565522307530E-3  
 2.528000000000000E10    1.618463647901081E-3  -1.159431281848811E-3  
 2.530000000000000E10   -1.653694118431304E-3  -1.224091123731341E-3  
 2.532000000000000E10   -2.431085798889399E-3   1.040544753777795E-3  
 2.534000000000000E10    1.427137001883239E-3   1.951762962562498E-3  
 2.536000000000000E10    1.806582797144074E-3  -5.130396421009209E-4  
 2.538000000000000E10   -1.214445597724989E-3  -1.349842168565374E-3  
 2.540000000000000E10   -7.565914675069507E-4   1.295183617912699E-3  
 2.542000000000000E10    7.670584127481561E-4   1.507039596617688E-3  
 2.544000000000000E10    6.772150277356559E-5  -7.238367252284661E-4  
 2.546000000000000E10   -5.885815044166520E-4   1.010929641779512E-3  
 2.548000000000000E10    5.200518717174418E-4   1.377364947984461E-3  
 2.550000000000000E10    8.567203694838099E-4  -9.395560227858368E-4  
 2.552000000000000E10   -1.448437804356217E-3  -6.429720215237467E-4  
 2.554000000000000E10   -7.390039572783280E-4   1.788363872037735E-3  
 2.556000000000000E10    1.658324814343359E-3   1.219420395500492E-3  
 2.558000000000000E10    1.754644297761843E-3  -1.468689559260383E-3  
 2.560000000000000E10   -1.169006420241203E-3  -5.767721559095662E-4  
 2.562000000000000E10   -4.331360869400669E-4   1.000702814053511E-3  
 2.564000000000000E10    1.453926088288426E-3   8.466371655231342E-4  
 2.566000000000000E10    4.110787376703229E-4  -9.526767680654302E-4  
 2.568000000000000E10   -1.009668562801380E-4   2.549133723732666E-4  
 2.570000000000000E10    9.827520043472759E-4   7.137596767279320E-4  
 2.572000000000000E10    9.864458552328870E-4  -1.293180648644920E-3  
 2.574000000000000E10   -9.822477950365283E-4  -3.824117120529991E-4  
 2.576000000000000E10   -3.449433370406041E-4   1.484791573602706E-3  
 2.578000000000000E10    2.218233596067876E-3   9.840590937528759E-4  
 2.580000000000000E10    9.656252150307410E-4  -2.003512301598676E-3  
 2.582000000000000E10   -1.629090620554052E-3  -1.363501301966608E-3  
 2.584000000000000E10   -1.019360202917596E-3   1.512931179604493E-3  
 2.586000000000000E10    1.516872835054528E-3   6.947523943381384E-4  
 2.588000000000000E10    8.103477157419547E-4  -1.499187339504715E-3  
 2.590000000000000E10   -6.194130182848312E-4  -7.649726030649617E-4  
 2.592000000000000E10   -1.958092795462108E-5   4.450943088158965E-4  
 2.594000000000000E10    5.831524249515496E-4  -3.647744788395357E-4  
 2.596000000000000E10   -7.033389374555554E-4  -4.451717231859220E-4  
 2.598000000000000E10   -5.072819858469302E-4   1.010231218970148E-3  
 2.600000000000000E10    1.644627758651041E-3   2.403950884399819E-5  
 2.602000000000000E10    1.188522196571284E-5  -1.767432513588574E-3  
 2.604000000000000E10   -2.129572851117700E-3  -5.719391338061541E-4  
 2.606000000000000E10   -5.198960534471553E-4   1.374885410768911E-3  
 2.608000000000000E10    1.683768598013558E-3   1.254448849067558E-3  
 2.610000000000000E10    8.997957011160906E-4  -2.358785626711324E-3  
 2.612000000000000E10   -1.441086707927752E-3  -1.243101170985028E-3  
 2.614000000000000E10   -9.567205706844106E-4   1.806984175345860E-3  
 2.616000000000000E10    1.096431289624888E-3   3.915463366865879E-4  
 2.618000000000000E10    3.074101714446442E-4  -1.026276411721483E-3  
 2.620000000000000E10   -1.296817223192193E-3   2.421343115202035E-4  
 2.622000000000000E10    3.917753929272294E-4   5.176348786335439E-4  
 2.624000000000000E10    8.228282895288430E-4  -1.277546609344427E-3  
 2.626000000000000E10   -1.843772428401280E-3  -6.465414517151658E-4  
 2.628000000000000E10   -5.627533282677177E-4   1.921725597640034E-3  
 2.630000000000000E10    2.409032851574011E-3   8.386741174035706E-4  
 2.632000000000000E10    3.815412637777627E-4  -2.313031334779225E-3  
 2.634000000000000E10   -1.982897454581689E-3  -6.412051588995382E-4  
 2.636000000000000E10   -4.992547728761565E-4   1.854787617048714E-3  
 2.638000000000000E10    1.461925603507552E-3   3.380631605978124E-4  
 2.640000000000000E10    4.665757933253190E-4  -1.382972732244525E-3  
 2.642000000000000E10   -9.923292018356733E-4   6.085544373490848E-5  
 2.644000000000000E10    8.141371790770791E-5   8.222484029829502E-4  
 2.646000000000000E10    1.004071098577697E-3  -7.670233753742650E-4  
 2.648000000000000E10   -8.980516067822464E-4  -7.736032648608671E-5  
 2.650000000000000E10   -1.019105031446088E-3   1.028828628477641E-3  
 2.652000000000000E10    1.808849068765994E-3   7.891014829510823E-4  
 2.654000000000000E10    7.278449047589675E-4  -1.892792977741920E-3  
 2.656000000000000E10   -2.055820310488343E-3  -8.007580217963550E-4  
 2.658000000000000E10   -6.843693372502457E-4   2.286821370944381E-3  
 2.660000000000000E10    2.338247577426955E-3   7.581075660709757E-4  
 2.662000000000000E10    4.830203979508951E-4  -2.094896291964687E-3  
 2.664000000000000E10   -1.729084760881960E-3  -5.204047592997085E-4  
 2.666000000000000E10   -2.818996654241346E-4   1.483846928749699E-3  
 2.668000000000000E10    1.307333768636454E-3   1.002652368242707E-6  
 2.670000000000000E10   -4.757137867272832E-5  -7.990763297129888E-4  
 2.672000000000000E10   -9.067082755791489E-4   1.557946125103626E-4  
 2.674000000000000E10    9.125995711656287E-4   6.609744777961168E-4  
 2.676000000000000E10    7.419248395308387E-4  -1.389213008224033E-3  
 2.678000000000000E10   -1.438355408026837E-3  -7.538965728599578E-4  
 2.680000000000000E10   -9.722563518153038E-4   2.048176538664848E-3  
 2.682000000000000E10    2.361483828281052E-3   5.735187987738755E-4  
 2.684000000000000E10    7.915532114566304E-4  -2.082720297039487E-3  
 2.686000000000000E10   -2.312955984962173E-3  -9.885024628601968E-4  
 2.688000000000000E10   -6.935104865988251E-4   2.067172827082686E-3  
 2.690000000000000E10    2.024595567490906E-3   2.908404039771995E-4  
 2.692000000000000E10    4.788245842064498E-4  -1.500561207649298E-3  
 2.694000000000000E10   -1.495600961789023E-3  -4.570508954202524E-4  
 2.696000000000000E10    4.836890984734055E-4   9.889823559205979E-4  
 2.698000000000000E10    8.439000994258095E-4  -4.573881305987015E-4  
 2.700000000000000E10   -1.308849670749623E-3  -1.110521618102212E-3  
 2.702000000000000E10   -4.259091419953620E-4   1.653902814723551E-3  
 2.704000000000000E10    1.600846124347299E-3   3.214669704902917E-4  
 2.706000000000000E10    3.741076307051117E-4  -2.429823493002914E-3  
 2.708000000000000E10   -1.925573873450048E-3  -7.266743705258705E-4  
 2.710000000000000E10   -7.515780380344950E-4   2.096846917993389E-3  
 2.712000000000000E10    2.279782231198624E-3   3.561086305126082E-4  
 2.714000000000000E10    1.030884770443663E-3  -1.603679156687576E-3  
 2.716000000000000E10   -1.922382711200044E-3  -7.743055502942298E-4  
 2.718000000000000E10   -5.978614390187431E-4   1.231237285537645E-3  
 2.720000000000000E10    1.201266793941613E-3   6.637724982283544E-4  
 2.722000000000000E10   -3.018656479980564E-4  -1.154828991275281E-3  
 2.724000000000000E10   -7.443114627676550E-4   1.451417488169682E-4  
 2.726000000000000E10    7.481520187866408E-4   4.942313462379389E-4  
 2.728000000000000E10    5.962469258520287E-4  -1.587466780620161E-3  
 2.730000000000000E10   -1.054009342624340E-3  -8.579221539548598E-4  
 2.732000000000000E10   -5.674307431036141E-4   2.053993812296540E-3  
 2.734000000000000E10    1.853519512224011E-3   5.626947640848812E-4  
 2.736000000000000E10    1.169124079751782E-3  -1.913827109092381E-3  
 2.738000000000000E10   -2.307041373569518E-3  -9.276251839764882E-4  
 2.740000000000000E10   -1.360530848614872E-3   1.804703853849787E-3  
 2.742000000000000E10    1.456218240491580E-3   1.189586284453981E-3  
 2.744000000000000E10    9.811852505663410E-4  -1.816231837437954E-3  
 2.746000000000000E10   -1.338578062132001E-3  -9.339718817500398E-4  
 2.748000000000000E10   -4.875094964518212E-4   1.030513005389366E-3  
 2.750000000000000E10    9.146621305262670E-4   9.681372591785475E-5  
 2.752000000000000E10   -2.429578507872066E-4  -1.081493697711267E-3  
 2.754000000000000E10   -1.206668130180333E-3   6.979702811804600E-4  
 2.756000000000000E10    8.364503519260325E-4   1.133464153099340E-3  
