#  HZ   S   RI   R     50.00 
! Rohde & Schwarz ZVA40 4Ports - Version 3.90 - 1145.1110k42 SN: 100403
! Date: 2023-10-04 06:21:35
! Measurement: S12 
! 
 2.200000000000000E10   -5.545321240788326E-3   2.450012470944785E-3  
 2.202000000000000E10    3.961013135267422E-3   5.266466527245939E-3  
 2.204000000000000E10    5.512039613677189E-3  -4.931023548124358E-3  
 2.206000000000000E10   -5.198410159209743E-3  -5.888361600227654E-3  
 2.208000000000000E10   -4.273168829968199E-3   5.450689233839512E-3  
 2.210000000000000E10    5.643362033879384E-3   3.835777213680558E-3  
 2.212000000000000E10    2.734425521339290E-3  -7.544459804194048E-3  
 2.214000000000000E10   -7.225104083772749E-3  -2.536879444960505E-3  
 2.216000000000000E10   -1.496531149314251E-3   7.059560361085460E-3  
 2.218000000000000E10    7.453647820511833E-3  -8.710996153240558E-4  
 2.220000000000000E10   -1.647038880037144E-3  -7.947884267196059E-3  
 2.222000000000000E10   -8.305324183311313E-3   2.701993507798761E-3  
 2.224000000000000E10    3.854402923025191E-3   6.935968238394707E-3  
 2.226000000000000E10    6.138081429526210E-3  -4.695180425187573E-3  
 2.228000000000000E10   -6.259244633838534E-3  -5.859823635546491E-3  
 2.230000000000000E10   -6.050119205610827E-3   6.031772471033037E-3  
 2.232000000000000E10    5.684596399078146E-3   4.651373659726232E-3  
 2.234000000000000E10    3.152527235215530E-3  -7.221805775770918E-3  
 2.236000000000000E10   -6.857501895865426E-3  -2.939485377282836E-3  
 2.238000000000000E10   -2.859634696505964E-3   7.730648998403922E-3  
 2.240000000000000E10    7.724104769295082E-3   1.170371739135590E-3  
 2.242000000000000E10   -7.535195145464968E-4  -7.715745508903638E-3  
 2.244000000000000E10   -7.645634381333366E-3   2.619479622808285E-3  
 2.246000000000000E10    3.098740970017389E-3   7.243687810841948E-3  
 2.248000000000000E10    6.750227534212172E-3  -3.386475189472549E-3  
 2.250000000000000E10   -5.087711091618985E-3  -6.087205052608624E-3  
 2.252000000000000E10   -6.579656735993922E-3   5.809298774693161E-3  
 2.254000000000000E10    7.015576120465994E-3   5.505669541889802E-3  
 2.256000000000000E10    5.255916825262830E-3  -6.831848324509338E-3  
 2.258000000000000E10   -7.031591754639521E-3  -4.464723955607042E-3  
 2.260000000000000E10   -3.448018265771680E-3   7.518889149650931E-3  
 2.262000000000000E10    7.422054011840373E-3   3.130274519207887E-3  
 2.264000000000000E10    2.084548963466659E-3  -6.979260389925912E-3  
 2.266000000000000E10   -7.123460352886468E-3  -9.486582930549048E-4  
 2.268000000000000E10    6.132847556727938E-4   7.848300650948659E-3  
 2.270000000000000E10    7.474771380657330E-3  -1.226245687576011E-3  
 2.272000000000000E10   -1.877258036984131E-3  -7.744669041130692E-3  
 2.274000000000000E10   -7.377475412795320E-3   4.631469142623246E-3  
 2.276000000000000E10    5.679512250935659E-3   6.491647684015334E-3  
 2.278000000000000E10    6.201643118401989E-3  -6.580395594937727E-3  
 2.280000000000000E10   -6.584054295672104E-3  -4.568489064695314E-3  
 2.282000000000000E10   -7.194011908723041E-3   3.449864001595415E-3  
 2.284000000000000E10    7.581495476188138E-3   3.415905186557211E-3  
 2.286000000000000E10    2.640210790559650E-3  -7.253252813825384E-3  
 2.288000000000000E10   -7.522410014644265E-3  -2.381671205512248E-3  
 2.290000000000000E10   -1.133944817411248E-3   7.852863403968513E-3  
 2.292000000000000E10    7.417700166115537E-3  -1.997189247049391E-5  
 2.294000000000000E10   -1.451351206924301E-3  -6.872077647130936E-3  
 2.296000000000000E10   -5.971791950287297E-3   2.028238799539395E-3  
 2.298000000000000E10    2.689035507501103E-3   6.575628009159118E-3  
 2.300000000000000E10    6.587686744751409E-3  -3.762134976568632E-3  
 2.302000000000000E10   -4.240132053382695E-3  -6.403138890163973E-3  
 2.304000000000000E10   -6.162773817777634E-3   6.453183625126258E-3  
 2.306000000000000E10    6.742680852767080E-3   5.046506383223459E-3  
 2.308000000000000E10    4.420501762069762E-3  -7.257882360136136E-3  
 2.310000000000000E10   -8.175205904990435E-3  -2.639741665916517E-3  
 2.312000000000000E10   -2.295437690918334E-3   7.012631220277399E-3  
 2.314000000000000E10    6.993588787736371E-3   1.038609643728705E-3  
 2.316000000000000E10   -1.757534273565398E-4  -6.652636395301670E-3  
 2.318000000000000E10   -6.330702482955530E-3   3.087067034357460E-4  
 2.320000000000000E10    2.256297855637968E-3   6.429860979551449E-3  
 2.322000000000000E10    6.386205408489332E-3  -2.886529415263794E-3  
 2.324000000000000E10   -4.342293803347275E-3  -5.997366853989661E-3  
 2.326000000000000E10   -5.283276812406257E-3   5.627383332466707E-3  
 2.328000000000000E10    5.898827628698200E-3   5.244420841336250E-3  
 2.330000000000000E10    4.119062243262306E-3  -7.145016395952553E-3  
 2.332000000000000E10   -7.501368760131300E-3  -4.100574878975749E-3  
 2.334000000000000E10   -3.741584980161861E-3   7.427466742228717E-3  
 2.336000000000000E10    8.200597250834107E-3   2.311930395080708E-3  
 2.338000000000000E10    1.403570597176440E-3  -7.599882781505585E-3  
 2.340000000000000E10   -6.745277321897447E-3  -6.103923351474805E-4  
 2.342000000000000E10    9.223333290719893E-4   6.572206038981676E-3  
 2.344000000000000E10    6.270791694987565E-3  -1.459407932998147E-3  
 2.346000000000000E10   -2.580717307864688E-3  -5.424877686891705E-3  
 2.348000000000000E10   -5.060265801148489E-3   3.941507617128082E-3  
 2.350000000000000E10    4.548817290924490E-3   4.656263743527234E-3  
 2.352000000000000E10    4.011023294879124E-3  -6.130363239208236E-3  
 2.354000000000000E10   -6.464511679951102E-3  -3.081076341914013E-3  
 2.356000000000000E10   -2.695351591682993E-3   7.312893838388845E-3  
 2.358000000000000E10    8.305150433443487E-3   1.774936041329056E-3  
 2.360000000000000E10    3.718179868883453E-4  -8.180463861208409E-3  
 2.362000000000000E10   -7.593277608975768E-3   2.211635224114161E-4  
 2.364000000000000E10    1.509990601334721E-3   7.196154096163809E-3  
 2.366000000000000E10    5.940812436165288E-3  -2.243489565444179E-3  
 2.368000000000000E10   -2.523188406485133E-3  -5.314948968589306E-3  
 2.370000000000000E10   -4.568268865114078E-3   2.928132467786782E-3  
 2.372000000000000E10    3.375694897840731E-3   3.514544587233104E-3  
 2.374000000000000E10    3.206708279321902E-3  -4.968954774085432E-3  
 2.376000000000000E10   -4.602340457495302E-3  -1.904117372760084E-3  
 2.378000000000000E10   -1.643144991248846E-3   5.135421029990539E-3  
 2.380000000000000E10    5.822727340273559E-3   7.543649298895616E-4  
 2.382000000000000E10    4.428304127941374E-4  -5.995251121930778E-3  
 2.384000000000000E10   -6.257454690057784E-3  -7.823525265848730E-5  
 2.386000000000000E10    5.919391769566573E-4   5.939289374509826E-3  
 2.388000000000000E10    5.789792427094653E-3  -1.684313909208868E-3  
 2.390000000000000E10   -2.419981436105445E-3  -5.238388344878331E-3  
 2.392000000000000E10   -4.289742035325617E-3   2.719905416597612E-3  
 2.394000000000000E10    2.431339118629694E-3   3.497351237456314E-3  
 2.396000000000000E10    2.889782204874791E-3  -3.499766622553580E-3  
 2.398000000000000E10   -3.744595931493677E-3  -1.195691525936127E-3  
 2.400000000000000E10   -1.350265694782138E-3   3.951409453293309E-3  
 2.402000000000000E10    3.900919342413545E-3  -8.952999305620324E-4  
 2.404000000000000E10   -1.364430980174802E-3  -3.691250618430786E-3  
 2.406000000000000E10   -4.418057505972683E-3   1.244324048457202E-3  
 2.408000000000000E10    1.426305963832419E-3   3.997367297415622E-3  
 2.410000000000000E10    4.358362668426707E-3  -1.690520250122063E-3  
 2.412000000000000E10   -2.465232289978303E-3  -4.121728503378108E-3  
 2.414000000000000E10   -3.386605400010012E-3   1.817803116864525E-3  
 2.416000000000000E10    1.384927934850566E-3   3.689746736199595E-3  
 2.418000000000000E10    2.016669692238793E-3  -1.784409323590808E-3  
 2.420000000000000E10   -1.966598603758030E-3  -1.474451295507606E-3  
 2.422000000000000E10   -1.220848142111208E-3   2.394192633801140E-3  
 2.424000000000000E10    1.930776670633350E-3  -3.431716640989180E-5  
 2.426000000000000E10   -2.497138002581778E-4  -2.459825278492644E-3  
 2.428000000000000E10   -2.928463276475668E-3   1.446247973944992E-3  
 2.430000000000000E10    1.585078498465009E-3   2.562687135650776E-3  
 2.432000000000000E10    3.519426696584560E-3  -1.180393774120603E-3  
 2.434000000000000E10   -2.376162155997008E-3  -2.649007728905417E-3  
 2.436000000000000E10   -2.801566646667197E-3   1.545856335724238E-3  
 2.438000000000000E10    1.287363644223660E-3   3.398407934582792E-3  
 2.440000000000000E10    2.718327188631520E-3  -1.123368187109008E-3  
 2.442000000000000E10   -1.589437779330183E-3  -2.322476677363738E-3  
 2.444000000000000E10   -2.029009767284151E-3   1.685620511125308E-3  
 2.446000000000000E10    1.347545206954237E-3   1.632420564419590E-3  
 2.448000000000000E10    8.661938700242899E-4  -1.370059748296626E-3  
 2.450000000000000E10   -1.477341123973019E-3   3.290683362138225E-4  
 2.452000000000000E10    4.379207603051327E-4   1.531861838884652E-3  
 2.454000000000000E10    2.103789302054793E-3  -4.573819660436129E-4  
 2.456000000000000E10   -1.359923815471120E-3  -1.873692417575512E-3  
 2.458000000000000E10   -2.185159552027471E-3   1.247473061084747E-3  
 2.460000000000000E10    1.545786850329023E-3   2.356492826947942E-3  
 2.462000000000000E10    2.499057678505778E-3  -1.740285770210903E-3  
 2.464000000000000E10   -1.808670407626778E-3  -2.677006239537150E-3  
 2.466000000000000E10   -1.909583086671773E-3   1.325082914263476E-3  
 2.468000000000000E10    1.523975290183444E-3   1.258582131413277E-3  
 2.470000000000000E10    1.196222656290047E-3  -1.465516608732287E-3  
 2.472000000000000E10   -1.131708013417665E-3  -4.296317201806232E-4  
 2.474000000000000E10   -7.124934174385089E-5   1.405372000590432E-3  
 2.476000000000000E10    1.165150613815058E-3  -6.021458830218762E-4  
 2.478000000000000E10   -1.436289589037187E-3  -1.553402769786771E-3  
 2.480000000000000E10   -1.824731982196681E-3   1.430062067811377E-3  
 2.482000000000000E10    1.961651898454875E-3   1.936756401846651E-3  
 2.484000000000000E10    1.773886535374913E-3  -2.922632833360694E-3  
 2.486000000000000E10   -2.846830873750150E-3  -1.712128396320622E-3  
 2.488000000000000E10   -1.492047289502807E-3   2.406142375548370E-3  
 2.490000000000000E10    2.039018261712045E-3   1.120213913964108E-3  
 2.492000000000000E10    1.131822660681792E-3  -1.664327086473350E-3  
 2.494000000000000E10   -1.879518538771663E-3  -6.829007688793354E-4  
 2.496000000000000E10   -6.920903761056252E-4   1.422991765139159E-3  
 2.498000000000000E10    9.504542103968561E-4   1.091811943751964E-4  
 2.500000000000000E10   -6.187583239807282E-4  -5.976092506898567E-4  
 2.502000000000000E10   -8.986855427792762E-4   7.659664624952711E-4  
 2.504000000000000E10    1.480892038671300E-3   7.168551601353101E-4  
 2.506000000000000E10    6.347304806695320E-4  -1.532482332549989E-3  
 2.508000000000000E10   -1.846714156272356E-3  -8.939132676459849E-4  
 2.510000000000000E10   -5.261578262434341E-4   2.948391411337070E-3  
 2.512000000000000E10    2.102146914694458E-3   1.397406886098906E-3  
 2.514000000000000E10    1.104366208892316E-3  -2.149092077161185E-3  
 2.516000000000000E10   -2.298298859386705E-3   3.596458049059947E-5  
 2.518000000000000E10   -5.639626906486228E-4   2.235044681583531E-3  
 2.520000000000000E10    1.679305227298755E-3   3.324851240904536E-4  
 2.522000000000000E10    5.303174168602709E-5  -8.319378539454192E-4  
 2.524000000000000E10   -1.185215704026632E-3   5.497209713212214E-4  
 2.526000000000000E10    1.642504910705611E-3   8.357530459761620E-4  
 2.528000000000000E10    1.556481154693756E-3  -8.909285716072191E-4  
 2.530000000000000E10   -1.857461335021071E-3  -7.566402746306267E-4  
 2.532000000000000E10   -2.644119849719573E-4   2.681597863556817E-3  
 2.534000000000000E10    2.963816950796172E-3   1.481761813920457E-3  
 2.536000000000000E10    1.051961113262223E-3  -2.898910403018817E-3  
 2.538000000000000E10   -2.579368650913239E-3  -1.825413628466777E-4  
 2.540000000000000E10   -2.855717120837653E-4   2.921892053564079E-3  
 2.542000000000000E10    2.442369761411101E-3  -3.384574774827343E-4  
 2.544000000000000E10    2.930573209596332E-4  -2.338921578484587E-3  
 2.546000000000000E10   -1.188097085105255E-3   6.552701779583003E-4  
 2.548000000000000E10    9.136773915088270E-4   2.829877275871695E-4  
 2.550000000000000E10    1.168782197055407E-3  -1.369273137242999E-3  
 2.552000000000000E10   -1.502978280768730E-3   1.366455771858455E-4  
 2.554000000000000E10    7.221009291242808E-4   1.206710447149817E-3  
 2.556000000000000E10    2.424167629214935E-3  -1.424083229721873E-4  
 2.558000000000000E10   -2.620832092361525E-4  -2.530191966798157E-3  
 2.560000000000000E10   -2.578218074631877E-3  -5.232855865244801E-5  
 2.562000000000000E10    9.140491072301415E-5   2.873358796932735E-3  
 2.564000000000000E10    3.302220327896066E-3  -3.070169368584175E-4  
 2.566000000000000E10   -6.122922786744312E-4  -3.540358186000958E-3  
 2.568000000000000E10   -2.817328568198718E-3   5.380098791647470E-4  
 2.570000000000000E10    6.311165197985247E-4   1.937494860612787E-3  
 2.572000000000000E10    1.400685585394967E-3  -1.267137027753051E-3  
 2.574000000000000E10   -9.561226579535287E-4  -1.491725932282861E-3  
 2.576000000000000E10   -5.982555485388730E-4   9.752416553965304E-4  
 2.578000000000000E10    1.407497438776773E-3   1.999612914005411E-5  
 2.580000000000000E10   -6.877720406919252E-4  -2.125083512510173E-3  
 2.582000000000000E10   -1.794418378267437E-3   4.770516370626865E-4  
 2.584000000000000E10    5.324793164618313E-4   2.148523723008111E-3  
 2.586000000000000E10    2.008763367484789E-3  -1.277591538382694E-3  
 2.588000000000000E10   -9.130633043241687E-4  -2.323599226656370E-3  
 2.590000000000000E10   -2.934862801339477E-3   9.656512156652752E-4  
 2.592000000000000E10    5.636706700897776E-4   1.907722646137700E-3  
 2.594000000000000E10    2.091516784275882E-3  -7.742325360595714E-4  
 2.596000000000000E10   -1.622097224753816E-3  -1.985080656595528E-3  
 2.598000000000000E10   -1.782716288289521E-3   8.051478107518051E-4  
 2.600000000000000E10    1.354709762381390E-3   1.276773480640259E-3  
 2.602000000000000E10   -7.376058647423633E-5  -1.997303726966493E-3  
 2.604000000000000E10   -1.860347445472144E-3   8.457999865640886E-5  
 2.606000000000000E10    1.186886393043096E-4   2.523643284803256E-3  
 2.608000000000000E10    1.830705819884315E-3  -5.644456068694126E-4  
 2.610000000000000E10   -1.044958521561057E-4  -2.406656349194236E-3  
 2.612000000000000E10   -3.086917931796052E-3   9.246913905371912E-4  
 2.614000000000000E10    2.863921254174784E-4   2.882315209717490E-3  
 2.616000000000000E10    3.198511185473763E-3  -4.979724999429891E-4  
 2.618000000000000E10   -1.026000340061728E-3  -2.480258684954606E-3  
 2.620000000000000E10   -2.417156880255789E-3   6.287849500949960E-4  
 2.622000000000000E10    1.053287247486878E-3   2.202276533353142E-3  
 2.624000000000000E10    1.139735522883711E-3  -1.035005218000151E-3  
 2.626000000000000E10   -1.429034949978814E-3  -1.041595365677495E-3  
 2.628000000000000E10    3.997198709839722E-4   1.904111377371009E-3  
 2.630000000000000E10    1.856317772762850E-3   1.618970436538803E-4  
 2.632000000000000E10   -5.035063695686404E-4  -2.563055822975002E-3  
 2.634000000000000E10   -1.947026983543765E-3   1.211650531331543E-3  
 2.636000000000000E10    8.537930916645564E-4   2.656361291883513E-3  
 2.638000000000000E10    2.853392492397688E-3  -9.568329332978465E-4  
 2.640000000000000E10   -8.364051755052060E-4  -2.351177041418850E-3  
 2.642000000000000E10   -2.929672991740517E-3   6.814465050410945E-4  
 2.644000000000000E10    1.197624740598258E-3   2.528378783608787E-3  
 2.646000000000000E10    2.261135581647977E-3  -1.091347243345808E-3  
 2.648000000000000E10   -8.977892612165306E-4  -2.022744767600671E-3  
 2.650000000000000E10   -1.359510577458423E-3   4.930012946715578E-4  
 2.652000000000000E10    1.486701854446437E-3   1.361519403872080E-3  
 2.654000000000000E10    7.452177196682897E-4  -1.560074531880673E-3  
 2.656000000000000E10   -1.613865431863815E-3  -8.959157685239916E-5  
 2.658000000000000E10    6.177622381073888E-4   2.448552681016736E-3  
 2.660000000000000E10    2.159714000299573E-3  -1.062179031578125E-3  
 2.662000000000000E10   -1.256384064618032E-3  -2.537215186748654E-3  
 2.664000000000000E10   -2.685882747755386E-3   1.613980442925822E-3  
 2.666000000000000E10    1.567263847391587E-3   2.477417583577335E-3  
 2.668000000000000E10    2.729428088059649E-3  -1.321619536611252E-3  
 2.670000000000000E10   -1.021926698740572E-3  -2.554812235757709E-3  
 2.672000000000000E10   -1.984858681680635E-3   9.794292272999883E-4  
 2.674000000000000E10    1.533865841338411E-3   2.160969350370579E-3  
 2.676000000000000E10    1.208211971970741E-3  -9.157676940958481E-4  
 2.678000000000000E10   -1.416666309523862E-3  -1.047473386279307E-3  
 2.680000000000000E10   -7.437408967234660E-4   1.499467463872861E-3  
 2.682000000000000E10    1.495103744673543E-3   2.692367797862971E-4  
 2.684000000000000E10   -7.193859892140608E-4  -1.504058171121869E-3  
 2.686000000000000E10   -2.068455956759863E-3   3.285673792561283E-4  
 2.688000000000000E10    6.716140378557611E-4   2.325802895938978E-3  
 2.690000000000000E10    2.471104176947847E-3  -7.927233054942917E-4  
 2.692000000000000E10   -9.219871026289184E-4  -2.794837637338787E-3  
 2.694000000000000E10   -2.955627947812900E-3   1.515997108072043E-3  
 2.696000000000000E10    8.197204406314995E-4   2.683960396097973E-3  
 2.698000000000000E10    2.328405069420114E-3  -7.866810483392328E-4  
 2.700000000000000E10   -9.372129679832142E-4  -1.903406853671186E-3  
 2.702000000000000E10   -2.583650290034711E-3   1.615369234059472E-3  
 2.704000000000000E10    1.173432327050250E-3   1.187713693070691E-3  
 2.706000000000000E10    6.857287517050281E-4  -9.871146939985920E-4  
 2.708000000000000E10   -1.897896829177626E-3   8.166003681253642E-6  
 2.710000000000000E10    7.159971812598087E-5   1.578276605869178E-3  
 2.712000000000000E10    1.853428257163614E-3  -3.801198545261286E-6  
 2.714000000000000E10   -8.005001218407415E-4  -2.334233940928243E-3  
 2.716000000000000E10   -2.497797497198917E-3   6.467372186307330E-4  
 2.718000000000000E10    9.647750630392693E-4   2.791488645016216E-3  
 2.720000000000000E10    2.447687016683631E-3  -9.507636204943992E-4  
 2.722000000000000E10   -8.316776766150724E-4  -2.442923927446827E-3  
 2.724000000000000E10   -2.450226951623336E-3   1.371601487335283E-3  
 2.726000000000000E10    9.182361973216757E-4   1.897237576486077E-3  
 2.728000000000000E10    1.959333698323462E-3  -1.145401496614795E-3  
 2.730000000000000E10   -1.209350761200767E-3  -1.266402279725298E-3  
 2.732000000000000E10   -1.119236163503956E-3   9.717527536849957E-4  
 2.734000000000000E10    1.566476443258580E-3   5.301943383528851E-4  
 2.736000000000000E10    2.363918065384496E-4  -1.627529993129429E-3  
 2.738000000000000E10   -1.734435783873778E-3  -4.154700826575208E-5  
 2.740000000000000E10    5.464262540044729E-4   1.914906330057420E-3  
 2.742000000000000E10    2.209661790402606E-3  -3.342238160257693E-4  
 2.744000000000000E10   -2.582221241027582E-4  -2.295031052199192E-3  
 2.746000000000000E10   -2.409173321211711E-3   4.043305325467372E-4  
 2.748000000000000E10    4.025413891213248E-4   2.416845192783512E-3  
 2.750000000000000E10    2.462000193190761E-3  -5.588077619904652E-4  
 2.752000000000000E10   -4.482150252442807E-4  -2.052381954854354E-3  
 2.754000000000000E10   -1.852380664786324E-3   6.446229817811400E-4  
 2.756000000000000E10    6.270481644605752E-4   1.126689523516689E-3  
