#  HZ   S   RI   R     50.00 
! Rohde & Schwarz ZVA40 4Ports - Version 3.90 - 1145.1110k42 SN: 100403
! Date: 2023-10-04 06:22:11
! Measurement: S12 
! 
 2.200000000000000E10   -5.277438627672382E-3   3.941990828025155E-3  
 2.202000000000000E10    3.385780859389342E-3   6.110635251388885E-3  
 2.204000000000000E10    5.079089154605754E-3  -3.585753198422026E-3  
 2.206000000000000E10   -4.149804590269923E-3  -4.498987531405874E-3  
 2.208000000000000E10   -4.028306342661381E-3   5.680521455360577E-3  
 2.210000000000000E10    5.876400769921020E-3   3.314515663078055E-3  
 2.212000000000000E10    3.473964454315137E-3  -5.563422644627281E-3  
 2.214000000000000E10   -5.729444877943024E-3  -1.464713965106057E-3  
 2.216000000000000E10   -6.117858276866173E-5   7.019767144811340E-3  
 2.218000000000000E10    7.914849615190178E-3  -2.675440669008822E-5  
 2.220000000000000E10   -1.296652630117023E-3  -6.647451969911344E-3  
 2.222000000000000E10   -6.997984484769404E-3   3.023423014383297E-3  
 2.224000000000000E10    4.392109738546424E-3   6.393050687620416E-3  
 2.226000000000000E10    6.248271631193347E-3  -5.193591641727835E-3  
 2.228000000000000E10   -4.896091151749715E-3  -5.670824975823052E-3  
 2.230000000000000E10   -3.986008305219002E-3   5.708369426429272E-3  
 2.232000000000000E10    6.591833735001274E-3   3.051000072446186E-3  
 2.234000000000000E10    3.610777392168529E-3  -6.762029923265800E-3  
 2.236000000000000E10   -5.925938254222274E-3  -2.330176917894278E-3  
 2.238000000000000E10   -1.485655629949179E-3   6.800589122576639E-3  
 2.240000000000000E10    7.724625349510461E-3   1.427396482540644E-4  
 2.242000000000000E10   -1.377596607198939E-3  -7.411657366901636E-3  
 2.244000000000000E10   -7.238225691253319E-3   1.796007276425371E-3  
 2.246000000000000E10    3.254934956203215E-3   6.211880143382587E-3  
 2.248000000000000E10    6.197188326041214E-3  -3.448793126153760E-3  
 2.250000000000000E10   -4.433504524058662E-3  -7.061955679091625E-3  
 2.252000000000000E10   -5.546043044887483E-3   4.816982778720558E-3  
 2.254000000000000E10    5.700947556761093E-3   4.830503559787758E-3  
 2.256000000000000E10    4.519676615018398E-3  -6.176674418384209E-3  
 2.258000000000000E10   -6.390209236997180E-3  -3.557928561349399E-3  
 2.260000000000000E10   -3.087029566813726E-3   6.643555389018729E-3  
 2.262000000000000E10    5.928285288973711E-3   1.133956222474808E-3  
 2.264000000000000E10    3.417468760744669E-4  -6.411555048543960E-3  
 2.266000000000000E10   -7.114600331988186E-3   1.259365984651595E-5  
 2.268000000000000E10    5.730761031372822E-4   5.979722089250572E-3  
 2.270000000000000E10    6.850285586551763E-3  -2.115393930580467E-3  
 2.272000000000000E10   -2.957141026854515E-3  -7.207808128441684E-3  
 2.274000000000000E10   -7.511672622058541E-3   4.048976363264956E-3  
 2.276000000000000E10    5.470574804348871E-3   6.864951166789979E-3  
 2.278000000000000E10    5.506743182195351E-3  -5.871224828297272E-3  
 2.280000000000000E10   -6.502784861368127E-3  -4.914965087664314E-3  
 2.282000000000000E10   -7.358809889410622E-3   2.141267825209070E-3  
 2.284000000000000E10    5.552034679567441E-3   4.035487028886564E-3  
 2.286000000000000E10    2.585088084742893E-3  -6.554030231200159E-3  
 2.288000000000000E10   -6.673438474535942E-3  -2.655153737578075E-3  
 2.290000000000000E10   -7.422496892104391E-4   6.957665551453829E-3  
 2.292000000000000E10    6.211864543729462E-3  -8.840443424560363E-4  
 2.294000000000000E10   -1.573292865941767E-3  -5.778415725217201E-3  
 2.296000000000000E10   -5.837165241246112E-3   2.848074378562160E-3  
 2.298000000000000E10    2.970987748994958E-3   5.935792767559178E-3  
 2.300000000000000E10    6.531610793899745E-3  -4.067179295816459E-3  
 2.302000000000000E10   -5.620339667075314E-3  -5.011213652323932E-3  
 2.304000000000000E10   -5.582088517257944E-3   6.132686641649343E-3  
 2.306000000000000E10    7.076299516484141E-3   4.338282276876271E-3  
 2.308000000000000E10    3.542017904692330E-3  -7.271750044310466E-3  
 2.310000000000000E10   -6.730344495736063E-3  -2.938921141321771E-3  
 2.312000000000000E10   -1.126446641137591E-3   7.106311662937515E-3  
 2.314000000000000E10    6.934194185305387E-3   5.215634355408838E-4  
 2.316000000000000E10    1.862289536802564E-5  -6.456936738686636E-3  
 2.318000000000000E10   -5.994509570882656E-3   1.473087770136772E-3  
 2.320000000000000E10    2.203354095399845E-3   6.056109676137567E-3  
 2.322000000000000E10    5.883407677174546E-3  -3.747893177205697E-3  
 2.324000000000000E10   -4.271154932212085E-3  -5.175860380404629E-3  
 2.326000000000000E10   -4.979779900168069E-3   5.571015528403223E-3  
 2.328000000000000E10    5.869383443496190E-3   3.479006474663038E-3  
 2.330000000000000E10    2.968633540149313E-3  -6.064000699552707E-3  
 2.332000000000000E10   -6.203162949532270E-3  -2.607886039186269E-3  
 2.334000000000000E10   -1.834409311413765E-3   5.735375467338599E-3  
 2.336000000000000E10    6.410646135918796E-3   1.806313492124900E-3  
 2.338000000000000E10    2.861974908228149E-4  -6.097501929616556E-3  
 2.340000000000000E10   -5.914588415180333E-3   3.305015552541590E-4  
 2.342000000000000E10    1.093361792300129E-3   5.665557342581451E-3  
 2.344000000000000E10    4.494749387959018E-3  -3.154840364004485E-3  
 2.346000000000000E10   -3.046752332011238E-3  -4.373535601189360E-3  
 2.348000000000000E10   -4.193132350337692E-3   3.870244392601308E-3  
 2.350000000000000E10    4.624336637789384E-3   3.577800656785257E-3  
 2.352000000000000E10    3.039628471015021E-3  -5.647695914376527E-3  
 2.354000000000000E10   -6.374349410180003E-3  -2.241408728878014E-3  
 2.356000000000000E10   -2.350180089706555E-3   6.611233722651377E-3  
 2.358000000000000E10    6.828175042755902E-3   1.534845083369874E-3  
 2.360000000000000E10    5.489028408192098E-4  -6.427404150599614E-3  
 2.362000000000000E10   -5.977500404696912E-3   2.996762814291287E-4  
 2.364000000000000E10    8.290780242532492E-4   5.613575660390779E-3  
 2.366000000000000E10    4.311271273763850E-3  -1.690210148808546E-3  
 2.368000000000000E10   -1.762735038937535E-3  -3.630919440183789E-3  
 2.370000000000000E10   -3.497627927572466E-3   3.097616092418321E-3  
 2.372000000000000E10    4.121260542888194E-3   3.011737237102352E-3  
 2.374000000000000E10    2.074729942250997E-3  -4.248529992764816E-3  
 2.376000000000000E10   -5.255624506389722E-3  -7.971886661835015E-4  
 2.378000000000000E10   -7.350822488660924E-4   5.316376249538735E-3  
 2.380000000000000E10    6.168349849758670E-3   5.006975279684411E-4  
 2.382000000000000E10   -2.101370882883202E-4  -5.650590086588636E-3  
 2.384000000000000E10   -5.520094186067581E-3   1.283565237827133E-3  
 2.386000000000000E10    1.267442297830712E-3   5.332539469236508E-3  
 2.388000000000000E10    4.864827234996483E-3  -1.879427276435308E-3  
 2.390000000000000E10   -1.505425367213320E-3  -3.528632631059736E-3  
 2.392000000000000E10   -2.990154025610536E-3   2.360157726798207E-3  
 2.394000000000000E10    2.843300579115748E-3   2.398769429419190E-3  
 2.396000000000000E10    1.547458705317695E-3  -2.872904588002712E-3  
 2.398000000000000E10   -3.572463116142899E-3  -4.466914324439131E-4  
 2.400000000000000E10    3.154416873485388E-6   3.350225582835265E-3  
 2.402000000000000E10    4.568786709569395E-3  -1.595420078956522E-3  
 2.404000000000000E10   -1.548360742162913E-3  -3.436295082792640E-3  
 2.406000000000000E10   -3.464647365035489E-3   1.590119682077784E-3  
 2.408000000000000E10    2.552323116105981E-3   4.176150687271729E-3  
 2.410000000000000E10    3.363170559168793E-3  -2.492680607247166E-3  
 2.412000000000000E10   -1.906022524053697E-3  -3.262557569541968E-3  
 2.414000000000000E10   -1.923483781865798E-3   2.959964011097327E-3  
 2.416000000000000E10    2.066308952635154E-3   1.587754486536142E-3  
 2.418000000000000E10    1.635092841752339E-3  -2.769512197119184E-3  
 2.420000000000000E10   -1.872749489848502E-3  -5.917307553318096E-4  
 2.422000000000000E10    1.567643726048118E-4   2.278081068652682E-3  
 2.424000000000000E10    2.921833554864861E-3  -8.441500431217719E-4  
 2.426000000000000E10   -1.341698385658674E-3  -2.113609443767928E-3  
 2.428000000000000E10   -2.761417141300626E-3   1.252115907846019E-3  
 2.430000000000000E10    2.093781120493077E-3   2.379363897489384E-3  
 2.432000000000000E10    2.434485242702067E-3  -2.182946685934439E-3  
 2.434000000000000E10   -2.443655830575153E-3  -3.129487755359151E-3  
 2.436000000000000E10   -2.006106435146648E-3   1.939242785738315E-3  
 2.438000000000000E10    1.643624913413078E-3   1.560750562930480E-3  
 2.440000000000000E10    1.538042073661927E-3  -2.429556174320169E-3  
 2.442000000000000E10   -1.438260827853810E-3  -9.051808956428431E-4  
 2.444000000000000E10   -6.926477617525961E-4   1.448398536012974E-3  
 2.446000000000000E10    9.693537140265107E-4  -4.642943858925719E-4  
 2.448000000000000E10   -9.120519353018608E-4  -1.451900185202248E-3  
 2.450000000000000E10   -1.494127900514286E-3   1.181051062303595E-3  
 2.452000000000000E10    1.870999127277173E-3   9.502603825239930E-4  
 2.454000000000000E10    1.335483102593571E-3  -2.075364245683886E-3  
 2.456000000000000E10   -2.181369214667939E-3  -1.830435641750228E-3  
 2.458000000000000E10   -1.585683421581052E-3   2.581844295491464E-3  
 2.460000000000000E10    1.915771630592644E-3   2.002057561185211E-3  
 2.462000000000000E10    1.951459154952318E-3  -2.055952747468837E-3  
 2.464000000000000E10   -1.988273696042597E-3  -1.375649691908620E-3  
 2.466000000000000E10   -1.430077645636629E-3   1.556241273647174E-3  
 2.468000000000000E10    1.260969438590109E-3   1.029226114042103E-3  
 2.470000000000000E10    3.659429003164405E-4  -1.134395948611200E-3  
 2.472000000000000E10   -1.242594291397836E-3   5.011129815102322E-4  
 2.474000000000000E10    7.119346591935027E-4   1.006769118248485E-3  
 2.476000000000000E10    1.539236523967702E-3  -1.286526465264615E-3  
 2.478000000000000E10   -1.839105410908815E-3  -7.303538695850875E-4  
 2.480000000000000E10   -8.673514166730456E-4   2.729879939579405E-3  
 2.482000000000000E10    2.780695445835590E-3   1.592315922607668E-3  
 2.484000000000000E10    1.528366832644679E-3  -2.759821247309446E-3  
 2.486000000000000E10   -2.994508962729015E-3  -8.519223229086492E-4  
 2.488000000000000E10   -9.376434682053514E-4   2.215304644778371E-3  
 2.490000000000000E10    2.405911000096239E-3   7.914022462500725E-4  
 2.492000000000000E10    9.242655542038847E-4  -1.956886233529076E-3  
 2.494000000000000E10   -1.349899925116915E-3  -2.546033629187150E-4  
 2.496000000000000E10    3.452494829616626E-4   1.178223668830469E-3  
 2.498000000000000E10    1.046850222337525E-3  -5.959082591289189E-4  
 2.500000000000000E10   -8.993877345346846E-4  -8.962480678746942E-4  
 2.502000000000000E10   -1.788699137250660E-4   1.448262017220259E-3  
 2.504000000000000E10    1.937783286848571E-3   7.000015066296328E-4  
 2.506000000000000E10    7.798781698511448E-4  -2.667283755727112E-3  
 2.508000000000000E10   -2.514266263460740E-3  -7.964786709635519E-4  
 2.510000000000000E10   -1.290958811296150E-3   2.671140377060510E-3  
 2.512000000000000E10    3.141783774481155E-3   3.157985256621032E-4  
 2.514000000000000E10    7.786999158270191E-4  -3.432779514696449E-3  
 2.516000000000000E10   -3.304519472294487E-3  -6.490881060017273E-4  
 2.518000000000000E10    6.009866865497315E-5   1.996419494389556E-3  
 2.520000000000000E10    2.123181722708978E-3  -3.734556285053259E-4  
 2.522000000000000E10   -6.857056687294971E-4  -1.997003491851501E-3  
 2.524000000000000E10   -1.010740350466222E-3   4.260045461705886E-4  
 2.526000000000000E10    1.423948924639262E-3   8.421770507993642E-4  
 2.528000000000000E10   -1.365426151096472E-4  -2.074241710943170E-3  
 2.530000000000000E10   -2.300145351910032E-3  -8.085312474577222E-4  
 2.532000000000000E10   -6.664936736342497E-4   2.953221541247331E-3  
 2.534000000000000E10    2.464517951011658E-3  -1.966901936611976E-4  
 2.536000000000000E10   -5.281836833148645E-5  -3.722278124769218E-3  
 2.538000000000000E10   -3.758125341846608E-3   4.085778746230062E-4  
 2.540000000000000E10   -1.850716782882955E-4   2.641083265189081E-3  
 2.542000000000000E10    2.613324220874347E-3  -7.373868211288936E-4  
 2.544000000000000E10   -1.333091982814949E-3  -2.422801029752009E-3  
 2.546000000000000E10   -2.362920291488990E-3   9.209484487655573E-4  
 2.548000000000000E10    1.244616243639030E-3   1.699538763205055E-3  
 2.550000000000000E10    6.587684547412209E-4  -1.291556909563951E-3  
 2.552000000000000E10   -2.435418689856306E-3  -3.592539687815588E-4  
 2.554000000000000E10   -5.949635396973463E-5   2.499772177543491E-3  
 2.556000000000000E10    1.802850834792480E-3   3.876616792695131E-4  
 2.558000000000000E10   -5.538370787689928E-4  -2.743116157944314E-3  
 2.560000000000000E10   -3.230727961636148E-3   2.353727268200601E-4  
 2.562000000000000E10   -6.149101932351186E-5   3.370219186763279E-3  
 2.564000000000000E10    3.167049755575135E-3  -2.531035624997458E-4  
 2.566000000000000E10   -9.957664442481473E-4  -2.857052648323588E-3  
 2.568000000000000E10   -2.613005155581050E-3   1.758332371537108E-3  
 2.570000000000000E10    1.312345812038984E-3   2.427148661809042E-3  
 2.572000000000000E10    1.342180999927223E-3  -1.198451143864077E-3  
 2.574000000000000E10   -1.408729280228727E-3  -4.161934084550012E-4  
 2.576000000000000E10   -3.417459884076379E-4   2.473149099387229E-3  
 2.578000000000000E10    2.023081950028427E-3  -2.519962599762948E-4  
 2.580000000000000E10   -6.394247429852840E-4  -1.816034891817253E-3  
 2.582000000000000E10   -2.611142088426277E-3   1.306384838244412E-3  
 2.584000000000000E10    1.195867058413569E-3   3.030940599273890E-3  
 2.586000000000000E10    3.692368758493103E-3  -9.828239235503133E-4  
 2.588000000000000E10   -1.393408914736938E-3  -2.888814618927427E-3  
 2.590000000000000E10   -2.691272238735110E-3   1.337164423603099E-3  
 2.592000000000000E10    1.769392671121750E-3   3.848592401482165E-3  
 2.594000000000000E10    3.524408617522568E-3  -1.582367796800099E-3  
 2.596000000000000E10   -1.408623211318627E-3  -2.407309308182448E-3  
 2.598000000000000E10   -1.679140521446243E-3   2.274858037708327E-3  
 2.600000000000000E10    2.153800669475459E-3   1.100307090382557E-3  
 2.602000000000000E10    6.228171077964362E-4  -2.206915625720285E-3  
 2.604000000000000E10   -1.162662338174414E-3   5.108208351884969E-4  
 2.606000000000000E10    5.053313288954087E-4   1.646850359975360E-3  
 2.608000000000000E10    2.731061031227000E-3  -1.055502398230601E-3  
 2.610000000000000E10   -8.205561753129587E-4  -1.970978519238997E-3  
 2.612000000000000E10   -2.777834597509354E-3   8.975476484920364E-4  
 2.614000000000000E10    1.712959499855060E-3   2.737194867222570E-3  
 2.616000000000000E10    2.905459885369055E-3  -1.249837754585315E-3  
 2.618000000000000E10   -1.639983885979746E-3  -3.643823249149136E-3  
 2.620000000000000E10   -2.659787671291269E-3   1.587584389199037E-3  
 2.622000000000000E10    1.701921988569666E-3   2.920372178778052E-3  
 2.624000000000000E10    1.478338184824679E-3  -2.395359450019896E-3  
 2.626000000000000E10   -1.919607871968765E-3  -1.236464719113428E-3  
 2.628000000000000E10   -1.106824245653115E-3   2.387568136327900E-3  
 2.630000000000000E10    2.389366738498211E-3  -2.089239842462121E-4  
 2.632000000000000E10   -5.479759238369297E-4  -2.528762910515070E-3  
 2.634000000000000E10   -2.833496590028517E-3   9.188870353682432E-4  
 2.636000000000000E10    1.317362548434176E-3   2.139743810403161E-3  
 2.638000000000000E10    2.734652109211311E-3  -1.120367945986800E-3  
 2.640000000000000E10   -1.329824466665741E-3  -2.868637529900298E-3  
 2.642000000000000E10   -3.019958458025940E-3   1.068832749297144E-3  
 2.644000000000000E10    1.456637859519105E-3   3.564028578693979E-3  
 2.646000000000000E10    2.383323982940055E-3  -1.417115083313547E-3  
 2.648000000000000E10   -1.593046668858733E-3  -2.371593247517012E-3  
 2.650000000000000E10   -1.983447175007314E-3   2.105950406985357E-3  
 2.652000000000000E10    1.432615863450337E-3   9.581455524312332E-4  
 2.654000000000000E10    7.522617452195846E-4  -2.139348114724271E-3  
 2.656000000000000E10   -2.177257687435485E-3   1.134681324401754E-4  
 2.658000000000000E10    6.328031122393441E-4   2.406222134595737E-3  
 2.660000000000000E10    2.633259136928245E-3  -8.476891453028657E-4  
 2.662000000000000E10   -1.564286736538634E-3  -2.479065413353965E-3  
 2.664000000000000E10   -2.770724415313453E-3   2.078427161904983E-3  
 2.666000000000000E10    1.676064312050585E-3   3.070983017096296E-3  
 2.668000000000000E10    2.328612492419779E-3  -1.752779498929158E-3  
 2.670000000000000E10   -2.109892477164976E-3  -2.855995131540112E-3  
 2.672000000000000E10   -2.675924639333971E-3   1.607349957339466E-3  
 2.674000000000000E10    1.605471581569873E-3   2.289980489877053E-3  
 2.676000000000000E10    1.880146701296326E-3  -1.940965121320915E-3  
 2.678000000000000E10   -1.267205407202710E-3  -1.646571821765974E-3  
 2.680000000000000E10   -9.136842854786664E-4   1.671990852628369E-3  
 2.682000000000000E10    1.971581295947544E-3   3.686266718432307E-4  
 2.684000000000000E10    1.141245948019787E-4  -1.901644754980225E-3  
 2.686000000000000E10   -1.837013929616660E-3   6.768927014491055E-4  
 2.688000000000000E10    9.141385526163504E-4   2.351561604882591E-3  
 2.690000000000000E10    2.525046642404050E-3  -1.216427284816746E-3  
 2.692000000000000E10   -9.373828579555266E-4  -2.671518916031346E-3  
 2.694000000000000E10   -2.955017422209494E-3   1.529395769466646E-3  
 2.696000000000000E10    1.581248645379674E-3   2.357219709665515E-3  
 2.698000000000000E10    3.164376073982567E-3  -1.357288332656026E-3  
 2.700000000000000E10   -1.222137645527255E-3  -2.624221684527583E-3  
 2.702000000000000E10   -1.932543120346963E-3   1.258602846064605E-3  
 2.704000000000000E10    1.853653164289426E-3   1.735134173941333E-3  
 2.706000000000000E10    1.473340773372911E-3  -1.700495464319829E-3  
 2.708000000000000E10   -1.535232062451541E-3  -9.628736152080819E-4  
 2.710000000000000E10   -1.113057526254124E-4   1.906645578856114E-3  
 2.712000000000000E10    2.072765433695167E-3  -3.158668714604573E-4  
 2.714000000000000E10   -5.070443512522616E-4  -2.519328336347826E-3  
 2.716000000000000E10   -2.385559826507233E-3   7.269906782312319E-4  
 2.718000000000000E10    1.033161555824336E-3   2.344774635275826E-3  
 2.720000000000000E10    3.190700314007700E-3  -1.359919464448467E-3  
 2.722000000000000E10   -1.405238144798204E-3  -2.865582471713424E-3  
 2.724000000000000E10   -2.850776902050711E-3   1.313854067120701E-3  
 2.726000000000000E10    1.790579335647635E-3   2.428266656352207E-3  
 2.728000000000000E10    2.495678651030175E-3  -1.489416885306127E-3  
 2.730000000000000E10   -1.629106831387617E-3  -1.932953564391937E-3  
 2.732000000000000E10   -1.117497740779072E-3   1.412011661159340E-3  
 2.734000000000000E10    1.253499482118059E-3   1.057353598298505E-3  
 2.736000000000000E10    3.027163966180524E-4  -1.926091812492814E-3  
 2.738000000000000E10   -1.567298764712177E-3   1.893673866106838E-4  
 2.740000000000000E10    5.974677296762820E-4   2.001108063268475E-3  
 2.742000000000000E10    2.017601509578526E-3  -8.100975428533275E-4  
 2.744000000000000E10   -1.147873394074850E-3  -1.905640805489384E-3  
 2.746000000000000E10   -2.258450171211734E-3   1.261936915398110E-3  
 2.748000000000000E10    1.268997148144990E-3   2.566476803622209E-3  
 2.750000000000000E10    2.301041211467236E-3  -1.372825259750243E-3  
 2.752000000000000E10   -1.329324783000629E-3  -2.277188308653422E-3  
 2.754000000000000E10   -1.893957349238917E-3   1.083657538401894E-3  
 2.756000000000000E10    1.057654455507873E-3   1.465424997149967E-3  
