#  HZ   S   RI   R     50.00 
! Rohde & Schwarz ZVA40 4Ports - Version 3.90 - 1145.1110k42 SN: 100403
! Date: 2023-10-04 06:23:10
! Measurement: S12 
! 
 2.200000000000000E10   -5.278636788716540E-3   2.221578935859725E-3  
 2.202000000000000E10    2.187261256040074E-3   4.215524095343426E-3  
 2.204000000000000E10    4.296959261409938E-3  -4.211444378597662E-3  
 2.206000000000000E10   -4.684181214543060E-3  -3.789299982599914E-3  
 2.208000000000000E10   -3.015241309185512E-3   5.614905123366043E-3  
 2.210000000000000E10    5.851693713339046E-3   2.077015349641442E-3  
 2.212000000000000E10    9.716551321616862E-4  -5.338099639629945E-3  
 2.214000000000000E10   -7.277799682924524E-3  -1.252321935680811E-4  
 2.216000000000000E10   -1.885002047856688E-4   7.551941089332104E-3  
 2.218000000000000E10    6.498224363895133E-3  -1.212950533954427E-3  
 2.220000000000000E10   -2.799052264890634E-3  -6.636456528212875E-3  
 2.222000000000000E10   -6.937222206033766E-3   3.343128424603492E-3  
 2.224000000000000E10    3.880948148434982E-3   6.006086419802159E-3  
 2.226000000000000E10    5.206565314438194E-3  -4.541969479760155E-3  
 2.228000000000000E10   -4.388340545119718E-3  -3.605904727010056E-3  
 2.230000000000000E10   -3.793552445131354E-3   6.001593836117536E-3  
 2.232000000000000E10    6.049144634744152E-3   3.123846239759587E-3  
 2.234000000000000E10    2.324819317436777E-3  -5.675199208781123E-3  
 2.236000000000000E10   -6.845573079772294E-3  -7.075725079630502E-4  
 2.238000000000000E10   -3.618124092099606E-4   7.715931860730052E-3  
 2.240000000000000E10    7.771973585477099E-3  -6.577542553714011E-4  
 2.242000000000000E10   -2.307056929566898E-3  -7.301549019757658E-3  
 2.244000000000000E10   -6.587666284758598E-3   3.045574499992654E-3  
 2.246000000000000E10    4.334518191171810E-3   6.508722464786843E-3  
 2.248000000000000E10    5.924209137447178E-3  -3.650950995506719E-3  
 2.250000000000000E10   -3.944516647607088E-3  -4.993528156774119E-3  
 2.252000000000000E10   -4.295888007618487E-3   5.107750417664647E-3  
 2.254000000000000E10    5.538103374419734E-3   3.674956285976805E-3  
 2.256000000000000E10    3.095907333772630E-3  -5.656016990542412E-3  
 2.258000000000000E10   -5.752981553087011E-3  -1.661860245803837E-3  
 2.260000000000000E10   -1.207329754834063E-3   6.278683868004009E-3  
 2.262000000000000E10    6.342726730508730E-3  -6.446026927733328E-4  
 2.264000000000000E10    1.700463453744305E-4  -6.345479923766106E-3  
 2.266000000000000E10   -6.667234236374497E-3   5.811764822283294E-4  
 2.268000000000000E10    2.541529727750458E-3   6.548459205077961E-3  
 2.270000000000000E10    6.838484143372625E-3  -2.583601366495714E-3  
 2.272000000000000E10   -2.444163881591521E-3  -6.690904468996450E-3  
 2.274000000000000E10   -6.658812722889707E-3   4.126247222302482E-3  
 2.276000000000000E10    4.868275864282623E-3   5.142133653862402E-3  
 2.278000000000000E10    3.782424144446850E-3  -5.380219197832048E-3  
 2.280000000000000E10   -4.517498397035524E-3  -3.732049779500812E-3  
 2.282000000000000E10   -4.249058896675706E-3   2.149669628124684E-3  
 2.284000000000000E10    5.032185610616580E-3   1.255365474207792E-3  
 2.286000000000000E10    1.033507265674416E-3  -6.354018201818690E-3  
 2.288000000000000E10   -5.889154534088448E-3  -2.756524713731778E-5  
 2.290000000000000E10    1.263315622054506E-3   6.776197929866612E-3  
 2.292000000000000E10    6.535837630508468E-3  -2.096153315505944E-3  
 2.294000000000000E10   -2.661508668097667E-3  -5.616580368950963E-3  
 2.296000000000000E10   -6.679320067632943E-3   3.268017506343313E-3  
 2.298000000000000E10    3.526879649143666E-3   5.691172962542623E-3  
 2.300000000000000E10    5.184427893254906E-3  -3.998423693701625E-3  
 2.302000000000000E10   -4.734961170470342E-3  -4.802687646588311E-3  
 2.304000000000000E10   -4.313603800255805E-3   4.461854347027838E-3  
 2.306000000000000E10    5.337921407772228E-3   2.855654252925888E-3  
 2.308000000000000E10    1.929109355842229E-3  -4.950880975229666E-3  
 2.310000000000000E10   -4.961417464073747E-3  -8.298784996441100E-4  
 2.312000000000000E10    2.823641034410684E-4   6.158999283798039E-3  
 2.314000000000000E10    5.073034961242229E-3  -6.323195375443902E-4  
 2.316000000000000E10   -1.667284093855415E-3  -4.770202940562740E-3  
 2.318000000000000E10   -5.485487083205953E-3   2.722378325415775E-3  
 2.320000000000000E10    3.126116513158195E-3   5.142476846231148E-3  
 2.322000000000000E10    5.026529252063483E-3  -3.853172020171769E-3  
 2.324000000000000E10   -3.717053405125625E-3  -4.656803735997528E-3  
 2.326000000000000E10   -4.503902659052983E-3   4.697251570178196E-3  
 2.328000000000000E10    5.561870668316260E-3   3.388357537914999E-3  
 2.330000000000000E10    2.586187823908404E-3  -4.877878178376705E-3  
 2.332000000000000E10   -4.920385632431135E-3  -1.809846027754247E-3  
 2.334000000000000E10   -6.782326963730156E-4   4.650868329918012E-3  
 2.336000000000000E10    4.956941556883976E-3   9.743889950186713E-5  
 2.338000000000000E10   -8.815632500045467E-4  -4.820244561415166E-3  
 2.340000000000000E10   -4.351797804702073E-3   1.892363492515869E-3  
 2.342000000000000E10    2.787015590001829E-3   3.701320994878188E-3  
 2.344000000000000E10    3.608771294238977E-3  -3.900111041730270E-3  
 2.346000000000000E10   -3.312352870125324E-3  -3.594586247345433E-3  
 2.348000000000000E10   -3.427893694606610E-3   4.312763805501163E-3  
 2.350000000000000E10    4.872451827395707E-3   2.992132780491374E-3  
 2.352000000000000E10    2.409803011687473E-3  -4.970317822881043E-3  
 2.354000000000000E10   -4.888277733698487E-3  -2.372039132751524E-3  
 2.356000000000000E10   -1.229718822287396E-3   4.642846412025392E-3  
 2.358000000000000E10    4.597321327310056E-3   3.677414497360587E-4  
 2.360000000000000E10   -1.309678591496777E-4  -4.348642891272903E-3  
 2.362000000000000E10   -3.795101161813363E-3   1.250954301212914E-3  
 2.364000000000000E10    1.973095379071310E-3   3.154031903250143E-3  
 2.366000000000000E10    2.578263083705679E-3  -3.002807818120346E-3  
 2.368000000000000E10   -3.992138750618324E-3  -2.181463380111381E-3  
 2.370000000000000E10   -2.313081058673561E-3   4.017540544737130E-3  
 2.372000000000000E10    4.447471932508051E-3   1.341026349109598E-3  
 2.374000000000000E10    3.887908569595311E-4  -4.606032511219382E-3  
 2.376000000000000E10   -4.748235922306776E-3  -1.241444231709465E-3  
 2.378000000000000E10   -1.026346872095019E-3   4.313448036555201E-3  
 2.380000000000000E10    4.138451302424073E-3  -1.536310955998488E-4  
 2.382000000000000E10   -7.263219376909547E-4  -3.618504677433521E-3  
 2.384000000000000E10   -3.468153998255730E-3   1.279867894481868E-3  
 2.386000000000000E10    1.142681954661384E-3   2.598291466711089E-3  
 2.388000000000000E10    1.641674243728630E-3  -2.055817953078076E-3  
 2.390000000000000E10   -3.319955489132553E-3  -1.230975583894178E-3  
 2.392000000000000E10   -8.979747799457982E-4   3.242853243136779E-3  
 2.394000000000000E10    3.869950072839856E-3   4.112187561986502E-4  
 2.396000000000000E10   -5.420251472969540E-4  -3.585721889976412E-3  
 2.398000000000000E10   -4.478805291000754E-3   5.107906945340801E-4  
 2.400000000000000E10    1.361431830446236E-3   4.118107899557799E-3  
 2.402000000000000E10    3.266254614572972E-3  -1.472034186008386E-3  
 2.404000000000000E10   -1.479491693316959E-3  -2.587042894447222E-3  
 2.406000000000000E10   -2.287910669110715E-3   1.478722741012462E-3  
 2.408000000000000E10    1.244662140379660E-3   2.566136477980763E-3  
 2.410000000000000E10    1.604454984772019E-3  -2.010485797654837E-3  
 2.412000000000000E10   -1.411577628459781E-3  -3.774074175453279E-4  
 2.414000000000000E10   -5.294969487295020E-4   2.183225384214893E-3  
 2.416000000000000E10    1.790641050320119E-3  -4.766848796862178E-4  
 2.418000000000000E10   -6.660762373940088E-4  -1.604262070031837E-3  
 2.420000000000000E10   -2.593369921669364E-3   1.941113921930082E-3  
 2.422000000000000E10    1.981221517780796E-3   2.527076663682237E-3  
 2.424000000000000E10    2.520708309020847E-3  -1.868876366643235E-3  
 2.426000000000000E10   -2.644347783643752E-3  -2.150914689991623E-3  
 2.428000000000000E10   -1.788461988326162E-3   1.986737654078752E-3  
 2.430000000000000E10    2.342128398595378E-3   2.511789498385042E-3  
 2.432000000000000E10    1.081109061487950E-3  -2.349265909288079E-3  
 2.434000000000000E10   -1.330858314759098E-3  -7.731425430392847E-4  
 2.436000000000000E10   -3.790322080021724E-4   1.815160954720341E-3  
 2.438000000000000E10    1.175851386506110E-3  -2.616147212393116E-4  
 2.440000000000000E10   -6.095110143178317E-5  -1.284575453610160E-3  
 2.442000000000000E10   -1.322807220276445E-3   1.291352920816280E-3  
 2.444000000000000E10    1.560077143949457E-3   1.411384568200447E-3  
 2.446000000000000E10    1.816638468881138E-3  -1.979415959795006E-3  
 2.448000000000000E10   -2.174802822992206E-3  -1.632816158235073E-3  
 2.450000000000000E10   -1.258003758266568E-3   2.252587146358565E-3  
 2.452000000000000E10    2.727820159634575E-3   1.625807941309176E-3  
 2.454000000000000E10    1.302672200836241E-3  -2.151233027689159E-3  
 2.456000000000000E10   -1.902671181596816E-3  -1.030864150379784E-3  
 2.458000000000000E10   -7.873710419517011E-4   1.647161770961247E-3  
 2.460000000000000E10    1.340996386716142E-3   8.217705908464268E-5  
 2.462000000000000E10   -1.235746431120788E-4  -1.437939921743237E-3  
 2.464000000000000E10   -1.271991321118549E-3   8.601618392276578E-4  
 2.466000000000000E10    1.093605926143937E-3   7.959148642839864E-4  
 2.468000000000000E10    1.183099710033275E-3  -1.562599834869616E-3  
 2.470000000000000E10   -2.334092074306682E-3  -8.297154708998278E-4  
 2.472000000000000E10   -9.478415886405855E-4   2.390941051999107E-3  
 2.474000000000000E10    2.242654707515612E-3   1.465116656618193E-3  
 2.476000000000000E10    1.176912541268393E-3  -2.648820838658139E-3  
 2.478000000000000E10   -3.128927288344130E-3  -1.522476217360236E-3  
 2.480000000000000E10   -1.716624945402145E-3   2.860808017430827E-3  
 2.482000000000000E10    2.654933254234493E-3   1.010201514873188E-3  
 2.484000000000000E10    7.180487809819169E-4  -2.672154078027234E-3  
 2.486000000000000E10   -2.414996910374612E-3   2.446394933031115E-5  
 2.488000000000000E10    1.205271528306184E-4   1.482276478782296E-3  
 2.490000000000000E10    1.383294395054691E-3  -4.836164880543947E-4  
 2.492000000000000E10   -1.357613538857549E-3  -7.306026163860224E-4  
 2.494000000000000E10   -8.751196073717438E-4   2.250659279525280E-3  
 2.496000000000000E10    2.090974710881710E-3   9.547322624712251E-4  
 2.498000000000000E10    2.967539912788197E-4  -2.368778194068000E-3  
 2.500000000000000E10   -2.912126161390916E-3  -1.528225120637217E-4  
 2.502000000000000E10   -5.757711478509009E-4   3.292746288934723E-3  
 2.504000000000000E10    2.880828076740727E-3   4.295311300666072E-4  
 2.506000000000000E10    7.194735153461807E-4  -3.049351624213159E-3  
 2.508000000000000E10   -2.923179883509874E-3  -1.929564969032072E-4  
 2.510000000000000E10   -6.373391370289028E-4   2.930221933638677E-3  
 2.512000000000000E10    2.946066670119762E-3   2.346924557059538E-4  
 2.514000000000000E10   -3.642881601990666E-4  -1.566268605529331E-3  
 2.516000000000000E10   -1.995165104744956E-3   9.479268483119085E-4  
 2.518000000000000E10    1.955490792170167E-3   1.468035086872987E-3  
 2.520000000000000E10    1.036695364746265E-3  -1.249896216904745E-3  
 2.522000000000000E10   -1.769025984685868E-3  -6.438102500396781E-4  
 2.524000000000000E10   -1.456086616826724E-4   2.768162026768550E-3  
 2.526000000000000E10    3.009378327988088E-3   1.156247104518116E-3  
 2.528000000000000E10    9.373482316732407E-4  -3.342460549902171E-3  
 2.530000000000000E10   -3.198325692210347E-3  -2.874711044569267E-4  
 2.532000000000000E10   -5.682778064510785E-4   3.851776593364775E-3  
 2.534000000000000E10    3.932639607228339E-3  -6.346682323510322E-5  
 2.536000000000000E10    1.788043173291953E-4  -3.290898050181568E-3  
 2.538000000000000E10   -2.747026504948735E-3   2.542470210755710E-4  
 2.540000000000000E10    1.309584156842902E-3   2.394178620306775E-3  
 2.542000000000000E10    2.364296931773424E-3  -1.596599919139408E-3  
 2.544000000000000E10   -1.826631501899101E-3  -1.820051853428595E-3  
 2.546000000000000E10   -4.863878930336796E-4   2.245715091703460E-3  
 2.548000000000000E10    3.279371798271313E-3   2.652071307238657E-4  
 2.550000000000000E10   -5.185573827475309E-4  -3.280707809608430E-3  
 2.552000000000000E10   -3.170356358168647E-3   2.188218313676771E-4  
 2.554000000000000E10    8.018975277082063E-4   3.096526983426884E-3  
 2.556000000000000E10    3.090544108999893E-3  -1.332508778432384E-3  
 2.558000000000000E10   -5.293933572829701E-4  -4.075583885423839E-3  
 2.560000000000000E10   -3.151409502606839E-3   4.631892225006595E-4  
 2.562000000000000E10    8.872443868312985E-4   2.553151658503339E-3  
 2.564000000000000E10    3.058613161556423E-3  -1.911540355649777E-3  
 2.566000000000000E10   -1.780109771061689E-3  -2.852894831448793E-3  
 2.568000000000000E10   -1.626695113372989E-3   2.211977902334184E-3  
 2.570000000000000E10    2.312122989678755E-3   6.379067563102581E-4  
 2.572000000000000E10    1.847608855314320E-4  -3.266500338213518E-3  
 2.574000000000000E10   -3.181939653586596E-3  -2.338344728514130E-5  
 2.576000000000000E10    3.268455147917848E-4   2.887500828364864E-3  
 2.578000000000000E10    3.307948529254645E-3  -1.552518850076012E-3  
 2.580000000000000E10   -1.580601368914358E-3  -3.869471634970978E-3  
 2.582000000000000E10   -3.983602393418551E-3   1.047197263687849E-3  
 2.584000000000000E10    1.346085206023417E-3   3.175605757860467E-3  
 2.586000000000000E10    3.055145498365164E-3  -1.623246105737053E-3  
 2.588000000000000E10   -1.876733105746098E-3  -2.698125143069774E-3  
 2.590000000000000E10   -2.684391569346190E-3   1.261074066860601E-3  
 2.592000000000000E10    1.408873562468216E-3   2.424335281830281E-3  
 2.594000000000000E10    1.386594449286349E-3  -2.101963182212785E-3  
 2.596000000000000E10   -2.038450737018138E-3  -8.240970346378163E-4  
 2.598000000000000E10   -9.061492382897995E-4   2.912583993747830E-3  
 2.600000000000000E10    2.872874349122867E-3  -5.205132329137996E-4  
 2.602000000000000E10   -1.067583274561912E-3  -3.173048695316538E-3  
 2.604000000000000E10   -3.808369569014758E-3   1.569331565406174E-3  
 2.606000000000000E10    1.414598504197784E-3   3.313671157229692E-3  
 2.608000000000000E10    3.938596812076867E-3  -1.601077325176448E-3  
 2.610000000000000E10   -2.053512842394412E-3  -3.469471033895388E-3  
 2.612000000000000E10   -3.380572219612077E-3   1.615824963664636E-3  
 2.614000000000000E10    1.764942062436603E-3   3.780011786147952E-3  
 2.616000000000000E10    2.782396331895143E-3  -1.711066419375129E-3  
 2.618000000000000E10   -1.737233644234948E-3  -2.994579030200839E-3  
 2.620000000000000E10   -1.987647003261372E-3   2.324904169654474E-3  
 2.622000000000000E10    1.874266832601279E-3   1.373247519950382E-3  
 2.624000000000000E10    9.003487357404083E-4  -2.720984659390524E-3  
 2.626000000000000E10   -2.537992462748662E-3  -1.292792958338396E-4  
 2.628000000000000E10    4.174984824203420E-4   3.138949396088719E-3  
 2.630000000000000E10    3.650688915513456E-3  -1.340555158094503E-3  
 2.632000000000000E10   -1.375655541778542E-3  -3.191644995240495E-3  
 2.634000000000000E10   -3.325351804960519E-3   1.314928333158605E-3  
 2.636000000000000E10    1.952444974449463E-3   3.345894045196474E-3  
 2.638000000000000E10    3.226314584026113E-3  -1.298325747484341E-3  
 2.640000000000000E10   -1.698619045782834E-3  -3.696993109770119E-3  
 2.642000000000000E10   -2.997800329467282E-3   1.866502425400540E-3  
 2.644000000000000E10    1.666457275860012E-3   2.560029824962840E-3  
 2.646000000000000E10    1.821054785978049E-3  -2.469584200298414E-3  
 2.648000000000000E10   -1.725320806144737E-3  -1.461371182813309E-3  
 2.650000000000000E10   -1.051102313795127E-3   2.302211592905223E-3  
 2.652000000000000E10    3.019795694854111E-3   2.735756315814797E-4  
 2.654000000000000E10    6.165437298477627E-5  -3.252944967243820E-3  
 2.656000000000000E10   -3.079538146266714E-3   7.998212604434229E-4  
 2.658000000000000E10    9.945272322511300E-4   3.688208729727194E-3  
 2.660000000000000E10    3.292548644822091E-3  -1.674423809163272E-3  
 2.662000000000000E10   -1.898286631330848E-3  -3.324722929392010E-3  
 2.664000000000000E10   -3.594796755351126E-3   1.971057077753358E-3  
 2.666000000000000E10    1.985284965485334E-3   2.973311085952446E-3  
 2.668000000000000E10    2.768300066236407E-3  -2.236217696918175E-3  
 2.670000000000000E10   -1.659213143284433E-3  -2.604147681267932E-3  
 2.672000000000000E10   -1.868658393505029E-3   1.939910580404103E-3  
 2.674000000000000E10    2.071588387480006E-3   1.944350020494312E-3  
 2.676000000000000E10    9.687449201010168E-4  -2.350377733819187E-3  
 2.678000000000000E10   -2.589541545603424E-3  -8.011877071112394E-5  
 2.680000000000000E10    1.195115301015903E-4   2.830985235050321E-3  
 2.682000000000000E10    2.558367967139930E-3  -6.134163268143311E-4  
 2.684000000000000E10   -1.036104069498833E-3  -2.563660644227639E-3  
 2.686000000000000E10   -3.345710341818631E-3   1.479204438510351E-3  
 2.688000000000000E10    1.536709547508508E-3   3.185548033798114E-3  
 2.690000000000000E10    3.545449697412550E-3  -1.475389784900472E-3  
 2.692000000000000E10   -1.842862737248652E-3  -2.717011899221689E-3  
 2.694000000000000E10   -2.760226023383439E-3   1.712995479465462E-3  
 2.696000000000000E10    1.842939251218922E-3   3.006837476277724E-3  
 2.698000000000000E10    2.099848468787968E-3  -1.504660845967010E-3  
 2.700000000000000E10   -1.961845700861886E-3  -1.561753655551001E-3  
 2.702000000000000E10   -8.267708908533678E-4   1.902919510030188E-3  
 2.704000000000000E10    1.540106721222401E-3   1.002857170533389E-3  
 2.706000000000000E10    4.929032365907915E-5  -1.798991404939443E-3  
 2.708000000000000E10   -1.629249774850905E-3   3.529937675921246E-4  
 2.710000000000000E10    4.145450293435715E-4   2.572912810137495E-3  
 2.712000000000000E10    2.474661712767556E-3  -9.516393838566728E-4  
 2.714000000000000E10   -8.307406824314967E-4  -2.487047080649063E-3  
 2.716000000000000E10   -3.020136966370046E-3   1.126494738855399E-3  
 2.718000000000000E10    1.320670140557922E-3   2.738957322435454E-3  
 2.720000000000000E10    2.840389934135601E-3  -1.113227059249766E-3  
 2.722000000000000E10   -1.500550351920538E-3  -2.480663533788174E-3  
 2.724000000000000E10   -2.193791704485193E-3   1.318460592301562E-3  
 2.726000000000000E10    1.374700921587646E-3   2.301924745552242E-3  
 2.728000000000000E10    1.518494478659704E-3  -1.689842072664760E-3  
 2.730000000000000E10   -1.516133197583258E-3  -9.017780903377570E-4  
 2.732000000000000E10   -7.280318095581606E-4   1.981025590794161E-3  
 2.734000000000000E10    1.857768729678355E-3   1.635283733776305E-4  
 2.736000000000000E10   -9.252969812223455E-5  -2.080148522509262E-3  
 2.738000000000000E10   -2.342220104765147E-3   7.175391947384924E-4  
 2.740000000000000E10    7.299719582078978E-4   2.533727500122041E-3  
 2.742000000000000E10    2.687046915525571E-3  -6.020976361469366E-4  
 2.744000000000000E10   -1.173292941530235E-3  -2.958937722723931E-3  
 2.746000000000000E10   -2.643520041601732E-3   8.809148494037800E-4  
 2.748000000000000E10    8.679573220433667E-4   2.390454814303666E-3  
 2.750000000000000E10    2.488191268639639E-3  -1.235037256265059E-3  
 2.752000000000000E10   -8.410282825934701E-4  -2.118159696692601E-3  
 2.754000000000000E10   -1.344716336461715E-3   9.911100787576288E-4  
 2.756000000000000E10    1.575106987729669E-3   1.129118914832361E-3  
