#  HZ   S   RI   R     50.00 
! Rohde & Schwarz ZVA40 4Ports - Version 3.90 - 1145.1110k42 SN: 100403
! Date: 2023-10-04 06:23:44
! Measurement: S12 
! 
 2.200000000000000E10   -2.324391665752046E-3   3.669175974209793E-3  
 2.202000000000000E10    4.875176760833710E-3   1.930106278450694E-3  
 2.204000000000000E10    2.914038574090228E-3  -5.336668953532353E-3  
 2.206000000000000E10   -5.547881650272757E-3  -1.552221772726625E-3  
 2.208000000000000E10   -1.297459210036323E-3   5.555627809371799E-3  
 2.210000000000000E10    6.201023934409022E-3   2.120398730767192E-4  
 2.212000000000000E10   -6.214229979377706E-4  -5.763140594353899E-3  
 2.214000000000000E10   -6.497735244920477E-3   2.199247201133403E-4  
 2.216000000000000E10    1.349499078060035E-3   5.105421732878313E-3  
 2.218000000000000E10    5.395545042119920E-3  -3.361193521413952E-3  
 2.220000000000000E10   -3.352659739903174E-3  -5.706982541596517E-3  
 2.222000000000000E10   -3.944753494579345E-3   4.527321580098942E-3  
 2.224000000000000E10    5.041850963607431E-3   3.303802906884812E-3  
 2.226000000000000E10    2.577118284534663E-3  -5.940772563917562E-3  
 2.228000000000000E10   -5.769631621660665E-3  -1.507906512415502E-3  
 2.230000000000000E10   -1.775452474248596E-3   5.969641875708476E-3  
 2.232000000000000E10    5.639472830807790E-3   6.520430179079995E-4  
 2.234000000000000E10   -5.422369249572512E-4  -5.857240059413016E-3  
 2.236000000000000E10   -6.630429445067421E-3   2.610609781186213E-4  
 2.238000000000000E10    6.699632176605519E-4   5.686902703018859E-3  
 2.240000000000000E10    5.833092873217538E-3  -1.480749822803773E-3  
 2.242000000000000E10   -3.108944467385300E-3  -5.356764799216762E-3  
 2.244000000000000E10   -4.850962723139674E-3   3.783412816119380E-3  
 2.246000000000000E10    4.022317967610434E-3   4.365444299764931E-3  
 2.248000000000000E10    2.931155861006118E-3  -3.868892643367872E-3  
 2.250000000000000E10   -5.178303283173591E-3  -2.728024963289499E-3  
 2.252000000000000E10   -2.534250175813213E-3   6.589376105694100E-3  
 2.254000000000000E10    6.174383714096621E-3   1.197923069412354E-3  
 2.256000000000000E10    7.076100500853499E-4  -6.467152561526746E-3  
 2.258000000000000E10   -6.734510738169774E-3   2.734941826929571E-4  
 2.260000000000000E10    4.798174595634919E-4   6.921084859641269E-3  
 2.262000000000000E10    6.704964325763285E-3  -7.461855821020436E-4  
 2.264000000000000E10   -1.115816812671255E-3  -5.802969651995227E-3  
 2.266000000000000E10   -6.088397523853928E-3   2.233982493635267E-3  
 2.268000000000000E10    2.798219487885945E-3   5.920661002164707E-3  
 2.270000000000000E10    4.956777294864878E-3  -2.819669767632149E-3  
 2.272000000000000E10   -4.149668355239555E-3  -4.040000378154218E-3  
 2.274000000000000E10   -3.771575633436441E-3   4.877783823758364E-3  
 2.276000000000000E10    5.812776595121250E-3   2.513312603696249E-3  
 2.278000000000000E10    1.066413256921805E-3  -5.798752798000351E-3  
 2.280000000000000E10   -4.883146204520017E-3  -7.760696025798097E-4  
 2.282000000000000E10   -3.351909719640389E-3   4.870581877185032E-3  
 2.284000000000000E10    6.589834258193150E-3   8.917960485632648E-6  
 2.286000000000000E10   -6.352454402076546E-4  -6.170638283947483E-3  
 2.288000000000000E10   -6.087993970140815E-3   1.636109896935523E-3  
 2.290000000000000E10    1.819489974877797E-3   5.903293436858803E-3  
 2.292000000000000E10    4.879194137174636E-3  -2.417375246295705E-3  
 2.294000000000000E10   -3.018034403794445E-3  -4.311459051677957E-3  
 2.296000000000000E10   -4.698448203271255E-3   2.850632256013341E-3  
 2.298000000000000E10    3.916552464943379E-3   2.893131371820346E-3  
 2.300000000000000E10    2.954822019091807E-3  -4.661902668885887E-3  
 2.302000000000000E10   -5.072620522696525E-3  -2.220517533714883E-3  
 2.304000000000000E10   -9.663195014582016E-4   5.177358369110152E-3  
 2.306000000000000E10    6.051827163901180E-3   3.539732774697768E-4  
 2.308000000000000E10   -1.020393698127009E-3  -5.663849791744724E-3  
 2.310000000000000E10   -6.045541260391474E-3   1.300703210290521E-3  
 2.312000000000000E10    1.171254429209512E-3   6.219693430466577E-3  
 2.314000000000000E10    5.164410016732290E-3  -2.495533844921738E-3  
 2.316000000000000E10   -3.166344147757627E-3  -4.645553883165121E-3  
 2.318000000000000E10   -4.385679640108720E-3   3.179187406203710E-3  
 2.320000000000000E10    3.055974826565944E-3   2.855868107872084E-3  
 2.322000000000000E10    2.823438844643533E-3  -3.328447506646626E-3  
 2.324000000000000E10   -3.487065245280974E-3  -1.609746199392248E-3  
 2.326000000000000E10   -1.271804641874041E-3   4.189155850326642E-3  
 2.328000000000000E10    4.524422984104604E-3  -1.707938813524379E-4  
 2.330000000000000E10   -1.163364620879293E-3  -3.383575676707551E-3  
 2.332000000000000E10   -4.301903798477724E-3   1.305701291130390E-3  
 2.334000000000000E10    1.563601101224776E-3   4.139372700592503E-3  
 2.336000000000000E10    4.210058745229617E-3  -2.630195245728828E-3  
 2.338000000000000E10   -2.514501567929983E-3  -3.992977115558460E-3  
 2.340000000000000E10   -3.556021925760433E-3   2.771038154605776E-3  
 2.342000000000000E10    3.173201781464741E-3   3.824927902314812E-3  
 2.344000000000000E10    3.297800300060771E-3  -3.394369254237972E-3  
 2.346000000000000E10   -2.742864176980220E-3  -2.237880602478981E-3  
 2.348000000000000E10   -1.516115611593705E-3   2.984352264320478E-3  
 2.350000000000000E10    3.075806511333212E-3   1.024853085255018E-3  
 2.352000000000000E10    4.423708996910136E-4  -2.451397536788136E-3  
 2.354000000000000E10   -1.980192202609032E-3   3.810219513979973E-4  
 2.356000000000000E10    1.229025154316332E-3   2.849421667633578E-3  
 2.358000000000000E10    2.242287548142485E-3  -2.154061643523164E-3  
 2.360000000000000E10   -2.236417247331701E-3  -1.896044290333521E-3  
 2.362000000000000E10   -2.122413119650446E-3   3.183336637448520E-3  
 2.364000000000000E10    3.321365686133504E-3   2.128003732650541E-3  
 2.366000000000000E10    1.636253167816903E-3  -3.668972989544272E-3  
 2.368000000000000E10   -3.068878984777257E-3  -1.201884813781362E-3  
 2.370000000000000E10   -1.042603762471117E-3   2.458365488564596E-3  
 2.372000000000000E10    2.843692665919662E-3   6.309570635494310E-4  
 2.374000000000000E10    5.437931031337939E-4  -2.362244456890039E-3  
 2.376000000000000E10   -1.885631718323566E-3  -1.507137808403058E-4  
 2.378000000000000E10    8.177676172635984E-4   1.914191459945869E-3  
 2.380000000000000E10    1.260641511180438E-3  -1.900147355627269E-3  
 2.382000000000000E10   -1.960567358764820E-3  -1.314234556048177E-3  
 2.384000000000000E10   -7.096986955730245E-4   2.245089053758420E-3  
 2.386000000000000E10    2.176407855586149E-3   4.636459507310065E-4  
 2.388000000000000E10    4.712175177701283E-4  -3.129259726847522E-3  
 2.390000000000000E10   -3.008759464137256E-3  -5.673315972671844E-4  
 2.392000000000000E10   -2.121574616467115E-4   2.270522643812001E-3  
 2.394000000000000E10    2.470872612320818E-3   1.992876418626111E-4  
 2.396000000000000E10   -7.769076255499385E-4  -2.515182000934146E-3  
 2.398000000000000E10   -1.675466432061512E-3   5.918706447118893E-4  
 2.400000000000000E10    6.534609674417879E-4   1.249015898793005E-3  
 2.402000000000000E10   -1.261338236417942E-4  -1.549566222820431E-3  
 2.404000000000000E10   -1.329716003965586E-3   1.328700241174374E-4  
 2.406000000000000E10    4.111282923986437E-4   1.638486086449120E-3  
 2.408000000000000E10    1.841751938627567E-3  -1.201162398501765E-3  
 2.410000000000000E10   -1.122224020946305E-3  -2.796060522086918E-3  
 2.412000000000000E10   -2.407796593615785E-3   1.497356483014301E-3  
 2.414000000000000E10    1.242011319845915E-3   2.008839961490594E-3  
 2.416000000000000E10    2.627282694447786E-3  -1.991595985600725E-3  
 2.418000000000000E10   -1.930767844896764E-3  -2.028825903835241E-3  
 2.420000000000000E10   -2.426634222501889E-3   1.357017477857880E-3  
 2.422000000000000E10    1.736793630698230E-3   1.177439888124354E-3  
 2.424000000000000E10    3.681636644614628E-4  -1.410744407621678E-3  
 2.426000000000000E10   -1.509881018137094E-3  -5.572048594331136E-4  
 2.428000000000000E10    8.335493221238721E-4   1.163011460448615E-3  
 2.430000000000000E10    1.170792413176969E-3  -7.724209062871523E-4  
 2.432000000000000E10   -1.842998215579428E-3  -1.673154831223656E-3  
 2.434000000000000E10   -9.178512445942033E-4   2.191498148022220E-3  
 2.436000000000000E10    2.173229324398562E-3   1.355017142486759E-3  
 2.438000000000000E10    1.402776433678810E-3  -2.505262687918730E-3  
 2.440000000000000E10   -2.385943604167551E-3  -9.438795241294429E-4  
 2.442000000000000E10   -1.388530639815144E-3   2.919823251431808E-3  
 2.444000000000000E10    2.346095730899833E-3   1.092983504349832E-3  
 2.446000000000000E10    8.479848656861577E-4  -1.946464835782535E-3  
 2.448000000000000E10   -2.213037674664520E-3  -7.586844476463739E-4  
 2.450000000000000E10    1.871251588454470E-4   1.709755495539866E-3  
 2.452000000000000E10    1.249734494194854E-3  -4.808125049748924E-4  
 2.454000000000000E10   -1.271864835871384E-3  -1.521393300208729E-3  
 2.456000000000000E10   -1.196992750919890E-3   1.612407395441551E-3  
 2.458000000000000E10    2.280594577314332E-3   1.062105497112498E-3  
 2.460000000000000E10    1.316075955401175E-3  -2.749943902017549E-3  
 2.462000000000000E10   -2.630120085086674E-3  -1.236969423189294E-3  
 2.464000000000000E10   -1.316760062763933E-3   3.117696134722792E-3  
 2.466000000000000E10    2.822837195708416E-3   1.000637552351691E-3  
 2.468000000000000E10    8.586452313465998E-4  -2.410443339613266E-3  
 2.470000000000000E10   -2.652922979905270E-3  -8.217850518121850E-4  
 2.472000000000000E10   -6.537839581142180E-4   1.820686891733203E-3  
 2.474000000000000E10    1.533097442006692E-3   3.764977500395617E-4  
 2.476000000000000E10    1.456241991490970E-4  -1.871182459581178E-3  
 2.478000000000000E10   -1.646291064389516E-3   6.168758591229562E-4  
 2.480000000000000E10    1.373438535665628E-3   8.251626022683922E-4  
 2.482000000000000E10    8.799861716397572E-4  -2.029826835496351E-3  
 2.484000000000000E10   -2.372425093199126E-3  -5.349250859580934E-4  
 2.486000000000000E10   -6.408922163245734E-4   2.692802823730744E-3  
 2.488000000000000E10    2.833580423612148E-3   3.162930115649942E-4  
 2.490000000000000E10    3.530736084940145E-4  -3.160172447678633E-3  
 2.492000000000000E10   -3.767727059312165E-3  -1.221995429659728E-3  
 2.494000000000000E10   -6.419364981411491E-4   3.189625596860424E-3  
 2.496000000000000E10    3.135599064989947E-3   5.259529734757962E-4  
 2.498000000000000E10    1.777051325007051E-4  -3.343422024045140E-3  
 2.500000000000000E10   -2.551078607211821E-3  -4.208063583064359E-4  
 2.502000000000000E10    1.139375603997905E-4   2.184096738346852E-3  
 2.504000000000000E10    1.513259063358419E-3  -6.770290383428801E-4  
 2.506000000000000E10   -9.596458876330871E-4  -1.471534240408801E-3  
 2.508000000000000E10   -2.116586736519821E-3   1.516990225354675E-3  
 2.510000000000000E10    1.449401344871149E-3   6.653450000158045E-4  
 2.512000000000000E10    7.612824301759247E-4  -2.537222360842861E-3  
 2.514000000000000E10   -3.910779574653134E-3  -5.980284913675860E-4  
 2.516000000000000E10   -2.773024916677969E-4   3.284707563580014E-3  
 2.518000000000000E10    3.039014918613248E-3   4.517993747867877E-4  
 2.520000000000000E10   -2.341662820981583E-4  -3.175618243403733E-3  
 2.522000000000000E10   -3.450696298386902E-3   6.822737145739666E-5  
 2.524000000000000E10   -3.023124418177758E-4   3.594904395868070E-3  
 2.526000000000000E10    2.503913623513654E-3   1.768640904629137E-4  
 2.528000000000000E10   -6.054701480024960E-4  -2.682702455786057E-3  
 2.530000000000000E10   -2.157330440240912E-3   1.074454987247009E-3  
 2.532000000000000E10    6.222346746653784E-4   2.070537346298806E-3  
 2.534000000000000E10    1.842276818933897E-3  -1.534532646473963E-3  
 2.536000000000000E10   -2.376736898440868E-3  -1.158310144091956E-3  
 2.538000000000000E10   -1.091865764465183E-3   3.048643193324097E-3  
 2.540000000000000E10    3.870993226883002E-3   1.373775907268282E-3  
 2.542000000000000E10    6.033971731085330E-4  -3.523984851199202E-3  
 2.544000000000000E10   -4.374645010102540E-3   7.407837983919308E-6  
 2.546000000000000E10    5.142708414496156E-4   5.146145704202354E-3  
 2.548000000000000E10    4.189860250335187E-3   1.819012650230434E-4  
 2.550000000000000E10   -6.650845825788565E-4  -3.851039975415915E-3  
 2.552000000000000E10   -3.147820098092780E-3   1.144866000686307E-3  
 2.554000000000000E10    1.016332476865500E-3   2.937284327344969E-3  
 2.556000000000000E10    2.933868847321719E-3  -1.189785252790898E-3  
 2.558000000000000E10   -6.955164026294369E-4  -1.928079873323441E-3  
 2.560000000000000E10   -1.058447676768992E-3   2.274818820296787E-3  
 2.562000000000000E10    2.954398791189306E-3   1.114701513870386E-3  
 2.564000000000000E10    1.281377342820633E-3  -3.005998456501402E-3  
 2.566000000000000E10   -3.549528279108927E-3  -4.842983116759569E-7  
 2.568000000000000E10    9.718675282783806E-4   4.306210903450847E-3  
 2.570000000000000E10    4.538611479802057E-3  -9.976707515306771E-4  
 2.572000000000000E10   -8.984278829302639E-4  -4.660985665395856E-3  
 2.574000000000000E10   -4.155049973633140E-3   1.571015141962562E-3  
 2.576000000000000E10    2.506856835680082E-3   3.837292839307338E-3  
 2.578000000000000E10    4.155868227826431E-3  -2.490767627023161E-3  
 2.580000000000000E10   -2.051478819339536E-3  -3.218818746972829E-3  
 2.582000000000000E10   -1.997770872549154E-3   1.961775808013044E-3  
 2.584000000000000E10    2.678503602510318E-3   1.774157390173059E-3  
 2.586000000000000E10    1.625326323846821E-3  -2.497986017260701E-3  
 2.588000000000000E10   -2.618933591293171E-3  -9.050320841197390E-4  
 2.590000000000000E10   -3.805020885927490E-5   3.173835793859325E-3  
 2.592000000000000E10    3.416210151044652E-3  -1.760575919433904E-4  
 2.594000000000000E10   -3.914665630873060E-4  -4.596076410962269E-3  
 2.596000000000000E10   -4.064279666636139E-3   1.366086995403748E-3  
 2.598000000000000E10    1.421529937942978E-3   3.994807790149935E-3  
 2.600000000000000E10    4.391279973788187E-3  -2.052600801107474E-3  
 2.602000000000000E10   -2.167682425351813E-3  -4.146800201851875E-3  
 2.604000000000000E10   -3.385496878763661E-3   2.106778221786954E-3  
 2.606000000000000E10    2.106358340824954E-3   2.622159299789928E-3  
 2.608000000000000E10    2.738009672611952E-3  -2.158666000468656E-3  
 2.610000000000000E10   -2.555648461566307E-3  -2.174067092710175E-3  
 2.612000000000000E10   -1.169275317806751E-3   2.244925184641033E-3  
 2.614000000000000E10    2.371533293626271E-3   1.240064608282410E-3  
 2.616000000000000E10    8.786436336549741E-5  -3.142527959425934E-3  
 2.618000000000000E10   -2.865956150344573E-3  -3.009497759194346E-4  
 2.620000000000000E10    1.308054115725099E-4   3.776075333007611E-3  
 2.622000000000000E10    4.021073720650747E-3  -1.120975961384829E-3  
 2.624000000000000E10   -9.210178359353449E-4  -4.477201262488961E-3  
 2.626000000000000E10   -4.557452979497612E-3   1.788403409591410E-3  
 2.628000000000000E10    2.060563318082131E-3   4.089703055797145E-3  
 2.630000000000000E10    4.248941404512152E-3  -1.663731738517527E-3  
 2.632000000000000E10   -2.019897685386241E-3  -3.247343644034118E-3  
 2.634000000000000E10   -2.886787173338234E-3   1.674494022154249E-3  
 2.636000000000000E10    2.012172531976830E-3   2.686969339265488E-3  
 2.638000000000000E10    1.913277257699519E-3  -2.230088066426106E-3  
 2.640000000000000E10   -2.260651890537702E-3  -1.217512188304681E-3  
 2.642000000000000E10   -7.334804577112664E-4   2.571148463175632E-3  
 2.644000000000000E10    2.756063040578738E-3   3.148670029986533E-4  
 2.646000000000000E10   -8.568591420043958E-5  -3.369622208992951E-3  
 2.648000000000000E10   -3.175648394972086E-3   9.101342548092362E-4  
 2.650000000000000E10    1.017434988170862E-3   3.707307900185697E-3  
 2.652000000000000E10    3.930015664082021E-3  -1.646814511332195E-3  
 2.654000000000000E10   -1.759611113811843E-3  -3.869439751724713E-3  
 2.656000000000000E10   -3.722258639754728E-3   2.002911816816777E-3  
 2.658000000000000E10    2.234047045931220E-3   3.172705502947792E-3  
 2.660000000000000E10    2.779335482046008E-3  -2.425394923193380E-3  
 2.662000000000000E10   -2.243387483758852E-3  -2.437073504552245E-3  
 2.664000000000000E10   -1.750551789882593E-3   2.247743104817346E-3  
 2.666000000000000E10    2.478784852428362E-3   1.449499919544905E-3  
 2.668000000000000E10    8.042873232625425E-4  -2.388178691035137E-3  
 2.670000000000000E10   -2.495644002920017E-3  -2.116419509547995E-4  
 2.672000000000000E10   -6.546337476720510E-5   2.987950923852623E-3  
 2.674000000000000E10    3.125348535832018E-3  -3.465043973847060E-4  
 2.676000000000000E10   -1.034291992255021E-3  -3.429017466260120E-3  
 2.678000000000000E10   -3.270501852966845E-3   9.314362177974545E-4  
 2.680000000000000E10    7.688695623073727E-4   3.397763211978599E-3  
 2.682000000000000E10    3.556971496436745E-3  -1.617207133676857E-3  
 2.684000000000000E10   -1.115216509788297E-3  -3.310250205686316E-3  
 2.686000000000000E10   -3.314574278192595E-3   1.317711052251980E-3  
 2.688000000000000E10    1.742976222885773E-3   2.448580256896094E-3  
 2.690000000000000E10    1.990841876249760E-3  -1.647542274440639E-3  
 2.692000000000000E10   -1.884745230199769E-3  -1.762333471560851E-3  
 2.694000000000000E10   -1.139615516876802E-3   1.852737783337943E-3  
 2.696000000000000E10    2.123308338923380E-3   5.836510390508920E-4  
 2.698000000000000E10   -4.133299335080665E-4  -2.544403949286789E-3  
 2.700000000000000E10   -2.350959839532152E-3  -1.201220209168241E-5  
 2.702000000000000E10    5.770154530182481E-4   2.937079756520689E-3  
 2.704000000000000E10    2.538509375881404E-3  -1.211972776218317E-3  
 2.706000000000000E10   -1.053352578310296E-3  -3.394976811250672E-3  
 2.708000000000000E10   -3.696700820000842E-3   1.389215452945791E-3  
 2.710000000000000E10    1.460628904169425E-3   3.462383465375751E-3  
 2.712000000000000E10    3.020346863195300E-3  -1.959334418643266E-3  
 2.714000000000000E10   -2.028735034400597E-3  -2.577836799900979E-3  
 2.716000000000000E10   -2.666537475306541E-3   1.409715157933533E-3  
 2.718000000000000E10    1.362138224067166E-3   1.988681498914957E-3  
 2.720000000000000E10    1.254865841474384E-3  -1.526721491245553E-3  
 2.722000000000000E10   -1.886815327452496E-3  -1.266379709704779E-3  
 2.724000000000000E10   -5.073242209618911E-4   1.973827573237941E-3  
 2.726000000000000E10    1.775491167791188E-3   1.096298137781560E-4  
 2.728000000000000E10   -3.036702328245156E-4  -2.490271668648347E-3  
 2.730000000000000E10   -2.231600490631536E-3   7.339719813899137E-4  
 2.732000000000000E10    7.774642508593388E-4   2.460091607645154E-3  
 2.734000000000000E10    2.515185216907412E-3  -1.152425465988927E-3  
 2.736000000000000E10   -1.432975273928605E-3  -2.446490805596113E-3  
 2.738000000000000E10   -2.493678941391408E-3   1.133106314227916E-3  
 2.740000000000000E10    1.049693484674208E-3   2.626404282636941E-3  
 2.742000000000000E10    1.946480231708847E-3  -1.294453220907599E-3  
 2.744000000000000E10   -1.501774779171683E-3  -1.744396926369518E-3  
 2.746000000000000E10   -1.126911767642014E-3   1.371497128275223E-3  
 2.748000000000000E10    1.202585699502379E-3   7.706017058808357E-4  
 2.750000000000000E10    4.104323925275821E-4  -1.351342638372444E-3  
 2.752000000000000E10   -1.260788209037855E-3   1.462578757127631E-4  
 2.754000000000000E10    2.392581609456101E-4   1.783022351446562E-3  
 2.756000000000000E10    1.620013557840139E-3  -4.931303446937818E-4  
