#  HZ   S   RI   R     50.00 
! Rohde & Schwarz ZVA40 4Ports - Version 3.90 - 1145.1110k42 SN: 100403
! Date: 2023-10-04 06:24:29
! Measurement: S12 
! 
 2.200000000000000E10   -4.010389558970928E-3   4.816242944798432E-4  
 2.202000000000000E10    1.571937063999940E-3   3.787856490816921E-3  
 2.204000000000000E10    4.455058748135343E-3  -1.956478721695021E-3  
 2.206000000000000E10   -1.985350390896201E-3  -4.244169424055144E-3  
 2.208000000000000E10   -3.243418294005096E-3   2.579314619651996E-3  
 2.210000000000000E10    3.335829707793891E-3   3.070314633077942E-3  
 2.212000000000000E10    2.401144185569137E-3  -4.226252145599574E-3  
 2.214000000000000E10   -4.785843455465511E-3  -2.161423151846975E-3  
 2.216000000000000E10   -1.526393389212899E-3   4.162982746493071E-3  
 2.218000000000000E10    5.269638379104435E-3   3.664424075395800E-4  
 2.220000000000000E10   -3.457963457549340E-4  -5.889141350053251E-3  
 2.222000000000000E10   -5.874291964573786E-3   3.126691699435469E-4  
 2.224000000000000E10    1.675792256719433E-3   5.136443127412349E-3  
 2.226000000000000E10    5.122286762343720E-3  -2.227175034931861E-3  
 2.228000000000000E10   -2.817950182361528E-3  -4.600641288561747E-3  
 2.230000000000000E10   -3.953451232519001E-3   3.102351271081716E-3  
 2.232000000000000E10    2.686134670511819E-3   3.519191523082554E-3  
 2.234000000000000E10    2.595602200017311E-3  -3.750111034605652E-3  
 2.236000000000000E10   -4.397270560730249E-3  -2.143952398910187E-3  
 2.238000000000000E10   -2.148122352082282E-3   4.380909522296861E-3  
 2.240000000000000E10    5.065632838523015E-3   1.016111054923385E-3  
 2.242000000000000E10   -6.004903734719846E-4  -5.095021362649277E-3  
 2.244000000000000E10   -5.384820309700444E-3   1.077327360690106E-3  
 2.246000000000000E10    1.204640742798802E-3   5.296975257806480E-3  
 2.248000000000000E10    4.965484287822619E-3  -1.155657140770927E-3  
 2.250000000000000E10   -1.888582162791863E-3  -4.745262122014538E-3  
 2.252000000000000E10   -5.210916831856594E-3   2.593818644527346E-3  
 2.254000000000000E10    2.082516031805426E-3   4.445663566002622E-3  
 2.256000000000000E10    3.870454456773587E-3  -3.019949159352109E-3  
 2.258000000000000E10   -3.420355584239587E-3  -3.069871279876679E-3  
 2.260000000000000E10   -3.137338615488261E-3   3.472088152193464E-3  
 2.262000000000000E10    3.544184684869833E-3   2.056944184005261E-3  
 2.264000000000000E10    1.942135822901037E-3  -3.620025250711478E-3  
 2.266000000000000E10   -4.124931205296889E-3  -1.068887824658305E-3  
 2.268000000000000E10   -5.348839295038488E-4   4.658608668250963E-3  
 2.270000000000000E10    5.174596881261095E-3   2.268033069867670E-4  
 2.272000000000000E10    8.300222589241457E-6  -5.002199439331889E-3  
 2.274000000000000E10   -6.059167120838538E-3   1.856547401985154E-3  
 2.276000000000000E10    2.298343635629863E-3   5.625431949738413E-3  
 2.278000000000000E10    4.909725888865069E-3  -2.623515683808364E-3  
 2.280000000000000E10   -3.145765920635313E-3  -4.127054533455521E-3  
 2.282000000000000E10   -4.402874910738319E-3   2.904956636484712E-4  
 2.284000000000000E10    3.404685441637412E-3   2.887473689042963E-3  
 2.286000000000000E10    2.408272455795668E-3  -3.705141716636717E-3  
 2.288000000000000E10   -3.296267474070191E-3  -2.050523209618405E-3  
 2.290000000000000E10   -1.261634832189884E-3   4.662361927330494E-3  
 2.292000000000000E10    4.130340123083442E-3  -2.018081304413499E-4  
 2.294000000000000E10   -5.340508469089400E-4  -3.956006796215661E-3  
 2.296000000000000E10   -4.357374855317175E-3   1.101667847251520E-3  
 2.298000000000000E10    1.119538297643885E-3   3.819007688434795E-3  
 2.300000000000000E10    4.380477155791596E-3  -2.159263181965798E-3  
 2.302000000000000E10   -2.882234068238176E-3  -4.447953251656145E-3  
 2.304000000000000E10   -4.156716662691906E-3   2.616881465655752E-3  
 2.306000000000000E10    3.306291939225048E-3   3.543645972968079E-3  
 2.308000000000000E10    2.891755459131673E-3  -3.425135233555920E-3  
 2.310000000000000E10   -3.621729731094092E-3  -2.439294621581212E-3  
 2.312000000000000E10   -2.015820697124582E-3   3.834806979284622E-3  
 2.314000000000000E10    3.222307044779882E-3   1.328945647401270E-3  
 2.316000000000000E10   -2.909933609771542E-4  -3.163664237945341E-3  
 2.318000000000000E10   -3.459284358541481E-3   6.609554548049346E-4  
 2.320000000000000E10    1.022200678562513E-3   3.603006596677005E-3  
 2.322000000000000E10    3.538725708494894E-3  -1.973200647626072E-3  
 2.324000000000000E10   -2.399994453298859E-3  -2.972976930323057E-3  
 2.326000000000000E10   -2.990637527545914E-3   3.751115262275562E-3  
 2.328000000000000E10    3.706957868416794E-3   2.952447262941860E-3  
 2.330000000000000E10    1.990534146898426E-3  -3.437355189817026E-3  
 2.332000000000000E10   -3.937366767786443E-3  -2.021306834649295E-3  
 2.334000000000000E10   -1.224604340677615E-3   3.564540340448730E-3  
 2.336000000000000E10    3.486814894131385E-3   8.700183680048212E-4  
 2.338000000000000E10   -8.393564453967883E-5  -2.749116392806172E-3  
 2.340000000000000E10   -2.375605705310591E-3   6.965747052163351E-4  
 2.342000000000000E10    1.464828790631145E-3   2.532713115215302E-3  
 2.344000000000000E10    1.949067453097086E-3  -2.042754596914165E-3  
 2.346000000000000E10   -1.847571555117611E-3  -1.126247894717380E-3  
 2.348000000000000E10   -1.112337937229313E-3   3.234192685340531E-3  
 2.350000000000000E10    3.696242871228606E-3   9.235781399183907E-4  
 2.352000000000000E10    9.208800220221747E-4  -3.141731183859520E-3  
 2.354000000000000E10   -3.401180540095083E-3  -3.947268669435289E-4  
 2.356000000000000E10   -3.451148415933858E-5   3.563358492101543E-3  
 2.358000000000000E10    3.665242198621854E-3  -1.779636538685736E-4  
 2.360000000000000E10   -2.793203648252529E-4  -2.908302878495306E-3  
 2.362000000000000E10   -1.898390386486426E-3   9.641412907512859E-4  
 2.364000000000000E10    1.172882410173770E-3   1.846250459493604E-3  
 2.366000000000000E10    1.413206446159165E-3  -1.608702463272493E-3  
 2.368000000000000E10   -1.247813335794490E-3  -5.552380662265932E-4  
 2.370000000000000E10   -5.713024029319058E-5   2.307793067302555E-3  
 2.372000000000000E10    2.836634055711329E-3  -5.626374222629238E-4  
 2.374000000000000E10   -8.925341498979833E-4  -2.272677651490085E-3  
 2.376000000000000E10   -2.622948071802966E-3   1.191638424643315E-3  
 2.378000000000000E10    1.700386943412013E-3   2.446088503347710E-3  
 2.380000000000000E10    3.342256255564280E-3  -1.684962757281028E-3  
 2.382000000000000E10   -1.876469650596846E-3  -3.074544903938659E-3  
 2.384000000000000E10   -2.448277125949971E-3   1.912148494739085E-3  
 2.386000000000000E10    1.936577427841257E-3   1.692439655016642E-3  
 2.388000000000000E10    1.624271855689585E-3  -2.466323945554905E-3  
 2.390000000000000E10   -1.455637946492061E-3  -1.079455963918008E-3  
 2.392000000000000E10    2.303952805959852E-4   1.469219976570457E-3  
 2.394000000000000E10    1.952523321961053E-3  -1.030581843224354E-3  
 2.396000000000000E10   -1.045082710334100E-3  -1.875511137768626E-3  
 2.398000000000000E10   -1.752265314280521E-3   1.480385006288998E-3  
 2.400000000000000E10    2.309927978785709E-3   9.955932873708662E-4  
 2.402000000000000E10    1.695576072961558E-3  -3.353940221131779E-3  
 2.404000000000000E10   -3.337789181387052E-3  -1.619045156985521E-3  
 2.406000000000000E10   -1.223366307385732E-3   2.620068757096306E-3  
 2.408000000000000E10    3.148291056277230E-3   1.310172432567924E-3  
 2.410000000000000E10    9.630426648072898E-4  -3.800544072873890E-3  
 2.412000000000000E10   -2.760527204372920E-3  -1.165388064691797E-3  
 2.414000000000000E10   -4.543317445495632E-4   2.742055919952691E-3  
 2.416000000000000E10    1.963246773811989E-3  -2.773429114313331E-4  
 2.418000000000000E10   -1.037547626765445E-3  -2.440845521050505E-3  
 2.420000000000000E10   -2.106514846673235E-3   1.125828697695397E-3  
 2.422000000000000E10    1.110871649871115E-3   1.389194978401065E-3  
 2.424000000000000E10    1.578035895363428E-3  -2.441363743855618E-3  
 2.426000000000000E10   -3.235298558138311E-3  -1.110898316255771E-3  
 2.428000000000000E10   -1.141226734034717E-3   2.895622077630833E-3  
 2.430000000000000E10    3.576384537154809E-3   1.010641284665326E-3  
 2.432000000000000E10    3.530209305608878E-4  -3.299956864793785E-3  
 2.434000000000000E10   -3.672580889542587E-3  -6.967677873035427E-4  
 2.436000000000000E10   -1.211875605804380E-4   3.538397024385631E-3  
 2.438000000000000E10    2.794712709146552E-3   2.565172417234862E-4  
 2.440000000000000E10   -4.668088222388178E-4  -3.069305341341533E-3  
 2.442000000000000E10   -2.363260748097673E-3   8.840445116220508E-4  
 2.444000000000000E10    8.931878546718508E-4   2.248001808766276E-3  
 2.446000000000000E10    2.223107600002550E-3  -1.712474753730930E-3  
 2.448000000000000E10   -2.338558842893690E-3  -1.314558590820525E-3  
 2.450000000000000E10   -1.354242624074686E-3   3.071424347581342E-3  
 2.452000000000000E10    3.546798325260170E-3   9.175638952001464E-4  
 2.454000000000000E10    5.585859580605757E-4  -3.310016196337529E-3  
 2.456000000000000E10   -4.116384428925812E-3  -6.066804417059757E-4  
 2.458000000000000E10    1.946227926055144E-4   3.946691329474561E-3  
 2.460000000000000E10    3.920044051483274E-3   4.574393847178726E-5  
 2.462000000000000E10    3.566636069081142E-4  -3.919569717254490E-3  
 2.464000000000000E10   -3.162540597259067E-3   3.229208487027790E-4  
 2.466000000000000E10    1.439052020941745E-4   2.931653129053302E-3  
 2.468000000000000E10    2.994707159814425E-3  -5.107183224026812E-4  
 2.470000000000000E10   -1.123032961913850E-3  -1.641530456254259E-3  
 2.472000000000000E10   -1.586602178576868E-3   1.802897691959515E-3  
 2.474000000000000E10    1.640430346014909E-3   7.402978299069218E-4  
 2.476000000000000E10    5.859762131876778E-4  -2.451762993587181E-3  
 2.478000000000000E10   -3.341848947457038E-3  -4.653853284253273E-4  
 2.480000000000000E10    2.977239682877553E-4   3.547229513060302E-3  
 2.482000000000000E10    3.802864084718749E-3  -7.714174062130041E-4  
 2.484000000000000E10   -3.102765422227094E-4  -4.572410165565088E-3  
 2.486000000000000E10   -4.239694419084117E-3   1.280639109609183E-3  
 2.488000000000000E10    8.263431627710816E-4   3.724488415173255E-3  
 2.490000000000000E10    3.546231208019890E-3  -8.290990735986270E-4  
 2.492000000000000E10   -1.029120008752216E-3  -3.493912910926156E-3  
 2.494000000000000E10   -3.478252008790150E-3   1.142969558713958E-3  
 2.496000000000000E10    5.955925626039971E-4   2.589131894637831E-3  
 2.498000000000000E10    1.217388067743741E-3  -1.734790697810240E-3  
 2.500000000000000E10   -1.755181649059523E-3  -1.420904751284979E-3  
 2.502000000000000E10   -1.024531877192203E-3   1.818287892092485E-3  
 2.504000000000000E10    1.974927254195791E-3  -2.191057737945812E-4  
 2.506000000000000E10   -3.072082813559973E-5  -2.854185760952532E-3  
 2.508000000000000E10   -3.472765078186058E-3   4.126470194023568E-4  
 2.510000000000000E10    4.584009657264687E-4   3.438349172938615E-3  
 2.512000000000000E10    3.595163856516592E-3  -7.328276878979523E-4  
 2.514000000000000E10   -1.299792464124039E-3  -3.909802428097464E-3  
 2.516000000000000E10   -4.494204709772021E-3   1.437877959688194E-3  
 2.518000000000000E10    1.410754892276600E-3   3.395564854145050E-3  
 2.520000000000000E10    2.744551122304983E-3  -1.412554447597358E-3  
 2.522000000000000E10   -1.876868183899205E-3  -2.719319803873077E-3  
 2.524000000000000E10   -2.249840530566871E-3   2.012537472182885E-3  
 2.526000000000000E10    1.438042068912182E-3   1.712618846795522E-3  
 2.528000000000000E10    1.325399178313091E-3  -2.182797645218670E-3  
 2.530000000000000E10   -2.811755970469676E-3  -1.022824540086731E-4  
 2.532000000000000E10   -3.188994596712291E-4   3.395082690985873E-3  
 2.534000000000000E10    3.168421011650935E-3  -1.385879440931603E-4  
 2.536000000000000E10   -8.258342786575668E-4  -3.639682749053463E-3  
 2.538000000000000E10   -4.256710672052577E-3   1.617906149476767E-3  
 2.540000000000000E10    1.506344386143610E-3   4.269773548003286E-3  
 2.542000000000000E10    3.954647487262264E-3  -1.773160198354162E-3  
 2.544000000000000E10   -2.224118754384108E-3  -3.448421324719675E-3  
 2.546000000000000E10   -3.611046005971730E-3   2.460676114424132E-3  
 2.548000000000000E10    2.517221189918928E-3   3.481802647002041E-3  
 2.550000000000000E10    2.314952202141285E-3  -2.452538377838209E-3  
 2.552000000000000E10   -2.427950472338125E-3  -1.427149341907352E-3  
 2.554000000000000E10   -5.747042050643358E-4   2.969919150928035E-3  
 2.556000000000000E10    2.827624193741940E-3   6.006633029755903E-4  
 2.558000000000000E10    1.798801986296894E-4  -2.634762262459844E-3  
 2.560000000000000E10   -3.042718060896732E-3   9.676111221779138E-4  
 2.562000000000000E10    1.431116499588825E-3   3.563963240594603E-3  
 2.564000000000000E10    3.905293386196718E-3  -1.287753628275823E-3  
 2.566000000000000E10   -2.201219889684580E-3  -4.072192677995190E-3  
 2.568000000000000E10   -3.676490523503162E-3   3.121254179859534E-3  
 2.570000000000000E10    3.467033064225689E-3   3.966430653235875E-3  
 2.572000000000000E10    3.560036275302991E-3  -2.895627520047128E-3  
 2.574000000000000E10   -2.812802704283968E-3  -2.646965367603116E-3  
 2.576000000000000E10   -1.641984155867249E-3   3.524259998812340E-3  
 2.578000000000000E10    3.575544338673353E-3   1.550610926642548E-3  
 2.580000000000000E10    9.188651420117822E-4  -2.912191077484749E-3  
 2.582000000000000E10   -2.971701862406917E-3  -5.430395503935870E-5  
 2.584000000000000E10    1.048722006089520E-3   3.116335908998735E-3  
 2.586000000000000E10    3.172771583194844E-3  -1.418765445123427E-3  
 2.588000000000000E10   -1.843234029365704E-3  -2.804189964081161E-3  
 2.590000000000000E10   -2.801617170916870E-3   1.869157880719286E-3  
 2.592000000000000E10    2.967483553220518E-3   3.443978537688963E-3  
 2.594000000000000E10    4.095675976714119E-3  -3.070758466492407E-3  
 2.596000000000000E10   -2.978985285153613E-3  -3.638439171481878E-3  
 2.598000000000000E10   -3.226071974495426E-3   3.929597296519205E-3  
 2.600000000000000E10    3.869936685077846E-3   2.958323922939599E-3  
 2.602000000000000E10    2.746236001257785E-3  -3.596499242121354E-3  
 2.604000000000000E10   -3.776947574806400E-3  -1.584691570315044E-3  
 2.606000000000000E10   -9.996699518524110E-4   3.121176996501163E-3  
 2.608000000000000E10    3.143257330521010E-3   4.962801285728347E-4  
 2.610000000000000E10   -2.665067349880701E-4  -3.065395707380958E-3  
 2.612000000000000E10   -2.895646874094382E-3   4.166647177044069E-4  
 2.614000000000000E10    1.523428982181940E-3   2.812927603372373E-3  
 2.616000000000000E10    2.940112550277263E-3  -1.794480624084827E-3  
 2.618000000000000E10   -2.364634536206722E-3  -3.259595294366591E-3  
 2.620000000000000E10   -2.985776751302183E-3   2.947593311546370E-3  
 2.622000000000000E10    3.044208453502506E-3   3.038113529328257E-3  
 2.624000000000000E10    2.703745194594376E-3  -3.352594139869325E-3  
 2.626000000000000E10   -3.795617027208209E-3  -2.965535750263371E-3  
 2.628000000000000E10   -2.383035665843636E-3   3.570290777133778E-3  
 2.630000000000000E10    3.813334144069813E-3   1.614716900803614E-3  
 2.632000000000000E10    1.053118867275771E-3  -3.338832364534028E-3  
 2.634000000000000E10   -3.289356041932479E-3  -6.233850544958841E-4  
 2.636000000000000E10    2.692617108550621E-4   2.857618717825972E-3  
 2.638000000000000E10    2.595722718979232E-3  -3.024701873073354E-4  
 2.640000000000000E10   -1.050278769980650E-3  -2.941700324299745E-3  
 2.642000000000000E10   -2.649775880854577E-3   1.630696875508875E-3  
 2.644000000000000E10    1.646770855586510E-3   2.711646084208041E-3  
 2.646000000000000E10    2.837978332536295E-3  -2.049391026957892E-3  
 2.648000000000000E10   -2.488629761501215E-3  -2.659348552697338E-3  
 2.650000000000000E10   -2.911435454734601E-3   3.099902751273476E-3  
 2.652000000000000E10    2.977374533656985E-3   2.554279053583741E-3  
 2.654000000000000E10    2.393974937149324E-3  -2.690708162845112E-3  
 2.656000000000000E10   -2.884184999857098E-3  -1.958329507033341E-3  
 2.658000000000000E10   -1.474988544941880E-3   2.963693783385679E-3  
 2.660000000000000E10    2.870889817131683E-3   8.546784811187536E-4  
 2.662000000000000E10    2.255845865875017E-4  -2.571628836449236E-3  
 2.664000000000000E10   -2.120504068443552E-3   4.481107753235847E-4  
 2.666000000000000E10    9.284788975492120E-4   1.916668436024338E-3  
 2.668000000000000E10    2.362552098929882E-3  -1.210807618917897E-3  
 2.670000000000000E10   -1.449160758056678E-3  -2.072805451462045E-3  
 2.672000000000000E10   -2.094827505061403E-3   2.166856051189825E-3  
 2.674000000000000E10    2.360131649766117E-3   2.038658654782921E-3  
 2.676000000000000E10    2.495824999641627E-3  -2.315328340046108E-3  
 2.678000000000000E10   -2.776461245957762E-3  -2.507406141376123E-3  
 2.680000000000000E10   -2.244628441985697E-3   2.594611578388140E-3  
 2.682000000000000E10    2.784444164717570E-3   2.213170548202470E-3  
 2.684000000000000E10    2.147481776773930E-3  -3.002378274686635E-3  
 2.686000000000000E10   -2.335495082661510E-3  -1.429783267667517E-3  
 2.688000000000000E10   -1.156059472123161E-3   2.037310128798708E-3  
 2.690000000000000E10    2.474692766554654E-3   7.111648737918586E-4  
 2.692000000000000E10   -1.613877957424847E-4  -2.222573355538771E-3  
 2.694000000000000E10   -2.157974813599140E-3   6.421652069548145E-4  
 2.696000000000000E10    1.379149049171247E-3   1.512079063104466E-3  
 2.698000000000000E10    1.872546316008084E-3  -1.770858958479948E-3  
 2.700000000000000E10   -2.072345145279542E-3  -2.136944647645578E-3  
 2.702000000000000E10   -1.494004391133785E-3   2.271585399284959E-3  
 2.704000000000000E10    2.750823594396934E-3   1.845910621341318E-3  
 2.706000000000000E10    1.786686931154691E-3  -3.029388346476480E-3  
 2.708000000000000E10   -2.497585315722972E-3  -1.752598662278615E-3  
 2.710000000000000E10   -1.688791977358051E-3   2.642093779286370E-3  
 2.712000000000000E10    2.445317339152098E-3   1.111777397454716E-3  
 2.714000000000000E10    1.343198178801686E-3  -2.595286903670058E-3  
 2.716000000000000E10   -2.489152888301760E-3  -1.031851177685894E-3  
 2.718000000000000E10   -6.096618308220059E-4   1.408016047207639E-3  
 2.720000000000000E10    2.030638133874163E-3  -3.368029938428663E-4  
 2.722000000000000E10   -8.259903479483910E-4  -1.771649054717273E-3  
 2.724000000000000E10   -1.300145857385360E-3   7.574140472570434E-4  
 2.726000000000000E10    1.806469619623385E-3   1.516856093076058E-3  
 2.728000000000000E10    1.115297374781221E-3  -2.400700002908707E-3  
 2.730000000000000E10   -2.045954839559272E-3  -1.469792856369168E-3  
 2.732000000000000E10   -1.298727467656136E-3   2.105985593516380E-3  
 2.734000000000000E10    1.832616486353800E-3   1.323709686403163E-3  
 2.736000000000000E10    1.463274587877095E-3  -2.692128211492673E-3  
 2.738000000000000E10   -2.660826488863677E-3  -1.434690915630199E-3  
 2.740000000000000E10   -1.447608927264810E-3   1.914000822580420E-3  
 2.742000000000000E10    2.078873105347157E-3   4.842852431465872E-4  
 2.744000000000000E10    3.855009017570410E-4  -1.885263904114254E-3  
 2.746000000000000E10   -1.671573001658544E-3  -5.848068540217355E-4  
 2.748000000000000E10    2.594880006654421E-4   1.472700809244998E-3  
 2.750000000000000E10    9.217796541634016E-4  -9.149905235972256E-4  
 2.752000000000000E10   -1.430547417839989E-3  -5.359273418434896E-4  
 2.754000000000000E10   -9.251981464331038E-4   1.561300246976316E-3  
 2.756000000000000E10    1.304634177358821E-3   5.135674946359359E-4  
