#  HZ   S   RI   R     50.00 
! Rohde & Schwarz ZVA40 4Ports - Version 3.90 - 1145.1110k42 SN: 100403
! Date: 2023-10-04 06:25:06
! Measurement: S12 
! 
 2.200000000000000E10   -4.576102728606202E-3  -4.705980118160369E-4  
 2.202000000000000E10   -6.526204979309114E-4   4.319335508625954E-3  
 2.204000000000000E10    4.125006773392670E-3  -1.352079652860994E-5  
 2.206000000000000E10   -1.639025198528543E-3  -4.424433267558925E-3  
 2.208000000000000E10   -4.318365841754712E-3   1.385290262987837E-3  
 2.210000000000000E10    1.752335159835639E-3   3.790286886214744E-3  
 2.212000000000000E10    3.215773816918954E-3  -2.483365773514379E-3  
 2.214000000000000E10   -3.679739318613429E-3  -2.965875653899275E-3  
 2.216000000000000E10   -2.474277222063392E-3   4.384988860692829E-3  
 2.218000000000000E10    4.196508976747282E-3   1.680633849900914E-3  
 2.220000000000000E10    8.396601715503493E-4  -4.465618781978265E-3  
 2.222000000000000E10   -5.320844560628757E-3  -5.788988460153632E-5  
 2.224000000000000E10    3.255588467254711E-4   5.092230741865933E-3  
 2.226000000000000E10    4.903007837128826E-3  -4.674786796385888E-4  
 2.228000000000000E10   -1.591361397004221E-3  -4.582554538501427E-3  
 2.230000000000000E10   -4.350751434685662E-3   2.091655100230128E-3  
 2.232000000000000E10    2.209363759902772E-3   4.667650457122363E-3  
 2.234000000000000E10    3.950831043766812E-3  -2.091145550366491E-3  
 2.236000000000000E10   -2.596682134026196E-3  -3.430515695072245E-3  
 2.238000000000000E10   -2.667191176442429E-3   3.810935864748899E-3  
 2.240000000000000E10    3.813377712504007E-3   2.761318857665174E-3  
 2.242000000000000E10    1.526350937638199E-3  -4.401816084282473E-3  
 2.244000000000000E10   -4.294187252526172E-3  -3.764177918128553E-4  
 2.246000000000000E10    3.162563934893115E-4   4.195071451249532E-3  
 2.248000000000000E10    4.499574410147034E-3  -5.738341897085775E-4  
 2.250000000000000E10   -3.647393232313334E-4  -4.304171467083506E-3  
 2.252000000000000E10   -4.105058411369100E-3   1.086062497051898E-3  
 2.254000000000000E10    1.976454681425821E-3   3.806593638728373E-3  
 2.256000000000000E10    4.419348319061101E-3  -1.513036517280852E-3  
 2.258000000000000E10   -1.810031750210328E-3  -3.278631680586841E-3  
 2.260000000000000E10   -3.458317616605200E-3   1.916523055115249E-3  
 2.262000000000000E10    2.052596952125896E-3   2.550466895627324E-3  
 2.264000000000000E10    2.197481691837311E-3  -2.230381425761152E-3  
 2.266000000000000E10   -2.832619691616856E-3  -2.308433839061763E-3  
 2.268000000000000E10   -1.342455736448756E-3   2.608430149848573E-3  
 2.270000000000000E10    3.636256202298682E-3   3.505485510686413E-4  
 2.272000000000000E10    5.018147930968553E-4  -3.832925911410712E-3  
 2.274000000000000E10   -3.943336763768457E-3   3.874218546116026E-4  
 2.276000000000000E10    1.646307715418516E-3   4.599771986249834E-3  
 2.278000000000000E10    3.941239854611922E-3  -1.744491422869032E-3  
 2.280000000000000E10   -1.667818542046007E-3  -3.307896957267076E-3  
 2.282000000000000E10   -4.122857280890457E-3  -6.712835447615362E-4  
 2.284000000000000E10    1.799852961994475E-3   2.837288753653411E-3  
 2.286000000000000E10    2.481713061570190E-3  -2.076713215501513E-3  
 2.288000000000000E10   -2.023888315306976E-3  -2.829026147082914E-3  
 2.290000000000000E10   -1.858613049989799E-3   2.011283922911389E-3  
 2.292000000000000E10    2.684974380827043E-3   1.486311506596394E-3  
 2.294000000000000E10    8.147114167513792E-4  -1.971787693037186E-3  
 2.296000000000000E10   -2.448565886879806E-3  -6.781703359592939E-4  
 2.298000000000000E10    2.764334494713694E-4   3.287209823611192E-3  
 2.300000000000000E10    2.541409725381527E-3  -3.436354727455182E-4  
 2.302000000000000E10   -1.008214916510042E-3  -3.389576573681552E-3  
 2.304000000000000E10   -3.420407927478664E-3   1.807619075407274E-3  
 2.306000000000000E10    1.836532632296439E-3   2.866734357667156E-3  
 2.308000000000000E10    3.074740954616573E-3  -2.756740614131559E-3  
 2.310000000000000E10   -2.673780203622300E-3  -2.343066007597372E-3  
 2.312000000000000E10   -1.690686101937899E-3   2.824995710398071E-3  
 2.314000000000000E10    2.637972465890925E-3   1.882145985291572E-3  
 2.316000000000000E10    8.095247176242992E-4  -1.698346339253476E-3  
 2.318000000000000E10   -2.220266425865702E-3  -6.535090487886919E-4  
 2.320000000000000E10   -2.990547727677040E-4   2.144492318620905E-3  
 2.322000000000000E10    1.777248799044173E-3  -3.500868397168233E-4  
 2.324000000000000E10   -6.667116795142647E-4  -2.255904342746362E-3  
 2.326000000000000E10   -2.102763341099490E-3   1.735595091304276E-3  
 2.328000000000000E10    2.380849291512277E-3   1.806450261938153E-3  
 2.330000000000000E10    1.948197732417611E-3  -2.912101241236087E-3  
 2.332000000000000E10   -2.837802887370344E-3  -1.225229971169028E-3  
 2.334000000000000E10   -1.471932999265846E-3   3.613342218159232E-3  
 2.336000000000000E10    3.935084263503086E-3   1.275924372748705E-3  
 2.338000000000000E10    9.091294141398976E-4  -2.977560805447865E-3  
 2.340000000000000E10   -3.151697463181336E-3   2.468146867613541E-4  
 2.342000000000000E10    3.322770007798681E-4   2.517680659366306E-3  
 2.344000000000000E10    1.862067187175853E-3  -4.674664214689983E-4  
 2.346000000000000E10   -7.016381296125474E-4  -1.645202672079904E-3  
 2.348000000000000E10   -8.688608268130338E-4   1.336703557171859E-3  
 2.350000000000000E10    2.530263540393207E-3   7.184146943473024E-4  
 2.352000000000000E10    3.005131602549227E-4  -3.142379740893375E-3  
 2.354000000000000E10   -2.641884755576029E-3   5.772633212473011E-4  
 2.356000000000000E10    5.842442533321446E-4   2.893654076615349E-3  
 2.358000000000000E10    3.386857206351124E-3  -1.510066544142319E-3  
 2.360000000000000E10   -7.817492369213142E-4  -3.019530231540557E-3  
 2.362000000000000E10   -3.338239243021235E-3   1.355985896225320E-3  
 2.364000000000000E10    1.989322008739691E-3   2.122104022419080E-3  
 2.366000000000000E10    1.963922048162203E-3  -2.501842791389208E-3  
 2.368000000000000E10   -2.132903733581770E-3  -1.578834559040843E-3  
 2.370000000000000E10   -7.713571849308210E-4   1.590223098901333E-3  
 2.372000000000000E10    2.551661382312886E-3  -3.208591374459502E-5  
 2.374000000000000E10   -1.327878904703539E-3  -2.803792776830960E-3  
 2.376000000000000E10   -2.203110096161254E-3   9.654139030317310E-4  
 2.378000000000000E10    1.836456431192346E-3   1.856494327512337E-3  
 2.380000000000000E10    2.157495433493750E-3  -2.843615897290874E-3  
 2.382000000000000E10   -2.267929186928086E-3  -2.341151608561631E-3  
 2.384000000000000E10   -2.805194861139171E-3   2.796770400891546E-3  
 2.386000000000000E10    2.496567656635307E-3   1.643182895350037E-3  
 2.388000000000000E10    1.133357138314750E-3  -3.156354607199319E-3  
 2.390000000000000E10   -3.252903501561377E-3  -1.581304757564794E-3  
 2.392000000000000E10   -9.346614460810088E-4   2.745411227806471E-3  
 2.394000000000000E10    2.093697250529658E-3  -7.917964296666469E-5  
 2.396000000000000E10   -1.054652268067002E-3  -2.383273960731458E-3  
 2.398000000000000E10   -2.391298519796692E-3   9.708450961625204E-4  
 2.400000000000000E10    1.499367674114183E-3   1.878638609923655E-3  
 2.402000000000000E10    1.055301780070295E-3  -2.883498214941938E-3  
 2.404000000000000E10   -3.742330227396451E-3  -6.841239683126332E-4  
 2.406000000000000E10   -1.293766916205641E-3   3.772453826968558E-3  
 2.408000000000000E10    3.261006640968844E-3   3.524207891132392E-4  
 2.410000000000000E10    1.684169178588491E-4  -3.978802444180474E-3  
 2.412000000000000E10   -4.130517758312635E-3  -6.444692735385615E-4  
 2.414000000000000E10   -3.170220143147162E-4   3.558736781997141E-3  
 2.416000000000000E10    3.424998627451714E-3   3.536539015840390E-4  
 2.418000000000000E10   -3.999637910965248E-4  -2.969979126646649E-3  
 2.420000000000000E10   -2.871174998290371E-3   7.221607902465621E-4  
 2.422000000000000E10    7.477202034351649E-4   2.971398062072694E-3  
 2.424000000000000E10    1.501994680438656E-3  -1.762953663273947E-3  
 2.426000000000000E10   -2.314031582500320E-3  -1.137031289545121E-3  
 2.428000000000000E10   -1.097314036087482E-3   2.788357785902917E-3  
 2.430000000000000E10    2.889796247472987E-3   2.760032712103566E-4  
 2.432000000000000E10    1.446710280106345E-4  -3.926275167032145E-3  
 2.434000000000000E10   -3.937859350116924E-3   5.387876153690741E-4  
 2.436000000000000E10    5.805626406072406E-4   4.390081114252098E-3  
 2.438000000000000E10    4.143524100072682E-3  -5.617792267003097E-4  
 2.440000000000000E10   -8.599452739872504E-4  -3.762621119676624E-3  
 2.442000000000000E10   -4.293119549402036E-3   9.178641375910956E-4  
 2.444000000000000E10    5.620207066385774E-4   3.473587050393689E-3  
 2.446000000000000E10    2.879385989217553E-3  -7.780357100273250E-4  
 2.448000000000000E10   -1.343016396276653E-3  -3.045251032745000E-3  
 2.450000000000000E10   -1.851920962508302E-3   1.625895751203643E-3  
 2.452000000000000E10    2.080069847579580E-3   1.791551883798093E-3  
 2.454000000000000E10    1.282668530620867E-3  -2.390482848568354E-3  
 2.456000000000000E10   -2.663714447407983E-3  -1.323958922512247E-4  
 2.458000000000000E10   -1.247029638591357E-4   3.431278521020431E-3  
 2.460000000000000E10    3.702663132571615E-3  -1.380169960611966E-4  
 2.462000000000000E10   -8.596256611781428E-4  -3.609833802329376E-3  
 2.464000000000000E10   -4.028325245599262E-3   6.772705692128511E-4  
 2.466000000000000E10    1.034565029840451E-3   3.576370480004698E-3  
 2.468000000000000E10    4.213054766296409E-3  -1.277824259886984E-3  
 2.470000000000000E10   -1.109509619709570E-3  -3.958225577662233E-3  
 2.472000000000000E10   -3.104232586338185E-3   1.679342534771422E-3  
 2.474000000000000E10    1.717410061246483E-3   3.070293030759785E-3  
 2.476000000000000E10    2.684797073015943E-3  -1.650296606385382E-3  
 2.478000000000000E10   -2.566920680692419E-3  -1.693041875114432E-3  
 2.480000000000000E10   -1.674258535786066E-3   2.258622247609310E-3  
 2.482000000000000E10    2.746144040429499E-3   4.324378096498549E-4  
 2.484000000000000E10   -1.179034341021179E-4  -3.336416099045891E-3  
 2.486000000000000E10   -3.618280301452614E-3   7.268805211424478E-5  
 2.488000000000000E10    8.946570214902749E-4   3.766297457332257E-3  
 2.490000000000000E10    3.684072748001199E-3  -1.450399708119221E-3  
 2.492000000000000E10   -1.091139325581025E-3  -3.943009476643056E-3  
 2.494000000000000E10   -4.123344813706353E-3   2.107131673255935E-3  
 2.496000000000000E10    1.391879177390365E-3   3.911279738531448E-3  
 2.498000000000000E10    3.279918324551545E-3  -1.585307018103777E-3  
 2.500000000000000E10   -2.421480203338433E-3  -2.613773162011057E-3  
 2.502000000000000E10   -3.084257230511867E-3   1.761024057486793E-3  
 2.504000000000000E10    2.118082724337000E-3   1.713801444566343E-3  
 2.506000000000000E10    9.601543752069119E-4  -2.085792337311432E-3  
 2.508000000000000E10   -2.549628334236331E-3  -1.062229017406935E-3  
 2.510000000000000E10   -3.395899439055938E-4   3.294868023658637E-3  
 2.512000000000000E10    2.873215889849234E-3  -1.451037412607548E-4  
 2.514000000000000E10   -1.110815352149075E-3  -3.484141074295621E-3  
 2.516000000000000E10   -4.268822187441401E-3   2.319299252121709E-3  
 2.518000000000000E10    1.756279452820309E-3   4.275928906281479E-3  
 2.520000000000000E10    3.635274217231199E-3  -1.869185893156100E-3  
 2.522000000000000E10   -2.130213768396061E-3  -3.155167156364769E-3  
 2.524000000000000E10   -3.919492701243144E-3   2.380134115810506E-3  
 2.526000000000000E10    2.437432864098810E-3   3.528500506945420E-3  
 2.528000000000000E10    3.139660460874438E-3  -1.537394018669147E-3  
 2.530000000000000E10   -2.304675908817444E-3  -2.553756123234052E-3  
 2.532000000000000E10   -1.768966507370351E-3   2.828425887855701E-3  
 2.534000000000000E10    2.391915870248340E-3   1.875173918961082E-3  
 2.536000000000000E10    9.455004746996565E-4  -2.664620908035431E-3  
 2.538000000000000E10   -2.608577895443887E-3   5.117024411447346E-4  
 2.540000000000000E10    6.694447438349016E-4   3.750487892830279E-3  
 2.542000000000000E10    3.732913239218760E-3  -1.695905455562752E-3  
 2.544000000000000E10   -1.732108961732592E-3  -3.153073783323634E-3  
 2.546000000000000E10   -3.775250712351408E-3   2.793822495732456E-3  
 2.548000000000000E10    3.553619491867721E-3   3.610049883718602E-3  
 2.550000000000000E10    3.686357820697594E-3  -2.908072783611715E-3  
 2.552000000000000E10   -3.223231971787754E-3  -2.986951294587925E-3  
 2.554000000000000E10   -2.328423215658404E-3   3.411201148992404E-3  
 2.556000000000000E10    3.578176816517953E-3   2.388451757724397E-3  
 2.558000000000000E10    2.110276662278920E-3  -2.976638992549852E-3  
 2.560000000000000E10   -2.677143937034998E-3  -1.831054065405624E-3  
 2.562000000000000E10   -4.066064275320969E-4   2.950533889816143E-3  
 2.564000000000000E10    3.503312975226436E-3  -4.446975856353674E-5  
 2.566000000000000E10   -2.165357623198361E-4  -3.915088040230330E-3  
 2.568000000000000E10   -2.950522008177359E-3   1.737064845656278E-3  
 2.570000000000000E10    2.760462128208019E-3   2.815779065713286E-3  
 2.572000000000000E10    3.227749621146359E-3  -3.258964417909738E-3  
 2.574000000000000E10   -3.145392322039697E-3  -3.431278237258084E-3  
 2.576000000000000E10   -2.511857775971293E-3   3.780486469622701E-3  
 2.578000000000000E10    4.451010448974557E-3   2.012753557210090E-3  
 2.580000000000000E10    2.003410620091017E-3  -4.276468083844520E-3  
 2.582000000000000E10   -3.472621690889355E-3  -2.076423355902080E-3  
 2.584000000000000E10   -1.503724091890035E-3   3.514289172017016E-3  
 2.586000000000000E10    4.130665387492627E-3   6.249286725505954E-4  
 2.588000000000000E10    6.230828512343578E-4  -3.397834567294922E-3  
 2.590000000000000E10   -3.047995152883232E-3  -2.333738143533992E-4  
 2.592000000000000E10    8.167945197783411E-4   2.603976594400592E-3  
 2.594000000000000E10    3.114167579042260E-3  -1.057099168974673E-3  
 2.596000000000000E10   -1.996969051106134E-3  -3.177908663928974E-3  
 2.598000000000000E10   -2.877657905628439E-3   2.193569351220503E-3  
 2.600000000000000E10    3.017593277036212E-3   2.584666683105752E-3  
 2.602000000000000E10    2.384271836490370E-3  -3.736200247658417E-3  
 2.604000000000000E10   -3.264069637225475E-3  -2.462558979459573E-3  
 2.606000000000000E10   -2.154578207409941E-3   3.623175740358420E-3  
 2.608000000000000E10    3.063876698433887E-3   1.819933950173436E-3  
 2.610000000000000E10    2.327370762941428E-3  -3.307465507532470E-3  
 2.612000000000000E10   -3.704437622218393E-3  -1.415080540027702E-3  
 2.614000000000000E10   -1.546961964777438E-3   3.130415694613475E-3  
 2.616000000000000E10    3.402234164241236E-3   7.003080718277488E-4  
 2.618000000000000E10   -3.336579911774606E-4  -3.120345048955642E-3  
 2.620000000000000E10   -3.090968326432630E-3   5.876821160200052E-4  
 2.622000000000000E10    1.631589897442609E-3   2.993926180351991E-3  
 2.624000000000000E10    2.739890223892871E-3  -2.118278753187042E-3  
 2.626000000000000E10   -2.691185487492476E-3  -2.847850126272533E-3  
 2.628000000000000E10   -2.460045296174940E-3   3.916343128366862E-3  
 2.630000000000000E10    3.855652546917554E-3   2.356935263378546E-3  
 2.632000000000000E10    2.374720686930232E-3  -4.137498588534072E-3  
 2.634000000000000E10   -4.168665909674019E-3  -1.583400167874061E-3  
 2.636000000000000E10   -1.436772567103617E-3   3.915117275028024E-3  
 2.638000000000000E10    3.603850927902386E-3   1.434473895642441E-3  
 2.640000000000000E10    8.293873506772798E-4  -3.135899423796218E-3  
 2.642000000000000E10   -3.295429531135596E-3  -8.624938727734843E-4  
 2.644000000000000E10   -1.546501416669344E-4   2.556205319706351E-3  
 2.646000000000000E10    2.473386928613763E-3  -2.031128487942624E-4  
 2.648000000000000E10   -8.026997929846402E-4  -2.473322230798658E-3  
 2.650000000000000E10   -1.709151449176716E-3   1.385101651976584E-3  
 2.652000000000000E10    2.124531492881943E-3   2.010569332924206E-3  
 2.654000000000000E10    1.733720655465731E-3  -2.812234146404080E-3  
 2.656000000000000E10   -2.961004160169978E-3  -1.292737248149933E-3  
 2.658000000000000E10   -1.338968340860447E-3   3.422234905883670E-3  
 2.660000000000000E10    3.526929329382256E-3   9.941441167029552E-4  
 2.662000000000000E10    8.972828072728589E-4  -3.507942608848680E-3  
 2.664000000000000E10   -3.540506833815016E-3  -7.917334878584370E-4  
 2.666000000000000E10   -4.214338969177334E-4   2.899752136727329E-3  
 2.668000000000000E10    2.766943296592217E-3   3.709806806000415E-4  
 2.670000000000000E10    4.266922305760090E-4  -2.821452268108260E-3  
 2.672000000000000E10   -2.260608103824779E-3  -6.237506158868200E-5  
 2.674000000000000E10    4.883370447714697E-4   2.040836516243871E-3  
 2.676000000000000E10    1.899500730360160E-3  -8.128440495056566E-4  
 2.678000000000000E10   -1.284741443669191E-3  -1.806495365599403E-3  
 2.680000000000000E10   -1.457834659959190E-3   1.684989350906108E-3  
 2.682000000000000E10    1.823554106522352E-3   1.063701034581754E-3  
 2.684000000000000E10    1.381410806061467E-3  -2.646295673912391E-3  
 2.686000000000000E10   -2.784759366477374E-3  -1.624303029529983E-3  
 2.688000000000000E10   -1.008090519462712E-3   2.558675783802755E-3  
 2.690000000000000E10    2.987544263305608E-3   9.671239786257502E-4  
 2.692000000000000E10    8.960351497080410E-4  -3.488020818622317E-3  
 2.694000000000000E10   -2.821025613229722E-3  -7.104605228960281E-4  
 2.696000000000000E10   -5.335146925062873E-4   2.643739397171885E-3  
 2.698000000000000E10    2.342012063309085E-3   7.780434884807619E-5  
 2.700000000000000E10   -4.475584501051344E-4  -2.073798466881272E-3  
 2.702000000000000E10   -2.055123739410192E-3   4.679398389271228E-4  
 2.704000000000000E10    6.791895320930053E-4   1.329510683717672E-3  
 2.706000000000000E10    1.199870108393952E-3  -1.376348252961179E-3  
 2.708000000000000E10   -2.102729507896584E-3  -1.530826324597001E-3  
 2.710000000000000E10   -1.071848946594400E-3   2.200935930886772E-3  
 2.712000000000000E10    2.291768993018195E-3   8.749678236199543E-4  
 2.714000000000000E10    5.718466436519520E-4  -2.871876808058005E-3  
 2.716000000000000E10   -3.001902528922074E-3  -9.089209161174949E-4  
 2.718000000000000E10   -1.057192828739062E-3   2.972242691612337E-3  
 2.720000000000000E10    3.018469098606147E-3   5.643944805342471E-4  
 2.722000000000000E10    1.813810899875534E-4  -2.548071133787744E-3  
 2.724000000000000E10   -2.475039385899436E-3   1.452521298688225E-4  
 2.726000000000000E10   -3.527401668179664E-4   1.681295852904441E-3  
 2.728000000000000E10    1.774727305019042E-3  -3.026057229362777E-4  
 2.730000000000000E10   -7.181417931860779E-4  -1.394357161188964E-3  
 2.732000000000000E10   -1.364165684208274E-3   8.417921817454044E-4  
 2.734000000000000E10    1.274756916245678E-3   7.818703943485161E-4  
 2.736000000000000E10    3.346793600940146E-4  -1.538647498819046E-3  
 2.738000000000000E10   -2.247737837024033E-3  -6.772319811716443E-4  
 2.740000000000000E10   -6.648747767030727E-4   2.660563433892094E-3  
 2.742000000000000E10    2.629477996379137E-3   3.493765198072651E-4  
 2.744000000000000E10   -1.000971165012743E-4  -2.536515166866593E-3  
 2.746000000000000E10   -2.649434383783955E-3  -2.343014075449901E-4  
 2.748000000000000E10   -5.204240478633437E-4   2.143384146620520E-3  
 2.750000000000000E10    2.326390196685679E-3   4.106414480702370E-4  
 2.752000000000000E10    2.026869528890529E-4  -2.290085940330755E-3  
 2.754000000000000E10   -1.948674707819009E-3   1.794588911252504E-6  
 2.756000000000000E10    3.630169539974304E-4   1.456537811463932E-3  
