#  HZ   S   RI   R     50.00 
! Rohde & Schwarz ZVA40 4Ports - Version 3.90 - 1145.1110k42 SN: 100403
! Date: 2023-10-04 06:26:02
! Measurement: S12 
! 
 2.200000000000000E10   -3.174895216943696E-3  -4.259588204149623E-4  
 2.202000000000000E10    2.351877042201522E-4   4.540153895504773E-3  
 2.204000000000000E10    3.995533857960254E-3  -9.698118469714245E-5  
 2.206000000000000E10   -3.871241988235852E-4  -3.851031644444447E-3  
 2.208000000000000E10   -3.912342654075474E-3   1.858276951679727E-3  
 2.210000000000000E10    1.752585685608210E-3   3.748419803741854E-3  
 2.212000000000000E10    3.797618526732549E-3  -1.857857125287410E-3  
 2.214000000000000E10   -2.637812940520234E-3  -2.679731500393245E-3  
 2.216000000000000E10   -2.293760662723798E-3   3.072444269491825E-3  
 2.218000000000000E10    3.750312091142405E-3   1.930723061377648E-3  
 2.220000000000000E10    1.565219459735090E-3  -3.276544084656052E-3  
 2.222000000000000E10   -3.686700969410595E-3  -5.656629746226827E-4  
 2.224000000000000E10    6.220192535693059E-4   4.134507689741440E-3  
 2.226000000000000E10    4.069963324582204E-3  -5.283529735606862E-4  
 2.228000000000000E10   -5.743455676565645E-4  -4.152192399487831E-3  
 2.230000000000000E10   -3.440285479882732E-3   1.174378678115318E-3  
 2.232000000000000E10    1.898877610074123E-3   3.279077558545396E-3  
 2.234000000000000E10    3.666852178866975E-3  -2.268728778290097E-3  
 2.236000000000000E10   -1.593076343851863E-3  -3.022214696102310E-3  
 2.238000000000000E10   -2.564615228038747E-3   2.203591604484245E-3  
 2.240000000000000E10    3.242908205720596E-3   1.929764403030276E-3  
 2.242000000000000E10    1.695945527899312E-3  -2.903302738559432E-3  
 2.244000000000000E10   -3.049650833418127E-3  -9.069709449249785E-4  
 2.246000000000000E10    1.983118008865858E-4   2.490331411536317E-3  
 2.248000000000000E10    2.467824808263686E-3  -3.156758975819685E-5  
 2.250000000000000E10   -5.185984455238213E-4  -2.910164155764505E-3  
 2.252000000000000E10   -3.237693141272757E-3   5.925250279688044E-4  
 2.254000000000000E10    1.256281200767262E-3   2.736252521572169E-3  
 2.256000000000000E10    2.824378454533871E-3  -2.168902436096687E-3  
 2.258000000000000E10   -1.345045759080676E-3  -2.625496679684147E-3  
 2.260000000000000E10   -3.099169902270660E-3   1.445154146495042E-3  
 2.262000000000000E10    2.046789981250186E-3   2.442197706841398E-3  
 2.264000000000000E10    2.372476315940730E-3  -1.758017646352528E-3  
 2.266000000000000E10   -2.202698567998596E-3  -1.854264359280933E-3  
 2.268000000000000E10   -1.406637013133150E-3   1.882138392829802E-3  
 2.270000000000000E10    2.070376642222982E-3   8.584161951148417E-4  
 2.272000000000000E10    4.079888285559719E-4  -2.217685236246325E-3  
 2.274000000000000E10   -2.495346459909342E-3  -3.251224370615091E-4  
 2.276000000000000E10    7.150899782573106E-4   2.563302434282377E-3  
 2.278000000000000E10    2.010845091717783E-3  -1.830391385738039E-3  
 2.280000000000000E10   -1.407788193318993E-3  -1.765183056704700E-3  
 2.282000000000000E10   -2.516940498026088E-3  -8.318476716340228E-7  
 2.284000000000000E10    1.720288244541735E-3   2.275378945341799E-3  
 2.286000000000000E10    1.726199410768459E-3  -1.504657779150875E-3  
 2.288000000000000E10   -1.585528512805468E-3  -2.222854302090127E-3  
 2.290000000000000E10   -2.043453132500872E-3   2.158506184059661E-3  
 2.292000000000000E10    1.180504739750177E-3   1.276277504075551E-3  
 2.294000000000000E10    1.267282750632148E-3  -1.761188159434823E-3  
 2.296000000000000E10   -1.610184070159448E-3  -4.895127058262005E-4  
 2.298000000000000E10   -2.049145807632158E-4   1.521220823633485E-3  
 2.300000000000000E10    1.976064300833968E-3  -6.208821214386262E-4  
 2.302000000000000E10   -4.391165493871085E-4  -1.015066096442752E-3  
 2.304000000000000E10   -1.355741398583632E-3   1.348610468994593E-3  
 2.306000000000000E10    1.943457242305158E-3   1.398303254973143E-3  
 2.308000000000000E10    8.579760669817915E-4  -1.965048104466405E-3  
 2.310000000000000E10   -2.195006920373999E-3  -9.225552039424656E-4  
 2.312000000000000E10   -6.132679645816097E-4   2.315087316674180E-3  
 2.314000000000000E10    2.395670147961937E-3   5.574777642323170E-4  
 2.316000000000000E10    5.940188602835406E-4  -2.551652272813954E-3  
 2.318000000000000E10   -1.352685580059188E-3  -3.986976898886496E-4  
 2.320000000000000E10   -7.383192141219297E-5   1.716991195280571E-3  
 2.322000000000000E10    1.597719365236117E-3  -4.025620237371186E-4  
 2.324000000000000E10   -1.060311349192489E-4  -7.773742399876937E-4  
 2.326000000000000E10   -1.043594955262961E-3   5.172700612092740E-4  
 2.328000000000000E10    1.094886683858931E-3   3.777466636165627E-4  
 2.330000000000000E10    4.124059330479213E-6  -1.696379746135790E-3  
 2.332000000000000E10   -1.805601707019378E-3  -5.857897085661534E-4  
 2.334000000000000E10    2.272597089358897E-4   1.689639997493941E-3  
 2.336000000000000E10    3.128845302853733E-3  -5.334588640835136E-4  
 2.338000000000000E10   -5.271559693937888E-4  -2.881643289583735E-3  
 2.340000000000000E10   -2.667862907401286E-3   5.300926923155203E-4  
 2.342000000000000E10    8.289113011414884E-4   2.572228608187288E-3  
 2.344000000000000E10    1.907390891574323E-3  -1.562826812005369E-3  
 2.346000000000000E10   -1.348121884802822E-3  -1.758034402882913E-3  
 2.348000000000000E10   -1.478981917898636E-3   1.319551418418996E-3  
 2.350000000000000E10    1.356435721390881E-3   2.049537694688297E-4  
 2.352000000000000E10    7.074521143124457E-6  -2.283504421939142E-3  
 2.354000000000000E10   -2.517438319046050E-3   2.869623717742798E-4  
 2.356000000000000E10    9.800567713682540E-4   2.270161603519227E-3  
 2.358000000000000E10    2.678424716577865E-3  -2.195800203480758E-3  
 2.360000000000000E10   -2.936656135716476E-3  -2.470147381245624E-3  
 2.362000000000000E10   -2.521538350265473E-3   2.578889965661801E-3  
 2.364000000000000E10    2.842834233888425E-3   2.697166033613030E-3  
 2.366000000000000E10    1.727898863464361E-3  -3.658668276329991E-3  
 2.368000000000000E10   -3.662330360384658E-3  -1.668389435508288E-3  
 2.370000000000000E10   -1.591725416801637E-3   3.212422030628659E-3  
 2.372000000000000E10    2.805020740197506E-3   8.608806820120663E-4  
 2.374000000000000E10   -8.886315008567181E-4  -2.952339062176179E-3  
 2.376000000000000E10   -2.569054580817465E-3   1.025804398523178E-3  
 2.378000000000000E10    9.224817149515729E-4   2.107750355207827E-3  
 2.380000000000000E10    1.396609306539176E-3  -2.471157531545032E-3  
 2.382000000000000E10   -2.894963283324614E-3  -6.329525294859195E-4  
 2.384000000000000E10   -1.402148696797667E-3   3.194383338268381E-3  
 2.386000000000000E10    3.384997144166846E-3   1.076173064575414E-3  
 2.388000000000000E10    3.306046346551739E-4  -4.147617495618761E-3  
 2.390000000000000E10   -4.365152824902907E-3   2.770392070488015E-4  
 2.392000000000000E10   -2.536945321480744E-4   4.737230090540834E-3  
 2.394000000000000E10    4.407008484122343E-3  -1.178694924419688E-4  
 2.396000000000000E10   -1.103300714021316E-3  -3.610109648434445E-3  
 2.398000000000000E10   -3.831731097307056E-3   1.264898037334206E-3  
 2.400000000000000E10    1.937077478942229E-3   3.195278142811731E-3  
 2.402000000000000E10    1.993213041714625E-3  -1.813363312976435E-3  
 2.404000000000000E10   -2.572098965174519E-3  -9.433726263523568E-4  
 2.406000000000000E10    1.352720232716820E-6   2.892720949603245E-3  
 2.408000000000000E10    2.770343598967884E-3   7.779770276101772E-4  
 2.410000000000000E10   -6.836715656390879E-4  -3.187701964634471E-3  
 2.412000000000000E10   -3.086207798332907E-3   1.174310702481307E-3  
 2.414000000000000E10    7.399763599096332E-4   3.783071551879402E-3  
 2.416000000000000E10    3.768199967453256E-3  -1.299476709391456E-3  
 2.418000000000000E10   -9.209703293890925E-4  -3.348814512719400E-3  
 2.420000000000000E10   -3.522726590745151E-3   1.615033474081429E-3  
 2.422000000000000E10    1.851884713687468E-3   3.671080747153610E-3  
 2.424000000000000E10    3.429517295444384E-3  -1.443504123017192E-3  
 2.426000000000000E10   -2.440208372718189E-3  -2.206545585067943E-3  
 2.428000000000000E10   -1.994218328036368E-3   2.237806809716858E-3  
 2.430000000000000E10    2.999682692461647E-3   1.801094102120260E-3  
 2.432000000000000E10    3.059344867324398E-4  -2.966510553960688E-3  
 2.434000000000000E10   -3.106589894741774E-3  -1.722778106341139E-4  
 2.436000000000000E10    7.543536885350477E-4   3.343201067764312E-3  
 2.438000000000000E10    3.793412106460892E-3  -1.145360587543109E-3  
 2.440000000000000E10   -1.075202468200587E-3  -3.723687499586958E-3  
 2.442000000000000E10   -3.885792641085573E-3   2.550545010308269E-3  
 2.444000000000000E10    1.648515615670476E-3   4.218548405333422E-3  
 2.446000000000000E10    3.960502537665889E-3  -1.897031921544112E-3  
 2.448000000000000E10   -2.380775658821221E-3  -3.488891576125752E-3  
 2.450000000000000E10   -3.779302503971849E-3   2.208774028986227E-3  
 2.452000000000000E10    2.671616392035503E-3   2.537799475248903E-3  
 2.454000000000000E10    2.228936034953222E-3  -2.768069956800900E-3  
 2.456000000000000E10   -2.515783118724357E-3  -1.785825592378387E-3  
 2.458000000000000E10   -3.984047198173357E-4   2.985219412948936E-3  
 2.460000000000000E10    3.212294723198284E-3   2.555750970714144E-4  
 2.462000000000000E10   -6.979967802180909E-4  -2.896572521422058E-3  
 2.464000000000000E10   -2.983918377140071E-3   1.919288442877587E-3  
 2.466000000000000E10    1.374549032334471E-3   3.238086414057761E-3  
 2.468000000000000E10    3.691075900860596E-3  -2.324185632460285E-3  
 2.470000000000000E10   -3.079313872149214E-3  -3.475441226328258E-3  
 2.472000000000000E10   -3.506348635710310E-3   2.874846250051633E-3  
 2.474000000000000E10    3.187948561389931E-3   3.192959396983497E-3  
 2.476000000000000E10    3.668246106826700E-3  -2.930205962911714E-3  
 2.478000000000000E10   -2.779915412247647E-3  -3.028948878636584E-3  
 2.480000000000000E10   -2.618434955365956E-3   3.276727598858997E-3  
 2.482000000000000E10    2.926812572695781E-3   2.752398329903372E-3  
 2.484000000000000E10    1.283693156437948E-3  -2.595535603177268E-3  
 2.486000000000000E10   -2.991014596773312E-3  -4.989302206013235E-4  
 2.488000000000000E10   -4.209062799418462E-4   2.624349937832449E-3  
 2.490000000000000E10    2.789999642118346E-3  -5.576156472670846E-4  
 2.492000000000000E10   -1.579430550918914E-3  -2.618157181132119E-3  
 2.494000000000000E10   -2.487619829480536E-3   1.929453908815049E-3  
 2.496000000000000E10    2.913273223384749E-3   3.152257566398475E-3  
 2.498000000000000E10    2.629345697641838E-3  -2.982182108098641E-3  
 2.500000000000000E10   -2.875356258300599E-3  -2.729369647568092E-3  
 2.502000000000000E10   -2.469070990628097E-3   3.982526846812107E-3  
 2.504000000000000E10    3.455768121057190E-3   2.879686231608503E-3  
 2.506000000000000E10    2.380596626608167E-3  -3.331243999127764E-3  
 2.508000000000000E10   -3.174852790834848E-3  -1.960381719982252E-3  
 2.510000000000000E10   -2.070602931780741E-3   3.718682077305857E-3  
 2.512000000000000E10    3.877093302435242E-3   1.055174896464450E-3  
 2.514000000000000E10    9.096024987229612E-4  -2.842769950802904E-3  
 2.516000000000000E10   -3.018779898411594E-3  -7.833855170247261E-5  
 2.518000000000000E10    1.319161070568953E-3   3.077102534007281E-3  
 2.520000000000000E10    2.809933597745840E-3  -1.045586075633764E-3  
 2.522000000000000E10   -1.647250159294345E-3  -2.955571151687764E-3  
 2.524000000000000E10   -2.462248325173277E-3   2.510975136829075E-3  
 2.526000000000000E10    2.643978645210154E-3   2.629551840072963E-3  
 2.528000000000000E10    3.022703414899297E-3  -3.650593156635296E-3  
 2.530000000000000E10   -2.992822053784039E-3  -2.365921325690579E-3  
 2.532000000000000E10   -2.742877863056492E-3   3.654446372820530E-3  
 2.534000000000000E10    3.953966079279780E-3   1.850172317062970E-3  
 2.536000000000000E10    2.162000891985372E-3  -3.788777052250225E-3  
 2.538000000000000E10   -3.455558959103655E-3  -1.511658796516713E-3  
 2.540000000000000E10   -3.484255457806285E-4   3.632024112448562E-3  
 2.542000000000000E10    3.782897721976042E-3  -2.032012521340221E-4  
 2.544000000000000E10   -8.718833651073510E-4  -3.596887334424537E-3  
 2.546000000000000E10   -2.723553254327271E-3   1.037119393004105E-3  
 2.548000000000000E10    2.353441748709884E-3   2.829626318998635E-3  
 2.550000000000000E10    2.469848797773011E-3  -3.178436076268554E-3  
 2.552000000000000E10   -2.487913872755598E-3  -2.225178468506783E-3  
 2.554000000000000E10   -1.844933973188745E-3   3.497866113320924E-3  
 2.556000000000000E10    3.771130832319614E-3   1.669394594500773E-3  
 2.558000000000000E10    2.244282215542626E-3  -4.007885378086940E-3  
 2.560000000000000E10   -4.037513121147640E-3  -2.075602904369589E-3  
 2.562000000000000E10   -1.747598995279986E-3   3.564790305972565E-3  
 2.564000000000000E10    3.912634623702616E-3   1.081548114598263E-3  
 2.566000000000000E10    1.200544244056800E-3  -4.466883125132881E-3  
 2.568000000000000E10   -3.894231798767578E-3  -5.156938495929353E-4  
 2.570000000000000E10    8.843575797072845E-4   3.178975443006493E-3  
 2.572000000000000E10    2.946116437669843E-3  -1.576718026626622E-3  
 2.574000000000000E10   -1.681749596173177E-3  -2.856285318557639E-3  
 2.576000000000000E10   -2.077808574540541E-3   2.574394515249878E-3  
 2.578000000000000E10    3.291812827228569E-3   1.634476313483901E-3  
 2.580000000000000E10    1.311322328547249E-3  -3.617509893956594E-3  
 2.582000000000000E10   -4.396355419885367E-3  -1.251528054126538E-3  
 2.584000000000000E10   -9.458708373131231E-4   3.914011365850456E-3  
 2.586000000000000E10    4.641198014724068E-3   2.673538060662395E-4  
 2.588000000000000E10    2.931991011791979E-4  -4.598052328219637E-3  
 2.590000000000000E10   -4.157642993959598E-3  -7.856738411646802E-4  
 2.592000000000000E10   -9.003336936075357E-5   3.910103252565023E-3  
 2.594000000000000E10    3.736985934665427E-3  -2.032523912021134E-4  
 2.596000000000000E10   -2.653305596140854E-4  -3.460981934040319E-3  
 2.598000000000000E10   -3.335532441269606E-3   7.384413383988431E-4  
 2.600000000000000E10    1.347410816379124E-3   2.278309628309216E-3  
 2.602000000000000E10    2.221411166829057E-3  -1.658828612562502E-3  
 2.604000000000000E10   -2.553774931584485E-3  -1.557966843392933E-3  
 2.606000000000000E10   -1.178299877210520E-3   2.267732299515046E-3  
 2.608000000000000E10    3.016205671883654E-3   9.411358150828164E-4  
 2.610000000000000E10    8.127645578497322E-4  -3.528645022015553E-3  
 2.612000000000000E10   -3.727302260813303E-3  -8.510644602210959E-4  
 2.614000000000000E10   -4.234979796819971E-4   4.339861567132175E-3  
 2.616000000000000E10    4.115059113246389E-3   3.232790777474293E-4  
 2.618000000000000E10    3.841920615741401E-4  -4.435187700437382E-3  
 2.620000000000000E10   -4.353830649051815E-3   3.698847592659149E-5  
 2.622000000000000E10    7.523542035414721E-5   3.812564958934672E-3  
 2.624000000000000E10    3.419941895117518E-3  -2.472259175192448E-4  
 2.626000000000000E10   -1.267356019525323E-3  -3.085352356720250E-3  
 2.628000000000000E10   -2.593815806903876E-3   1.387115473335143E-3  
 2.630000000000000E10    1.870010895800078E-3   2.069514710456133E-3  
 2.632000000000000E10    1.312390395469265E-3  -2.136064496880863E-3  
 2.634000000000000E10   -2.649475965881720E-3  -1.476038050896023E-3  
 2.636000000000000E10   -5.751828912252677E-4   2.943834922916722E-3  
 2.638000000000000E10    3.065358272579033E-3   5.830159916513367E-4  
 2.640000000000000E10    2.969917477457784E-4  -3.499576778267510E-3  
 2.642000000000000E10   -3.458031380432658E-3   2.317523274086852E-5  
 2.644000000000000E10   -3.326457167531771E-4   3.645675489678979E-3  
 2.646000000000000E10    3.595238304114901E-3   4.408412621614843E-5  
 2.648000000000000E10   -3.670483292808058E-4  -3.452238743193448E-3  
 2.650000000000000E10   -3.327053920656908E-3   5.817920873596449E-4  
 2.652000000000000E10    6.012367048242595E-4   2.628339607326780E-3  
 2.654000000000000E10    2.447529404889792E-3  -1.211065005918499E-3  
 2.656000000000000E10   -1.622745508939261E-3  -1.939459405548405E-3  
 2.658000000000000E10   -1.084910527424654E-3   1.643764357140753E-3  
 2.660000000000000E10    2.169742474507075E-3   7.594086437165970E-4  
 2.662000000000000E10    2.004996397317882E-4  -2.761651310720481E-3  
 2.664000000000000E10   -2.886821624997538E-3   4.693593916726968E-5  
 2.666000000000000E10    3.650632361313910E-4   2.860691980458796E-3  
 2.668000000000000E10    3.054747146961745E-3  -6.402662274922477E-4  
 2.670000000000000E10   -8.444646209682105E-4  -3.357474088261370E-3  
 2.672000000000000E10   -3.491697636491153E-3   4.917249780191924E-4  
 2.674000000000000E10    4.769695451614098E-4   3.119454180705361E-3  
 2.676000000000000E10    2.849579723260831E-3  -6.705561045237118E-4  
 2.678000000000000E10   -8.114421598293120E-4  -3.129868957330473E-3  
 2.680000000000000E10   -2.737183771387208E-3   6.460337917815195E-4  
 2.682000000000000E10    6.863403996248962E-4   2.234611783933360E-3  
 2.684000000000000E10    1.558614840178052E-3  -1.165474310255377E-3  
 2.686000000000000E10   -1.371085258142557E-3  -1.268142557819374E-3  
 2.688000000000000E10   -7.668854450457729E-4   1.506242686446058E-3  
 2.690000000000000E10    1.653688243095530E-3   3.408082484384067E-4  
 2.692000000000000E10   -5.429229640867561E-4  -2.284534086356871E-3  
 2.694000000000000E10   -2.608212256745901E-3   7.224127784866141E-4  
 2.696000000000000E10    7.092174946592422E-4   2.533241226046812E-3  
 2.698000000000000E10    2.617301324789878E-3  -1.053345375112258E-3  
 2.700000000000000E10   -1.256557083252119E-3  -3.136968560284004E-3  
 2.702000000000000E10   -2.769419872493018E-3   1.462024778447812E-3  
 2.704000000000000E10    9.939039482560474E-4   2.549378710682504E-3  
 2.706000000000000E10    2.229613681265619E-3  -1.174386216007406E-3  
 2.708000000000000E10   -9.444856659683865E-4  -1.735640980768949E-3  
 2.710000000000000E10   -2.115200448315591E-3   1.038035243254853E-3  
 2.712000000000000E10    1.107373736886075E-3   1.311383017309709E-3  
 2.714000000000000E10    6.304564576566918E-4  -1.217577068018727E-3  
 2.716000000000000E10   -1.626654906431213E-3  -4.656049477489432E-4  
 2.718000000000000E10   -1.823489860726113E-4   1.388274336932227E-3  
 2.720000000000000E10    1.663351602473995E-3  -2.859181586245541E-4  
 2.722000000000000E10   -8.475660561089171E-4  -2.013313060160726E-3  
 2.724000000000000E10   -2.325827801541891E-3   1.041682457071147E-3  
 2.726000000000000E10    1.026501482556341E-3   2.255769148177933E-3  
 2.728000000000000E10    1.992008677916601E-3  -1.272161360247992E-3  
 2.730000000000000E10   -1.121988170780242E-3  -2.157624650862999E-3  
 2.732000000000000E10   -2.494922227924690E-3   9.344004120066529E-4  
 2.734000000000000E10    8.550017100787954E-4   2.410094995866530E-3  
 2.736000000000000E10    1.485706165112788E-3  -9.484592628723476E-4  
 2.738000000000000E10   -1.094071631086990E-3  -1.279156193049857E-3  
 2.740000000000000E10   -1.425997263140744E-3   1.138327716034837E-3  
 2.742000000000000E10    9.889800367091084E-4   1.124353675550083E-3  
 2.744000000000000E10    2.587740009403206E-4  -1.053150870575337E-3  
 2.746000000000000E10   -1.450759198633023E-3   2.939844080174225E-4  
 2.748000000000000E10    2.528197965148138E-4   1.702832476439653E-3  
 2.750000000000000E10    1.326416328083724E-3  -7.061753931338899E-4  
 2.752000000000000E10   -7.631911994394613E-4  -1.627779565751553E-3  
 2.754000000000000E10   -2.151741879060864E-3   1.183901880722260E-3  
 2.756000000000000E10    1.310697916778736E-3   2.204442251240835E-3  
