#  HZ   S   RI   R     50.00 
! Rohde & Schwarz ZVA40 4Ports - Version 3.90 - 1145.1110k42 SN: 100403
! Date: 2023-10-04 06:27:02
! Measurement: S12 
! 
 2.200000000000000E10   -3.378587789484300E-3  -8.665699097036850E-4  
 2.202000000000000E10   -8.085477311396971E-4   3.274763381341472E-3  
 2.204000000000000E10    3.168341194395907E-3  -4.505294455157127E-4  
 2.206000000000000E10   -2.127325715264306E-4  -3.195670040440746E-3  
 2.208000000000000E10   -3.120814319117926E-3  -1.250299446837744E-4  
 2.210000000000000E10    4.935324614052661E-4   3.079118265304714E-3  
 2.212000000000000E10    2.195716195274144E-3  -1.094565668608993E-3  
 2.214000000000000E10   -1.206373381137382E-3  -2.862792985979468E-3  
 2.216000000000000E10   -2.480117633240297E-3   1.758745434926823E-3  
 2.218000000000000E10    1.624202428502031E-3   1.611120816960465E-3  
 2.220000000000000E10    1.181461069791112E-3  -2.828815864631906E-3  
 2.222000000000000E10   -3.293439251137897E-3  -5.860420424141921E-4  
 2.224000000000000E10   -3.506765515339794E-4   3.436330080148764E-3  
 2.226000000000000E10    3.273405513027683E-3  -7.732222184131388E-4  
 2.228000000000000E10   -1.057842193404213E-3  -2.921046601841226E-3  
 2.230000000000000E10   -3.537053969921544E-3   1.083214126992971E-3  
 2.232000000000000E10    1.228528337378521E-3   3.274601112934761E-3  
 2.234000000000000E10    2.304249457665719E-3  -1.430895747034811E-3  
 2.236000000000000E10   -1.950510391907301E-3  -2.281013250467368E-3  
 2.238000000000000E10   -2.601413449156098E-3   1.802565442631021E-3  
 2.240000000000000E10    1.637415145523846E-3   2.129163141944446E-3  
 2.242000000000000E10    7.870283843658399E-4  -2.033754630247131E-3  
 2.244000000000000E10   -2.490075276000425E-3  -6.571323683601804E-4  
 2.246000000000000E10   -6.076473728171550E-4   2.153947047190741E-3  
 2.248000000000000E10    2.098925717291422E-3   1.457275013194703E-4  
 2.250000000000000E10   -3.883890331053408E-4  -2.129918866558000E-3  
 2.252000000000000E10   -2.999755655764602E-3   4.053812644997379E-4  
 2.254000000000000E10    7.338304458244238E-4   2.817621294525452E-3  
 2.256000000000000E10    2.557073603384197E-3  -6.363751235767268E-4  
 2.258000000000000E10   -9.915628834278323E-4  -1.674282772000879E-3  
 2.260000000000000E10   -2.218989116954617E-3   9.137494234892074E-4  
 2.262000000000000E10    9.817046848183963E-4   1.969899953110144E-3  
 2.264000000000000E10    8.118824734992813E-4  -1.160659179731738E-3  
 2.266000000000000E10   -1.086907606804743E-3  -1.096178377338219E-3  
 2.268000000000000E10   -7.417796405206900E-4   1.545461607747711E-3  
 2.270000000000000E10    1.685602896031924E-3   4.842635389650241E-4  
 2.272000000000000E10    4.116366253583692E-4  -1.416438346495852E-3  
 2.274000000000000E10   -1.760069477313664E-3   4.489098791964352E-4  
 2.276000000000000E10    7.279168421518989E-4   2.376835429458879E-3  
 2.278000000000000E10    2.129361178958789E-3  -9.519630693830550E-4  
 2.280000000000000E10   -1.063648887793534E-3  -1.955740663106553E-3  
 2.282000000000000E10   -2.369273512158543E-3  -3.046739984711167E-4  
 2.284000000000000E10    1.096545005566441E-3   1.894709450425580E-3  
 2.286000000000000E10    1.989748387131840E-3  -1.368925099086482E-3  
 2.288000000000000E10   -9.101470495807007E-4  -1.650030622840859E-3  
 2.290000000000000E10   -1.318748334597331E-3   1.209837690112181E-3  
 2.292000000000000E10    1.528976034023799E-3   5.277233467495535E-4  
 2.294000000000000E10    4.950964394083712E-4  -2.970206278405385E-4  
 2.296000000000000E10   -1.011423089948949E-3   4.864024627693198E-5  
 2.298000000000000E10    6.047169372322969E-4   8.098019134195056E-4  
 2.300000000000000E10    7.915106725704391E-4  -7.890701854194049E-4  
 2.302000000000000E10   -1.340900300419889E-3  -9.992474006139673E-4  
 2.304000000000000E10   -6.382833125826437E-4   1.545346276543569E-3  
 2.306000000000000E10    1.899196700833272E-3   1.211329523357563E-3  
 2.308000000000000E10    7.286226646101568E-4  -2.497711946489289E-3  
 2.310000000000000E10   -2.085658925352618E-3  -1.012383403576678E-3  
 2.312000000000000E10   -1.364125499094371E-3   2.626739922561683E-3  
 2.314000000000000E10    2.212941573816352E-3   4.452021257748129E-4  
 2.316000000000000E10    2.230765767308185E-4  -1.392972022586037E-3  
 2.318000000000000E10   -2.152709574147593E-3   1.693517619969498E-4  
 2.320000000000000E10    4.303049754526001E-4   1.217715609527659E-3  
 2.322000000000000E10    8.759019074204844E-4  -9.120632748818025E-4  
 2.324000000000000E10   -1.600902374775615E-3  -4.589495401887689E-4  
 2.326000000000000E10    4.030629934277386E-4   1.893793960334733E-3  
 2.328000000000000E10    2.503413270460442E-3  -4.232034152664710E-4  
 2.330000000000000E10   -1.086754942662083E-3  -1.725980531773530E-3  
 2.332000000000000E10   -2.149729654775001E-3   9.469777323829476E-4  
 2.334000000000000E10    8.593434140493628E-4   2.786744837067090E-3  
 2.336000000000000E10    2.536291067372076E-3  -1.004019606625661E-3  
 2.338000000000000E10   -1.136100421717856E-3  -1.940327871125192E-3  
 2.340000000000000E10   -2.174289475078695E-3   1.474158067139797E-3  
 2.342000000000000E10    1.499860809417442E-3   1.336109984549694E-3  
 2.344000000000000E10    1.513366587460041E-3  -1.261015328054782E-3  
 2.346000000000000E10   -1.282148114114534E-3  -1.041679999616463E-3  
 2.348000000000000E10   -4.440017019078368E-4   1.807007982279174E-3  
 2.350000000000000E10    2.186633195378818E-3   3.114310593446135E-4  
 2.352000000000000E10   -7.210230141936336E-4  -1.615801062143873E-3  
 2.354000000000000E10   -2.169576604501344E-3   1.077654495020397E-3  
 2.356000000000000E10    1.692434074357152E-3   2.880050655221567E-3  
 2.358000000000000E10    2.414526723441668E-3  -2.545796509366483E-3  
 2.360000000000000E10   -3.177471095114015E-3  -2.238913963083178E-3  
 2.362000000000000E10   -1.749500297592022E-3   3.227830515243113E-3  
 2.364000000000000E10    3.015387628693134E-3   1.845496437454131E-3  
 2.366000000000000E10    1.560667333251331E-3  -2.983662314363755E-3  
 2.368000000000000E10   -3.084321142523550E-3  -7.195603684522212E-4  
 2.370000000000000E10   -6.263866089284420E-4   2.983875805512071E-3  
 2.372000000000000E10    3.003839694429189E-3   9.402905743627343E-5  
 2.374000000000000E10   -7.540316255472135E-4  -2.609663832117803E-3  
 2.376000000000000E10   -2.023569322773255E-3   1.802256512746681E-3  
 2.378000000000000E10    2.395585412159562E-3   2.010147218243219E-3  
 2.380000000000000E10    1.973970989638474E-3  -2.780285358312540E-3  
 2.382000000000000E10   -2.975562849314883E-3  -1.264122496650089E-3  
 2.384000000000000E10   -1.190004382806364E-3   3.878398085362278E-3  
 2.386000000000000E10    4.234147607348859E-3   1.452193122531753E-3  
 2.388000000000000E10    1.230323388881516E-3  -4.470033978577703E-3  
 2.390000000000000E10   -4.564876842778176E-3  -5.473906639963388E-4  
 2.392000000000000E10    1.032222339745204E-4   4.355106153525412E-3  
 2.394000000000000E10    4.057586367707700E-3   4.671109018090647E-4  
 2.396000000000000E10   -7.337944807659369E-4  -3.481975654722191E-3  
 2.398000000000000E10   -2.415903800283559E-3   7.839085737941787E-4  
 2.400000000000000E10    1.518818884505890E-3   2.690568580874242E-3  
 2.402000000000000E10    1.886206366179977E-3  -2.568788899225183E-3  
 2.404000000000000E10   -2.299897038028576E-3  -1.236084121046588E-3  
 2.406000000000000E10   -3.856476760120131E-4   3.152107849018648E-3  
 2.408000000000000E10    3.931456187274307E-3  -7.668630605621729E-4  
 2.410000000000000E10    1.219297512591311E-4  -4.224705073283985E-3  
 2.412000000000000E10   -3.579310170607641E-3   1.204295425850432E-3  
 2.414000000000000E10    1.516144046036061E-3   3.775321762077510E-3  
 2.416000000000000E10    4.713599104434252E-3  -1.342883864708711E-3  
 2.418000000000000E10   -1.864370002294891E-3  -4.388873407151550E-3  
 2.420000000000000E10   -3.971886224462651E-3   1.538553486170713E-3  
 2.422000000000000E10    1.897216090583243E-3   3.947362070903182E-3  
 2.424000000000000E10    3.042267198907211E-3  -2.600337102194317E-3  
 2.426000000000000E10   -2.016920669120736E-3  -3.210370967281051E-3  
 2.428000000000000E10   -1.988213130971417E-3   2.155463022063486E-3  
 2.430000000000000E10    2.562121720984578E-3   1.253720001841430E-3  
 2.432000000000000E10    9.998095410992391E-4  -3.153061275952496E-3  
 2.434000000000000E10   -2.812741484376602E-3  -2.837085096984993E-5  
 2.436000000000000E10    4.400032048579305E-4   3.022335396963172E-3  
 2.438000000000000E10    3.507201501633972E-3  -1.023667475237744E-3  
 2.440000000000000E10   -1.488567359047011E-3  -3.971906786318868E-3  
 2.442000000000000E10   -3.928196019842289E-3   1.617266825633124E-3  
 2.444000000000000E10    1.852273162512574E-3   3.383631192264147E-3  
 2.446000000000000E10    4.077685152878985E-3  -2.247493684990332E-3  
 2.448000000000000E10   -2.091660673613660E-3  -3.955640320782550E-3  
 2.450000000000000E10   -3.308238228783011E-3   2.673346389201470E-3  
 2.452000000000000E10    2.856934603187256E-3   2.863897840143181E-3  
 2.454000000000000E10    2.172783846617676E-3  -2.855919054127298E-3  
 2.456000000000000E10   -2.827985081239604E-3  -1.805372157832608E-3  
 2.458000000000000E10   -1.185587425425183E-3   3.192657444742508E-3  
 2.460000000000000E10    3.252338559832424E-3   7.876103063608753E-5  
 2.462000000000000E10   -5.833896757394541E-4  -3.404882038012147E-3  
 2.464000000000000E10   -3.611711872508749E-3   9.921760138240643E-4  
 2.466000000000000E10    1.743111948599108E-3   2.865188274881803E-3  
 2.468000000000000E10    3.907978330971673E-3  -1.827890540880617E-3  
 2.470000000000000E10   -2.172228560084477E-3  -3.651959486887790E-3  
 2.472000000000000E10   -3.357047709869221E-3   2.531526813982055E-3  
 2.474000000000000E10    2.236351356259547E-3   3.415005994611420E-3  
 2.476000000000000E10    3.516496435622685E-3  -2.648459951160476E-3  
 2.478000000000000E10   -3.009739884873852E-3  -3.375003958353773E-3  
 2.480000000000000E10   -2.884850706323050E-3   2.974326984258369E-3  
 2.482000000000000E10    3.248406341299415E-3   1.853599984315224E-3  
 2.484000000000000E10    1.939731642778497E-3  -3.579803393222392E-3  
 2.486000000000000E10   -3.397461900021881E-3  -5.842434766236693E-4  
 2.488000000000000E10    7.695156782574486E-4   3.168900788296014E-3  
 2.490000000000000E10    3.191235373378731E-3  -1.064334122929722E-3  
 2.492000000000000E10   -1.221623067976907E-3  -3.645997174317017E-3  
 2.494000000000000E10   -3.150540171191096E-3   2.546766292653047E-3  
 2.496000000000000E10    2.586117843748070E-3   3.268610962550156E-3  
 2.498000000000000E10    3.316975737106986E-3  -3.304036101326346E-3  
 2.500000000000000E10   -3.095766034675762E-3  -3.248059030738659E-3  
 2.502000000000000E10   -2.960319150588475E-3   3.215318123693578E-3  
 2.504000000000000E10    3.439706750214100E-3   2.154028945369646E-3  
 2.506000000000000E10    2.666415472049266E-3  -3.108839344349690E-3  
 2.508000000000000E10   -2.913961856393144E-3  -2.745222940575331E-3  
 2.510000000000000E10   -1.797423276002519E-3   2.890927527914755E-3  
 2.512000000000000E10    2.750213083345443E-3   1.587817641848233E-3  
 2.514000000000000E10    9.070052583410870E-4  -3.255098650697619E-3  
 2.516000000000000E10   -2.688213469809853E-3  -9.965263006961322E-5  
 2.518000000000000E10    6.007726587995421E-4   2.533682913053781E-3  
 2.520000000000000E10    2.769899190752767E-3  -2.072364150080830E-3  
 2.522000000000000E10   -1.884429053461645E-3  -2.797034627292305E-3  
 2.524000000000000E10   -2.882646222133189E-3   2.455463516525924E-3  
 2.526000000000000E10    3.024188277777284E-3   2.152008382836357E-3  
 2.528000000000000E10    3.066837394726463E-3  -3.331221130792983E-3  
 2.530000000000000E10   -3.994657919974998E-3  -2.894793127779849E-3  
 2.532000000000000E10   -2.557786210672930E-3   3.575608352548443E-3  
 2.534000000000000E10    3.492553441901691E-3   2.385735235293396E-3  
 2.536000000000000E10    2.150797445210628E-3  -4.171674489043653E-3  
 2.538000000000000E10   -3.475331133813597E-3  -1.925439675687812E-3  
 2.540000000000000E10   -1.825736479077023E-3   3.719962202012539E-3  
 2.542000000000000E10    3.044852637685835E-3   3.118845588687691E-4  
 2.544000000000000E10   -9.850202650341089E-5  -3.232548377127387E-3  
 2.546000000000000E10   -3.567276929970831E-3   6.664782376901712E-4  
 2.548000000000000E10    8.740688281250186E-4   2.187177902669646E-3  
 2.550000000000000E10    1.945718082424719E-3  -2.391498012002558E-3  
 2.552000000000000E10   -3.223296938813292E-3  -2.185925783123821E-3  
 2.554000000000000E10   -2.110005254507996E-3   2.543925817008130E-3  
 2.556000000000000E10    3.004065671120770E-3   1.359148758638185E-3  
 2.558000000000000E10    1.239945187990088E-3  -3.362403032951988E-3  
 2.560000000000000E10   -3.798856007051654E-3  -1.422674249624834E-3  
 2.562000000000000E10   -1.665579613472801E-3   3.662401912151836E-3  
 2.564000000000000E10    3.310223793960176E-3   1.221637488924898E-3  
 2.566000000000000E10    7.191980184870772E-4  -4.072662384714931E-3  
 2.568000000000000E10   -4.512869432801381E-3  -2.607546284707496E-4  
 2.570000000000000E10   -3.392161270312499E-4   3.923698590369895E-3  
 2.572000000000000E10    3.060821865801700E-3  -5.452146324387286E-4  
 2.574000000000000E10   -1.630157348699868E-3  -2.937906421720982E-3  
 2.576000000000000E10   -2.990382665302604E-3   2.272923447890207E-3  
 2.578000000000000E10    2.561580491601490E-3   2.281849083374254E-3  
 2.580000000000000E10    1.699757915048394E-3  -2.729951171204448E-3  
 2.582000000000000E10   -3.897914124536328E-3  -1.431719618267380E-3  
 2.584000000000000E10   -1.651894475799054E-3   4.343755717854947E-3  
 2.586000000000000E10    3.893356857588515E-3   1.128340714785736E-3  
 2.588000000000000E10    7.483141635020729E-4  -3.646640558145009E-3  
 2.590000000000000E10   -4.159798554610461E-3  -4.839054236072116E-4  
 2.592000000000000E10   -6.825434429629240E-4   3.682122696773149E-3  
 2.594000000000000E10    3.829934983514249E-3   7.071729778544977E-4  
 2.596000000000000E10   -6.212739608599804E-4  -3.351605148054659E-3  
 2.598000000000000E10   -3.294194073532708E-3   6.813814907218330E-4  
 2.600000000000000E10    1.329216451267712E-3   2.994585593114607E-3  
 2.602000000000000E10    2.033486998698209E-3  -1.333583808445837E-3  
 2.604000000000000E10   -1.915319720865227E-3  -1.532674272311851E-3  
 2.606000000000000E10   -1.148410774476361E-3   3.081219387240708E-3  
 2.608000000000000E10    2.825274132192135E-3   9.340043761767447E-4  
 2.610000000000000E10    1.241886013303883E-3  -3.364278614753857E-3  
 2.612000000000000E10   -3.671763464808464E-3   1.324456852671574E-4  
 2.614000000000000E10   -7.205004876595922E-4   3.830376837868244E-3  
 2.616000000000000E10    4.083172272657976E-3   5.123180926602799E-4  
 2.618000000000000E10    1.253515583812259E-4  -3.591916145524010E-3  
 2.620000000000000E10   -3.931639395887032E-3  -5.200621471885825E-4  
 2.622000000000000E10    2.867257644538768E-4   3.664891381049529E-3  
 2.624000000000000E10    2.903735730797052E-3  -6.072141826507504E-5  
 2.626000000000000E10   -2.361224151172792E-4  -3.136066472507082E-3  
 2.628000000000000E10   -2.422334247967228E-3   1.273509311431553E-3  
 2.630000000000000E10    1.022047232254408E-3   2.232390339486301E-3  
 2.632000000000000E10    1.488116729888134E-3  -1.605360026587732E-3  
 2.634000000000000E10   -2.025897381827235E-3  -8.209388433897402E-4  
 2.636000000000000E10   -6.399867888831068E-4   2.644062638864853E-3  
 2.638000000000000E10    2.723639656323940E-3   4.938548190693837E-4  
 2.640000000000000E10    4.724826695223783E-5  -2.844940783688799E-3  
 2.642000000000000E10   -3.523771112668328E-3   2.622505744511727E-4  
 2.644000000000000E10    3.479034148767823E-4   3.275029535870999E-3  
 2.646000000000000E10    3.395873252884485E-3   5.665986384428834E-5  
 2.648000000000000E10   -1.705565114207275E-4  -3.453514043940231E-3  
 2.650000000000000E10   -3.328523962409236E-3   6.289385928539559E-4  
 2.652000000000000E10    5.733866146329092E-4   3.256656520534307E-3  
 2.654000000000000E10    2.590595904621296E-3  -7.719772474956699E-4  
 2.656000000000000E10   -8.394659307668917E-4  -2.434368434478529E-3  
 2.658000000000000E10   -2.055742021184415E-3   1.529359826236032E-3  
 2.660000000000000E10    1.763102940458339E-3   1.422202054527588E-3  
 2.662000000000000E10    9.871270704024937E-4  -1.999428437557071E-3  
 2.664000000000000E10   -2.629280454129912E-3  -1.096919054361933E-4  
 2.666000000000000E10    7.166791801864747E-4   2.681966376258060E-3  
 2.668000000000000E10    2.526948344893754E-3  -3.680026820802596E-4  
 2.670000000000000E10   -5.477278209582437E-4  -2.729101528530009E-3  
 2.672000000000000E10   -2.689438129891641E-3   8.664860069984570E-4  
 2.674000000000000E10    9.505068337603007E-4   3.153159326757304E-3  
 2.676000000000000E10    2.824388851877302E-3  -6.838287299615331E-4  
 2.678000000000000E10   -7.937038644740824E-4  -2.705890292418189E-3  
 2.680000000000000E10   -2.465583020239137E-3   1.060759241227061E-3  
 2.682000000000000E10    1.053579733707011E-3   2.349013011553325E-3  
 2.684000000000000E10    1.705620496068150E-3  -1.046263052558061E-3  
 2.686000000000000E10   -1.115927283535712E-3  -9.269806105294265E-4  
 2.688000000000000E10   -3.265115628892090E-4   1.375624306092504E-3  
 2.690000000000000E10    1.304561104916502E-3   4.097565524716629E-4  
 2.692000000000000E10    2.433750669439405E-5  -1.702874615148176E-3  
 2.694000000000000E10   -2.095309086143971E-3   6.806950405007228E-4  
 2.696000000000000E10    7.202660963230301E-4   2.357935052714311E-3  
 2.698000000000000E10    2.593081138911657E-3  -9.556061886542011E-4  
 2.700000000000000E10   -1.237578966538422E-3  -2.337835583603010E-3  
 2.702000000000000E10   -2.733053581323475E-3   1.287856903218199E-3  
 2.704000000000000E10    1.504072213720065E-3   2.899550687288865E-3  
 2.706000000000000E10    2.476351990480907E-3  -9.452486883674283E-4  
 2.708000000000000E10   -8.709890644240659E-4  -2.382570412009955E-3  
 2.710000000000000E10   -2.254430408356711E-3   1.058555375493597E-3  
 2.712000000000000E10    1.148493705841247E-3   1.970424636965618E-3  
 2.714000000000000E10    1.485930188209750E-3  -9.761821966094431E-4  
 2.716000000000000E10   -9.154723229585215E-4  -8.791898944764398E-4  
 2.718000000000000E10   -4.298123803891940E-4   1.377518208755646E-3  
 2.720000000000000E10    1.320136398135219E-3   3.108454566245200E-4  
 2.722000000000000E10    9.934578201864497E-5  -1.055269131029490E-3  
 2.724000000000000E10   -1.679636305198073E-3   7.730717225058470E-4  
 2.726000000000000E10    1.008877814456355E-3   1.888873215648346E-3  
 2.728000000000000E10    1.897422451293096E-3  -8.549047306587454E-4  
 2.730000000000000E10   -1.148818162619136E-3  -2.009194315178320E-3  
 2.732000000000000E10   -2.206086268415675E-3   1.316155918175355E-3  
 2.734000000000000E10    1.383064241963439E-3   2.305657937540673E-3  
 2.736000000000000E10    2.153708017431200E-3  -1.460963962017559E-3  
 2.738000000000000E10   -1.274000715056900E-3  -1.679228465945926E-3  
 2.740000000000000E10   -1.291531647439115E-3   1.148912393546198E-3  
 2.742000000000000E10    1.525414016214199E-3   1.274977279535960E-3  
 2.744000000000000E10    9.182647409033962E-4  -1.338163528998848E-3  
 2.746000000000000E10   -1.152233264292590E-3  -1.874712958169766E-4  
 2.748000000000000E10    2.507020080884104E-4   1.441199245164171E-3  
 2.750000000000000E10    1.451829157304019E-3  -4.586169816320762E-4  
 2.752000000000000E10   -8.678754420543555E-4  -1.380526977300178E-3  
 2.754000000000000E10   -1.681434921920300E-3   8.348576993739698E-4  
 2.756000000000000E10    1.093106788175646E-3   1.441065345716197E-3  
