#  HZ   S   RI   R     50.00 
! Rohde & Schwarz ZVA40 4Ports - Version 3.90 - 1145.1110k42 SN: 100403
! Date: 2023-10-04 06:27:42
! Measurement: S12 
! 
 2.200000000000000E10   -2.625662265927531E-3  -7.119201545719989E-4  
 2.202000000000000E10   -7.042293088810325E-5   2.827983684255742E-3  
 2.204000000000000E10    2.910647206590511E-3   1.839442193158902E-4  
 2.206000000000000E10   -7.987456483533606E-4  -2.186374476877973E-3  
 2.208000000000000E10   -2.138665469828993E-3   1.227763561473694E-3  
 2.210000000000000E10    1.402445166604593E-3   2.217174973338842E-3  
 2.212000000000000E10    1.636829780181870E-3  -1.620599796297029E-3  
 2.214000000000000E10   -1.873075358162168E-3  -1.394874627294485E-3  
 2.216000000000000E10   -1.467268964916002E-3   2.477161324350163E-3  
 2.218000000000000E10    2.979947734274901E-3   7.352713582804427E-4  
 2.220000000000000E10    1.229605557455216E-3  -2.898542210459709E-3  
 2.222000000000000E10   -2.798181740217842E-3  -6.296180254139472E-4  
 2.224000000000000E10   -2.888483095375705E-5   3.015987153048627E-3  
 2.226000000000000E10    3.368378034792841E-3   6.330143587547354E-4  
 2.228000000000000E10   -1.292999490942748E-4  -2.666426167706959E-3  
 2.230000000000000E10   -2.188552942243405E-3   3.762501837627497E-4  
 2.232000000000000E10    7.494596720789559E-4   1.962927002750803E-3  
 2.234000000000000E10    1.729092698951718E-3  -1.035163157212082E-3  
 2.236000000000000E10   -1.062304378137924E-3  -1.844970225647558E-3  
 2.238000000000000E10   -7.619703283126000E-4   1.461397878301796E-3  
 2.240000000000000E10    2.605860645417124E-3   2.648893587320345E-4  
 2.242000000000000E10    7.233607866510283E-4  -2.303239016328007E-3  
 2.244000000000000E10   -1.689610013272613E-3   2.397467005721410E-4  
 2.246000000000000E10    7.628060920978896E-4   1.954324667167384E-3  
 2.248000000000000E10    2.675686322618276E-3  -5.666237193509005E-4  
 2.250000000000000E10   -8.723848914087284E-4  -2.305601796251722E-3  
 2.252000000000000E10   -1.847016581450589E-3   6.690245536447037E-4  
 2.254000000000000E10    9.914792972267605E-4   1.217041441123001E-3  
 2.256000000000000E10    1.317144196946174E-3  -8.134516574500594E-4  
 2.258000000000000E10   -8.757838149904274E-4  -1.515086049039383E-3  
 2.260000000000000E10   -9.463281749049202E-4   7.161215653468389E-4  
 2.262000000000000E10    8.516037269146182E-4   4.946311382809654E-4  
 2.264000000000000E10    7.468425210390706E-4  -1.276797098398674E-3  
 2.266000000000000E10   -6.061192070774268E-4  -5.295532646414358E-4  
 2.268000000000000E10    3.192323100620342E-5   1.198216137709096E-3  
 2.270000000000000E10    1.112535155698424E-3  -3.177632688675658E-4  
 2.272000000000000E10   -2.794618767438806E-4  -1.738742466841359E-3  
 2.274000000000000E10   -1.883473683847114E-3   7.928930535854306E-4  
 2.276000000000000E10    6.034875586919952E-4   1.291086853598245E-3  
 2.278000000000000E10    1.302151031268295E-3  -1.136725390097126E-3  
 2.280000000000000E10   -1.134297432145104E-3  -1.129973388742656E-3  
 2.282000000000000E10   -1.334154359938111E-3   1.950705434410338E-4  
 2.284000000000000E10    5.292617279337719E-4   4.461476673895959E-4  
 2.286000000000000E10    1.839339784055483E-4  -2.578578860266134E-4  
 2.288000000000000E10   -1.036522677168250E-3   1.506772855464078E-5  
 2.290000000000000E10    1.871962767836521E-4   6.969533533265349E-4  
 2.292000000000000E10    3.608233055274468E-4  -6.146759151306469E-4  
 2.294000000000000E10   -1.397540720063262E-3  -5.932188905717339E-4  
 2.296000000000000E10   -3.391442041902337E-4   1.005245772830676E-3  
 2.298000000000000E10    8.794763198238798E-4   8.275067666545510E-4  
 2.300000000000000E10    8.471592082059942E-4  -1.225143103511073E-3  
 2.302000000000000E10   -9.312564834544901E-4  -1.175122655695304E-3  
 2.304000000000000E10   -1.033388558425941E-3   1.917822599352803E-3  
 2.306000000000000E10    1.143201312515885E-3   7.848199711588677E-4  
 2.308000000000000E10    7.277111108123791E-4  -8.594929531682283E-4  
 2.310000000000000E10   -1.410722754371818E-3  -5.529981790459715E-4  
 2.312000000000000E10   -1.542125991136345E-4   4.252180951880291E-4  
 2.314000000000000E10    1.178053105832078E-3  -3.052699648833368E-4  
 2.316000000000000E10   -1.120497487136163E-3  -4.072025913046673E-4  
 2.318000000000000E10   -2.810626256177784E-6   1.038903996231966E-3  
 2.320000000000000E10    2.270430923090316E-3   7.288476240319142E-5  
 2.322000000000000E10   -6.410672831407283E-4  -1.862221681221854E-3  
 2.324000000000000E10   -2.054408905678429E-3   3.445691199885914E-4  
 2.326000000000000E10    4.466950740606990E-4   3.038775234017521E-3  
 2.328000000000000E10    1.979300373932347E-3  -7.846244807296898E-4  
 2.330000000000000E10   -5.711803823942319E-4  -2.539912355132401E-3  
 2.332000000000000E10   -2.356929398956709E-3   4.035648544231663E-4  
 2.334000000000000E10    6.548732308147010E-4   1.814066556107719E-3  
 2.336000000000000E10    2.431528715533204E-3  -1.015092217130587E-3  
 2.338000000000000E10   -1.179374914499931E-3  -1.803641556762159E-3  
 2.340000000000000E10   -1.227523353009019E-3   1.270555680093821E-3  
 2.342000000000000E10    2.343347587157041E-3   7.188880517787766E-4  
 2.344000000000000E10   -5.320060263329651E-4  -1.661922775383573E-3  
 2.346000000000000E10   -1.942531744134612E-3   6.481247146439273E-4  
 2.348000000000000E10    1.276946008147206E-3   2.202487230533734E-3  
 2.350000000000000E10    2.734326859354042E-3  -1.918353620567359E-3  
 2.352000000000000E10   -2.394009483396076E-3  -2.746223370195366E-3  
 2.354000000000000E10   -2.351293733227067E-3   2.427298662951216E-3  
 2.356000000000000E10    2.913867661845870E-3   2.425934057100676E-3  
 2.358000000000000E10    2.543014779803343E-3  -3.375053085619584E-3  
 2.360000000000000E10   -2.822987225954421E-3  -2.183931545005180E-3  
 2.362000000000000E10   -1.805663530831225E-3   2.521460628486238E-3  
 2.364000000000000E10    2.976283300085925E-3   1.259651580767240E-3  
 2.366000000000000E10    8.187891471607145E-4  -3.059931506868452E-3  
 2.368000000000000E10   -2.844703107257374E-3  -3.484396729618311E-4  
 2.370000000000000E10    4.053281754750060E-4   2.734735026024282E-3  
 2.372000000000000E10    2.838668660842814E-3  -1.858339972386602E-3  
 2.374000000000000E10   -2.777008063276298E-3  -2.773768312181346E-3  
 2.376000000000000E10   -2.321684281923808E-3   2.934012212790549E-3  
 2.378000000000000E10    3.452582590398379E-3   1.313185930484906E-3  
 2.380000000000000E10    1.347939549305011E-3  -4.280445078620687E-3  
 2.382000000000000E10   -4.441901983227581E-3  -1.207991146657150E-3  
 2.384000000000000E10   -9.969876955437940E-4   3.921975148841739E-3  
 2.386000000000000E10    4.047346039442346E-3   5.513223513844423E-4  
 2.388000000000000E10   -4.306636728870217E-4  -4.106501437490806E-3  
 2.390000000000000E10   -4.317681799875572E-3   5.492089949257206E-4  
 2.392000000000000E10    1.007328741252422E-3   3.324788034660742E-3  
 2.394000000000000E10    2.246007934445515E-3  -1.818434830056503E-3  
 2.396000000000000E10   -2.712108092964627E-3  -2.978132353746332E-3  
 2.398000000000000E10   -2.258900029119104E-3   2.802712915581651E-3  
 2.400000000000000E10    2.738335053436458E-3   1.580531628860626E-3  
 2.402000000000000E10    6.878817439428531E-4  -4.318778839660808E-3  
 2.404000000000000E10   -4.176541609922424E-3   4.286297535145422E-4  
 2.406000000000000E10    8.305489427584689E-5   4.584550566505641E-3  
 2.408000000000000E10    4.717196978162974E-3  -1.611607731319964E-4  
 2.410000000000000E10   -1.572442910401151E-3  -4.018772364361212E-3  
 2.412000000000000E10   -4.916391131700948E-3   1.224097512022127E-3  
 2.414000000000000E10    1.292775734327734E-3   4.265432857209817E-3  
 2.416000000000000E10    3.222177794668824E-3  -1.235630181326997E-3  
 2.418000000000000E10   -1.685752838966437E-3  -3.607463891967200E-3  
 2.420000000000000E10   -2.590433054137975E-3   1.993798316107132E-3  
 2.422000000000000E10    1.956887310370803E-3   2.376067161094397E-3  
 2.424000000000000E10    1.818480202928186E-3  -2.546681556850672E-3  
 2.426000000000000E10   -2.795117427012883E-3  -6.888669013278559E-4  
 2.428000000000000E10   -2.970280929730507E-4   3.332146719912998E-3  
 2.430000000000000E10    3.346781086293049E-3  -2.403687894911855E-4  
 2.432000000000000E10   -1.016406858980190E-3  -3.843137470539659E-3  
 2.434000000000000E10   -4.357350815553218E-3   1.278252748306841E-3  
 2.436000000000000E10    1.709975309495349E-3   3.839293087366968E-3  
 2.438000000000000E10    4.428300540894270E-3  -1.474107877584174E-3  
 2.440000000000000E10   -1.906850411614869E-3  -4.563686030451208E-3  
 2.442000000000000E10   -4.153333022259176E-3   2.083677820337471E-3  
 2.444000000000000E10    1.869408908532932E-3   4.300937202060595E-3  
 2.446000000000000E10    3.349772945512086E-3  -1.810871021007188E-3  
 2.448000000000000E10   -2.317796985153109E-3  -3.102816364844330E-3  
 2.450000000000000E10   -2.878863873775117E-3   2.346026798477396E-3  
 2.452000000000000E10    2.490156213752925E-3   2.238671921077184E-3  
 2.454000000000000E10    1.248725049663335E-3  -3.008260217029601E-3  
 2.456000000000000E10   -3.109826517174952E-3  -9.016144394990988E-4  
 2.458000000000000E10    3.444840895099333E-4   3.529396912199445E-3  
 2.460000000000000E10    3.879884694470093E-3  -7.570952184323687E-4  
 2.462000000000000E10   -1.813486480386928E-3  -3.711480021593161E-3  
 2.464000000000000E10   -3.784797372645699E-3   2.138419862603769E-3  
 2.466000000000000E10    2.094466406560969E-3   3.906679252395406E-3  
 2.468000000000000E10    3.423477901378647E-3  -2.600244130007923E-3  
 2.470000000000000E10   -2.967022082884796E-3  -3.750140152988024E-3  
 2.472000000000000E10   -3.460419262410142E-3   2.833589780493639E-3  
 2.474000000000000E10    2.755235356744379E-3   3.019393669092096E-3  
 2.476000000000000E10    3.208125956007280E-3  -2.705070714000613E-3  
 2.478000000000000E10   -3.237521639675833E-3  -2.482605239492841E-3  
 2.480000000000000E10   -1.948705903487280E-3   3.354445638251491E-3  
 2.482000000000000E10    3.015208203578368E-3   1.388363285514060E-3  
 2.484000000000000E10    2.482034969943925E-4  -3.339983493788168E-3  
 2.486000000000000E10   -3.906688783899881E-3   6.171970380819403E-4  
 2.488000000000000E10    8.476080474792980E-4   3.679277244373225E-3  
 2.490000000000000E10    3.049813094548881E-3  -1.921093833516352E-3  
 2.492000000000000E10   -1.918471098178998E-3  -3.467196249403060E-3  
 2.494000000000000E10   -3.836629315628670E-3   2.830723184160888E-3  
 2.496000000000000E10    3.145530325127766E-3   3.628661841503345E-3  
 2.498000000000000E10    3.161297529004514E-3  -2.781074697850272E-3  
 2.500000000000000E10   -3.426271359785460E-3  -2.601566084194928E-3  
 2.502000000000000E10   -2.751794454525225E-3   3.270153101766482E-3  
 2.504000000000000E10    3.138401792966761E-3   2.392566646449268E-3  
 2.506000000000000E10    1.777451288944576E-3  -2.866742041078396E-3  
 2.508000000000000E10   -3.444690795731731E-3  -1.467534711991902E-3  
 2.510000000000000E10   -8.959693659562618E-4   3.364624615642242E-3  
 2.512000000000000E10    3.442984627326950E-3  -1.618025845573357E-5  
 2.514000000000000E10   -4.320320877013728E-4  -3.424441805691458E-3  
 2.516000000000000E10   -3.460246356553398E-3   1.927661076479126E-3  
 2.518000000000000E10    2.136353796231560E-3   3.308915518573485E-3  
 2.520000000000000E10    3.617069945903495E-3  -2.099102333886549E-3  
 2.522000000000000E10   -3.181012318236753E-3  -2.566679628216662E-3  
 2.524000000000000E10   -3.227897526812740E-3   2.913546239142306E-3  
 2.526000000000000E10    3.338117196108215E-3   3.751481694052927E-3  
 2.528000000000000E10    2.687187283299863E-3  -3.356916262418963E-3  
 2.530000000000000E10   -3.019684590981342E-3  -2.730689142481424E-3  
 2.532000000000000E10   -2.472991662216373E-3   3.882249569869600E-3  
 2.534000000000000E10    3.402256741537713E-3   2.197019537561573E-3  
 2.536000000000000E10    1.907654164824635E-3  -3.173476536176167E-3  
 2.538000000000000E10   -3.027991609997116E-3  -3.067596308028442E-4  
 2.540000000000000E10    3.846694562525954E-4   3.532532748067752E-3  
 2.542000000000000E10    3.356241039000452E-3  -8.333927617059089E-4  
 2.544000000000000E10   -1.750414776324760E-3  -2.322816566447727E-3  
 2.546000000000000E10   -2.110278088366613E-3   2.538840184570290E-3  
 2.548000000000000E10    3.574152564397082E-3   2.264228722197004E-3  
 2.550000000000000E10    2.117218886269257E-3  -3.398747910978273E-3  
 2.552000000000000E10   -3.281462137238123E-3  -1.750950694258791E-3  
 2.554000000000000E10   -9.379841249028686E-4   4.156559065449983E-3  
 2.556000000000000E10    4.318625928135589E-3   1.882521799416281E-3  
 2.558000000000000E10    2.090882946504280E-3  -3.783435036893934E-3  
 2.560000000000000E10   -3.277982206782326E-3  -1.200697945023421E-3  
 2.562000000000000E10   -1.217198390804697E-3   3.667801036499441E-3  
 2.564000000000000E10    3.862393175950274E-3   1.105546281905845E-3  
 2.566000000000000E10    1.243667298695073E-3  -3.301806820672937E-3  
 2.568000000000000E10   -3.153807469061576E-3  -7.178726764323073E-5  
 2.570000000000000E10    1.220457052113488E-3   2.773429107037373E-3  
 2.572000000000000E10    2.733936620643362E-3  -1.462872787669767E-3  
 2.574000000000000E10   -1.542142468679231E-3  -2.194970045820810E-3  
 2.576000000000000E10   -1.516499338322319E-3   2.755589026492089E-3  
 2.578000000000000E10    3.620568837504834E-3   1.186144334496930E-3  
 2.580000000000000E10    1.283935504034162E-3  -3.272012269007973E-3  
 2.582000000000000E10   -3.390201207366772E-3  -9.277891658712179E-4  
 2.584000000000000E10   -6.106206819822546E-4   3.850807610433549E-3  
 2.586000000000000E10    4.213714593788609E-3   2.462885349814314E-4  
 2.588000000000000E10    2.123158828908345E-4  -3.676522537716664E-3  
 2.590000000000000E10   -3.547636646544561E-3  -3.794443418883020E-4  
 2.592000000000000E10    1.538275382699794E-4   3.356802684720606E-3  
 2.594000000000000E10    3.304159152321518E-3  -3.934282558475388E-4  
 2.596000000000000E10   -4.309894811740378E-4  -3.521020436892286E-3  
 2.598000000000000E10   -2.746091049630195E-3   1.301856267673429E-3  
 2.600000000000000E10    2.094585841405205E-3   2.151546112145297E-3  
 2.602000000000000E10    1.715591082756873E-3  -2.726313832681626E-3  
 2.604000000000000E10   -2.676517906365916E-3  -1.117217827413697E-3  
 2.606000000000000E10   -1.168335351394489E-3   3.113524042419158E-3  
 2.608000000000000E10    3.201049432391301E-3   4.294798709452152E-4  
 2.610000000000000E10    5.982560614938848E-4  -3.452690361882560E-3  
 2.612000000000000E10   -3.874973597703502E-3  -9.408961923327297E-4  
 2.614000000000000E10   -4.563330876408145E-4   3.543279366567731E-3  
 2.616000000000000E10    3.854849404888228E-3   2.908564292738447E-4  
 2.618000000000000E10    2.392918295299751E-4  -3.840234508970752E-3  
 2.620000000000000E10   -3.397360749659129E-3   1.921876937558409E-4  
 2.622000000000000E10    5.526881250261795E-4   3.097287757555023E-3  
 2.624000000000000E10    2.421418874291703E-3  -8.964173757703975E-4  
 2.626000000000000E10   -9.930250416800845E-4  -2.044003704213537E-3  
 2.628000000000000E10   -2.018881496042013E-3   1.540753786684945E-3  
 2.630000000000000E10    2.310874246177264E-3   9.752815967658535E-4  
 2.632000000000000E10    7.956821827974636E-4  -2.523893446777947E-3  
 2.634000000000000E10   -3.002841345733032E-3  -6.369464827002958E-4  
 2.636000000000000E10    1.922398491842614E-4   2.696774274227209E-3  
 2.638000000000000E10    3.346984492964111E-3  -1.421995275450172E-4  
 2.640000000000000E10   -3.424714168431819E-4  -3.426151801249944E-3  
 2.642000000000000E10   -3.171726377331652E-3   4.336492920629098E-4  
 2.644000000000000E10    1.571006532685715E-4   3.509068323182873E-3  
 2.646000000000000E10    2.827325326506980E-3  -3.657212273537880E-4  
 2.648000000000000E10   -2.249504377687117E-4  -3.085024014580995E-3  
 2.650000000000000E10   -3.223435138352215E-3   3.464452784101013E-4  
 2.652000000000000E10    9.525327332084999E-4   2.342569365282543E-3  
 2.654000000000000E10    2.059105449006893E-3  -1.497592296800576E-3  
 2.656000000000000E10   -1.592118700500578E-3  -1.316119480179623E-3  
 2.658000000000000E10   -7.593827394885011E-4   1.756764599122107E-3  
 2.660000000000000E10    2.177440386731178E-3   4.780879098689184E-4  
 2.662000000000000E10   -7.343872232468129E-5  -2.484945871401578E-3  
 2.664000000000000E10   -2.750166720943525E-3   7.643929711775854E-4  
 2.666000000000000E10    1.325764766079374E-3   2.627248963108286E-3  
 2.668000000000000E10    2.564118971349672E-3  -1.245700914296322E-3  
 2.670000000000000E10   -1.089650744688697E-3  -2.948569686850533E-3  
 2.672000000000000E10   -2.997870353283361E-3   1.000813055725303E-3  
 2.674000000000000E10    1.154345169197768E-3   2.449606050504372E-3  
 2.676000000000000E10    2.731076820055023E-3  -1.036644534906372E-3  
 2.678000000000000E10   -9.002064471133053E-4  -2.144199766917154E-3  
 2.680000000000000E10   -2.028332237387076E-3   8.477302835672163E-4  
 2.682000000000000E10    9.047513813129626E-4   1.658146546105854E-3  
 2.684000000000000E10    1.390835270285606E-3  -1.513696624897420E-3  
 2.686000000000000E10   -1.533874339656904E-3  -9.404491065652110E-4  
 2.688000000000000E10   -2.700249951885780E-4   1.435473939636722E-3  
 2.690000000000000E10    1.734064164338633E-3  -2.664109888428357E-4  
 2.692000000000000E10   -3.169144292769488E-4  -2.251915779197589E-3  
 2.694000000000000E10   -2.221003611339256E-3   3.411824727663770E-4  
 2.696000000000000E10    1.130739547079429E-3   2.254511695355177E-3  
 2.698000000000000E10    2.727900806348771E-3  -1.190427050460130E-3  
 2.700000000000000E10   -1.383587601594627E-3  -2.952639624709263E-3  
 2.702000000000000E10   -2.429028216283768E-3   1.018613460473716E-3  
 2.704000000000000E10    1.238254044437781E-3   2.320377534488216E-3  
 2.706000000000000E10    2.193771186284721E-3  -1.226844688062556E-3  
 2.708000000000000E10   -7.559295263490640E-4  -2.250158548122272E-3  
 2.710000000000000E10   -1.727029899484478E-3   1.073186751455069E-3  
 2.712000000000000E10    1.131399621954188E-3   9.579111138009466E-4  
 2.714000000000000E10    6.744152342434973E-4  -1.372001759591512E-3  
 2.716000000000000E10   -1.484300679294393E-3  -5.128722987137735E-4  
 2.718000000000000E10    2.148339517589193E-4   1.222733932081610E-3  
 2.720000000000000E10    1.594749890500680E-3  -5.947984100203030E-4  
 2.722000000000000E10   -1.416347236954607E-3  -1.850230823038146E-3  
 2.724000000000000E10   -1.871400032541715E-3   1.217837838339619E-3  
 2.726000000000000E10    1.457470236346126E-3   1.802412036340684E-3  
 2.728000000000000E10    2.039655140833929E-3  -1.799081932404079E-3  
 2.730000000000000E10   -1.539893535664305E-3  -2.781682764180005E-3  
 2.732000000000000E10   -2.327550144400448E-3   1.694507649517618E-3  
 2.734000000000000E10    1.652323146117851E-3   1.962347625521943E-3  
 2.736000000000000E10    1.952201899257489E-3  -1.606008576345630E-3  
 2.738000000000000E10   -1.286843864363618E-3  -1.595522277057171E-3  
 2.740000000000000E10   -1.045935357979033E-3   1.254595830687322E-3  
 2.742000000000000E10    1.114439786761068E-3   1.025388432026375E-3  
 2.744000000000000E10    8.893651829566807E-5  -1.265491926460527E-3  
 2.746000000000000E10   -1.330847895587795E-3  -3.155560079903808E-6  
 2.748000000000000E10    3.563835598470178E-4   1.012170381727628E-3  
 2.750000000000000E10    1.248108994332142E-3  -9.355387155665085E-4  
 2.752000000000000E10   -1.012327265925705E-3  -1.768622852978297E-3  
 2.754000000000000E10   -1.624949931283481E-3   1.236770127434284E-3  
 2.756000000000000E10    1.578354640514590E-3   1.461755906348117E-3  
