#  HZ   S   RI   R     50.00 
! Rohde & Schwarz ZVA40 4Ports - Version 3.90 - 1145.1110k42 SN: 100403
! Date: 2023-10-04 06:28:08
! Measurement: S12 
! 
 2.200000000000000E10   -2.071814960800111E-3  -1.699017720966367E-4  
 2.202000000000000E10    2.487625970388763E-4   1.819335608161055E-3  
 2.204000000000000E10    1.888589424197562E-3  -7.382670519291423E-4  
 2.206000000000000E10   -9.470265285926871E-4  -2.261350367916748E-3  
 2.208000000000000E10   -1.408983182045631E-3   8.091357740340754E-4  
 2.210000000000000E10    1.354320236714557E-3   3.893885768775363E-4  
 2.212000000000000E10    1.096172083634883E-3  -1.501189501141198E-3  
 2.214000000000000E10   -1.976354120415635E-3  -1.010528299957514E-3  
 2.216000000000000E10   -8.279921748908237E-4   1.584397192345932E-3  
 2.218000000000000E10    1.710399417788722E-3   6.637379772200802E-5  
 2.220000000000000E10   -3.504508676996920E-4  -2.035395096754655E-3  
 2.222000000000000E10   -2.036862482782453E-3  -3.505443237372674E-4  
 2.224000000000000E10    1.442795255570673E-4   1.717772742267698E-3  
 2.226000000000000E10    1.185237299068831E-3  -2.898903446748591E-4  
 2.228000000000000E10   -8.039010717766359E-4  -1.802536891773343E-3  
 2.230000000000000E10   -1.306650854530744E-3   7.631943299202249E-4  
 2.232000000000000E10    2.975661336677149E-4   4.247318065608852E-4  
 2.234000000000000E10    7.283136874320917E-4  -4.570998062263243E-4  
 2.236000000000000E10   -1.160171057563275E-3  -3.293778172519524E-4  
 2.238000000000000E10   -3.849657041428145E-4   1.372711209114641E-3  
 2.240000000000000E10    1.043702883180231E-3   1.619800386833958E-4  
 2.242000000000000E10   -8.162333324435167E-4  -9.420447095180862E-4  
 2.244000000000000E10   -1.401503075612709E-3   4.883643509856483E-5  
 2.246000000000000E10    5.635398792946944E-5   1.317751768510789E-3  
 2.248000000000000E10    8.597806227044202E-4  -2.147592986148084E-4  
 2.250000000000000E10   -7.908771658549085E-4  -1.814239032682963E-3  
 2.252000000000000E10   -1.449456831323914E-3   6.680728110950440E-4  
 2.254000000000000E10   -2.154245041765535E-4   6.700515004922636E-4  
 2.256000000000000E10    7.091494771884754E-4  -2.922871390182991E-4  
 2.258000000000000E10    7.188397721620277E-4  -4.013450088677928E-4  
 2.260000000000000E10   -6.467954517574981E-4  -1.895920080841052E-5  
 2.262000000000000E10   -2.758768951025559E-4  -4.336188358138315E-4  
 2.264000000000000E10   -1.200347192025220E-4   1.765895085554803E-4  
 2.266000000000000E10   -6.101141334511340E-4   4.094837786396965E-4  
 2.268000000000000E10    5.038951749156695E-4   2.521811366023030E-4  
 2.270000000000000E10    6.511389801744372E-4  -6.602300709346309E-4  
 2.272000000000000E10   -9.039968135766685E-4  -7.398975285468623E-4  
 2.274000000000000E10   -9.421798022231087E-4   1.234809140441939E-3  
 2.276000000000000E10    1.255760987987742E-3   7.329097643378191E-4  
 2.278000000000000E10    4.923569395032246E-4  -1.293838678975590E-3  
 2.280000000000000E10   -1.115612234571017E-3  -4.552850332402159E-4  
 2.282000000000000E10   -8.731675770832226E-4   7.052402543195058E-4  
 2.284000000000000E10    9.733964034239762E-4  -1.728143115542480E-4  
 2.286000000000000E10    1.518124054200598E-4  -8.010105375433341E-4  
 2.288000000000000E10   -1.231057303812122E-4   2.976105242851190E-4  
 2.290000000000000E10    8.149353088811040E-4   2.827042717399309E-4  
 2.292000000000000E10   -1.647113567742053E-4  -1.015783607726917E-3  
 2.294000000000000E10   -5.654302767652553E-4   5.411067540990189E-4  
 2.296000000000000E10   -9.120339291257551E-5   1.293294757488184E-3  
 2.298000000000000E10    1.091903206543066E-3  -3.285787443019217E-4  
 2.300000000000000E10   -2.763686170510482E-4  -1.524856939795427E-3  
 2.302000000000000E10   -1.308447273913771E-3   4.474820743780583E-4  
 2.304000000000000E10    3.800059457716998E-4   1.190971655887552E-3  
 2.306000000000000E10    1.247228938154876E-3  -6.380612176144496E-4  
 2.308000000000000E10   -7.580386081826873E-4  -4.900985222775489E-4  
 2.310000000000000E10   -9.228441631421447E-4   4.997404685127549E-4  
 2.312000000000000E10    8.274415813502856E-4   1.037619309499860E-3  
 2.314000000000000E10    5.314957655855324E-5  -9.084630364668556E-4  
 2.316000000000000E10   -1.140207910793833E-3  -5.613953393890370E-5  
 2.318000000000000E10    2.410700344626093E-4   1.772247924236581E-3  
 2.320000000000000E10    1.776363802491687E-3  -1.097082189517096E-3  
 2.322000000000000E10   -8.310898047056980E-4  -2.288988296641037E-3  
 2.324000000000000E10   -1.948659424670041E-3   1.181219326099381E-3  
 2.326000000000000E10    1.220550358993933E-3   2.186473022447899E-3  
 2.328000000000000E10    2.577174484031275E-3  -1.592545464518480E-3  
 2.330000000000000E10   -1.608703867532313E-3  -1.714124766294844E-3  
 2.332000000000000E10   -2.043900283752009E-3   1.371768070384860E-3  
 2.334000000000000E10    1.731798518449068E-3   1.740847554174252E-3  
 2.336000000000000E10    1.280029639019631E-3  -1.554623755509965E-3  
 2.338000000000000E10   -1.955794912646525E-3  -9.753474223543890E-4  
 2.340000000000000E10   -1.782192211976508E-4   2.119350858265534E-3  
 2.342000000000000E10    2.061500024865381E-3  -4.985508021491114E-4  
 2.344000000000000E10   -1.327704696450383E-3  -2.054431912256405E-3  
 2.346000000000000E10   -1.648931822273880E-3   1.465080378693529E-3  
 2.348000000000000E10    1.535410090582445E-3   1.907148529426195E-3  
 2.350000000000000E10    2.155154972570017E-3  -2.291392069309950E-3  
 2.352000000000000E10   -3.036900598090142E-3  -1.843369303969666E-3  
 2.354000000000000E10   -2.199157752329484E-3   2.960123907541856E-3  
 2.356000000000000E10    3.151266835629940E-3   1.944133837241679E-3  
 2.358000000000000E10    1.508580753579736E-3  -3.472528565907851E-3  
 2.360000000000000E10   -3.533118986524642E-3  -1.110551311285235E-3  
 2.362000000000000E10   -1.336539600742981E-3   3.693704493343830E-3  
 2.364000000000000E10    3.184498549671844E-3   9.454919854761101E-4  
 2.366000000000000E10   -3.143071771773975E-4  -2.836029918398708E-3  
 2.368000000000000E10   -2.791331935441122E-3   4.433212598087266E-4  
 2.370000000000000E10    1.047967918566428E-3   2.724206366110593E-3  
 2.372000000000000E10    2.649638976436108E-3  -2.281100722029805E-3  
 2.374000000000000E10   -3.219887003069744E-3  -1.260020289919339E-3  
 2.376000000000000E10   -8.815136170596816E-4   4.084671498276293E-3  
 2.378000000000000E10    4.118365817703307E-3   1.066748242010362E-3  
 2.380000000000000E10    3.407571384741459E-4  -4.385543928947300E-3  
 2.382000000000000E10   -4.726780869532377E-3   6.321968103293330E-4  
 2.384000000000000E10    4.611210442817537E-5   5.081504292320460E-3  
 2.386000000000000E10    4.948365676682442E-3   5.002000034437515E-5  
 2.388000000000000E10   -7.416547960019670E-4  -4.892186203505844E-3  
 2.390000000000000E10   -4.540899128187448E-3   1.372753031319007E-3  
 2.392000000000000E10    1.574834430357441E-3   4.448689054697752E-3  
 2.394000000000000E10    4.244900832418352E-3  -1.785355532774702E-3  
 2.396000000000000E10   -2.605574118206278E-3  -2.532827551476657E-3  
 2.398000000000000E10   -2.015474252402782E-3   3.124282986391336E-3  
 2.400000000000000E10    3.459361119894311E-3   1.753000338794664E-3  
 2.402000000000000E10   -2.690865803742781E-4  -4.009102121926844E-3  
 2.404000000000000E10   -3.977973421569914E-3   4.436408089532051E-4  
 2.406000000000000E10    1.526709602330811E-3   4.356696386821568E-3  
 2.408000000000000E10    4.279216052964330E-3  -2.002414810704067E-3  
 2.410000000000000E10   -2.422046061838046E-3  -4.274716251529753E-3  
 2.412000000000000E10   -3.401480091270059E-3   3.515964548569173E-3  
 2.414000000000000E10    2.803442563163117E-3   3.534650168148801E-3  
 2.416000000000000E10    3.618136572185904E-3  -3.241841041017324E-3  
 2.418000000000000E10   -3.171082265907899E-3  -2.705394203076139E-3  
 2.420000000000000E10   -2.981373050715774E-3   3.178954822942615E-3  
 2.422000000000000E10    3.544987790519372E-3   2.014382131164894E-3  
 2.424000000000000E10    1.433121375157498E-3  -3.495613345876336E-3  
 2.426000000000000E10   -3.839401411823928E-3  -1.150217198301107E-3  
 2.428000000000000E10    6.677878118352965E-4   3.685171337565407E-3  
 2.430000000000000E10    4.144975973758847E-3   2.418303392914822E-5  
 2.432000000000000E10   -1.712458179099485E-3  -3.944280557334423E-3  
 2.434000000000000E10   -3.528419416397810E-3   2.576713508460671E-3  
 2.436000000000000E10    2.272288169478998E-3   4.088788642548025E-3  
 2.438000000000000E10    3.176093305228278E-3  -2.727495157159865E-3  
 2.440000000000000E10   -2.804291783832014E-3  -3.559428500011563E-3  
 2.442000000000000E10   -3.359564783750102E-3   2.968173619592562E-3  
 2.444000000000000E10    3.285387123469263E-3   3.214974247384816E-3  
 2.446000000000000E10    3.573247347958386E-3  -2.942557446658611E-3  
 2.448000000000000E10   -2.924869331764057E-3  -2.503234514733777E-3  
 2.450000000000000E10   -1.947321579791606E-3   3.064910066314042E-3  
 2.452000000000000E10    3.199418279109523E-3   1.786959517630749E-3  
 2.454000000000000E10    4.246185526426416E-4  -2.960562647785991E-3  
 2.456000000000000E10   -3.289735526777804E-3   5.697211508959299E-5  
 2.458000000000000E10    7.290793510037474E-4   3.412649937672541E-3  
 2.460000000000000E10    3.561736579285935E-3  -1.797859862563200E-3  
 2.462000000000000E10   -1.989917858736590E-3  -3.176043304847553E-3  
 2.464000000000000E10   -2.950530266389251E-3   2.918567945016548E-3  
 2.466000000000000E10    3.316984017146751E-3   3.462561668129638E-3  
 2.468000000000000E10    3.561301855370402E-3  -3.134364727884531E-3  
 2.470000000000000E10   -3.614744782680646E-3  -2.784543816233054E-3  
 2.472000000000000E10   -3.062759293243289E-3   3.570778062567115E-3  
 2.474000000000000E10    3.309116815216839E-3   3.412189311347902E-3  
 2.476000000000000E10    2.888597111450508E-3  -3.758942504646257E-3  
 2.478000000000000E10   -3.655119799077511E-3  -2.576511033112183E-3  
 2.480000000000000E10   -1.938868692377582E-3   3.607508231652901E-3  
 2.482000000000000E10    3.929593396605924E-3   1.404398019076325E-3  
 2.484000000000000E10    9.918219075188972E-4  -3.284661361249164E-3  
 2.486000000000000E10   -3.012054046848789E-3   6.665430773864500E-4  
 2.488000000000000E10    1.220719233970158E-3   3.306591097498313E-3  
 2.490000000000000E10    2.824086288455874E-3  -1.492207898991182E-3  
 2.492000000000000E10   -2.506114222342148E-3  -2.266262308694422E-3  
 2.494000000000000E10   -2.347183908568695E-3   2.952789625851437E-3  
 2.496000000000000E10    3.658196161268279E-3   2.386825392022729E-3  
 2.498000000000000E10    2.178867434849963E-3  -3.902473021298647E-3  
 2.500000000000000E10   -3.494654723908752E-3  -2.249609009595588E-3  
 2.502000000000000E10   -1.702266075881198E-3   4.514791711699218E-3  
 2.504000000000000E10    4.520601767580956E-3   1.702626032056287E-3  
 2.506000000000000E10    1.922991432365961E-3  -3.538315475452691E-3  
 2.508000000000000E10   -3.743718931218609E-3  -1.155348567408510E-3  
 2.510000000000000E10   -8.925215879571624E-4   4.107806773390621E-3  
 2.512000000000000E10    3.941632836358622E-3   6.955777280381881E-4  
 2.514000000000000E10   -2.730119103944162E-4  -3.514492214890197E-3  
 2.516000000000000E10   -3.010154207004234E-3   7.231060808408074E-4  
 2.518000000000000E10    1.449149494874291E-3   2.933647570898756E-3  
 2.520000000000000E10    3.115279047051445E-3  -2.171885163988918E-3  
 2.522000000000000E10   -1.883852077298798E-3  -2.522426861105487E-3  
 2.524000000000000E10   -2.007496077567339E-3   2.831397432601079E-3  
 2.526000000000000E10    3.867321211146191E-3   2.107893757056445E-3  
 2.528000000000000E10    2.377699856879190E-3  -3.946437500417233E-3  
 2.530000000000000E10   -3.956451662816107E-3  -1.527131578768604E-3  
 2.532000000000000E10   -1.304887118749321E-3   4.060181265231222E-3  
 2.534000000000000E10    4.362766747362912E-3   8.058265229919925E-4  
 2.536000000000000E10    3.740733045560774E-4  -4.260537039954215E-3  
 2.538000000000000E10   -3.549101937096566E-3  -6.938272344996221E-4  
 2.540000000000000E10    8.254602726083249E-4   3.487056848825887E-3  
 2.542000000000000E10    3.394339699298143E-3  -1.285803373320960E-3  
 2.544000000000000E10   -1.402726760716178E-3  -3.279859258327633E-3  
 2.546000000000000E10   -2.378692413913086E-3   2.063110267044976E-3  
 2.548000000000000E10    2.455321926390752E-3   1.800612837541848E-3  
 2.550000000000000E10    1.426715214620344E-3  -3.187950816936791E-3  
 2.552000000000000E10   -3.516399738145992E-3  -1.194961121655069E-3  
 2.554000000000000E10   -1.197373858303763E-3   3.110639314400032E-3  
 2.556000000000000E10    3.975895873736590E-3   2.999874996021390E-4  
 2.558000000000000E10    2.652888470038306E-4  -4.272307036444545E-3  
 2.560000000000000E10   -3.942651324905455E-3  -9.211584401782602E-4  
 2.562000000000000E10   -3.564561229723040E-4   3.288758685812354E-3  
 2.564000000000000E10    3.798716235905886E-3  -1.034006618283456E-4  
 2.566000000000000E10   -3.325687885080697E-4  -3.925229597371072E-3  
 2.568000000000000E10   -2.931256400188431E-3   1.239898865605937E-4  
 2.570000000000000E10    7.142043104977347E-4   2.425519662210718E-3  
 2.572000000000000E10    1.882597774965689E-3  -1.581489239470102E-3  
 2.574000000000000E10   -1.811729423934594E-3  -1.833471411373466E-3  
 2.576000000000000E10   -9.691879386082292E-4   2.128290740074590E-3  
 2.578000000000000E10    2.284394402522594E-3   2.072747520287521E-7  
 2.580000000000000E10   -1.209549682243960E-4  -2.768766687950119E-3  
 2.582000000000000E10   -2.943432977190241E-3  -2.813644859998021E-4  
 2.584000000000000E10    3.214761345589068E-4   3.343748947372660E-3  
 2.586000000000000E10    3.272120520705357E-3  -6.057210121070966E-4  
 2.588000000000000E10   -7.362735123024322E-4  -3.819305391516537E-3  
 2.590000000000000E10   -3.746090951608494E-3   6.997992604738101E-4  
 2.592000000000000E10    3.756732367037330E-4   3.832389949820936E-3  
 2.594000000000000E10    3.617858310462907E-3  -1.152955199358985E-3  
 2.596000000000000E10   -1.263760554138571E-3  -3.354010201292113E-3  
 2.598000000000000E10   -3.305030637420714E-3   1.055107670254074E-3  
 2.600000000000000E10    1.401570014422759E-3   2.422897261567414E-3  
 2.602000000000000E10    1.857479117461480E-3  -1.917563320603222E-3  
 2.604000000000000E10   -2.130344626493752E-3  -1.473935306421481E-3  
 2.606000000000000E10   -7.787924187141471E-4   2.034932171227410E-3  
 2.608000000000000E10    2.003666100790724E-3   5.270110905257752E-4  
 2.610000000000000E10   -2.091985429615306E-4  -2.842110057827085E-3  
 2.612000000000000E10   -2.784713142318651E-3   4.973700779373758E-4  
 2.614000000000000E10    2.588545794424135E-4   3.156855062115938E-3  
 2.616000000000000E10    3.270665445597842E-3  -9.604576916899532E-4  
 2.618000000000000E10   -1.074381521902978E-3  -3.631265222793445E-3  
 2.620000000000000E10   -3.750397037947550E-3   1.153986566350795E-3  
 2.622000000000000E10    1.311502404860221E-3   3.373279934749007E-3  
 2.624000000000000E10    3.235363023122773E-3  -1.551522233057767E-3  
 2.626000000000000E10   -2.049497765256092E-3  -2.891947340685874E-3  
 2.628000000000000E10   -2.047634232440032E-3   1.838776632212102E-3  
 2.630000000000000E10    2.069731533993036E-3   1.693277852609754E-3  
 2.632000000000000E10    9.384247678099200E-4  -2.251020079711452E-3  
 2.634000000000000E10   -2.397822594502941E-3  -4.086981898581144E-4  
 2.636000000000000E10    1.450202489650110E-4   2.197022811742500E-3  
 2.638000000000000E10    2.294976846314967E-3  -9.654914974817075E-4  
 2.640000000000000E10   -9.483562462264672E-4  -2.654029289260507E-3  
 2.642000000000000E10   -2.673781884368509E-3   1.330573300947435E-3  
 2.644000000000000E10    1.564969992614351E-3   2.676842879736796E-3  
 2.646000000000000E10    2.866187627660111E-3  -1.592098516994156E-3  
 2.648000000000000E10   -2.171763277146965E-3  -2.699563279747963E-3  
 2.650000000000000E10   -2.850064280210063E-3   1.621551578864455E-3  
 2.652000000000000E10    1.632844301639125E-3   2.618509926833212E-3  
 2.654000000000000E10    2.007359697017819E-3  -2.338357968255878E-3  
 2.656000000000000E10   -2.064959175186232E-3  -1.828652690164745E-3  
 2.658000000000000E10   -1.285239981370978E-3   1.812782633351162E-3  
 2.660000000000000E10    1.968056691111997E-3   6.865844261483289E-4  
 2.662000000000000E10    2.654970412550028E-4  -1.981994253583252E-3  
 2.664000000000000E10   -2.064294472802430E-3   6.545915603055619E-4  
 2.666000000000000E10    9.226180045516230E-4   2.017731836531311E-3  
 2.668000000000000E10    1.842962286900729E-3  -1.345300712273456E-3  
 2.670000000000000E10   -1.713071440462954E-3  -1.816594507545233E-3  
 2.672000000000000E10   -1.970948942471296E-3   1.870789201348089E-3  
 2.674000000000000E10    1.677345455391333E-3   1.832792884670198E-3  
 2.676000000000000E10    2.038824459305033E-3  -2.040415187366307E-3  
 2.678000000000000E10   -2.051677991403267E-3  -2.218357432866469E-3  
 2.680000000000000E10   -2.076118165859953E-3   1.914142252644524E-3  
 2.682000000000000E10    1.927814679220319E-3   2.102142054354772E-3  
 2.684000000000000E10    1.678637563600205E-3  -1.779363708919846E-3  
 2.686000000000000E10   -1.879272618680261E-3  -1.044052216457203E-3  
 2.688000000000000E10   -1.071821970981546E-3   1.992563280509785E-3  
 2.690000000000000E10    1.388979202602059E-3   4.127515858272091E-4  
 2.692000000000000E10   -2.214864853158360E-4  -1.874629291705787E-3  
 2.694000000000000E10   -1.824290942749940E-3   6.051067321095616E-4  
 2.696000000000000E10    6.866272524348460E-4   1.433689583791420E-3  
 2.698000000000000E10    1.618872149265371E-3  -1.563869722303934E-3  
 2.700000000000000E10   -1.942872506333515E-3  -1.781992221367545E-3  
 2.702000000000000E10   -1.873887697001919E-3   2.145638776710257E-3  
 2.704000000000000E10    2.347412577364594E-3   1.578609124408104E-3  
 2.706000000000000E10    1.459245380829088E-3  -2.168252511182800E-3  
 2.708000000000000E10   -2.207829791586846E-3  -1.612845589988865E-3  
 2.710000000000000E10   -1.837788833654486E-3   2.334151620743796E-3  
 2.712000000000000E10    1.896736575872637E-3   1.310738429310732E-3  
 2.714000000000000E10    9.220905121765100E-4  -1.974938903003931E-3  
 2.716000000000000E10   -1.730357267661020E-3  -8.666520079714246E-4  
 2.718000000000000E10   -7.036474999040365E-4   1.369546138448641E-3  
 2.720000000000000E10    1.353246654616669E-3  -1.794696863726131E-4  
 2.722000000000000E10   -3.481945568637457E-4  -9.826745372265577E-4  
 2.724000000000000E10   -1.292159955482930E-3   1.133664962253533E-3  
 2.726000000000000E10    1.298137940466404E-3   1.021472591673955E-3  
 2.728000000000000E10    9.777371742529795E-4  -1.506040862295777E-3  
 2.730000000000000E10   -2.094228140776977E-3  -1.164386543678120E-3  
 2.732000000000000E10   -1.578133582370356E-3   2.081327314954251E-3  
 2.734000000000000E10    2.138183626811951E-3   1.487953210016713E-3  
 2.736000000000000E10    1.300132425967604E-3  -2.313343313289806E-3  
 2.738000000000000E10   -2.212561463238671E-3  -1.188001726404764E-3  
 2.740000000000000E10   -1.446860173018649E-3   2.093345712637529E-3  
 2.742000000000000E10    1.658631110331044E-3   1.146656373748556E-3  
 2.744000000000000E10    1.253565598744899E-3  -1.529297238448635E-3  
 2.746000000000000E10   -1.448326685931534E-3  -5.200001978664659E-4  
 2.748000000000000E10   -3.808873370871879E-4   1.241570513229817E-3  
 2.750000000000000E10    6.995321527938359E-4   2.956116968562128E-4  
 2.752000000000000E10   -5.031692380725872E-4  -5.127839540364221E-4  
 2.754000000000000E10   -5.509453185368329E-4   7.216093799797818E-4  
 2.756000000000000E10    8.351691285497509E-4   7.870768458815292E-4  
