#  HZ   S   RI   R     50.00 
! Rohde & Schwarz ZVA40 4Ports - Version 3.90 - 1145.1110k42 SN: 100403
! Date: 2023-10-04 06:28:31
! Measurement: S12 
! 
 2.200000000000000E10   -1.711227676423732E-3   9.466375049669296E-4  
 2.202000000000000E10    9.752713667694479E-4   1.217821947648190E-3  
 2.204000000000000E10    8.723302235011943E-4  -7.150281053327490E-4  
 2.206000000000000E10   -1.214755378896371E-3  -5.768857918155845E-4  
 2.208000000000000E10   -5.787284135294613E-4   1.106361043639481E-3  
 2.210000000000000E10    5.981385656923521E-4   5.083622163510881E-4  
 2.212000000000000E10   -3.829875913652359E-4  -7.302473277377430E-4  
 2.214000000000000E10   -1.232192378665786E-3  -2.644536252773833E-4  
 2.216000000000000E10    1.759883762133541E-4   1.989768919884227E-3  
 2.218000000000000E10    1.048192680173088E-3  -6.930156523594633E-4  
 2.220000000000000E10   -1.293618315685308E-4  -1.663473281951156E-3  
 2.222000000000000E10   -1.692712394287810E-3   1.302612137806136E-3  
 2.224000000000000E10    1.024290075292811E-3   1.475336313887965E-3  
 2.226000000000000E10    8.134873569360934E-4  -8.549974518246017E-4  
 2.228000000000000E10   -9.672701635281555E-4  -1.620424254724640E-4  
 2.230000000000000E10   -6.088892514526378E-4   1.001811971946154E-3  
 2.232000000000000E10    9.037758100021165E-4   2.360142152610933E-4  
 2.234000000000000E10   -5.398224129748996E-4   2.995772092617699E-6  
 2.236000000000000E10   -4.480851403059205E-4   1.237538217537804E-4  
 2.238000000000000E10    4.008016821899219E-4   5.337875445547979E-4  
 2.240000000000000E10   -1.305229384342965E-4  -5.185970330785494E-4  
 2.242000000000000E10   -3.353844313096488E-4  -1.340143548986816E-4  
 2.244000000000000E10    6.563056558661629E-6   6.792825115553569E-4  
 2.246000000000000E10    5.384588894230546E-4   4.982442951586563E-4  
 2.248000000000000E10    4.386753444123315E-4  -3.112579370281310E-4  
 2.250000000000000E10    3.420013501909125E-5   1.607087478987523E-4  
 2.252000000000000E10   -6.402564285963308E-4   7.980252448760439E-4  
 2.254000000000000E10    6.293160786299268E-4  -1.374743071664852E-4  
 2.256000000000000E10   -4.023241617687745E-4   4.351900861365721E-4  
 2.258000000000000E10    1.864480163931148E-4   3.638706002675463E-4  
 2.260000000000000E10    2.757449797172740E-4  -5.106439948576735E-5  
 2.262000000000000E10   -2.661503160652501E-4  -2.628930633363780E-5  
 2.264000000000000E10   -4.304958856664598E-4   2.719192689255578E-4  
 2.266000000000000E10    2.322944419574924E-4   9.804609762795735E-4  
 2.268000000000000E10    1.168127055279911E-3  -5.713359843184662E-5  
 2.270000000000000E10   -4.943512358295266E-4  -8.884863709681667E-4  
 2.272000000000000E10   -7.143348229874391E-4   1.894916185847251E-4  
 2.274000000000000E10    9.369436821771160E-5   1.215819225762971E-3  
 2.276000000000000E10    1.246619474841282E-3  -8.973785179478000E-5  
 2.278000000000000E10    1.520163236818917E-4  -7.685289565415587E-4  
 2.280000000000000E10   -7.746582341496833E-4   8.248332164839667E-5  
 2.282000000000000E10   -4.327842380007496E-4   1.152524417875611E-4  
 2.284000000000000E10    5.199859988351818E-4  -3.028459159395425E-4  
 2.286000000000000E10   -9.892502675938886E-4  -9.537613129850797E-5  
 2.288000000000000E10    2.465077113811276E-4   4.001573142886628E-4  
 2.290000000000000E10    7.964884571265429E-4  -1.244554470758885E-3  
 2.292000000000000E10   -1.214189047459513E-3  -1.045292869093828E-3  
 2.294000000000000E10   -8.919379069993738E-4   1.597822665644344E-3  
 2.296000000000000E10    1.524333580164239E-3   5.802063387818635E-4  
 2.298000000000000E10    1.639885405893438E-3  -1.540256263979245E-3  
 2.300000000000000E10   -2.064907777821645E-3  -1.202082436066121E-3  
 2.302000000000000E10   -9.754690872796346E-4   1.693003163381945E-3  
 2.304000000000000E10    1.995745078602340E-3   1.377910128212534E-3  
 2.306000000000000E10    1.109848810301628E-3  -1.776261124177836E-3  
 2.308000000000000E10   -1.583560348080937E-3  -6.952758958505001E-4  
 2.310000000000000E10   -6.223706477612723E-4   1.360863949230406E-3  
 2.312000000000000E10    1.292121269216295E-3   3.697822921822080E-4  
 2.314000000000000E10    3.925043838535203E-4  -1.462404579797294E-3  
 2.316000000000000E10   -9.594138100510463E-4   8.506329504598398E-4  
 2.318000000000000E10    9.628966399759520E-4   1.114229737140704E-3  
 2.320000000000000E10    1.401569599693175E-3  -1.395650979247876E-3  
 2.322000000000000E10   -2.346578839933500E-3  -4.226179062243318E-4  
 2.324000000000000E10   -7.915342102933209E-4   2.258992375573143E-3  
 2.326000000000000E10    3.062943418626674E-3   7.274163908732589E-4  
 2.328000000000000E10    4.963609608239494E-4  -2.681451820535585E-3  
 2.330000000000000E10   -3.075862550758757E-3  -4.983247490599752E-4  
 2.332000000000000E10   -1.345533910352970E-4   3.093382096267305E-3  
 2.334000000000000E10    2.604108725790866E-3   7.506349029426929E-4  
 2.336000000000000E10   -2.331721880182158E-4  -2.955476520583034E-3  
 2.338000000000000E10   -2.855379803804681E-3   7.892905268818140E-4  
 2.340000000000000E10    1.422743654984515E-3   2.473165164701641E-3  
 2.342000000000000E10    1.869579558842816E-3  -1.653322833590210E-3  
 2.344000000000000E10   -1.964842915185727E-3  -1.150911593867932E-3  
 2.346000000000000E10   -9.133814564847853E-4   2.241045847767964E-3  
 2.348000000000000E10    2.879273539292626E-3   8.991908543976024E-4  
 2.350000000000000E10    6.059249608370010E-4  -2.900896535720676E-3  
 2.352000000000000E10   -3.335985646117479E-3   3.413625415760180E-5  
 2.354000000000000E10    1.673793485679198E-4   3.797725454205647E-3  
 2.356000000000000E10    3.889869985869154E-3  -2.825415267579956E-4  
 2.358000000000000E10   -1.122410802054219E-3  -4.112897033337504E-3  
 2.360000000000000E10   -3.641776711447164E-3   1.582688564667478E-3  
 2.362000000000000E10    1.659197849221528E-3   3.393212537048385E-3  
 2.364000000000000E10    2.990664739627391E-3  -1.777999743353576E-3  
 2.366000000000000E10   -1.818451943108812E-3  -2.429893909720704E-3  
 2.368000000000000E10   -2.277732448419556E-3   2.724024612689391E-3  
 2.370000000000000E10    3.116505889920518E-3   1.811101436032914E-3  
 2.372000000000000E10    1.436560472939163E-3  -3.161678148899227E-3  
 2.374000000000000E10   -3.548286185832694E-3  -7.328221181523986E-5  
 2.376000000000000E10    6.705819250782952E-4   3.375866246642545E-3  
 2.378000000000000E10    3.904834389686585E-3  -1.297227587201633E-3  
 2.380000000000000E10   -1.406438183039427E-3  -4.076026903931052E-3  
 2.382000000000000E10   -3.522836166666821E-3   2.263320377096534E-3  
 2.384000000000000E10    2.665287669515237E-3   3.796817356487736E-3  
 2.386000000000000E10    4.358771140687168E-3  -2.263456262880936E-3  
 2.388000000000000E10   -2.635157026816160E-3  -4.323555040173233E-3  
 2.390000000000000E10   -3.375800879439339E-3   3.361855924595147E-3  
 2.392000000000000E10    3.459332772763446E-3   2.970403962535784E-3  
 2.394000000000000E10    2.664274332346395E-3  -4.014985985122621E-3  
 2.396000000000000E10   -3.634366439655423E-3  -1.804997824365273E-3  
 2.398000000000000E10   -2.826210802595597E-4   3.677147149574012E-3  
 2.400000000000000E10    3.637667367001995E-3  -4.487996666284744E-4  
 2.402000000000000E10   -1.614175547729246E-3  -3.755108249606565E-3  
 2.404000000000000E10   -2.875687496270984E-3   2.920315717346966E-3  
 2.406000000000000E10    2.937043318524957E-3   2.653265604749322E-3  
 2.408000000000000E10    2.596038801129907E-3  -4.043566877953708E-3  
 2.410000000000000E10   -4.560037807095796E-3  -2.720319578656927E-3  
 2.412000000000000E10   -2.403320628218353E-3   4.493908025324345E-3  
 2.414000000000000E10    4.936713085044175E-3   1.743346583680250E-3  
 2.416000000000000E10    2.206200966611505E-3  -4.983460705261678E-3  
 2.418000000000000E10   -5.162611079867929E-3  -2.201222814619541E-3  
 2.420000000000000E10   -9.366559388581663E-4   5.316428840160370E-3  
 2.422000000000000E10    4.752887994982302E-3   1.290899017476477E-3  
 2.424000000000000E10    3.710246310220100E-4  -5.187004513572902E-3  
 2.426000000000000E10   -4.632620373740792E-3   3.951800936192740E-4  
 2.428000000000000E10    1.082005881471559E-3   3.750844130991027E-3  
 2.430000000000000E10    3.352138504851610E-3  -2.326504763914272E-3  
 2.432000000000000E10   -2.801807218929753E-3  -3.034672234207392E-3  
 2.434000000000000E10   -1.646209115278907E-3   3.355843480676413E-3  
 2.436000000000000E10    3.911945997970179E-3   9.370339030283503E-4  
 2.438000000000000E10    1.497280536568724E-3  -3.571677487343550E-3  
 2.440000000000000E10   -4.638022161088884E-3  -1.028110607876442E-3  
 2.442000000000000E10   -1.660716916376259E-4   4.681008227635175E-3  
 2.444000000000000E10    4.468295490369201E-3   5.228253248787951E-4  
 2.446000000000000E10    2.066053275484592E-4  -5.092353618238121E-3  
 2.448000000000000E10   -4.597096354700625E-3  -3.878053103107959E-4  
 2.450000000000000E10   -7.668399189242336E-5   4.462928220164031E-3  
 2.452000000000000E10    4.820178146474063E-3  -6.971693946979940E-4  
 2.454000000000000E10   -6.616483224206604E-4  -4.046714748255909E-3  
 2.456000000000000E10   -3.551625617546961E-3   1.201456689159386E-3  
 2.458000000000000E10    1.914808963192627E-3   3.244717372581363E-3  
 2.460000000000000E10    2.754101005848497E-3  -2.357924851821736E-3  
 2.462000000000000E10   -3.017767186975107E-3  -2.036501304246485E-3  
 2.464000000000000E10   -1.381009031319991E-3   3.037506103282794E-3  
 2.466000000000000E10    3.447459399467334E-3   1.072714541805908E-3  
 2.468000000000000E10    1.174777396954596E-3  -4.142172168940306E-3  
 2.470000000000000E10   -3.722934226971120E-3  -9.123503259615973E-4  
 2.472000000000000E10   -1.475341377954464E-4   3.949069592636079E-3  
 2.474000000000000E10    4.056629666592926E-3   4.880320120719262E-4  
 2.476000000000000E10    5.940349510638043E-4  -4.223865340463817E-3  
 2.478000000000000E10   -4.392448405269533E-3   8.315239801959251E-5  
 2.480000000000000E10    8.164007522282191E-5   4.010756558272988E-3  
 2.482000000000000E10    4.032379714772105E-3  -4.920037754345685E-4  
 2.484000000000000E10   -8.656838035676628E-4  -3.855030896374956E-3  
 2.486000000000000E10   -2.998821291839704E-3   1.535412957309745E-3  
 2.488000000000000E10    2.139454096322879E-3   2.129275148035958E-3  
 2.490000000000000E10    1.968794924323447E-3  -2.876354643376544E-3  
 2.492000000000000E10   -2.747229475062341E-3  -1.481477345805615E-3  
 2.494000000000000E10   -6.333239580271766E-4   3.103154274867848E-3  
 2.496000000000000E10    3.888169303536415E-3   1.394904784319806E-4  
 2.498000000000000E10    2.116613413818413E-4  -3.820105339400470E-3  
 2.500000000000000E10   -4.295660357456654E-3  -9.585988811977586E-5  
 2.502000000000000E10    7.111138766049407E-4   3.866780083626509E-3  
 2.504000000000000E10    4.344917193520814E-3  -7.458043764927425E-4  
 2.506000000000000E10   -4.042002692585811E-4  -4.902575514279306E-3  
 2.508000000000000E10   -4.421165387611836E-3   2.304272547917208E-4  
 2.510000000000000E10    6.691132584819570E-4   4.091631621122360E-3  
 2.512000000000000E10    4.064697131980211E-3  -1.249547145562246E-3  
 2.514000000000000E10   -1.141280852607451E-3  -3.689436416607350E-3  
 2.516000000000000E10   -2.920162165537477E-3   1.935274747665972E-3  
 2.518000000000000E10    1.581883232574910E-3   1.825999148422852E-3  
 2.520000000000000E10    1.750127965351567E-3  -2.193502383306623E-3  
 2.522000000000000E10   -2.922290179412812E-3  -1.034777902532369E-3  
 2.524000000000000E10   -6.004775204928592E-4   2.106818050378934E-3  
 2.526000000000000E10    2.783792238915339E-3  -2.036439691437408E-4  
 2.528000000000000E10   -7.678324327571318E-4  -3.667900426080450E-3  
 2.530000000000000E10   -3.766342793824151E-3   7.497137194150128E-4  
 2.532000000000000E10    1.579704039613716E-3   3.676972555695102E-3  
 2.534000000000000E10    3.613294014940038E-3  -1.715001882985234E-3  
 2.536000000000000E10   -2.090496884193271E-3  -4.089192661922425E-3  
 2.538000000000000E10   -3.908406826667488E-3   2.170441875932738E-3  
 2.540000000000000E10    1.587634847965092E-3   3.291469620307908E-3  
 2.542000000000000E10    3.004649799549952E-3  -2.196166577050462E-3  
 2.544000000000000E10   -2.778997906716541E-3  -2.839253807906061E-3  
 2.546000000000000E10   -2.562229608884081E-3   2.006499547860585E-3  
 2.548000000000000E10    2.340040256967768E-3   1.511297610704787E-3  
 2.550000000000000E10    6.667859997833148E-4  -2.618171478388831E-3  
 2.552000000000000E10   -3.127441130345687E-3  -4.669241097872146E-4  
 2.554000000000000E10    4.636583107640036E-4   2.457840164424852E-3  
 2.556000000000000E10    2.159467403544113E-3  -3.601333664846607E-4  
 2.558000000000000E10   -1.674039172939956E-3  -2.824501571012661E-3  
 2.560000000000000E10   -2.991562971146777E-3   1.881696007330902E-3  
 2.562000000000000E10    1.384482675348409E-3   2.749699051491916E-3  
 2.564000000000000E10    2.401527774054557E-3  -2.414731803582981E-3  
 2.566000000000000E10   -3.291025466751307E-3  -2.898063539760187E-3  
 2.568000000000000E10   -2.419010328594595E-3   3.049764811294153E-3  
 2.570000000000000E10    2.728550723986700E-3   1.943559444043785E-3  
 2.572000000000000E10    1.411840887158178E-3  -2.767021447652951E-3  
 2.574000000000000E10   -2.960914309369400E-3  -8.682849147589877E-4  
 2.576000000000000E10   -7.466746101272292E-4   2.852421574061737E-3  
 2.578000000000000E10    1.966800569789484E-3   2.875105928978883E-5  
 2.580000000000000E10   -6.766683873138391E-4  -2.331439609406516E-3  
 2.582000000000000E10   -2.589538780739531E-3   8.095485027297400E-4  
 2.584000000000000E10    8.725788356969133E-4   2.457549679093063E-3  
 2.586000000000000E10    2.070097805699334E-3  -1.725653084577061E-3  
 2.588000000000000E10   -2.156274684239179E-3  -1.948256744071841E-3  
 2.590000000000000E10   -2.273717225762084E-3   2.320275671081618E-3  
 2.592000000000000E10    2.323594089830294E-3   2.541405148804188E-3  
 2.594000000000000E10    2.277226973092184E-3  -2.481007802998647E-3  
 2.596000000000000E10   -3.194017888745293E-3  -2.046917448751628E-3  
 2.598000000000000E10   -1.740699430229142E-3   2.930401766207069E-3  
 2.600000000000000E10    2.534034341806546E-3   1.834184411563911E-3  
 2.602000000000000E10    1.218583231093362E-3  -2.614038850879297E-3  
 2.604000000000000E10   -2.367091597989202E-3  -4.135010167374276E-4  
 2.606000000000000E10   -1.168193425655772E-4   2.223343646619469E-3  
 2.608000000000000E10    1.466151210479438E-3  -2.010272091865772E-4  
 2.610000000000000E10   -4.347982503531966E-4  -1.463534237700515E-3  
 2.612000000000000E10   -1.598724484210834E-3   1.089702054741792E-3  
 2.614000000000000E10    1.650455262279138E-3   1.606841324246489E-3  
 2.616000000000000E10    1.833341520978138E-3  -2.005603600991890E-3  
 2.618000000000000E10   -2.579611697001383E-3  -1.645804892177694E-3  
 2.620000000000000E10   -1.396746971295215E-3   2.985800179885700E-3  
 2.622000000000000E10    3.168479306623340E-3   1.661826609051786E-3  
 2.624000000000000E10    1.591590465977788E-3  -3.199133730959147E-3  
 2.626000000000000E10   -3.430022479733452E-3  -1.450552139431238E-3  
 2.628000000000000E10   -1.064082243829034E-3   3.974162071244791E-3  
 2.630000000000000E10    3.197154670488089E-3   6.379423211910762E-4  
 2.632000000000000E10    5.351537984097377E-4  -2.972840331494808E-3  
 2.634000000000000E10   -2.745402918662876E-3   4.097040036867838E-4  
 2.636000000000000E10    5.276815318211447E-4   1.929660618770868E-3  
 2.638000000000000E10    1.771359529811889E-3  -6.039375512045808E-4  
 2.640000000000000E10   -1.488926674937829E-3  -1.401456407620572E-3  
 2.642000000000000E10   -1.365567484754138E-3   1.484606342273764E-3  
 2.644000000000000E10    1.982273635803722E-3   1.232556795002893E-3  
 2.646000000000000E10    1.156677230028436E-3  -2.416689618257806E-3  
 2.648000000000000E10   -2.833169681252912E-3  -1.082033049897291E-3  
 2.650000000000000E10   -7.274678646354005E-4   2.954604744445533E-3  
 2.652000000000000E10    3.379412111826241E-3   7.297153715626337E-4  
 2.654000000000000E10    2.104728901031194E-4  -3.473819408100098E-3  
 2.656000000000000E10   -3.261036064941436E-3  -3.959224272875872E-6  
 2.658000000000000E10    2.708635702219908E-5   3.307531791506335E-3  
 2.660000000000000E10    2.460268966387957E-3  -1.557705932100362E-4  
 2.662000000000000E10   -4.680353522417136E-4  -2.505170879885554E-3  
 2.664000000000000E10   -2.261809946503490E-3   9.344802965642884E-4  
 2.666000000000000E10    1.018798880977556E-3   1.381875830702484E-3  
 2.668000000000000E10    9.283574763685465E-4  -1.139207088272087E-3  
 2.670000000000000E10   -1.424544781912118E-3  -6.314826168818399E-4  
 2.672000000000000E10   -3.835517854895443E-4   1.801935737603344E-3  
 2.674000000000000E10    1.972756930626929E-3   2.260663168272004E-4  
 2.676000000000000E10    9.061248010766576E-5  -1.947828903212212E-3  
 2.678000000000000E10   -2.660917380126193E-3   5.942848366657927E-5  
 2.680000000000000E10   -1.620430948605645E-4   3.038355760509148E-3  
 2.682000000000000E10    2.624214539537206E-3   2.780192744467058E-5  
 2.684000000000000E10   -1.936178096002550E-4  -3.037452086573467E-3  
 2.686000000000000E10   -3.052042360650376E-3   5.192687895032577E-4  
 2.688000000000000E10    4.785081255249679E-4   2.520520705729723E-3  
 2.690000000000000E10    2.671085705514997E-3  -3.901706149918027E-4  
 2.692000000000000E10   -5.802155574201606E-4  -1.834980008425191E-3  
 2.694000000000000E10   -1.697801111731678E-3   9.762804547790438E-4  
 2.696000000000000E10    1.134077931055799E-3   1.491158371209167E-3  
 2.698000000000000E10    1.000814358121716E-3  -5.941473718849011E-4  
 2.700000000000000E10   -1.429163457942195E-3  -3.110046709480230E-4  
 2.702000000000000E10    9.540473843117070E-5   1.727470589685254E-3  
 2.704000000000000E10    1.405742223141715E-3   2.646321372594684E-4  
 2.706000000000000E10   -3.421228575462010E-4  -1.959996065124869E-3  
 2.708000000000000E10   -2.079492609482259E-3   3.081512986682355E-4  
 2.710000000000000E10    4.364502292446559E-4   2.652648312505335E-3  
 2.712000000000000E10    2.775382512481883E-3  -6.331749536911957E-4  
 2.714000000000000E10   -6.117638040450402E-4  -2.339078026125208E-3  
 2.716000000000000E10   -2.646264649229124E-3   8.495280271745287E-4  
 2.718000000000000E10    6.137813907116652E-4   2.287113107740879E-3  
 2.720000000000000E10    1.978597429115325E-3  -1.659600002312800E-4  
 2.722000000000000E10   -8.806753539829515E-4  -1.831883695558645E-3  
 2.724000000000000E10   -1.708755400613882E-3   8.211542444769293E-4  
 2.726000000000000E10    9.547773079248145E-4   1.237444419530220E-3  
 2.728000000000000E10    6.372112111421302E-4  -1.068461817339994E-3  
 2.730000000000000E10   -1.158894519903697E-3  -3.239971520088147E-4  
 2.732000000000000E10    1.872808034022455E-4   1.573636618559249E-3  
 2.734000000000000E10    1.812915943446569E-3  -3.413793092477135E-4  
 2.736000000000000E10   -4.742714190797415E-4  -1.519277677289210E-3  
 2.738000000000000E10   -2.341509854886681E-3   8.620617591077462E-4  
 2.740000000000000E10    9.974163258448243E-4   1.969661185285077E-3  
 2.742000000000000E10    1.948328368598595E-3  -4.970575391780585E-4  
 2.744000000000000E10   -8.070007170317695E-4  -1.979850145289674E-3  
 2.746000000000000E10   -1.688148797256872E-3   4.647528330679052E-4  
 2.748000000000000E10    7.249092886922881E-4   1.848082421929576E-3  
 2.750000000000000E10    1.676915955613367E-3  -6.211430882103741E-4  
 2.752000000000000E10   -5.179536456125788E-4  -1.549176042317413E-3  
 2.754000000000000E10   -7.764829788357019E-4   1.059318135958165E-3  
 2.756000000000000E10    6.372975185513496E-4   5.269381217658520E-4  
