#  HZ   S   RI   R     50.00 
! Rohde & Schwarz ZVA40 4Ports - Version 3.90 - 1145.1110k42 SN: 100403
! Date: 2023-10-04 06:29:11
! Measurement: S12 
! 
 2.200000000000000E10   -3.831249705399387E-4  -9.775250437087379E-4  
 2.202000000000000E10   -1.010405103443191E-3   5.793762538814917E-4  
 2.204000000000000E10    2.350336399103981E-4   7.512942538596690E-4  
 2.206000000000000E10    7.949034115881659E-4   2.344292406633031E-4  
 2.208000000000000E10   -3.905896519427188E-4  -7.666583114769310E-4  
 2.210000000000000E10   -8.798216658760794E-4   6.917189311934635E-4  
 2.212000000000000E10    5.044062345405109E-4   1.112220954382792E-3  
 2.214000000000000E10    4.636393714463338E-5  -2.401292476861272E-4  
 2.216000000000000E10   -8.708389723324217E-4   9.815867997531313E-5  
 2.218000000000000E10    1.929412078425230E-4   1.256873569218442E-3  
 2.220000000000000E10    7.134092229534872E-4  -4.340033410699107E-4  
 2.222000000000000E10   -5.571875481109601E-4  -4.070535214850679E-4  
 2.224000000000000E10   -7.625956932315603E-4   9.553338895784691E-4  
 2.226000000000000E10    6.650419745710678E-4   5.534013544092886E-4  
 2.228000000000000E10    3.944718373531941E-4  -5.164929098100402E-4  
 2.230000000000000E10   -1.680643903796408E-4   9.885445979307406E-5  
 2.232000000000000E10    7.590336508656037E-5   3.445574002398644E-4  
 2.234000000000000E10    2.558471514930716E-4   9.489543913332454E-5  
 2.236000000000000E10   -4.828913079109043E-4   1.766881905496121E-4  
 2.238000000000000E10    5.786559313492035E-5   3.828665903711226E-4  
 2.240000000000000E10    2.539454544603359E-4   3.049043007194996E-4  
 2.242000000000000E10   -6.766726946807466E-4  -8.783321536611766E-4  
 2.244000000000000E10   -9.947163562173955E-5   5.658377667714376E-4  
 2.246000000000000E10    2.978475604322739E-4   8.492787601426244E-4  
 2.248000000000000E10    7.358157090493478E-4  -7.516108667005028E-5  
 2.250000000000000E10    8.446012179774698E-5  -7.512375959777273E-4  
 2.252000000000000E10   -1.050870530889370E-3   5.442228575702757E-4  
 2.254000000000000E10    6.260665838908608E-5   1.088325734599493E-3  
 2.256000000000000E10    7.112496823538095E-4  -9.519094169263553E-5  
 2.258000000000000E10   -1.852674286055844E-4  -2.423886726319324E-4  
 2.260000000000000E10   -4.032153738080524E-4   1.126457864302211E-4  
 2.262000000000000E10    3.370886188349687E-4   1.352025392407086E-4  
 2.264000000000000E10   -1.374190032947809E-4  -5.270089013720281E-5  
 2.266000000000000E10   -5.399748042691499E-4   5.375309192459099E-4  
 2.268000000000000E10    6.425253595807590E-4   6.220743598532863E-4  
 2.270000000000000E10    9.734459963510744E-4  -7.262903454829939E-4  
 2.272000000000000E10   -5.679864989360794E-4  -7.801805695635267E-4  
 2.274000000000000E10   -1.117209292715415E-3   1.010095031233504E-3  
 2.276000000000000E10    1.223475992446765E-3   1.211920825880952E-3  
 2.278000000000000E10    1.058266760082915E-3  -1.050615217536688E-3  
 2.280000000000000E10   -9.028359563671984E-4  -1.169724127976224E-3  
 2.282000000000000E10   -1.700218810583465E-3   4.913062475679908E-4  
 2.284000000000000E10    1.187854155432433E-3   8.526775491191074E-4  
 2.286000000000000E10    8.839844231260940E-4  -1.544151906273328E-3  
 2.288000000000000E10   -1.352597901131958E-3   1.698425494396361E-4  
 2.290000000000000E10    1.082819799194112E-4   1.475320212193765E-3  
 2.292000000000000E10    1.645636642933823E-3  -8.765029706410132E-4  
 2.294000000000000E10   -3.794036711042281E-4  -6.772374545107596E-4  
 2.296000000000000E10   -1.216629549162462E-3   1.007274753646925E-3  
 2.298000000000000E10    1.588935512700118E-3   1.168452930869535E-3  
 2.300000000000000E10    1.785060710972175E-3  -1.342665753327310E-3  
 2.302000000000000E10   -1.641143389861099E-3  -1.545570834423415E-3  
 2.304000000000000E10   -1.179938102723099E-3   1.694503458566032E-3  
 2.306000000000000E10    2.206255769124255E-3   1.413918726029806E-3  
 2.308000000000000E10    1.141625871241558E-3  -2.305074740434066E-3  
 2.310000000000000E10   -1.341625247732736E-3  -1.287927923840471E-3  
 2.312000000000000E10   -9.744008566485718E-4   2.091335452860221E-3  
 2.314000000000000E10    2.078568213619292E-3   4.568358781398274E-4  
 2.316000000000000E10    8.261560724349693E-4  -1.650561098358594E-3  
 2.318000000000000E10   -2.006132068345323E-3   7.354965055128560E-4  
 2.320000000000000E10    6.338397215586156E-4   1.392479360220023E-3  
 2.322000000000000E10    1.666786236455664E-3  -1.247032691026107E-3  
 2.324000000000000E10   -2.114726084982976E-3  -1.072447252226993E-3  
 2.326000000000000E10   -9.544727945467457E-4   1.799706937163137E-3  
 2.328000000000000E10    3.397436114028096E-3   6.433356320485473E-4  
 2.330000000000000E10    1.289323190576397E-4  -2.931996859842911E-3  
 2.332000000000000E10   -2.883029024815187E-3  -3.586298953450751E-4  
 2.334000000000000E10   -3.361947165103629E-4   3.717672021593899E-3  
 2.336000000000000E10    3.553302667569369E-3   4.892937868135050E-4  
 2.338000000000000E10    3.232526032661554E-4  -3.558391006663442E-3  
 2.340000000000000E10   -3.789977141423151E-3  -4.925180064674350E-5  
 2.342000000000000E10    2.691474378480052E-5   3.559543518349528E-3  
 2.344000000000000E10    2.984585706144571E-3  -9.795630176085979E-4  
 2.346000000000000E10   -1.344432734185830E-3  -2.415188268059865E-3  
 2.348000000000000E10   -2.019882696913555E-3   1.455965786590241E-3  
 2.350000000000000E10    2.221599221229553E-3   1.922883646329865E-3  
 2.352000000000000E10    1.208688583574258E-3  -2.100585697917268E-3  
 2.354000000000000E10   -2.462453849148005E-3  -4.700281861005351E-4  
 2.356000000000000E10   -5.367807607399300E-4   3.240123012801632E-3  
 2.358000000000000E10    3.497666795738041E-3   1.394607852489571E-5  
 2.360000000000000E10   -5.530131165869534E-4  -3.768677008338273E-3  
 2.362000000000000E10   -4.271281650289893E-3   1.375296837068163E-3  
 2.364000000000000E10    1.721999666187912E-3   4.399298690259457E-3  
 2.366000000000000E10    4.173942201305181E-3  -2.012802462559193E-3  
 2.368000000000000E10   -1.848680534749292E-3  -3.598688257625327E-3  
 2.370000000000000E10   -3.598000999772921E-3   2.301991742569953E-3  
 2.372000000000000E10    2.569430187577382E-3   3.872165427310392E-3  
 2.374000000000000E10    2.837050269590691E-3  -3.140296175843105E-3  
 2.376000000000000E10   -3.451327676884830E-3  -1.659077315707691E-3  
 2.378000000000000E10   -8.411040616920218E-4   3.053799824556336E-3  
 2.380000000000000E10    3.257897420553491E-3   2.688047734409338E-4  
 2.382000000000000E10   -4.819180958293146E-6  -3.433127974858508E-3  
 2.384000000000000E10   -3.038864204427227E-3   6.766284495824948E-4  
 2.386000000000000E10    1.669943070737645E-3   3.422494424739853E-3  
 2.388000000000000E10    4.059920320287347E-3  -2.084664622088894E-3  
 2.390000000000000E10   -2.582842804258689E-3  -3.464331530267373E-3  
 2.392000000000000E10   -3.598908049752936E-3   2.824579220032319E-3  
 2.394000000000000E10    3.363491210620850E-3   3.916261688573286E-3  
 2.396000000000000E10    3.572876506950706E-3  -4.190842562820762E-3  
 2.398000000000000E10   -3.788940317463130E-3  -3.192906326148659E-3  
 2.400000000000000E10   -2.175946487113833E-3   3.921899071428925E-3  
 2.402000000000000E10    4.470339859835804E-3   8.184237158275209E-4  
 2.404000000000000E10    1.024945566314273E-3  -4.008992225863040E-3  
 2.406000000000000E10   -3.934858279535547E-3   3.597499235183932E-4  
 2.408000000000000E10    8.116494354908355E-4   3.727731644175947E-3  
 2.410000000000000E10    3.768068680074066E-3  -1.652652790653519E-3  
 2.412000000000000E10   -2.127984800608829E-3  -3.462370339548215E-3  
 2.414000000000000E10   -3.184406639775261E-3   2.120118238963187E-3  
 2.416000000000000E10    2.902221254771575E-3   3.012720146216452E-3  
 2.418000000000000E10    3.117033280432224E-3  -3.286252525867894E-3  
 2.420000000000000E10   -3.946103504858911E-3  -3.239076264435425E-3  
 2.422000000000000E10   -3.012938861502335E-3   4.045021749334410E-3  
 2.424000000000000E10    4.532633931376040E-3   2.391812915448099E-3  
 2.426000000000000E10    2.167879632906988E-3  -5.184219335205853E-3  
 2.428000000000000E10   -4.990340210497379E-3  -1.323258984484710E-3  
 2.430000000000000E10   -1.558999792905524E-3   4.017476865556091E-3  
 2.432000000000000E10    4.549751523882151E-3   2.274053204018856E-4  
 2.434000000000000E10   -2.850753953680396E-4  -3.891754895448685E-3  
 2.436000000000000E10   -3.227876411983743E-3   4.511632505455054E-4  
 2.438000000000000E10    1.523830942460336E-3   2.833185397321358E-3  
 2.440000000000000E10    2.736764028668404E-3  -1.686614894424565E-3  
 2.442000000000000E10   -2.811800717609003E-3  -2.482324838638306E-3  
 2.444000000000000E10   -2.217004337580875E-3   3.122326103039086E-3  
 2.446000000000000E10    3.850944951409474E-3   1.829091241233982E-3  
 2.448000000000000E10    1.959465706022456E-3  -4.513980238698423E-3  
 2.450000000000000E10   -4.558870103210211E-3  -1.817741504055448E-3  
 2.452000000000000E10   -1.300682124565356E-3   4.730220593046397E-3  
 2.454000000000000E10    5.285369348712266E-3   1.445561589207500E-3  
 2.456000000000000E10    1.421907538315281E-3  -5.065279081463814E-3  
 2.458000000000000E10   -4.908651520963758E-3  -8.079899853328243E-4  
 2.460000000000000E10   -6.764763602404855E-4   4.466762242373079E-3  
 2.462000000000000E10    4.131828784011304E-3   5.668803787557408E-4  
 2.464000000000000E10   -1.460492944715952E-5  -3.730804775841534E-3  
 2.466000000000000E10   -3.008552826941013E-3   2.059536368506088E-4  
 2.468000000000000E10    9.348094754386693E-4   2.514202147722244E-3  
 2.470000000000000E10    2.447566861519590E-3  -1.519221914350055E-3  
 2.472000000000000E10   -1.746596753946506E-3  -1.526841268059798E-3  
 2.474000000000000E10   -1.497873832704499E-3   1.863151963334531E-3  
 2.476000000000000E10    3.179210383677855E-3   1.541632780572400E-3  
 2.478000000000000E10    1.058171779732220E-3  -3.504845313727856E-3  
 2.480000000000000E10   -4.042548884171993E-3  -2.202446521550883E-4  
 2.482000000000000E10   -2.484387405274902E-4   4.255603475030512E-3  
 2.484000000000000E10    4.736552480608225E-3   1.743009534038720E-4  
 2.486000000000000E10   -1.871290323833819E-4  -4.715310758911073E-3  
 2.488000000000000E10   -4.508753248956054E-3   6.816751847509295E-4  
 2.490000000000000E10    5.913691711612046E-4   3.873270616168156E-3  
 2.492000000000000E10    4.070643160957843E-3  -4.416697374836076E-4  
 2.494000000000000E10   -5.481089465320110E-4  -3.637298505054787E-3  
 2.496000000000000E10   -3.306425787741318E-3   8.197382849175483E-4  
 2.498000000000000E10    1.431408236385323E-3   2.950306632556021E-3  
 2.500000000000000E10    2.726239094045013E-3  -1.856277187471278E-3  
 2.502000000000000E10   -2.112997142830864E-3  -2.022494212724268E-3  
 2.504000000000000E10   -1.301941374549642E-3   2.219518646597862E-3  
 2.506000000000000E10    2.644518564920872E-3   1.117004838306457E-3  
 2.508000000000000E10    1.202296611154452E-3  -3.683380142319948E-3  
 2.510000000000000E10   -3.364119271282107E-3  -6.905850314069539E-4  
 2.512000000000000E10   -1.625707609491656E-4   3.619000024627894E-3  
 2.514000000000000E10    4.431304754689336E-3  -3.851098081213422E-4  
 2.516000000000000E10   -7.396845030598342E-4  -4.213039996102452E-3  
 2.518000000000000E10   -3.782480896916241E-3   8.361953077837825E-4  
 2.520000000000000E10    1.662547438172624E-3   3.394109255168587E-3  
 2.522000000000000E10    2.971539797727019E-3  -1.215538621181622E-3  
 2.524000000000000E10   -1.428154617315158E-3  -2.955463889520615E-3  
 2.526000000000000E10   -2.140758791938424E-3   1.219889672938734E-3  
 2.528000000000000E10    1.538805867312476E-3   2.006394672207534E-3  
 2.530000000000000E10    1.657869812333956E-3  -2.273596008308232E-3  
 2.532000000000000E10   -2.533832681365311E-3  -1.413822028553113E-3  
 2.534000000000000E10   -7.852539711166173E-4   2.476354187820107E-3  
 2.536000000000000E10    2.821340283844620E-3  -2.043876302195713E-4  
 2.538000000000000E10   -1.548999207443558E-4  -3.477110702078790E-3  
 2.540000000000000E10   -3.909758350346237E-3   3.738145387615077E-4  
 2.542000000000000E10    1.040143048157916E-3   2.945037500467151E-3  
 2.544000000000000E10    3.886234713718295E-3  -1.143756730016321E-3  
 2.546000000000000E10   -1.899107301142067E-3  -4.261262132786214E-3  
 2.548000000000000E10   -3.487105248495936E-3   1.310551044298336E-3  
 2.550000000000000E10    1.692238351097331E-3   3.112027770839632E-3  
 2.552000000000000E10    2.482625073753297E-3  -2.149734704289585E-3  
 2.554000000000000E10   -1.943467505043373E-3  -2.247651515062898E-3  
 2.556000000000000E10   -1.844396494561806E-3   1.392993988702074E-3  
 2.558000000000000E10    1.257093739695847E-3   1.028519356623292E-3  
 2.560000000000000E10    4.929874266963452E-4  -2.191564184613526E-3  
 2.562000000000000E10   -2.110649715177715E-3  -4.902688815491274E-4  
 2.564000000000000E10   -5.115013482281938E-5   1.953864877577871E-3  
 2.566000000000000E10    2.578184590674937E-3  -9.637129987822846E-4  
 2.568000000000000E10   -1.817728625610471E-3  -2.850092423614115E-3  
 2.570000000000000E10   -2.746786689385772E-3   1.846860483055934E-3  
 2.572000000000000E10    1.848034036811441E-3   2.622056403197348E-3  
 2.574000000000000E10    2.260115987155587E-3  -2.336728502996266E-3  
 2.576000000000000E10   -3.147593757603318E-3  -2.686419815290719E-3  
 2.578000000000000E10   -2.906966139562428E-3   2.717496769037098E-3  
 2.580000000000000E10    2.337024954613298E-3   2.324315020814538E-3  
 2.582000000000000E10    2.112889196723700E-3  -2.732792112510651E-3  
 2.584000000000000E10   -3.161371569149196E-3  -2.047125017270446E-3  
 2.586000000000000E10   -1.654557301662862E-3   2.728964958805591E-3  
 2.588000000000000E10    2.216006279923022E-3   9.777539526112378E-4  
 2.590000000000000E10    1.908611120597925E-4  -1.992253237403929E-3  
 2.592000000000000E10   -2.556660794652998E-3  -1.479654747527093E-4  
 2.594000000000000E10    2.823009563144296E-4   2.202568342909217E-3  
 2.596000000000000E10    2.333220327273011E-3  -1.220601843670011E-3  
 2.598000000000000E10   -1.772764342604205E-3  -2.209287718869746E-3  
 2.600000000000000E10   -2.068531408440322E-3   2.366825530771166E-3  
 2.602000000000000E10    2.743382996413857E-3   1.794132345821708E-3  
 2.604000000000000E10    1.635394786717370E-3  -2.440561074763537E-3  
 2.606000000000000E10   -2.955985954031348E-3  -1.198169018607587E-3  
 2.608000000000000E10   -1.559903059387580E-3   2.819803426973522E-3  
 2.610000000000000E10    2.496160217560828E-3   1.785285188816488E-3  
 2.612000000000000E10    1.151090167695656E-3  -2.528482116758823E-3  
 2.614000000000000E10   -2.680423669517040E-3  -1.266304170712829E-3  
 2.616000000000000E10   -8.249114471254870E-4   2.257707121316344E-3  
 2.618000000000000E10    2.205688215326518E-3   3.280259043094702E-4  
 2.620000000000000E10   -5.886082362849265E-6  -2.188125334214419E-3  
 2.622000000000000E10   -1.917647401569411E-3   6.042527384124696E-4  
 2.624000000000000E10    1.119959983043373E-3   2.159304218366742E-3  
 2.626000000000000E10    2.048086782451719E-3  -1.464555709389970E-3  
 2.628000000000000E10   -1.852386194514111E-3  -1.818458724301308E-3  
 2.630000000000000E10   -1.855237991549075E-3   2.433222951367497E-3  
 2.632000000000000E10    2.710876346100122E-3   1.813646405935288E-3  
 2.634000000000000E10    1.619322982151061E-3  -2.878514060284942E-3  
 2.636000000000000E10   -3.034341731108725E-3  -1.652484614169225E-3  
 2.638000000000000E10   -1.613345666555688E-3   2.811551559716463E-3  
 2.640000000000000E10    2.746579179074615E-3   1.184215827379376E-3  
 2.642000000000000E10    9.557045850669965E-4  -2.903247310314328E-3  
 2.644000000000000E10   -2.634515578392893E-3  -4.522203744272701E-4  
 2.646000000000000E10   -6.288745353231207E-4   2.557077037636191E-3  
 2.648000000000000E10    2.148779691196978E-3  -9.161319030681625E-5  
 2.650000000000000E10   -5.825072439620271E-4  -1.753726042807102E-3  
 2.652000000000000E10   -1.762451429385692E-3   1.114697719458491E-3  
 2.654000000000000E10    1.616438414203003E-3   1.373886771034449E-3  
 2.656000000000000E10    8.586292969994247E-4  -1.726937800412998E-3  
 2.658000000000000E10   -2.277239400427789E-3  -1.066032971721143E-3  
 2.660000000000000E10   -8.540344715584070E-4   2.663361723534763E-3  
 2.662000000000000E10    2.631322306115180E-3   5.779618222732097E-4  
 2.664000000000000E10    7.133794424589723E-4  -3.049439925234765E-3  
 2.666000000000000E10   -3.295755537692457E-3  -3.183158332831226E-4  
 2.668000000000000E10   -2.047239831881598E-4   2.757370762992650E-3  
 2.670000000000000E10    2.644884632900357E-3   4.201153715257533E-4  
 2.672000000000000E10    7.334923884627642E-5  -2.726902253925800E-3  
 2.674000000000000E10   -2.425904211122543E-3  -1.112767749873456E-4  
 2.676000000000000E10   -9.077958236503037E-5   2.066055807517842E-3  
 2.678000000000000E10    1.528290071291849E-3  -3.098285960732028E-4  
 2.680000000000000E10   -7.266344036906958E-4  -1.575421309098601E-3  
 2.682000000000000E10   -1.081051101209596E-3   8.146811451297253E-4  
 2.684000000000000E10    6.808648322476074E-4   7.797836005920544E-4  
 2.686000000000000E10    7.948524435050786E-4  -1.640458445763215E-3  
 2.688000000000000E10   -2.033459197264165E-3  -3.439094507484697E-4  
 2.690000000000000E10   -2.443974808556959E-4   2.244774426799268E-3  
 2.692000000000000E10    2.557662024628371E-3   1.703618290775921E-4  
 2.694000000000000E10   -4.561066361929989E-5  -2.509897283744067E-3  
 2.696000000000000E10   -2.361166349146515E-3   7.775404992571566E-5  
 2.698000000000000E10   -3.555939838406630E-4   2.569351228885353E-3  
 2.700000000000000E10    2.385593601502478E-3   2.057332785625476E-4  
 2.702000000000000E10   -2.844116352207493E-6  -2.352326759137213E-3  
 2.704000000000000E10   -2.089047746267170E-3   1.745256813592278E-4  
 2.706000000000000E10    1.972476675291546E-4   1.803469029255211E-3  
 2.708000000000000E10    1.456175348721445E-3  -2.825305200531147E-4  
 2.710000000000000E10   -7.757751882309094E-4  -1.084208313841373E-3  
 2.712000000000000E10   -7.219206745503470E-4   9.918302530422807E-4  
 2.714000000000000E10    1.254083268577233E-3   7.060640491545200E-4  
 2.716000000000000E10   -2.008322007895913E-4  -1.485037442762405E-3  
 2.718000000000000E10   -1.811914145946503E-3   2.389426481386181E-4  
 2.720000000000000E10    4.102397142560221E-4   2.136351482477039E-3  
 2.722000000000000E10    2.044758060947061E-3   1.780789316399023E-4  
 2.724000000000000E10   -1.561473945912439E-4  -2.244515693746507E-3  
 2.726000000000000E10   -2.331357973162085E-3   6.684562395093963E-4  
 2.728000000000000E10    3.239319339627400E-4   2.256141218822449E-3  
 2.730000000000000E10    2.285328169818968E-3   5.442493090868084E-6  
 2.732000000000000E10   -2.920307051681448E-4  -1.947064534761012E-3  
 2.734000000000000E10   -2.181303687393665E-3   4.131032910663635E-4  
 2.736000000000000E10    2.822994865709916E-4   1.882868207758293E-3  
 2.738000000000000E10    1.412671437719837E-3  -3.604624653235078E-4  
 2.740000000000000E10   -8.628960204077885E-4  -1.161082618637011E-3  
 2.742000000000000E10   -3.421267028898001E-4   5.355300818337128E-4  
 2.744000000000000E10    8.625983027741313E-4   3.838535412796773E-4  
 2.746000000000000E10   -2.138916370313382E-4  -1.319766510277987E-3  
 2.748000000000000E10   -1.338036148808897E-3   1.055140601238236E-3  
 2.750000000000000E10    5.929004983045161E-4   1.597597263753414E-3  
 2.752000000000000E10    1.862463803263381E-3  -6.804062577430159E-4  
 2.754000000000000E10   -1.405895221978426E-3  -1.766216271789745E-3  
 2.756000000000000E10   -1.775418466422707E-3   1.138420833740383E-3  
