#  HZ   S   RI   R     50.00 
! Rohde & Schwarz ZVA40 4Ports - Version 3.90 - 1145.1110k42 SN: 100403
! Date: 2023-10-04 06:29:34
! Measurement: S12 
! 
 2.200000000000000E10   -1.272316279937513E-3  -3.479176448308863E-4  
 2.202000000000000E10   -8.959911428974010E-5   1.232663926202804E-3  
 2.204000000000000E10    8.799192728474736E-4   6.179271731525660E-4  
 2.206000000000000E10    5.019575291953515E-4  -6.465884289355017E-4  
 2.208000000000000E10   -6.693222312605940E-4   1.817709453462157E-4  
 2.210000000000000E10   -3.384672381798737E-4   8.720402183826082E-4  
 2.212000000000000E10    5.719584587495774E-4   3.933934858650900E-4  
 2.214000000000000E10    4.281733854440972E-4  -3.860613032884430E-4  
 2.216000000000000E10   -7.794964476488531E-4   5.520132326637395E-4  
 2.218000000000000E10    8.479592288495041E-4   9.658650742494501E-5  
 2.220000000000000E10    2.774989116005600E-4  -2.820374049861130E-7  
 2.222000000000000E10   -8.909269308787771E-4   4.329222065280192E-4  
 2.224000000000000E10    1.163320208434016E-3   1.304621633607894E-3  
 2.226000000000000E10    6.219364004209638E-4  -4.775651941599790E-4  
 2.228000000000000E10   -8.103768195724115E-4  -6.705516243528109E-4  
 2.230000000000000E10   -4.125295345147606E-4   1.743461762089282E-3  
 2.232000000000000E10    1.489265734562650E-3   5.294635484460741E-4  
 2.234000000000000E10    2.572773992142174E-4  -1.107914824387990E-3  
 2.236000000000000E10   -3.514599593472667E-4   5.234792843111791E-4  
 2.238000000000000E10    4.714915157819632E-4   1.064144686097279E-3  
 2.240000000000000E10    8.502541168127209E-4  -1.062509778421372E-3  
 2.242000000000000E10   -6.202354124980047E-4   2.156753726012539E-4  
 2.244000000000000E10   -5.093260479043238E-4   9.350846594315954E-4  
 2.246000000000000E10    1.366036522085778E-3   2.539756205806043E-4  
 2.248000000000000E10    3.956188411393669E-4  -1.216418575495482E-3  
 2.250000000000000E10   -9.436995824216865E-4  -3.493018230074085E-4  
 2.252000000000000E10   -3.350204096932430E-4   9.477763160248287E-4  
 2.254000000000000E10    1.586246697115712E-3   3.094500279985368E-4  
 2.256000000000000E10    4.727460327558219E-5  -1.548042244394310E-3  
 2.258000000000000E10   -9.410718048457056E-4  -1.795282532839337E-4  
 2.260000000000000E10    3.263378857809585E-4   1.161617852631025E-3  
 2.262000000000000E10    1.032420470437501E-3  -5.937420792179182E-4  
 2.264000000000000E10   -1.251638938697397E-4  -3.389986486581620E-4  
 2.266000000000000E10   -5.527923858608119E-4   4.143156220379751E-4  
 2.268000000000000E10    9.019406497827731E-4   6.430269131669775E-4  
 2.270000000000000E10    4.538552057056222E-4  -1.470271075959317E-3  
 2.272000000000000E10   -1.264725491637364E-3   2.175989702664083E-4  
 2.274000000000000E10   -2.882488770410419E-4   1.278965733945370E-3  
 2.276000000000000E10    2.025094698183239E-3   1.635287494536897E-4  
 2.278000000000000E10   -1.874358895292971E-4  -1.913953528855927E-3  
 2.280000000000000E10   -1.680365327047184E-3  -5.048528255429119E-4  
 2.282000000000000E10   -7.457003666786477E-4   1.363593037240207E-3  
 2.284000000000000E10    2.249971439596266E-3   4.057975711475592E-4  
 2.286000000000000E10    2.946529593828018E-5  -2.250971010653302E-3  
 2.288000000000000E10   -2.030896954238415E-3  -5.309515508997720E-4  
 2.290000000000000E10    8.211010936065577E-5   2.091031376039609E-3  
 2.292000000000000E10    1.879094226751477E-3  -6.920281521161087E-4  
 2.294000000000000E10   -4.627690941561014E-4  -1.642311312025413E-3  
 2.296000000000000E10   -8.569721685489640E-4   3.636459405242931E-4  
 2.298000000000000E10    7.972813182277605E-4   1.155978912720457E-3  
 2.300000000000000E10    8.690348695381545E-4  -1.489782342105173E-3  
 2.302000000000000E10   -1.032122105243616E-3  -5.674431595252827E-4  
 2.304000000000000E10   -6.859811837784946E-4   1.755129545927048E-3  
 2.306000000000000E10    2.494077809387818E-3  -1.047790892698686E-4  
 2.308000000000000E10   -4.128561813558918E-4  -2.565362490713596E-3  
 2.310000000000000E10   -3.049575636396185E-3   3.150716129312059E-4  
 2.312000000000000E10    9.713048202684149E-4   2.827415708452463E-3  
 2.314000000000000E10    3.159908490488306E-3  -1.138956635259092E-3  
 2.316000000000000E10   -1.114033504563849E-3  -3.242430946556851E-3  
 2.318000000000000E10   -2.546240517403930E-3   1.495662727393210E-3  
 2.320000000000000E10    1.726929898723029E-3   3.180689876899123E-3  
 2.322000000000000E10    2.232805272797123E-3  -2.119853743351996E-3  
 2.324000000000000E10   -1.572315435623750E-3  -1.778811085387133E-3  
 2.326000000000000E10   -1.436628896044567E-3   2.281586377648637E-3  
 2.328000000000000E10    2.716005226830021E-3   2.706138893699972E-4  
 2.330000000000000E10    2.348330599488691E-4  -2.423594560241327E-3  
 2.332000000000000E10   -2.350449474761263E-3   2.829308527907415E-5  
 2.334000000000000E10    4.804595737368800E-4   2.819675835780799E-3  
 2.336000000000000E10    3.568152809748426E-3  -8.189041473087855E-4  
 2.338000000000000E10   -1.149781324784271E-3  -3.306420956505463E-3  
 2.340000000000000E10   -3.123867179965600E-3   1.878418028354645E-3  
 2.342000000000000E10    1.830460532801226E-3   3.994424943812192E-3  
 2.344000000000000E10    3.134485566988587E-3  -2.601039421278983E-3  
 2.346000000000000E10   -2.466573438141495E-3  -2.840852219378576E-3  
 2.348000000000000E10   -3.074147156439722E-3   3.088803583523259E-3  
 2.350000000000000E10    3.444869857048616E-3   2.479743125149980E-3  
 2.352000000000000E10    1.391525089275092E-3  -3.012822999153286E-3  
 2.354000000000000E10   -2.735034737270325E-3  -1.006590086035430E-3  
 2.356000000000000E10   -4.095877957297489E-4   3.171832009684295E-3  
 2.358000000000000E10    3.567621984984726E-3  -4.480257994146086E-4  
 2.360000000000000E10   -1.210685644764453E-3  -3.347786434460431E-3  
 2.362000000000000E10   -2.848215342964977E-3   1.645303331315517E-3  
 2.364000000000000E10    2.458995848428458E-3   3.253414877690375E-3  
 2.366000000000000E10    3.194049408193678E-3  -3.180031490046531E-3  
 2.368000000000000E10   -3.189687093254179E-3  -2.954561670776457E-3  
 2.370000000000000E10   -2.544322225730866E-3   3.917440306395292E-3  
 2.372000000000000E10    4.783826647326350E-3   2.864053181838244E-3  
 2.374000000000000E10    2.363564679399133E-3  -5.013346322812140E-3  
 2.376000000000000E10   -5.029354128055275E-3  -1.936441083671525E-3  
 2.378000000000000E10   -1.308365637669340E-3   4.829584737308323E-3  
 2.380000000000000E10    4.546147189103067E-3   5.885421705897898E-4  
 2.382000000000000E10    5.514540862350259E-5  -4.294682294130325E-3  
 2.384000000000000E10   -3.099063935223967E-3   1.189664690173231E-4  
 2.386000000000000E10    6.937517755432054E-4   3.273682435974479E-3  
 2.388000000000000E10    3.465357120148838E-3  -1.973832549992949E-3  
 2.390000000000000E10   -2.133808098733425E-3  -2.690532535780221E-3  
 2.392000000000000E10   -2.375090203713626E-3   3.424852387979627E-3  
 2.394000000000000E10    3.916094196029007E-3   2.058700425550342E-3  
 2.396000000000000E10    1.786716602509841E-3  -4.839151748456061E-3  
 2.398000000000000E10   -5.039679701440036E-3  -9.694205218693242E-4  
 2.400000000000000E10   -4.856707237195224E-4   4.791399347595871E-3  
 2.402000000000000E10    5.567649845033884E-3  -1.005585014354438E-3  
 2.404000000000000E10   -1.244657294591889E-3  -5.169813870452344E-3  
 2.406000000000000E10   -4.485884099267423E-3   9.436554973945022E-4  
 2.408000000000000E10    1.346832141280174E-3   5.308570223860443E-3  
 2.410000000000000E10    4.317798418924213E-3  -2.076461678370833E-3  
 2.412000000000000E10   -1.593662454979494E-3  -3.693171485792846E-3  
 2.414000000000000E10   -3.551212837919593E-3   1.729698153212667E-3  
 2.416000000000000E10    2.326990768779069E-3   2.583220019005239E-3  
 2.418000000000000E10    2.586914168205112E-3  -2.432942914310843E-3  
 2.420000000000000E10   -2.820666239131242E-3  -1.788301713531837E-3  
 2.422000000000000E10   -1.278426789212972E-3   2.970755507703871E-3  
 2.424000000000000E10    4.039716790430248E-3   4.693299342761748E-4  
 2.426000000000000E10    1.264951024495531E-4  -3.790101560298353E-3  
 2.428000000000000E10   -4.553874488919973E-3   3.869530191877857E-4  
 2.430000000000000E10    9.897620766423643E-4   5.299331503920257E-3  
 2.432000000000000E10    4.033059522043914E-3  -2.374084782786667E-3  
 2.434000000000000E10   -2.278811065480113E-3  -4.291665740311146E-3  
 2.436000000000000E10   -3.786625806242228E-3   2.196237852331251E-3  
 2.438000000000000E10    1.814905815990642E-3   3.319304436445236E-3  
 2.440000000000000E10    3.978048043791205E-3  -2.123924728948623E-3  
 2.442000000000000E10   -2.154378220438957E-3  -3.206832334399223E-3  
 2.444000000000000E10   -2.705079969018698E-3   2.098892349749804E-3  
 2.446000000000000E10    2.511041471734643E-3   2.787111734505743E-3  
 2.448000000000000E10    2.046528970822692E-3  -2.767417172435671E-3  
 2.450000000000000E10   -2.961218124255538E-3  -1.820074830902740E-3  
 2.452000000000000E10   -7.088168495101854E-4   3.595045884139836E-3  
 2.454000000000000E10    3.428141179028899E-3  -1.014852259686450E-4  
 2.456000000000000E10    2.418323401798261E-5  -3.826659405604005E-3  
 2.458000000000000E10   -3.964453819207847E-3   8.982142462627962E-4  
 2.460000000000000E10    1.300260890275240E-3   3.866933984681964E-3  
 2.462000000000000E10    4.087894805707037E-3  -1.434761536074802E-3  
 2.464000000000000E10   -1.697166124358773E-3  -3.529293288011104E-3  
 2.466000000000000E10   -3.421068540774286E-3   1.682497648289427E-3  
 2.468000000000000E10    2.013726509176195E-3   3.208482754416764E-3  
 2.470000000000000E10    3.352130937855691E-3  -2.100040903314948E-3  
 2.472000000000000E10   -2.147204068023711E-3  -2.416867704596371E-3  
 2.474000000000000E10   -2.145998761989176E-3   1.754669297952205E-3  
 2.476000000000000E10    2.073141396977007E-3   2.010996220633388E-3  
 2.478000000000000E10    1.729467214317992E-3  -2.335863304324448E-3  
 2.480000000000000E10   -2.119714627042413E-3  -9.474288672208786E-4  
 2.482000000000000E10    4.245074705977459E-5   2.773223735857755E-3  
 2.484000000000000E10    3.370427002664655E-3  -5.936183006269857E-4  
 2.486000000000000E10   -1.348237914498895E-3  -3.166647686157376E-3  
 2.488000000000000E10   -2.806259086355567E-3   1.600036164745688E-3  
 2.490000000000000E10    1.992966659599915E-3   3.628940496128053E-3  
 2.492000000000000E10    3.572632675059140E-3  -2.727898885495961E-3  
 2.494000000000000E10   -2.532202051952481E-3  -3.580828488338739E-3  
 2.496000000000000E10   -3.174179291818291E-3   2.597226703073829E-3  
 2.498000000000000E10    2.729419851675630E-3   3.153700090479106E-3  
 2.500000000000000E10    3.152720164507628E-3  -2.718760864809156E-3  
 2.502000000000000E10   -2.571781922597438E-3  -3.366953460499644E-3  
 2.504000000000000E10   -2.370733476709575E-3   2.496003406122327E-3  
 2.506000000000000E10    2.282553992699832E-3   1.660255977185443E-3  
 2.508000000000000E10    1.619881659280509E-3  -2.478772890754044E-3  
 2.510000000000000E10   -2.153922105208039E-3  -1.540600816952065E-3  
 2.512000000000000E10   -6.542686896864325E-4   2.258747583255172E-3  
 2.514000000000000E10    2.378957055043429E-3  -6.173543079057708E-4  
 2.516000000000000E10   -1.219538418808952E-3  -2.615025732666254E-3  
 2.518000000000000E10   -2.002328401431441E-3   1.408743206411600E-3  
 2.520000000000000E10    2.123732294421643E-3   1.778674428351224E-3  
 2.522000000000000E10    2.306971757207066E-3  -3.100367146544159E-3  
 2.524000000000000E10   -3.022488555870950E-3  -2.132216526661068E-3  
 2.526000000000000E10   -2.134601236321032E-3   3.087543766014278E-3  
 2.528000000000000E10    3.235807525925338E-3   1.711976714432240E-3  
 2.530000000000000E10    1.734962133923546E-3  -3.639344475232065E-3  
 2.532000000000000E10   -3.668802441097796E-3  -2.064207335934043E-3  
 2.534000000000000E10   -1.726300426525995E-3   3.341227711644024E-3  
 2.536000000000000E10    2.970055618789047E-3   5.585692415479571E-4  
 2.538000000000000E10    6.648729322478175E-4  -2.918992599006742E-3  
 2.540000000000000E10   -2.774557156953961E-3  -3.575385781005025E-4  
 2.542000000000000E10    1.899871385830920E-4   1.978840795345604E-3  
 2.544000000000000E10    2.080862468574196E-3  -1.304823614191264E-3  
 2.546000000000000E10   -1.684105838648975E-3  -1.938355620950460E-3  
 2.548000000000000E10   -2.164394012652338E-3   1.753396034473553E-3  
 2.550000000000000E10    2.330809482373297E-3   1.336898421868682E-3  
 2.552000000000000E10    9.533617412671447E-4  -2.612900279927999E-3  
 2.554000000000000E10   -3.131730249151588E-3  -1.029425591696054E-3  
 2.556000000000000E10   -5.490640323841944E-4   2.976021612994373E-3  
 2.558000000000000E10    2.790478698443621E-3   3.770282273762859E-4  
 2.560000000000000E10   -1.062892170011764E-5  -3.461252315901220E-3  
 2.562000000000000E10   -3.022025804966688E-3  -2.134664828190580E-4  
 2.564000000000000E10   -6.104627391323447E-4   3.127729578409344E-3  
 2.566000000000000E10    2.841397421434522E-3  -3.936516950489022E-4  
 2.568000000000000E10   -7.539109938079491E-4  -2.346686553210020E-3  
 2.570000000000000E10   -2.536287647671998E-3   8.230517996707931E-4  
 2.572000000000000E10    9.765253926161677E-4   1.601935422513634E-3  
 2.574000000000000E10    1.045957673341036E-3  -1.611379499081522E-3  
 2.576000000000000E10   -2.174752589780837E-3  -9.826800815062597E-4  
 2.578000000000000E10   -8.173519599949941E-4   2.068794623482972E-3  
 2.580000000000000E10    2.465589786879718E-3   6.230444414541125E-4  
 2.582000000000000E10    3.331640036776662E-4  -2.745248319115490E-3  
 2.584000000000000E10   -3.251651767641306E-3  -3.353358843014576E-4  
 2.586000000000000E10   -1.022128635668196E-4   3.607438004110009E-3  
 2.588000000000000E10    3.501733881421387E-3  -1.628828758839518E-4  
 2.590000000000000E10   -3.849028871627525E-4  -3.311153268441558E-3  
 2.592000000000000E10   -3.728531359229237E-3   1.483938631281490E-4  
 2.594000000000000E10    1.703362031548750E-4   3.538151737302542E-3  
 2.596000000000000E10    2.830475103110075E-3  -6.654037424596027E-4  
 2.598000000000000E10   -8.820043149171397E-4  -2.787289558909833E-3  
 2.600000000000000E10   -2.547575393691659E-3   1.045706711011007E-3  
 2.602000000000000E10    1.204247644636780E-3   1.676316984230653E-3  
 2.604000000000000E10    9.348448948003352E-4  -1.638944464502856E-3  
 2.606000000000000E10   -2.128735592123121E-3  -3.448879288043827E-4  
 2.608000000000000E10   -2.776939472823869E-4   2.278160885907710E-3  
 2.610000000000000E10    2.588259929325432E-3  -5.464060541271465E-5  
 2.612000000000000E10   -6.420271965907887E-4  -2.463291690219194E-3  
 2.614000000000000E10   -2.954418188892305E-3   5.853639595443383E-4  
 2.616000000000000E10    7.731368677923456E-4   3.297684306744486E-3  
 2.618000000000000E10    3.422384674195200E-3  -1.047937665134668E-3  
 2.620000000000000E10   -1.254244765732437E-3  -3.415804705582559E-3  
 2.622000000000000E10   -3.234264673665166E-3   1.193882781080902E-3  
 2.624000000000000E10    1.190655311802402E-3   3.385118732694536E-3  
 2.626000000000000E10    2.918972691986710E-3  -1.215369004057720E-3  
 2.628000000000000E10   -1.197669917019084E-3  -2.557141531724483E-3  
 2.630000000000000E10   -2.075496595352888E-3   1.607901154784486E-3  
 2.632000000000000E10    1.674922619713470E-3   1.503281935583800E-3  
 2.634000000000000E10    9.801141568459570E-4  -1.233085175044835E-3  
 2.636000000000000E10   -1.679933746345341E-3  -5.912109336350113E-4  
 2.638000000000000E10   -3.646311597549357E-4   1.974510290892795E-3  
 2.640000000000000E10    1.927989069372416E-3  -1.212736096931621E-4  
 2.642000000000000E10   -7.746927003609017E-4  -2.302493259776384E-3  
 2.644000000000000E10   -2.272896061185747E-3   7.686257158638910E-4  
 2.646000000000000E10    6.541931797983125E-4   2.534355095122010E-3  
 2.648000000000000E10    2.889766357839108E-3  -1.201985607622191E-3  
 2.650000000000000E10   -1.294430840061978E-3  -2.750521292909980E-3  
 2.652000000000000E10   -2.692740119528025E-3   1.592591463122517E-3  
 2.654000000000000E10    1.967787218745798E-3   2.377509837970138E-3  
 2.656000000000000E10    2.338697609957308E-3  -1.695017737802118E-3  
 2.658000000000000E10   -1.741743792081252E-3  -1.964808994671330E-3  
 2.660000000000000E10   -1.444570691091940E-3   1.781610189937055E-3  
 2.662000000000000E10    1.658888155361638E-3   8.914622012525797E-4  
 2.664000000000000E10    2.086281820083968E-4  -1.779800222720951E-3  
 2.666000000000000E10   -1.447694492526352E-3   7.870285389799392E-5  
 2.668000000000000E10    4.547813150566071E-4   2.019040781306103E-3  
 2.670000000000000E10    1.580041454872116E-3  -1.332078769337386E-3  
 2.672000000000000E10   -1.303412020206451E-3  -1.706555922282860E-3  
 2.674000000000000E10   -1.953335420694202E-3   1.693593949312344E-3  
 2.676000000000000E10    1.450743526220322E-3   1.868706312961876E-3  
 2.678000000000000E10    1.902610558317974E-3  -1.942202710779384E-3  
 2.680000000000000E10   -2.007647650316358E-3  -2.326648565940559E-3  
 2.682000000000000E10   -2.229105739388615E-3   2.155859721824527E-3  
 2.684000000000000E10    1.966918818652630E-3   1.573153131175786E-3  
 2.686000000000000E10    1.600317220436409E-3  -1.796805532649159E-3  
 2.688000000000000E10   -1.745590358041227E-3  -1.713308796752244E-3  
 2.690000000000000E10   -1.190512557514012E-3   1.200435392092913E-3  
 2.692000000000000E10    1.251225883606821E-3   7.736363913863897E-4  
 2.694000000000000E10    3.005510443472304E-4  -1.341609749943018E-3  
 2.696000000000000E10   -1.081975380657241E-3  -4.489669493068504E-5  
 2.698000000000000E10    5.782114458270371E-4   7.011151901679114E-4  
 2.700000000000000E10    3.781492487178184E-4  -9.626813407521695E-4  
 2.702000000000000E10   -1.128887757658958E-3  -6.804663280490786E-4  
 2.704000000000000E10   -7.765069458400831E-4   1.407866686349735E-3  
 2.706000000000000E10    1.331953943008557E-3   8.092559291981161E-4  
 2.708000000000000E10    1.237516495166346E-3  -1.791377202607691E-3  
 2.710000000000000E10   -2.147132297977805E-3  -1.175100100226700E-3  
 2.712000000000000E10   -1.279778050957248E-3   1.989073120057583E-3  
 2.714000000000000E10    2.037534664850682E-3   9.644424862926826E-4  
 2.716000000000000E10    1.402861758833751E-3  -1.888407772639766E-3  
 2.718000000000000E10   -2.294814155902714E-3  -1.086192816728726E-3  
 2.720000000000000E10   -8.612496894784272E-4   1.555401890072972E-3  
 2.722000000000000E10    1.401957357302308E-3   8.351193682756275E-4  
 2.724000000000000E10    2.992307199747302E-4  -1.026388898026198E-3  
 2.726000000000000E10   -9.632302972022444E-4  -2.051273422694067E-4  
 2.728000000000000E10    2.647665169206448E-4   1.169595547253266E-3  
 2.730000000000000E10    3.071059982175939E-4  -9.306703286711127E-4  
 2.732000000000000E10   -9.187557734549046E-4  -4.830652105738409E-4  
 2.734000000000000E10   -7.376513385679573E-4   1.651172438869253E-3  
 2.736000000000000E10    1.407300354912877E-3   2.774552267510444E-4  
 2.738000000000000E10    5.012373148929328E-4  -1.533323375042528E-3  
 2.740000000000000E10   -1.947261393070221E-3  -6.908829091116786E-4  
 2.742000000000000E10   -6.745041318936274E-4   1.970057230209932E-3  
 2.744000000000000E10    2.105665800627321E-3   6.269714795053005E-4  
 2.746000000000000E10    6.287824799073860E-4  -1.658389810472727E-3  
 2.748000000000000E10   -2.018147381022573E-3  -4.594033962348476E-4  
 2.750000000000000E10   -2.833250982803293E-4   1.915008673677221E-3  
 2.752000000000000E10    1.083765062503517E-3   4.819330642931163E-4  
 2.754000000000000E10   -1.876902915682877E-4  -8.835242188069969E-4  
 2.756000000000000E10   -9.334781498182565E-4   5.633753698930377E-5  
