#  HZ   S   RI   R     50.00 
! Rohde & Schwarz ZVA40 4Ports - Version 3.90 - 1145.1110k42 SN: 100403
! Date: 2023-10-04 06:30:05
! Measurement: S12 
! 
 2.200000000000000E10   -1.235021394677460E-3  -8.818340938887559E-4  
 2.202000000000000E10   -5.605946171272080E-6   1.094934683351312E-3  
 2.204000000000000E10    2.948306473626872E-4  -8.565231946704444E-4  
 2.206000000000000E10   -9.730115089041647E-4  -4.270007520972285E-4  
 2.208000000000000E10   -6.235231994651258E-4   6.607620271097403E-4  
 2.210000000000000E10    5.844342158525251E-4  -8.238630471169017E-7  
 2.212000000000000E10   -3.035484605788952E-4  -8.240455317718443E-4  
 2.214000000000000E10   -1.023968558001798E-3  -4.367151777842082E-4  
 2.216000000000000E10   -5.112442522658967E-4   9.255401491827797E-4  
 2.218000000000000E10    1.083900584490039E-3   1.994944511807262E-5  
 2.220000000000000E10   -4.018733670818619E-4  -9.831147763179615E-4  
 2.222000000000000E10   -1.227803564688657E-3  -9.789763589651557E-5  
 2.224000000000000E10   -7.454312481058878E-5   1.409820426488295E-3  
 2.226000000000000E10    3.121460822512745E-4  -7.465273083653301E-4  
 2.228000000000000E10   -8.101109997369349E-4  -5.169073538127122E-4  
 2.230000000000000E10   -6.481790624093264E-4   6.728820226271637E-4  
 2.232000000000000E10    1.078935390978586E-3  -2.825350256898673E-4  
 2.234000000000000E10   -3.329848368593957E-4  -1.228729903232306E-3  
 2.236000000000000E10   -1.524861050711479E-3   5.355967914510984E-4  
 2.238000000000000E10    5.571280817093793E-4   1.288875180762261E-3  
 2.240000000000000E10    1.152851495135110E-3  -1.219569494423922E-3  
 2.242000000000000E10   -1.881244752439670E-3  -5.899601601413451E-4  
 2.244000000000000E10   -6.679653852188494E-4   5.826207670907024E-4  
 2.246000000000000E10    1.336741595878266E-3   1.012444059597328E-3  
 2.248000000000000E10    4.757998885907000E-4  -1.786900218576193E-3  
 2.250000000000000E10   -1.298333918384742E-3  -6.508347723865882E-4  
 2.252000000000000E10   -4.684242594521493E-4   1.536401716293767E-3  
 2.254000000000000E10    1.315687964961398E-3   2.489676762706949E-5  
 2.256000000000000E10   -4.736874325317331E-4  -1.614969020010904E-3  
 2.258000000000000E10   -1.059491605701624E-3   1.305325495195575E-3  
 2.260000000000000E10    9.158138309430797E-4   9.631491775508039E-4  
 2.262000000000000E10    7.140386842365842E-4  -9.633981972001493E-4  
 2.264000000000000E10   -1.651992577535566E-3  -8.204158439184539E-4  
 2.266000000000000E10   -1.298641785979271E-3   1.154272882558871E-3  
 2.268000000000000E10    1.457432765164413E-3   1.219333193148486E-3  
 2.270000000000000E10    1.131992332375376E-3  -1.550640277855564E-3  
 2.272000000000000E10   -1.713287783786655E-3  -7.997321372386068E-4  
 2.274000000000000E10   -4.048845421493752E-4   1.646694872761145E-3  
 2.276000000000000E10    1.280032323847991E-3   1.026129997626413E-3  
 2.278000000000000E10    5.586443730862811E-4  -1.449651972507127E-3  
 2.280000000000000E10   -9.120342474489007E-4  -2.065710446004232E-4  
 2.282000000000000E10   -9.891161025734618E-4   1.281353026570287E-3  
 2.284000000000000E10    1.272847148356959E-3   1.074441756827582E-4  
 2.286000000000000E10   -6.776752597943414E-4  -1.428369672794361E-3  
 2.288000000000000E10   -1.150594020145945E-3   1.420503263943829E-3  
 2.290000000000000E10    1.669021068664733E-3   1.375879000988789E-3  
 2.292000000000000E10    1.436127669876441E-3  -1.881872740341350E-3  
 2.294000000000000E10   -1.908748658024706E-3  -5.136929994478123E-4  
 2.296000000000000E10   -8.379406535823364E-4   2.434465946862474E-3  
 2.298000000000000E10    2.032901073107496E-3   1.281989534618333E-3  
 2.300000000000000E10    1.223704879521392E-3  -2.601905507617630E-3  
 2.302000000000000E10   -2.454517030855641E-3  -1.249202767212410E-3  
 2.304000000000000E10   -9.926586390065495E-4   2.762834483291954E-3  
 2.306000000000000E10    3.211177740013227E-3   1.000443127850303E-3  
 2.308000000000000E10    5.370152175601106E-4  -2.961704929475673E-3  
 2.310000000000000E10   -2.230242607765831E-3  -4.101151680515613E-4  
 2.312000000000000E10    7.115110582844864E-5   2.672428803634830E-3  
 2.314000000000000E10    2.214030901086517E-3  -1.926247005030746E-4  
 2.316000000000000E10   -4.846322044613771E-4  -2.044653781922534E-3  
 2.318000000000000E10   -1.819382669054903E-3   1.651048027270008E-3  
 2.320000000000000E10    1.308263781538699E-3   1.392013538861647E-3  
 2.322000000000000E10    1.285271617234685E-3  -2.396945172222331E-3  
 2.324000000000000E10   -2.811699378071353E-3  -1.105888881284045E-3  
 2.326000000000000E10   -7.390752434730530E-4   3.140841479762457E-3  
 2.328000000000000E10    4.084299085661769E-3   3.163144438076415E-4  
 2.330000000000000E10   -2.707290022954112E-4  -3.228284331271425E-3  
 2.332000000000000E10   -3.342797062941827E-3   1.388124373988831E-4  
 2.334000000000000E10   -1.824856308303424E-4   4.213087784592062E-3  
 2.336000000000000E10    4.027842136565596E-3  -4.911243086098693E-4  
 2.338000000000000E10   -1.394319333485328E-3  -3.919279726687819E-3  
 2.340000000000000E10   -3.944561816751957E-3   1.366046060866211E-3  
 2.342000000000000E10    1.583223202032968E-3   3.192981646861881E-3  
 2.344000000000000E10    3.022524018888362E-3  -2.580045402282849E-3  
 2.346000000000000E10   -2.714860733249225E-3  -2.008114737691358E-3  
 2.348000000000000E10   -1.906951925775502E-3   2.809921221341938E-3  
 2.350000000000000E10    3.502521343762055E-3   9.515835990896449E-4  
 2.352000000000000E10   -6.164376691231155E-5  -3.392165410332382E-3  
 2.354000000000000E10   -3.545424813637510E-3  -1.778255314093258E-4  
 2.356000000000000E10   -4.904551371964772E-5   4.227485565934330E-3  
 2.358000000000000E10    4.520564660197124E-3  -9.676541521912441E-4  
 2.360000000000000E10   -1.596822236024309E-3  -4.487394413445145E-3  
 2.362000000000000E10   -4.534052975941449E-3   1.844651582359802E-3  
 2.364000000000000E10    2.245576411951333E-3   4.673079587519169E-3  
 2.366000000000000E10    4.301966138882563E-3  -2.674398696399294E-3  
 2.368000000000000E10   -3.294793408713304E-3  -3.554802635335363E-3  
 2.370000000000000E10   -3.286927123554051E-3   3.304434911115095E-3  
 2.372000000000000E10    3.279699740232900E-3   3.231406109989621E-3  
 2.374000000000000E10    1.710833115794230E-3  -4.009160416899249E-3  
 2.376000000000000E10   -3.425050774239935E-3  -8.402726962231100E-4  
 2.378000000000000E10    5.352693909799200E-5   3.554854585672729E-3  
 2.380000000000000E10    3.953328996431083E-3  -1.237374424817972E-3  
 2.382000000000000E10   -1.194161603052635E-3  -3.375179629074410E-3  
 2.384000000000000E10   -3.751115305931307E-3   1.958495486178435E-3  
 2.386000000000000E10    1.999738582526334E-3   4.206251905998215E-3  
 2.388000000000000E10    4.243757401127368E-3  -3.034250679775141E-3  
 2.390000000000000E10   -3.552337686414830E-3  -3.445516849751584E-3  
 2.392000000000000E10   -3.955771666369401E-3   3.503922300296836E-3  
 2.394000000000000E10    4.014380654552952E-3   3.642062365543097E-3  
 2.396000000000000E10    3.624331380706281E-3  -4.759249015478417E-3  
 2.398000000000000E10   -4.967057699104771E-3  -2.626853020046838E-3  
 2.400000000000000E10   -1.981639463338070E-3   4.815630614757538E-3  
 2.402000000000000E10    4.524441785179079E-3   6.923420296516269E-4  
 2.404000000000000E10   -2.900901890825480E-4  -4.224280419293791E-3  
 2.406000000000000E10   -3.822730548563413E-3   1.055212302162545E-3  
 2.408000000000000E10    1.107862663047854E-3   3.456696984358132E-3  
 2.410000000000000E10    3.368906371179037E-3  -2.767137426417321E-3  
 2.412000000000000E10   -3.327961851027794E-3  -2.159014271455817E-3  
 2.414000000000000E10   -1.861725446360651E-3   2.741931079071946E-3  
 2.416000000000000E10    4.019741871161386E-3   2.222472583525814E-3  
 2.418000000000000E10    1.410740245773923E-3  -4.095090524060652E-3  
 2.420000000000000E10   -4.735572496429086E-3  -1.430908530892339E-3  
 2.422000000000000E10   -1.720707048662007E-3   5.171060882275924E-3  
 2.424000000000000E10    4.951448878273368E-3   1.633866770134773E-3  
 2.426000000000000E10    9.926021230057813E-4  -5.536888784263283E-3  
 2.428000000000000E10   -5.183516361285001E-3  -5.517409372259863E-4  
 2.430000000000000E10   -5.055490491940873E-4   5.139494634931907E-3  
 2.432000000000000E10    4.820700181880966E-3  -7.212364762381185E-4  
 2.434000000000000E10   -7.190019277913962E-4  -3.230516478652135E-3  
 2.436000000000000E10   -3.222896499210037E-3   9.074055778910406E-4  
 2.438000000000000E10    1.284696605580393E-3   3.192765565472655E-3  
 2.440000000000000E10    2.211321174399927E-3  -1.299821058637463E-3  
 2.442000000000000E10   -2.382319333264604E-3  -1.936145046784077E-3  
 2.444000000000000E10   -1.307706734223757E-3   2.840271103195846E-3  
 2.446000000000000E10    2.720451942877844E-3   1.125857394072227E-3  
 2.448000000000000E10    7.521337356592994E-4  -3.542891572578810E-3  
 2.450000000000000E10   -3.876505448715761E-3  -5.036148504586890E-4  
 2.452000000000000E10   -2.823325112331077E-4   4.310301534133032E-3  
 2.454000000000000E10    4.333725490141660E-3  -2.245819368908997E-4  
 2.456000000000000E10   -1.197891824631370E-4  -3.760946434340440E-3  
 2.458000000000000E10   -4.543242597719654E-3   1.872562006610679E-4  
 2.460000000000000E10    7.577430187666323E-4   4.540938476566225E-3  
 2.462000000000000E10    3.953815554268658E-3  -9.735212806845084E-4  
 2.464000000000000E10   -1.272942157811485E-3  -3.513021976687014E-3  
 2.466000000000000E10   -3.182335392921232E-3   1.591491978615522E-3  
 2.468000000000000E10    1.488744870584924E-3   2.824840325047262E-3  
 2.470000000000000E10    2.294874255312607E-3  -1.784855310688727E-3  
 2.472000000000000E10   -2.228221448604018E-3  -1.406248615239747E-3  
 2.474000000000000E10   -1.533460643258877E-3   2.312933400389738E-3  
 2.476000000000000E10    2.814723178744316E-3   1.150474316091277E-3  
 2.478000000000000E10    6.161310484458227E-4  -3.273628492024727E-3  
 2.480000000000000E10   -3.725511793163605E-3  -2.526119337744603E-4  
 2.482000000000000E10   -4.120943185625947E-5   3.813976785750128E-3  
 2.484000000000000E10    3.893489280017093E-3  -3.900018455169629E-4  
 2.486000000000000E10   -1.017155620502308E-3  -3.551910413079895E-3  
 2.488000000000000E10   -3.440948144998401E-3   9.433395134692546E-4  
 2.490000000000000E10    4.391017882880988E-4   3.088520781602711E-3  
 2.492000000000000E10    3.229639289202169E-3  -1.059698595781811E-3  
 2.494000000000000E10   -1.187720277812332E-3  -2.659878591657616E-3  
 2.496000000000000E10   -2.305654852534644E-3   9.771767872734927E-4  
 2.498000000000000E10    1.186246889119502E-3   2.477092930348590E-3  
 2.500000000000000E10    1.814080824260600E-3  -1.724608351651114E-3  
 2.502000000000000E10   -2.012857359659392E-3  -8.119373596855439E-4  
 2.504000000000000E10   -7.943984019220807E-4   2.564963739132509E-3  
 2.506000000000000E10    2.808357472531498E-3   2.538899752835278E-4  
 2.508000000000000E10   -4.839842949877493E-4  -2.790618251310661E-3  
 2.510000000000000E10   -3.053603286389262E-3   9.201439897879027E-4  
 2.512000000000000E10    5.424517003120855E-4   3.635981585830450E-3  
 2.514000000000000E10    3.773519361857325E-3  -1.349092985037714E-3  
 2.516000000000000E10   -1.801780483219773E-3  -3.282400371972472E-3  
 2.518000000000000E10   -3.682032809592784E-3   1.652786188060418E-3  
 2.520000000000000E10    2.214196952991188E-3   3.589195315726101E-3  
 2.522000000000000E10    3.047938953386620E-3  -1.261486002476886E-3  
 2.524000000000000E10   -1.339182417723350E-3  -2.793421212118119E-3  
 2.526000000000000E10   -2.882866421714425E-3   1.489321730332449E-3  
 2.528000000000000E10    1.097482818295248E-3   2.768967766314745E-3  
 2.530000000000000E10    2.384996099863201E-3  -1.375266612740234E-3  
 2.532000000000000E10   -2.076975040836260E-3  -1.121727385907434E-3  
 2.534000000000000E10   -9.690314036561176E-4   2.255114057334140E-3  
 2.536000000000000E10    2.636491379234940E-3   1.159680891760218E-4  
 2.538000000000000E10   -5.958959300187416E-4  -2.342543739359826E-3  
 2.540000000000000E10   -2.827955933753401E-3   1.388376273098402E-3  
 2.542000000000000E10    2.168091101339087E-3   2.851645956980065E-3  
 2.544000000000000E10    2.830348559655249E-3  -2.083225728711113E-3  
 2.546000000000000E10   -2.830625977367163E-3  -2.359381294809282E-3  
 2.548000000000000E10   -2.009344374528155E-3   2.978960023028776E-3  
 2.550000000000000E10    3.054542379686609E-3   2.613348013255745E-3  
 2.552000000000000E10    2.032078831689432E-3  -3.359075519256294E-3  
 2.554000000000000E10   -2.802887029247358E-3  -1.573534376802854E-3  
 2.556000000000000E10   -1.521378289908171E-3   3.153358615236357E-3  
 2.558000000000000E10    2.824196912115440E-3   1.306363832554780E-3  
 2.560000000000000E10    1.221241851453669E-3  -2.563759015174583E-3  
 2.562000000000000E10   -2.272305311635137E-3  -4.022974353574682E-4  
 2.564000000000000E10    3.927762336388696E-4   2.332482283236459E-3  
 2.566000000000000E10    2.794545667711645E-3  -5.929054677835666E-4  
 2.568000000000000E10   -1.469012509915046E-3  -1.915805172757246E-3  
 2.570000000000000E10   -1.461435997043736E-3   1.963448041351512E-3  
 2.572000000000000E10    2.672926377272233E-3   1.898874397738837E-3  
 2.574000000000000E10    1.499372490798123E-3  -2.586266637081280E-3  
 2.576000000000000E10   -2.445119986077771E-3  -9.483898902544752E-4  
 2.578000000000000E10   -5.597178824245930E-4   2.833361999364570E-3  
 2.580000000000000E10    3.208108391845599E-3   9.615616145310924E-4  
 2.582000000000000E10    1.237976262927987E-3  -3.231877053622156E-3  
 2.584000000000000E10   -2.761196432402358E-3  -6.505280543933623E-4  
 2.586000000000000E10   -3.304853780718986E-4   2.884883870137855E-3  
 2.588000000000000E10    3.118489548796788E-3   1.703996294963872E-4  
 2.590000000000000E10    2.865123224182753E-4  -2.410978049738333E-3  
 2.592000000000000E10   -1.733145225443877E-3  -1.803647928682040E-4  
 2.594000000000000E10    7.576845964649692E-4   1.826511826948263E-3  
 2.596000000000000E10    2.182245603762567E-3  -1.433016630471684E-3  
 2.598000000000000E10   -1.221796599566005E-3  -1.825976476538926E-3  
 2.600000000000000E10   -1.550882618175820E-3   1.903979849885218E-3  
 2.602000000000000E10    2.976799296448007E-3   1.107656920794398E-3  
 2.604000000000000E10    1.287291539483704E-3  -2.835440798662603E-3  
 2.606000000000000E10   -2.862216904759407E-3  -9.876355397864245E-4  
 2.608000000000000E10   -3.727485564013477E-4   3.035448375158012E-3  
 2.610000000000000E10    3.429746546316892E-3   5.179936124477536E-4  
 2.612000000000000E10    6.262138704187237E-4  -3.422712732572109E-3  
 2.614000000000000E10   -2.890210453188047E-3  -6.832650906289928E-4  
 2.616000000000000E10   -3.930800157831982E-4   2.930027199909091E-3  
 2.618000000000000E10    3.051015868550167E-3   1.098272846320469E-4  
 2.620000000000000E10   -5.406648313055484E-5  -2.867051574867219E-3  
 2.622000000000000E10   -2.243988390546292E-3   5.304337828420103E-4  
 2.624000000000000E10    6.266719283303246E-4   1.619901449885219E-3  
 2.626000000000000E10    1.424698857590556E-3  -1.090974852559157E-3  
 2.628000000000000E10   -1.648340723477304E-3  -1.153304023318924E-3  
 2.630000000000000E10   -4.361032333690673E-4   1.610778665053658E-3  
 2.632000000000000E10    2.096250682370737E-3   3.947989134758245E-4  
 2.634000000000000E10   -5.410852912746123E-5  -2.721001568716019E-3  
 2.636000000000000E10   -2.765329030808061E-3   5.353296728571877E-6  
 2.638000000000000E10    3.406030227779411E-4   2.345009968848899E-3  
 2.640000000000000E10    2.633530617458746E-3  -3.228897076041903E-4  
 2.642000000000000E10   -4.399273821036331E-4  -3.276871750131249E-3  
 2.644000000000000E10   -2.808997436659411E-3   6.476591879618354E-4  
 2.646000000000000E10    3.279873671999667E-4   2.753330481937155E-3  
 2.648000000000000E10    2.787982230074704E-3  -4.004315196652897E-4  
 2.650000000000000E10   -6.689440051559359E-4  -2.320955682080239E-3  
 2.652000000000000E10   -2.292658580699936E-3   5.924486031290144E-4  
 2.654000000000000E10    1.074690706445836E-3   1.934595828060992E-3  
 2.656000000000000E10    1.236332565895282E-3  -1.145619156886824E-3  
 2.658000000000000E10   -1.525809711893089E-3  -1.037068897858262E-3  
 2.660000000000000E10   -5.403307477536146E-4   1.904575692606159E-3  
 2.662000000000000E10    2.068761270493269E-3   2.439098043396371E-4  
 2.664000000000000E10   -1.549880290667716E-4  -2.600759529741481E-3  
 2.666000000000000E10   -2.431932429317385E-3   7.630787222296931E-4  
 2.668000000000000E10    7.532129238825291E-4   2.213567902799696E-3  
 2.670000000000000E10    2.842762158252299E-3  -1.009580359095708E-3  
 2.672000000000000E10   -1.242855767486617E-3  -2.666921034688130E-3  
 2.674000000000000E10   -2.541248686611652E-3   9.951283864211291E-4  
 2.676000000000000E10    1.469658294809051E-3   2.427054569125176E-3  
 2.678000000000000E10    2.156370464945212E-3  -1.146317081293091E-3  
 2.680000000000000E10   -1.153423829236999E-3  -1.757926816935651E-3  
 2.682000000000000E10   -1.128853473346680E-3   1.144241425208747E-3  
 2.684000000000000E10    8.884455455699936E-4   8.638075669296086E-4  
 2.686000000000000E10    6.373894211719744E-4  -1.128050411352888E-3  
 2.688000000000000E10   -1.069586563971825E-3  -2.203906851718784E-4  
 2.690000000000000E10    3.381671431270661E-4   1.351279628579505E-3  
 2.692000000000000E10    1.509844907559454E-3  -3.804769912676420E-4  
 2.694000000000000E10   -7.544399122707546E-4  -1.835726201534271E-3  
 2.696000000000000E10   -1.621545161469840E-3   1.446563852368854E-3  
 2.698000000000000E10    1.185104774776846E-3   1.851978769991547E-3  
 2.700000000000000E10    1.997517116251402E-3  -1.562455756356940E-3  
 2.702000000000000E10   -1.459551771404222E-3  -1.666817348450422E-3  
 2.704000000000000E10   -2.159806521376595E-3   1.784044303349219E-3  
 2.706000000000000E10    1.491415125201456E-3   1.678853033808991E-3  
 2.708000000000000E10    1.927322882693261E-3  -1.041398165398277E-3  
 2.710000000000000E10   -1.432435106835328E-3  -1.643863288336434E-3  
 2.712000000000000E10   -9.591354973963462E-4   6.263458417379297E-4  
 2.714000000000000E10    8.298866159748286E-4   1.363038187264465E-3  
 2.716000000000000E10    5.772970616817474E-4  -9.188578114844859E-4  
 2.718000000000000E10   -5.541575228562579E-4  -3.997866551799234E-4  
 2.720000000000000E10    1.271160635951674E-4   7.729048302280717E-4  
 2.722000000000000E10    5.339285635272972E-4  -2.927185742009897E-4  
 2.724000000000000E10   -5.094731386634521E-4  -8.443348124274053E-4  
 2.726000000000000E10   -7.146501957322471E-4   1.180608451250009E-3  
 2.728000000000000E10    1.093166516511701E-3   9.333078996860422E-4  
 2.730000000000000E10    1.374966916046105E-3  -1.748779090121388E-3  
 2.732000000000000E10   -1.711904231342487E-3  -9.372627100674436E-4  
 2.734000000000000E10   -1.137205283157527E-3   1.557607509312220E-3  
 2.736000000000000E10    1.875568181276321E-3   1.492602561484091E-3  
 2.738000000000000E10    1.328912228927948E-3  -1.859014315414242E-3  
 2.740000000000000E10   -1.851202847319655E-3  -1.051472441758961E-3  
 2.742000000000000E10   -8.381690495298244E-4   1.576764756464399E-3  
 2.744000000000000E10    1.495736461947672E-3   7.325018523260951E-4  
 2.746000000000000E10    4.741209049825557E-4  -1.179006765596569E-3  
 2.748000000000000E10   -6.192185683175921E-4  -2.049078811978689E-4  
 2.750000000000000E10    1.793525325410883E-5   8.034855927689932E-4  
 2.752000000000000E10    1.193024945678189E-3  -6.805843222537078E-4  
 2.754000000000000E10   -8.246036086347885E-4  -7.529866925324313E-4  
 2.756000000000000E10   -4.687075015681330E-4   1.005249985610135E-3  
