#  HZ   S   RI   R     50.00 
! Rohde & Schwarz ZVA40 4Ports - Version 3.90 - 1145.1110k42 SN: 100403
! Date: 2023-10-04 06:30:39
! Measurement: S12 
! 
 2.200000000000000E10   -9.011244865178014E-4   6.579620467164205E-4  
 2.202000000000000E10    5.042045986556332E-4   7.750797803964815E-4  
 2.204000000000000E10    4.877370593021624E-4  -9.133403900705162E-4  
 2.206000000000000E10   -1.082478020180133E-3  -5.970137790427543E-4  
 2.208000000000000E10    9.753061988249101E-5   1.015431189443916E-3  
 2.210000000000000E10    5.189708676880400E-4  -3.399855995667167E-4  
 2.212000000000000E10   -6.785932037018938E-4  -1.161984782811487E-3  
 2.214000000000000E10   -4.930008699375321E-4   1.189307275126339E-3  
 2.216000000000000E10    8.014859740796965E-4   6.335907310131006E-4  
 2.218000000000000E10    9.727783362905029E-4  -1.649424817514955E-3  
 2.220000000000000E10   -1.758281912771054E-3  -3.413497704514157E-4  
 2.222000000000000E10   -7.751166813250165E-4   1.722471914035850E-3  
 2.224000000000000E10    1.623125532205449E-3  -1.683435616541829E-4  
 2.226000000000000E10   -4.773572604790388E-4  -1.703763793557300E-3  
 2.228000000000000E10   -2.155899645003956E-3  -4.326207999838516E-5  
 2.230000000000000E10    5.860685632796958E-4   1.621584156964673E-3  
 2.232000000000000E10    1.245458108314779E-3  -6.701754828100093E-4  
 2.234000000000000E10   -1.451078916943516E-3  -1.497910698162741E-3  
 2.236000000000000E10   -3.745032704500773E-4   1.535253713882412E-3  
 2.238000000000000E10    1.269395139388507E-3   2.591699656022684E-4  
 2.240000000000000E10   -4.343927371337486E-4  -2.129191008862108E-3  
 2.242000000000000E10   -1.735804264171748E-3   1.032954531183350E-3  
 2.244000000000000E10    5.419987255663727E-4   1.927262990648160E-3  
 2.246000000000000E10    2.049999267910607E-3  -1.533780670797569E-3  
 2.248000000000000E10   -9.991629558498971E-4  -1.680147714068880E-3  
 2.250000000000000E10   -2.009553361858707E-3   8.933304843594669E-4  
 2.252000000000000E10    1.164375014923280E-3   2.076612177916104E-3  
 2.254000000000000E10    1.957786913408199E-3  -6.773253999199369E-4  
 2.256000000000000E10   -1.339596226898721E-3  -1.667164351601969E-3  
 2.258000000000000E10   -9.516345216979971E-4   1.306755102632451E-3  
 2.260000000000000E10    1.150018131738761E-3   1.734139754262287E-3  
 2.262000000000000E10    4.902356313323253E-4  -1.327132222286309E-3  
 2.264000000000000E10   -1.183230551760062E-3  -6.140403147583129E-4  
 2.266000000000000E10   -8.280411257146625E-4   1.438553506886819E-3  
 2.268000000000000E10    1.753833299517282E-3   9.086838110761164E-5  
 2.270000000000000E10   -1.410272420798719E-4  -1.895367397082737E-3  
 2.272000000000000E10   -1.550772940390743E-3   8.288423132398748E-4  
 2.274000000000000E10    1.005024810183386E-3   2.287636951223249E-3  
 2.276000000000000E10    2.296294987900183E-3  -1.470067692935118E-3  
 2.278000000000000E10   -1.741258716720040E-3  -1.650388076086529E-3  
 2.280000000000000E10   -1.869195686595049E-3   1.941052196343662E-3  
 2.282000000000000E10    2.796950275296695E-4   2.504816780856345E-3  
 2.284000000000000E10    1.596126756339800E-3  -1.854048485256499E-3  
 2.286000000000000E10   -2.359187943511643E-3  -1.549435495689977E-3  
 2.288000000000000E10   -1.625083315957454E-3   2.002216380788013E-3  
 2.290000000000000E10    2.904522902099416E-3   1.264195556359482E-3  
 2.292000000000000E10    7.917848688521190E-4  -2.453160075674532E-3  
 2.294000000000000E10   -1.945325800988940E-3  -3.193029660906177E-4  
 2.296000000000000E10   -1.953329710886465E-4   2.240953115688171E-3  
 2.298000000000000E10    2.271346751513192E-3  -1.293425975745777E-4  
 2.300000000000000E10   -7.591012399643660E-4  -2.484477663529106E-3  
 2.302000000000000E10   -2.072427771054208E-3   8.184391172108008E-4  
 2.304000000000000E10    1.040573349200713E-3   2.458058137563057E-3  
 2.306000000000000E10    2.863392448489321E-3  -1.744331259033061E-3  
 2.308000000000000E10   -2.014601901464630E-3  -2.901941857999191E-3  
 2.310000000000000E10   -2.659681020304561E-3   2.336038654902950E-3  
 2.312000000000000E10    3.407968353712931E-3   2.460893490933813E-3  
 2.314000000000000E10    2.029898225373472E-3  -2.947845619928557E-3  
 2.316000000000000E10   -2.908584850956686E-3  -1.359166979455040E-3  
 2.318000000000000E10   -1.460863630200038E-3   3.071852726861835E-3  
 2.320000000000000E10    3.244274823373416E-3   1.218191899170051E-3  
 2.322000000000000E10    3.942591320083011E-7  -3.260251818574034E-3  
 2.324000000000000E10   -2.750464085693238E-3  -5.097274902254867E-5  
 2.326000000000000E10    8.533033624189557E-4   2.723399855312891E-3  
 2.328000000000000E10    2.534715546062216E-3  -1.448926008379203E-3  
 2.330000000000000E10   -1.400335966536659E-3  -2.266896368382732E-3  
 2.332000000000000E10   -2.459665760397911E-3   2.218348872702336E-3  
 2.334000000000000E10    2.584774050774286E-3   2.500821861758595E-3  
 2.336000000000000E10    2.482859803421889E-3  -3.364113006682601E-3  
 2.338000000000000E10   -4.090500267921016E-3  -2.264085760543821E-3  
 2.340000000000000E10   -2.248421162221348E-3   4.410917288623750E-3  
 2.342000000000000E10    4.927490866975859E-3   1.625425013116910E-3  
 2.344000000000000E10    5.732887284466415E-4  -5.774742028734181E-3  
 2.346000000000000E10   -4.657794153899886E-3  -7.933218903417583E-4  
 2.348000000000000E10   -4.168939713053987E-4   4.835408748476766E-3  
 2.350000000000000E10    4.645195433113258E-3  -1.989758852687373E-4  
 2.352000000000000E10   -6.165726827020990E-4  -4.185327532468364E-3  
 2.354000000000000E10   -4.000575900136028E-3   6.999290271778591E-4  
 2.356000000000000E10    1.388201802910771E-3   3.442383313085884E-3  
 2.358000000000000E10    2.441203541820869E-3  -2.380575802817475E-3  
 2.360000000000000E10   -2.967672604427207E-3  -2.400364006462041E-3  
 2.362000000000000E10   -1.903621443489101E-3   3.454397956375033E-3  
 2.364000000000000E10    3.520730591844767E-3   9.415714339411352E-4  
 2.366000000000000E10    2.174332471440721E-4  -4.285801260266453E-3  
 2.368000000000000E10   -4.404389095725492E-3  -4.351158747795125E-5  
 2.370000000000000E10   -2.028747085205396E-4   4.573960526613519E-3  
 2.372000000000000E10    5.325573816662654E-3  -7.769864751026034E-4  
 2.374000000000000E10   -1.840768480178667E-3  -5.452054945635609E-3  
 2.376000000000000E10   -5.160643675480969E-3   2.046991809038445E-3  
 2.378000000000000E10    2.049536939011887E-3   4.328372640884481E-3  
 2.380000000000000E10    4.448704319656827E-3  -2.496104221791029E-3  
 2.382000000000000E10   -2.787614925182425E-3  -4.074741926160641E-3  
 2.384000000000000E10   -3.394517902052030E-3   2.698636017157696E-3  
 2.386000000000000E10    2.695892326300964E-3   3.369561265571974E-3  
 2.388000000000000E10    2.050503855571151E-3  -3.140040527796373E-3  
 2.390000000000000E10   -3.266087762312964E-3  -1.932863175170496E-3  
 2.392000000000000E10   -1.159752322564600E-3   3.800541366217658E-3  
 2.394000000000000E10    4.362194798886776E-3   3.303139910713071E-4  
 2.396000000000000E10   -8.629587991890730E-4  -4.433780908584595E-3  
 2.398000000000000E10   -3.756473743123934E-3   1.405943687132094E-3  
 2.400000000000000E10    1.588738890859531E-3   4.248347686370835E-3  
 2.402000000000000E10    3.746054782823194E-3  -2.575210637587588E-3  
 2.404000000000000E10   -3.336861416755710E-3  -3.253893541113939E-3  
 2.406000000000000E10   -3.065332224650774E-3   3.691202953632455E-3  
 2.408000000000000E10    3.649885475169867E-3   3.308713137812447E-3  
 2.410000000000000E10    2.578314561105799E-3  -3.857571791741066E-3  
 2.412000000000000E10   -3.819934790953994E-3  -2.272288162203040E-3  
 2.414000000000000E10   -1.984041438845452E-3   3.977067637606524E-3  
 2.416000000000000E10    4.105647283722647E-3   1.662225044128718E-3  
 2.418000000000000E10    7.353137589234393E-4  -3.328346530906856E-3  
 2.420000000000000E10   -3.893176864949055E-3   1.229670147040451E-4  
 2.422000000000000E10    3.699743510878761E-4   3.924821423424874E-3  
 2.424000000000000E10    3.688651566335466E-3  -1.358905992674409E-3  
 2.426000000000000E10   -2.385308413067833E-3  -3.742383196367882E-3  
 2.428000000000000E10   -3.061106697714422E-3   2.652703202329576E-3  
 2.430000000000000E10    3.137260951916687E-3   3.174329285684507E-3  
 2.432000000000000E10    3.047402919037268E-3  -3.854560032777954E-3  
 2.434000000000000E10   -3.787122528592590E-3  -2.365394109801855E-3  
 2.436000000000000E10   -1.965255869436078E-3   4.237591681885533E-3  
 2.438000000000000E10    3.583174613595475E-3   1.760766739607789E-3  
 2.440000000000000E10    2.272921592521016E-3  -3.467380600341130E-3  
 2.442000000000000E10   -3.740800522791687E-3  -1.434002642781707E-3  
 2.444000000000000E10   -1.505667984019965E-3   3.096750544500537E-3  
 2.446000000000000E10    3.913564374670386E-3   1.200776510813739E-3  
 2.448000000000000E10    2.629877576509898E-4  -3.110424018814229E-3  
 2.450000000000000E10   -2.441062642901670E-3  -7.896858119238459E-5  
 2.452000000000000E10    6.069507253414486E-4   2.901418258261401E-3  
 2.454000000000000E10    2.226611890364438E-3  -1.495655684266239E-3  
 2.456000000000000E10   -2.080935191770550E-3  -2.216127453721128E-3  
 2.458000000000000E10   -1.638570000068285E-3   2.881573425838724E-3  
 2.460000000000000E10    3.114980288955849E-3   1.215299016621430E-3  
 2.462000000000000E10    1.132059129304253E-3  -4.006069873867091E-3  
 2.464000000000000E10   -3.924451440980192E-3  -1.034798031469109E-3  
 2.466000000000000E10   -1.041048955812585E-3   4.113514383789152E-3  
 2.468000000000000E10    4.321937653003261E-3   6.036848844814813E-4  
 2.470000000000000E10    3.581274995667627E-4  -4.106174601474777E-3  
 2.472000000000000E10   -3.773856406041887E-3  -4.083482108399039E-4  
 2.474000000000000E10   -9.219986895914190E-4   4.068228619871661E-3  
 2.476000000000000E10    3.608453102060594E-3   4.450787428140757E-4  
 2.478000000000000E10    3.167940224102495E-5  -3.610158782976214E-3  
 2.480000000000000E10   -3.682636597659439E-3   1.550294859953283E-4  
 2.482000000000000E10    5.886021626793081E-4   2.835032180882990E-3  
 2.484000000000000E10    2.086698819766752E-3  -9.519553786958568E-4  
 2.486000000000000E10   -1.570432701555546E-3  -1.439686930098105E-3  
 2.488000000000000E10   -9.224674995493842E-4   1.856933500675950E-3  
 2.490000000000000E10    1.870594049250940E-3   5.459345902636414E-4  
 2.492000000000000E10   -4.363181151347817E-4  -2.176395610149484E-3  
 2.494000000000000E10   -2.450172411045060E-3  -1.001150918682470E-4  
 2.496000000000000E10    3.178650531481253E-4   3.321495918498840E-3  
 2.498000000000000E10    2.610662995721214E-3  -9.123057825490832E-4  
 2.500000000000000E10   -6.390755970642204E-4  -2.865883478079923E-3  
 2.502000000000000E10   -3.484114313323516E-3   7.942450156406267E-4  
 2.504000000000000E10    1.249205430212896E-3   2.883799425035249E-3  
 2.506000000000000E10    2.775748274871148E-3  -7.730488359811716E-4  
 2.508000000000000E10   -8.620093194622314E-4  -2.899429258832242E-3  
 2.510000000000000E10   -2.653705894772429E-3   1.507429620687617E-3  
 2.512000000000000E10    1.295131587539800E-3   2.698859061638359E-3  
 2.514000000000000E10    1.619395730813267E-3  -1.292338307393948E-3  
 2.516000000000000E10   -1.686952153249877E-3  -1.344542353763245E-3  
 2.518000000000000E10   -1.058130601450102E-3   2.443796460283920E-3  
 2.520000000000000E10    1.713096473395126E-3   4.947441848344170E-4  
 2.522000000000000E10    3.937945893994765E-4  -1.729180483380333E-3  
 2.524000000000000E10   -2.570808261225466E-3  -2.941075977105356E-4  
 2.526000000000000E10   -1.798598145796859E-4   2.136542287189513E-3  
 2.528000000000000E10    2.520115282095503E-3   5.904621903027874E-4  
 2.530000000000000E10   -4.811101825907826E-4  -2.826061463565566E-3  
 2.532000000000000E10   -2.635370386997238E-3   6.629500203416683E-4  
 2.534000000000000E10    3.532599248501356E-4   3.626976664236281E-3  
 2.536000000000000E10    2.777740744932089E-3  -9.443282415304566E-4  
 2.538000000000000E10   -8.440321107627824E-4  -2.626630724989809E-3  
 2.540000000000000E10   -2.996160248585511E-3   1.395738952851389E-3  
 2.542000000000000E10    9.396671102877008E-4   2.391565882135183E-3  
 2.544000000000000E10    1.733540531859035E-3  -1.367058073810767E-3  
 2.546000000000000E10   -1.986330200452358E-3  -9.325207356596366E-4  
 2.548000000000000E10   -1.315411627729191E-3   2.231481012131553E-3  
 2.550000000000000E10    2.589137198810931E-3   2.129510698978265E-5  
 2.552000000000000E10   -7.631938387930859E-4  -1.823088503442705E-3  
 2.554000000000000E10   -2.268110169097781E-3   6.881525205244543E-4  
 2.556000000000000E10    1.052026005709195E-3   3.031600448593963E-3  
 2.558000000000000E10    2.493208128726110E-3  -1.122162026149454E-3  
 2.560000000000000E10   -1.740289520967053E-3  -2.744474455539603E-3  
 2.562000000000000E10   -2.307949725945946E-3   2.402088633971289E-3  
 2.564000000000000E10    2.275193692184985E-3   3.322109390865080E-3  
 2.566000000000000E10    2.935806842288002E-3  -2.619702951051295E-3  
 2.568000000000000E10   -2.614681165141519E-3  -2.398510776401963E-3  
 2.570000000000000E10   -2.195719956944231E-3   3.068876074394211E-3  
 2.572000000000000E10    2.796306573145557E-3   1.972574566025287E-3  
 2.574000000000000E10    1.741181749821408E-3  -1.939524954650551E-3  
 2.576000000000000E10   -2.419154443487059E-3  -9.474897960899398E-4  
 2.578000000000000E10    5.827689858506346E-5   2.539362758398056E-3  
 2.580000000000000E10    2.551652069087140E-3  -2.431720695312833E-4  
 2.582000000000000E10   -6.198840037541231E-4  -2.108724314894062E-3  
 2.584000000000000E10   -1.953965271241032E-3   1.742018073855434E-3  
 2.586000000000000E10    2.280127526319120E-3   1.542144134873524E-3  
 2.588000000000000E10    1.672385900747031E-3  -2.352727075049188E-3  
 2.590000000000000E10   -2.484128934156615E-3  -9.863153682090342E-4  
 2.592000000000000E10   -1.076046228263294E-3   2.729603125771973E-3  
 2.594000000000000E10    3.209561386029236E-3   1.068984362063929E-3  
 2.596000000000000E10    1.331945237325272E-3  -3.271093395596836E-3  
 2.598000000000000E10   -3.000727592734620E-3  -1.148395149357384E-3  
 2.600000000000000E10   -6.901290889800293E-4   3.168046088831034E-3  
 2.602000000000000E10    3.141035580483731E-3   9.741525918798288E-4  
 2.604000000000000E10    1.068662066245452E-3  -2.823949558660388E-3  
 2.606000000000000E10   -2.210215439845342E-3  -8.536462189567828E-6  
 2.608000000000000E10    4.263980927987632E-5   2.015033089264762E-3  
 2.610000000000000E10    2.550485885876697E-3  -2.792172645058599E-4  
 2.612000000000000E10   -9.571314731147140E-4  -1.517386685009114E-3  
 2.614000000000000E10   -1.295915386435809E-3   9.872844966594130E-4  
 2.616000000000000E10    1.768849866493838E-3   1.466034325858345E-3  
 2.618000000000000E10    1.347461588011356E-3  -1.962419442861574E-3  
 2.620000000000000E10   -2.369006469962187E-3  -7.596727173222462E-4  
 2.622000000000000E10   -4.656665842048824E-4   2.467555037583225E-3  
 2.624000000000000E10    2.859472893760540E-3   6.550180551130325E-4  
 2.626000000000000E10    1.817998422666278E-4  -3.140691049338784E-3  
 2.628000000000000E10   -2.798314926621970E-3  -4.068409043611609E-4  
 2.630000000000000E10   -1.246249630639795E-4   3.105621159193106E-3  
 2.632000000000000E10    2.990991997648962E-3  -2.228048761026003E-4  
 2.634000000000000E10   -7.529741696998826E-5  -2.473696484230459E-3  
 2.636000000000000E10   -2.279310028825421E-3  -3.338582345691066E-6  
 2.638000000000000E10    6.231346760614542E-4   2.082065344438888E-3  
 2.640000000000000E10    1.658414217672544E-3  -1.035610952385468E-3  
 2.642000000000000E10   -9.338205927633680E-4  -1.223381037561921E-3  
 2.644000000000000E10   -8.737504249438644E-4   1.257064192031976E-3  
 2.646000000000000E10    1.503881227108650E-3   4.841242507609422E-4  
 2.648000000000000E10    5.053271097494871E-4  -1.811165217077360E-3  
 2.650000000000000E10   -2.058483070868533E-3  -2.682936947167036E-4  
 2.652000000000000E10    3.250638665122096E-4   2.237271786725614E-3  
 2.654000000000000E10    2.494171261787415E-3  -2.637191846588394E-4  
 2.656000000000000E10   -2.643846228238544E-4  -2.765235418337397E-3  
 2.658000000000000E10   -2.836649044184014E-3   3.394418490643147E-4  
 2.660000000000000E10    5.676033251802437E-4   2.502625749912113E-3  
 2.662000000000000E10    2.447036909870803E-3  -7.629612246091710E-4  
 2.664000000000000E10   -6.369676157191861E-4  -2.819666180585045E-3  
 2.666000000000000E10   -2.070151989755686E-3   5.875610477232840E-4  
 2.668000000000000E10    3.128541720798239E-4   1.828736381867202E-3  
 2.670000000000000E10    1.750763898598962E-3  -9.359135601698654E-4  
 2.672000000000000E10   -7.321701632463373E-4  -1.400205001118593E-3  
 2.674000000000000E10   -9.973194137273822E-4   8.934495526773389E-4  
 2.676000000000000E10    1.361961174552562E-3   3.897884921570949E-4  
 2.678000000000000E10   -7.465599790634769E-5  -1.567275365232490E-3  
 2.680000000000000E10   -1.719688094453886E-3   2.291317532581161E-4  
 2.682000000000000E10    6.455826587625779E-4   1.581951502885204E-3  
 2.684000000000000E10    1.962184855074156E-3  -9.525734039925737E-4  
 2.686000000000000E10   -1.127260024077259E-3  -2.441160730086267E-3  
 2.688000000000000E10   -2.276125436765142E-3   1.246774801984429E-3  
 2.690000000000000E10    1.347978603007505E-3   2.258492670080159E-3  
 2.692000000000000E10    2.359260419325437E-3  -1.672036443778779E-3  
 2.694000000000000E10   -1.640423743083375E-3  -1.913546864670934E-3  
 2.696000000000000E10   -1.543325030070264E-3   1.329544789768988E-3  
 2.698000000000000E10    1.303154782362981E-3   1.657589004025795E-3  
 2.700000000000000E10    1.197585082991282E-3  -1.466338271711720E-3  
 2.702000000000000E10   -1.237818491063081E-3  -6.617468479817035E-4  
 2.704000000000000E10   -4.525104004642344E-4   1.379080160404556E-3  
 2.706000000000000E10    1.028631202643737E-3  -1.419417590113881E-4  
 2.708000000000000E10   -3.541585183484131E-4  -1.183630105515476E-3  
 2.710000000000000E10   -1.481180210248567E-3   7.781687381793745E-4  
 2.712000000000000E10    7.817516707291361E-4   1.206163764436496E-3  
 2.714000000000000E10    1.599639297637623E-3  -1.456218906241702E-3  
 2.716000000000000E10   -1.553969286760548E-3  -1.336868230282562E-3  
 2.718000000000000E10   -1.389665369060822E-3   1.460940689867130E-3  
 2.720000000000000E10    1.652146882406669E-3   1.496223208960146E-3  
 2.722000000000000E10    1.608402704732725E-3  -1.537220821774099E-3  
 2.724000000000000E10   -1.677318316069432E-3  -1.727241131447954E-3  
 2.726000000000000E10   -1.470572304242523E-3   1.936508353537647E-3  
 2.728000000000000E10    1.338342608505627E-3   1.232604932738468E-3  
 2.730000000000000E10    7.782074135320727E-4  -1.584538797033019E-3  
 2.732000000000000E10   -1.228572320542298E-3  -7.203794211818604E-4  
 2.734000000000000E10   -5.519148071471136E-4   1.104534589103423E-3  
 2.736000000000000E10    1.240832632902311E-3  -5.733162896603972E-5  
 2.738000000000000E10   -4.471232814466930E-4  -1.142575321864570E-3  
 2.740000000000000E10   -9.404307857039385E-4   1.105230752727948E-3  
 2.742000000000000E10    1.547598680190276E-3   1.055882177752210E-3  
 2.744000000000000E10    8.874457053025253E-4  -1.513232324214187E-3  
 2.746000000000000E10   -1.972056095837615E-3  -9.920126994984457E-4  
 2.748000000000000E10   -1.025990837661084E-3   2.330346636881586E-3  
 2.750000000000000E10    2.351161980186589E-3   1.350376995105762E-3  
 2.752000000000000E10    1.262222864170326E-3  -2.595444842881989E-3  
 2.754000000000000E10   -2.662961305759382E-3  -8.649117171444232E-4  
 2.756000000000000E10   -9.079913361347280E-4   2.291090931976214E-3  
