#  HZ   S   RI   R     50.00 
! Rohde & Schwarz ZVA40 4Ports - Version 3.90 - 1145.1110k42 SN: 100403
! Date: 2023-10-04 06:31:09
! Measurement: S12 
! 
 2.200000000000000E10   -8.294114268210251E-4   1.491091901698383E-3  
 2.202000000000000E10    1.204044205223909E-3   2.071170297313074E-5  
 2.204000000000000E10   -2.170917505281977E-4  -1.461157804442337E-3  
 2.206000000000000E10   -1.291232758376282E-3   8.384251268580556E-4  
 2.208000000000000E10    9.138324076047866E-4   1.307889480813174E-3  
 2.210000000000000E10    1.276475177292014E-3  -9.195024831569754E-4  
 2.212000000000000E10   -7.446092822647188E-4  -4.800995657205931E-4  
 2.214000000000000E10   -1.198774738440989E-3   1.449985640647356E-3  
 2.216000000000000E10    1.632625255297171E-3   1.093625309295021E-3  
 2.218000000000000E10    8.215702055167640E-4  -1.116058749175863E-3  
 2.220000000000000E10   -1.756317738909274E-3  -6.966066102904733E-4  
 2.222000000000000E10    7.256028496271938E-5   2.257240354083479E-3  
 2.224000000000000E10    2.054436110483948E-3  -2.520325406294433E-4  
 2.226000000000000E10   -5.253960716800066E-4  -1.726505663100397E-3  
 2.228000000000000E10   -1.188351659948239E-3   1.072697756171692E-3  
 2.230000000000000E10    1.764850272593321E-3   1.616089393792208E-3  
 2.232000000000000E10    1.538979282486253E-3  -1.820241643144982E-3  
 2.234000000000000E10   -1.999849417188671E-3  -8.274758201878285E-4  
 2.236000000000000E10   -8.378988350159489E-4   2.572043646068778E-3  
 2.238000000000000E10    2.995176757394802E-3   3.745571257240954E-4  
 2.240000000000000E10    3.739312933248584E-4  -2.557878535299096E-3  
 2.242000000000000E10   -2.741986470937263E-3  -3.372358047215585E-5  
 2.244000000000000E10    3.764668545045424E-4   2.358470941544510E-3  
 2.246000000000000E10    2.542657319281716E-3   7.908610211870837E-5  
 2.248000000000000E10   -9.263040392397670E-4  -2.289471427502576E-3  
 2.250000000000000E10   -1.747416350553976E-3   6.252450657484587E-4  
 2.252000000000000E10    1.022622902382864E-3   2.314382894837763E-3  
 2.254000000000000E10    1.550893419334898E-3  -1.637532237509731E-3  
 2.256000000000000E10   -1.842032470449340E-3  -1.216988199303160E-3  
 2.258000000000000E10   -6.478433660959126E-4   1.720276442938484E-3  
 2.260000000000000E10    1.858161820564419E-3   1.480364735471085E-4  
 2.262000000000000E10    2.748939687080565E-4  -2.397101539827418E-3  
 2.264000000000000E10   -2.367340312048327E-3   1.787225528460112E-4  
 2.266000000000000E10    2.149739675587625E-4   1.935131986101624E-3  
 2.268000000000000E10    2.799464949930552E-3  -2.369274614011374E-4  
 2.270000000000000E10   -8.683149953867542E-4  -3.154036108753644E-3  
 2.272000000000000E10   -2.926982357166708E-3   6.258904140850063E-4  
 2.274000000000000E10    8.613923419034109E-4   2.877846527553629E-3  
 2.276000000000000E10    3.104659532255027E-3  -1.164244629762834E-3  
 2.278000000000000E10   -1.672983980824938E-3  -3.028495091712102E-3  
 2.280000000000000E10   -2.331845455046278E-3   1.033748139889212E-3  
 2.282000000000000E10   -1.493484351158259E-4   2.714421600103378E-3  
 2.284000000000000E10    2.394170063780621E-3  -1.880298099422362E-3  
 2.286000000000000E10   -1.961804500751896E-3  -1.701041379419621E-3  
 2.288000000000000E10   -1.251917681656778E-3   2.117685173288919E-3  
 2.290000000000000E10    2.259879176563118E-3   9.235143679688918E-4  
 2.292000000000000E10   -1.078433690508973E-4  -2.790256068692543E-3  
 2.294000000000000E10   -2.548659402236808E-3   7.327060029638233E-4  
 2.296000000000000E10    2.834797346622509E-4   2.085700005409308E-3  
 2.298000000000000E10    2.964050669106655E-3  -7.733156380709261E-4  
 2.300000000000000E10   -1.239059802173870E-3  -2.885516776586883E-3  
 2.302000000000000E10   -2.830571895174217E-3   1.211549828440184E-3  
 2.304000000000000E10    1.451915162760997E-3   3.306227270513773E-3  
 2.306000000000000E10    3.290212764113676E-3  -1.646572149184067E-3  
 2.308000000000000E10   -2.548020769609138E-3  -2.864785703422967E-3  
 2.310000000000000E10   -2.654361858731136E-3   2.500539223547094E-3  
 2.312000000000000E10    2.487067889887840E-3   2.821069247147534E-3  
 2.314000000000000E10    1.983348240173655E-3  -3.382986040378455E-3  
 2.316000000000000E10   -2.750703191850334E-3  -1.458796537917806E-3  
 2.318000000000000E10   -1.113803493353771E-3   3.428695141337812E-3  
 2.320000000000000E10    3.656503955426160E-3   1.040573584759841E-3  
 2.322000000000000E10   -1.258293991668325E-4  -3.713574915309437E-3  
 2.324000000000000E10   -3.415047023736406E-3   8.152370028255973E-4  
 2.326000000000000E10    1.093103597668232E-3   3.512652147037443E-3  
 2.328000000000000E10    3.586431150324643E-3  -1.622290845261887E-3  
 2.330000000000000E10   -2.546503877965733E-3  -3.508300869725645E-3  
 2.332000000000000E10   -2.987898806168232E-3   2.570821023255121E-3  
 2.334000000000000E10    2.551189987570979E-3   3.456508391536772E-3  
 2.336000000000000E10    3.431565404753201E-3  -3.992135709268041E-3  
 2.338000000000000E10   -3.374835701833945E-3  -2.729604515479878E-3  
 2.340000000000000E10   -2.303374931216240E-3   3.946379423723556E-3  
 2.342000000000000E10    4.320643754908815E-3   2.545645307691302E-3  
 2.344000000000000E10    1.479020091210259E-3  -4.168955099885352E-3  
 2.346000000000000E10   -3.949041674786713E-3  -2.881161132108900E-4  
 2.348000000000000E10    9.612209582599007E-5   3.908894337655511E-3  
 2.350000000000000E10    3.987074342148844E-3  -8.408745798078599E-4  
 2.352000000000000E10   -1.630965161893982E-3  -3.108428689301945E-3  
 2.354000000000000E10   -3.047331294510514E-3   1.983507572731469E-3  
 2.356000000000000E10    2.673159222467803E-3   3.561630932381377E-3  
 2.358000000000000E10    3.067139638005756E-3  -3.797260753344744E-3  
 2.360000000000000E10   -4.080547922058031E-3  -2.350108043174259E-3  
 2.362000000000000E10   -2.386687454418279E-3   4.805508331628516E-3  
 2.364000000000000E10    5.657990899635479E-3   1.749348506564274E-3  
 2.366000000000000E10    1.717818595352583E-3  -4.970097419572994E-3  
 2.368000000000000E10   -5.820792022859678E-3  -8.896990584617015E-4  
 2.370000000000000E10   -4.052005560879479E-4   5.624145793262869E-3  
 2.372000000000000E10    5.963322735624388E-3   2.170754041799228E-4  
 2.374000000000000E10   -6.018850981490687E-4  -5.103351315483451E-3  
 2.376000000000000E10   -4.331246978836134E-3   1.283050689380616E-3  
 2.378000000000000E10    1.397479594743345E-3   4.036285215988755E-3  
 2.380000000000000E10    3.009083447977901E-3  -1.953009508724790E-3  
 2.382000000000000E10   -1.863441189925652E-3  -2.629667957080528E-3  
 2.384000000000000E10   -2.050213573966175E-3   2.794702275423333E-3  
 2.386000000000000E10    3.177525577484630E-3   1.855833725130651E-3  
 2.388000000000000E10    1.335809763986617E-3  -3.501091414364055E-3  
 2.390000000000000E10   -3.877625422319397E-3  -8.219098563131411E-4  
 2.392000000000000E10   -2.426314331387403E-4   4.654015967389569E-3  
 2.394000000000000E10    5.246098968200386E-3  -5.095580527267885E-4  
 2.396000000000000E10   -1.272967383556534E-3  -5.154517886694521E-3  
 2.398000000000000E10   -4.882141685811803E-3   1.941169990459457E-3  
 2.400000000000000E10    2.180000592488796E-3   4.481673007830977E-3  
 2.402000000000000E10    3.883441386278719E-3  -2.785566917737015E-3  
 2.404000000000000E10   -2.522745358874090E-3  -3.884571400703862E-3  
 2.406000000000000E10   -3.539288256433792E-3   2.800362984999083E-3  
 2.408000000000000E10    3.303366233012639E-3   3.003669131430797E-3  
 2.410000000000000E10    2.310109062818810E-3  -2.936521617812105E-3  
 2.412000000000000E10   -2.859331187210046E-3  -1.960233959835023E-3  
 2.414000000000000E10   -1.428781564754900E-3   2.604822991997935E-3  
 2.416000000000000E10    2.855778177035973E-3   9.821961721172556E-4  
 2.418000000000000E10    6.474413512478350E-4  -3.614635803387500E-3  
 2.420000000000000E10   -3.379510468221270E-3   1.269231825062889E-4  
 2.422000000000000E10    1.039065267832484E-3   3.914126064046286E-3  
 2.424000000000000E10    3.811279864748940E-3  -1.776754113961943E-3  
 2.426000000000000E10   -1.516034099040553E-3  -3.912056708941236E-3  
 2.428000000000000E10   -3.879203795804642E-3   2.984426828334108E-3  
 2.430000000000000E10    3.252877722843550E-3   3.452333316090517E-3  
 2.432000000000000E10    3.447130773565732E-3  -3.362062023370527E-3  
 2.434000000000000E10   -3.838821008685045E-3  -2.518473251257092E-3  
 2.436000000000000E10   -2.104194005369209E-3   2.850795644917525E-3  
 2.438000000000000E10    3.503856278257445E-3   1.996861370571423E-3  
 2.440000000000000E10    1.525166255305521E-3  -3.093283201451413E-3  
 2.442000000000000E10   -2.909933638875373E-3  -1.064093419699930E-3  
 2.444000000000000E10   -5.300044540490490E-4   3.057605659705587E-3  
 2.446000000000000E10    2.846801202395000E-3   6.587476400454762E-5  
 2.448000000000000E10   -5.211204406805337E-4  -3.326673060655594E-3  
 2.450000000000000E10   -2.867372939363122E-3   1.287730898184236E-3  
 2.452000000000000E10    1.691732788458467E-3   2.577806240878999E-3  
 2.454000000000000E10    3.001695979037322E-3  -2.416334187728353E-3  
 2.456000000000000E10   -2.370885194977745E-3  -2.861410815967247E-3  
 2.458000000000000E10   -2.740839991020039E-3   2.807926211971790E-3  
 2.460000000000000E10    3.524374376866035E-3   2.824644587235525E-3  
 2.462000000000000E10    2.125915503711440E-3  -3.453724872088060E-3  
 2.464000000000000E10   -3.463938017375767E-3  -2.092352093313821E-3  
 2.466000000000000E10   -1.794551681086887E-3   3.186840229318477E-3  
 2.468000000000000E10    3.080613751080819E-3   1.378493710944895E-3  
 2.470000000000000E10    1.321179690421559E-3  -3.435736085521057E-3  
 2.472000000000000E10   -2.549030381487683E-3  -2.423109999654116E-4  
 2.474000000000000E10   -5.529920872504590E-4   2.090563517413102E-3  
 2.476000000000000E10    2.388459062785842E-3   1.374674984617741E-4  
 2.478000000000000E10   -7.361751413554885E-4  -1.637304500036407E-3  
 2.480000000000000E10   -1.782007406291086E-3   8.739910481381230E-4  
 2.482000000000000E10    1.934175321366638E-3   1.596846690517850E-3  
 2.484000000000000E10    1.039726375893224E-3  -2.607365837320685E-3  
 2.486000000000000E10   -2.897355108871125E-3  -6.807208374084439E-4  
 2.488000000000000E10   -6.868795353511814E-4   3.003140023793094E-3  
 2.490000000000000E10    3.323672208352946E-3   6.610717900912277E-4  
 2.492000000000000E10    7.463903821189888E-4  -3.424686845391989E-3  
 2.494000000000000E10   -3.694398503284901E-3  -4.025869129691273E-4  
 2.496000000000000E10   -3.198688737029443E-4   4.240852984366939E-3  
 2.498000000000000E10    3.857442075968720E-3   4.325063982832944E-4  
 2.500000000000000E10   -2.695657258300344E-5  -3.434983984334394E-3  
 2.502000000000000E10   -3.274232891271822E-3  -2.524682327020855E-5  
 2.504000000000000E10    4.140897472098004E-4   3.140798391541466E-3  
 2.506000000000000E10    2.294300895300694E-3  -2.218639538114076E-4  
 2.508000000000000E10   -1.839257156461827E-4  -2.203752141213045E-3  
 2.510000000000000E10   -1.893005428428296E-3   1.246158717549406E-3  
 2.512000000000000E10    1.238356795511209E-3   1.196343226183672E-3  
 2.514000000000000E10    1.136500875873026E-3  -1.522676669992507E-3  
 2.516000000000000E10   -1.651152568229009E-3  -1.742783952067839E-4  
 2.518000000000000E10    1.856060830505157E-4   1.534865405119490E-3  
 2.520000000000000E10    2.327008653082885E-3  -1.689463019829418E-4  
 2.522000000000000E10   -1.838435855461285E-5  -1.962437905604020E-3  
 2.524000000000000E10   -2.354343887418509E-3   3.174709563609213E-4  
 2.526000000000000E10    7.023860307526775E-4   2.562388035585173E-3  
 2.528000000000000E10    2.529451201553457E-3  -3.859658991132164E-4  
 2.530000000000000E10    1.786121401892160E-5  -3.041375995962881E-3  
 2.532000000000000E10   -2.608732422231697E-3   7.059318522806279E-4  
 2.534000000000000E10    6.751382388756611E-4   2.377844168222509E-3  
 2.536000000000000E10    2.724217512877658E-3  -1.048947895469610E-3  
 2.538000000000000E10   -8.756418392295018E-4  -2.105231207679026E-3  
 2.540000000000000E10   -1.477131045248825E-3   8.869077391864266E-4  
 2.542000000000000E10    1.908684178488329E-3   1.115060309530236E-3  
 2.544000000000000E10    1.128437397710513E-3  -1.798960554879159E-3  
 2.546000000000000E10   -1.783708095899783E-3  -1.243458056706004E-3  
 2.548000000000000E10   -2.369315743635525E-4   2.093242525006644E-3  
 2.550000000000000E10    2.062968647805974E-3  -8.703764831352601E-5  
 2.552000000000000E10    7.656598893390765E-5  -2.840750734321773E-3  
 2.554000000000000E10   -2.022711327299476E-3   4.277121497580083E-4  
 2.556000000000000E10    4.149199321545893E-4   2.622833053465001E-3  
 2.558000000000000E10    3.484688364551403E-3  -1.308712882746477E-3  
 2.560000000000000E10   -1.044207056111191E-3  -3.306371276266873E-3  
 2.562000000000000E10   -3.120786306681112E-3   1.131278706452576E-3  
 2.564000000000000E10    1.669759789365344E-3   2.636701421579346E-3  
 2.566000000000000E10    2.597997940029018E-3  -1.658723624132108E-3  
 2.568000000000000E10   -1.662973088969011E-3  -2.280037937453017E-3  
 2.570000000000000E10   -1.760415063472465E-3   1.674396335147321E-3  
 2.572000000000000E10    2.242103277239949E-3   1.109257500502281E-3  
 2.574000000000000E10    4.963865831086878E-4  -2.281525667058304E-3  
 2.576000000000000E10   -2.423286627163179E-3  -4.260770747350762E-4  
 2.578000000000000E10    4.738011739391368E-4   2.308883180376142E-3  
 2.580000000000000E10    2.363884312217124E-3  -1.250076718861237E-3  
 2.582000000000000E10   -1.342010647931602E-3  -2.622872503707185E-3  
 2.584000000000000E10   -2.848828182322905E-3   1.691346842562780E-3  
 2.586000000000000E10    2.479078786564060E-3   2.376827396801673E-3  
 2.588000000000000E10    2.272874669870362E-3  -2.955584597657435E-3  
 2.590000000000000E10   -2.837083971826360E-3  -2.537954394938424E-3  
 2.592000000000000E10   -2.585086083854549E-3   2.782184223178774E-3  
 2.594000000000000E10    2.910269613494165E-3   1.863781944848597E-3  
 2.596000000000000E10    1.509510730102193E-3  -3.032097287359648E-3  
 2.598000000000000E10   -2.995169445057400E-3  -1.294085785048083E-3  
 2.600000000000000E10   -8.593029633630067E-4   2.298627674463205E-3  
 2.602000000000000E10    2.005312802793924E-3   3.385411928320536E-4  
 2.604000000000000E10   -1.913576006700168E-4  -1.985887778573670E-3  
 2.606000000000000E10   -2.078793913824484E-3  -9.511346047474945E-5  
 2.608000000000000E10    5.285015358822420E-4   1.675428989983629E-3  
 2.610000000000000E10    1.066195560269989E-3  -1.253720671229530E-3  
 2.612000000000000E10   -1.650252008403186E-3  -1.646693839575164E-3  
 2.614000000000000E10   -1.364608535368461E-3   1.631434934097342E-3  
 2.616000000000000E10    1.955689047463238E-3   1.399689688696526E-3  
 2.618000000000000E10    1.268861597054638E-3  -2.570588199887425E-3  
 2.620000000000000E10   -3.057874724618159E-3  -1.370036690786947E-3  
 2.622000000000000E10   -1.502515282481909E-3   2.786088254651986E-3  
 2.624000000000000E10    2.759226641501300E-3   1.368801291391719E-3  
 2.626000000000000E10    1.016619964502752E-3  -2.767272249911912E-3  
 2.628000000000000E10   -3.243853963795118E-3  -1.188653281133156E-3  
 2.630000000000000E10   -5.946723431407008E-4   2.648596753715538E-3  
 2.632000000000000E10    2.296278951689601E-3   1.903432457766030E-4  
 2.634000000000000E10    1.103049150970037E-4  -2.207693716627546E-3  
 2.636000000000000E10   -1.895441702799872E-3   3.656385815702379E-4  
 2.638000000000000E10    6.149616929178592E-4   1.564699872687925E-3  
 2.640000000000000E10    1.189371505461168E-3  -9.855286843958311E-4  
 2.642000000000000E10   -1.982658635824919E-3  -7.867357562645339E-4  
 2.644000000000000E10   -6.188363367982674E-4   1.776023760612588E-3  
 2.646000000000000E10    1.663847979216371E-3   6.411015638150275E-4  
 2.648000000000000E10    1.314825044573809E-4  -2.408347121672705E-3  
 2.650000000000000E10   -2.732615277636796E-3  -6.928926785576550E-5  
 2.652000000000000E10   -1.601310468686279E-4   2.695612303796224E-3  
 2.654000000000000E10    2.588327173725702E-3  -9.247378920917981E-5  
 2.656000000000000E10   -8.304762468469562E-5  -2.766998586594127E-3  
 2.658000000000000E10   -2.645012078573927E-3   1.925135691180913E-4  
 2.660000000000000E10    2.041722727881279E-4   2.722981487750076E-3  
 2.662000000000000E10    2.210161648690701E-3  -4.459672436496476E-4  
 2.664000000000000E10   -8.256744658865500E-4  -1.520412028185092E-3  
 2.666000000000000E10   -1.451172647648491E-3   8.246974903158844E-4  
 2.668000000000000E10    8.273491257568821E-4   1.005440819426440E-3  
 2.670000000000000E10    4.401016194606200E-4  -8.683691230544355E-4  
 2.672000000000000E10   -1.196760262246244E-3  -2.081872880808078E-4  
 2.674000000000000E10    1.057990339177195E-4   1.367013377603144E-3  
 2.676000000000000E10    1.637700479477644E-3   8.179945155006863E-5  
 2.678000000000000E10   -5.966743192402646E-4  -1.850454820669256E-3  
 2.680000000000000E10   -2.116826130077243E-3   3.831490303127794E-4  
 2.682000000000000E10    6.151791421871167E-4   2.567890129284933E-3  
 2.684000000000000E10    2.143803052604199E-3  -5.777112910436699E-4  
 2.686000000000000E10   -6.662362175120506E-4  -2.393328875768930E-3  
 2.688000000000000E10   -2.531931197154336E-3   8.852603932609782E-4  
 2.690000000000000E10    7.571219866804313E-4   2.561154862632975E-3  
 2.692000000000000E10    2.343723288504407E-3  -8.481654731440358E-4  
 2.694000000000000E10   -8.222245487559121E-4  -1.939888687047642E-3  
 2.696000000000000E10   -1.585614998475649E-3   9.966444304154720E-4  
 2.698000000000000E10    8.089539696811698E-4   1.439929917978589E-3  
 2.700000000000000E10    8.872905054886360E-4  -1.300753923715092E-3  
 2.702000000000000E10   -1.328217840637080E-3  -2.425712209515041E-4  
 2.704000000000000E10    1.916493260978314E-5   1.227730273967609E-3  
 2.706000000000000E10    1.724216628645081E-3  -6.289254688454093E-4  
 2.708000000000000E10   -6.856634208816104E-4  -1.313875822233968E-3  
 2.710000000000000E10   -1.657698536291719E-3   9.903929312713444E-4  
 2.712000000000000E10    1.416151084413286E-3   1.956889602297451E-3  
 2.714000000000000E10    1.845568571297918E-3  -1.272243127459660E-3  
 2.716000000000000E10   -1.703917754639406E-3  -2.057245510513894E-3  
 2.718000000000000E10   -1.785046544682700E-3   1.648769852181431E-3  
 2.720000000000000E10    1.380010544380639E-3   2.321408319403417E-3  
 2.722000000000000E10    2.407867636065930E-3  -1.917097019031644E-3  
 2.724000000000000E10   -1.490546186687425E-3  -1.666191688855179E-3  
 2.726000000000000E10   -1.312779997533653E-3   1.692160476522986E-3  
 2.728000000000000E10    1.887012651422992E-3   1.044087708578445E-3  
 2.730000000000000E10    7.061995020194445E-4  -1.195065517094918E-3  
 2.732000000000000E10   -1.152420634753071E-3  -4.117746102565434E-4  
 2.734000000000000E10   -4.246393018547678E-6   1.567700193845667E-3  
 2.736000000000000E10    1.445901805709582E-3  -5.385714484873461E-4  
 2.738000000000000E10   -1.112424033635762E-3  -1.394320446706843E-3  
 2.740000000000000E10   -1.048395031830296E-3   1.001078402623534E-3  
 2.742000000000000E10    1.126444214605726E-3   1.490468654083088E-3  
 2.744000000000000E10    1.651722537644673E-3  -1.902509982755873E-3  
 2.746000000000000E10   -1.738468919938896E-3  -1.852048095315695E-3  
 2.748000000000000E10   -1.879930583527312E-3   1.831772868172266E-3  
 2.750000000000000E10    2.385699539445341E-3   1.781134007615037E-3  
 2.752000000000000E10    1.592915286892094E-3  -2.442664772388525E-3  
 2.754000000000000E10   -2.092068389174528E-3  -1.608056358236354E-3  
 2.756000000000000E10   -1.303273915254977E-3   1.769537477230188E-3  
