#  HZ   S   RI   R     50.00 
! Rohde & Schwarz ZVA40 4Ports - Version 3.90 - 1145.1110k42 SN: 100403
! Date: 2023-10-04 06:31:44
! Measurement: S12 
! 
 2.200000000000000E10    5.303947436914314E-4   9.494975638517644E-4  
 2.202000000000000E10    1.340907241683453E-3  -1.083032664610073E-3  
 2.204000000000000E10   -1.141165557783097E-3  -1.255940929695498E-3  
 2.206000000000000E10   -1.061738679709379E-3   1.400954701239243E-3  
 2.208000000000000E10    2.161149517633021E-3   4.329582643549657E-4  
 2.210000000000000E10    9.634891330279061E-5  -1.784019535989501E-3  
 2.212000000000000E10   -2.150895132217556E-3  -3.705153230839642E-4  
 2.214000000000000E10    1.481491417507641E-4   1.923358140629716E-3  
 2.216000000000000E10    2.362266372074373E-3   8.824855081002170E-5  
 2.218000000000000E10   -6.297040781646501E-4  -2.903469459852204E-3  
 2.220000000000000E10   -2.300852240296081E-3   1.126202703744639E-3  
 2.222000000000000E10    1.544009006465785E-3   2.020255677052774E-3  
 2.224000000000000E10    1.655467451200821E-3  -2.000940672587603E-3  
 2.226000000000000E10   -2.285649286932312E-3  -9.146321499429178E-4  
 2.228000000000000E10   -1.020479427097598E-3   2.141180841135792E-3  
 2.230000000000000E10    2.526267489884049E-3   4.639523303922033E-4  
 2.232000000000000E10   -1.644675126044604E-5  -2.421774479444139E-3  
 2.234000000000000E10   -3.025127545697615E-3   2.466996988914616E-4  
 2.236000000000000E10    1.196847100800369E-3   2.399612727458589E-3  
 2.238000000000000E10    2.623966996907257E-3  -1.211371964018326E-3  
 2.240000000000000E10   -1.662474423937965E-3  -2.907353715272620E-3  
 2.242000000000000E10   -1.926906843436882E-3   1.742174434184562E-3  
 2.244000000000000E10    2.087792890961282E-3   2.353687683353201E-3  
 2.246000000000000E10    1.841742167016491E-3  -2.500831047655083E-3  
 2.248000000000000E10   -1.983124879188836E-3  -1.936065789777786E-3  
 2.250000000000000E10   -1.357176734018140E-3   2.460332005284727E-3  
 2.252000000000000E10    2.709668129682541E-3   1.140247797593474E-3  
 2.254000000000000E10    5.231078102951869E-4  -2.625370310852304E-3  
 2.256000000000000E10   -2.954423340270296E-3   1.228718883794500E-4  
 2.258000000000000E10    7.125657721189782E-4   2.921778926975094E-3  
 2.260000000000000E10    2.894342891522683E-3  -1.220311816723552E-3  
 2.262000000000000E10   -1.417423751263414E-3  -2.325722220120952E-3  
 2.264000000000000E10   -2.642321414896287E-3   1.585158555826638E-3  
 2.266000000000000E10    2.018648112425581E-3   2.698601427255198E-3  
 2.268000000000000E10    2.183624310418963E-3  -1.848098560003564E-3  
 2.270000000000000E10   -2.215464337496087E-3  -2.421056633465923E-3  
 2.272000000000000E10   -2.347700341488235E-3   2.141433200449683E-3  
 2.274000000000000E10    2.930104776169173E-3   2.787834251648746E-3  
 2.276000000000000E10    2.036660211160779E-3  -2.774299777229317E-3  
 2.278000000000000E10   -3.218847734387964E-3  -1.313097818638198E-3  
 2.280000000000000E10   -1.539169810712338E-3   2.747394464677200E-3  
 2.282000000000000E10    1.568371721077710E-3   1.783218896889594E-3  
 2.284000000000000E10    7.088079291861504E-4  -2.959601682960056E-3  
 2.286000000000000E10   -2.805841228109784E-3   8.403113338317780E-5  
 2.288000000000000E10    3.796051023527980E-4   2.634161646710709E-3  
 2.290000000000000E10    2.746600148384459E-3  -1.510559261078015E-3  
 2.292000000000000E10   -1.878153307188768E-3  -2.268148891744204E-3  
 2.294000000000000E10   -1.984226160857361E-3   1.769823102222290E-3  
 2.296000000000000E10    2.397229138296098E-3   2.713647467317060E-3  
 2.298000000000000E10    1.840088742028456E-3  -2.896597477956675E-3  
 2.300000000000000E10   -3.221436418243684E-3  -1.967513802810572E-3  
 2.302000000000000E10   -1.868880222900771E-3   3.167072020005435E-3  
 2.304000000000000E10    3.452929115155712E-3   1.667259515670594E-3  
 2.306000000000000E10    1.901873998576775E-3  -4.314097372116521E-3  
 2.308000000000000E10   -3.515523552778177E-3  -1.312503496592399E-3  
 2.310000000000000E10   -1.002609558781842E-3   4.074399417731911E-3  
 2.312000000000000E10    4.086925910087302E-3   4.871285091212485E-4  
 2.314000000000000E10    2.767735750239808E-4  -3.389752149814740E-3  
 2.316000000000000E10   -3.388346216524951E-3   2.221680106231361E-4  
 2.318000000000000E10    5.786369620182086E-4   3.372088220203295E-3  
 2.320000000000000E10    3.184088360285386E-3  -9.799062027013861E-4  
 2.322000000000000E10   -1.862886601884384E-3  -2.945000989711843E-3  
 2.324000000000000E10   -2.377743760007434E-3   2.242104616016150E-3  
 2.326000000000000E10    3.132906989776529E-3   1.943193121405784E-3  
 2.328000000000000E10    1.414321122865658E-3  -3.851143686915748E-3  
 2.330000000000000E10   -3.261498379288241E-3  -5.314329082466429E-4  
 2.332000000000000E10   -1.088158322090749E-3   4.171482636593282E-3  
 2.334000000000000E10    4.137045005336404E-3   9.099768576561473E-4  
 2.336000000000000E10    3.888291430484969E-4  -4.973908857209608E-3  
 2.338000000000000E10   -5.358426074963063E-3   3.369276400917443E-4  
 2.340000000000000E10    8.125821186695248E-4   4.669591638958082E-3  
 2.342000000000000E10    5.009304499253631E-3  -1.176918493001722E-3  
 2.344000000000000E10   -1.840435521444306E-3  -4.614252015016973E-3  
 2.346000000000000E10   -3.571212291717529E-3   1.682204827375244E-3  
 2.348000000000000E10    2.264653143356554E-3   3.559258344466798E-3  
 2.350000000000000E10    3.430324562941678E-3  -2.901182626374066E-3  
 2.352000000000000E10   -2.790697457385249E-3  -2.533363309339620E-3  
 2.354000000000000E10   -2.750166910118423E-3   3.065258773858659E-3  
 2.356000000000000E10    4.190689331153408E-3   2.253017839393579E-3  
 2.358000000000000E10    1.213242729136255E-3  -4.798537411261350E-3  
 2.360000000000000E10   -5.290369852446020E-3  -2.797958640599063E-5  
 2.362000000000000E10    1.194270407722797E-3   4.849888064200059E-3  
 2.364000000000000E10    5.359781527658925E-3  -1.116346931667067E-3  
 2.366000000000000E10   -2.229105288279243E-3  -5.018243886297569E-3  
 2.368000000000000E10   -4.502325551584363E-3   2.125342158251442E-3  
 2.370000000000000E10    2.726225313381292E-3   4.553790146019310E-3  
 2.372000000000000E10    4.689835943281651E-3  -3.748156334040687E-3  
 2.374000000000000E10   -3.720436056028120E-3  -3.543839149642736E-3  
 2.376000000000000E10   -2.528574739699252E-3   3.620226823841222E-3  
 2.378000000000000E10    4.089566238690168E-3   2.235375912277959E-3  
 2.380000000000000E10    1.231549096701201E-3  -4.567609255900607E-3  
 2.382000000000000E10   -3.597253322368488E-3  -6.232479354366660E-4  
 2.384000000000000E10   -1.955800280484255E-4   3.749314637389034E-3  
 2.386000000000000E10    4.334063676651567E-3  -6.630688112636562E-4  
 2.388000000000000E10   -1.782351500878576E-3  -4.139270429732278E-3  
 2.390000000000000E10   -3.818924335064367E-3   2.240502406493761E-3  
 2.392000000000000E10    2.924271990195848E-3   3.830916844890453E-3  
 2.394000000000000E10    4.106634558411315E-3  -3.964402756537311E-3  
 2.396000000000000E10   -4.603540874086320E-3  -3.520064841723070E-3  
 2.398000000000000E10   -3.053584543522447E-3   4.515982407610863E-3  
 2.400000000000000E10    5.013144778786227E-3   2.757625552476384E-3  
 2.402000000000000E10    9.907264866342302E-4  -4.963655432220548E-3  
 2.404000000000000E10   -4.382872313726693E-3  -8.009831253730226E-4  
 2.406000000000000E10   -6.784559882362373E-4   3.987340431194753E-3  
 2.408000000000000E10    4.128673113882542E-3   4.176862057647668E-4  
 2.410000000000000E10   -5.391178474383196E-4  -3.618323928094469E-3  
 2.412000000000000E10   -3.152261691866443E-3   6.115868054621387E-4  
 2.414000000000000E10    4.349196969997138E-4   2.505715499864891E-3  
 2.416000000000000E10    2.378378034336492E-3  -1.240896322997287E-3  
 2.418000000000000E10   -1.713349418423604E-3  -2.095110714435577E-3  
 2.420000000000000E10   -1.964126728125848E-3   2.019239065703005E-3  
 2.422000000000000E10    2.858754931367002E-3   1.652238592214417E-3  
 2.424000000000000E10    1.211913368024398E-3  -3.613652123021893E-3  
 2.426000000000000E10   -3.787002409808338E-3  -5.029742897022516E-4  
 2.428000000000000E10   -3.904660061380127E-4   4.007560433819890E-3  
 2.430000000000000E10    4.854515456827357E-3   6.929520714038517E-4  
 2.432000000000000E10   -5.022874211135786E-4  -4.694148927228525E-3  
 2.434000000000000E10   -4.103524319361895E-3   4.857921958318912E-4  
 2.436000000000000E10    3.735771078936523E-4   4.168698505964130E-3  
 2.438000000000000E10    3.972837497713044E-3  -6.539905916724820E-4  
 2.440000000000000E10   -2.944832940556807E-4  -3.466671289061196E-3  
 2.442000000000000E10   -3.385125950444490E-3   6.390696653397754E-4  
 2.444000000000000E10    8.528275975550059E-4   2.874815821996890E-3  
 2.446000000000000E10    2.913014992373064E-3  -1.336003741016612E-3  
 2.448000000000000E10   -1.477937345043756E-3  -2.069976384518668E-3  
 2.450000000000000E10   -2.155966023565270E-3   1.184979038953316E-3  
 2.452000000000000E10    2.481874835211784E-3   1.421834109351039E-3  
 2.454000000000000E10    3.269194530730601E-4  -2.539757741033100E-3  
 2.456000000000000E10   -2.433885019854643E-3  -7.674911321373656E-4  
 2.458000000000000E10    1.946223192135221E-4   3.189234645105898E-3  
 2.460000000000000E10    3.204876862582751E-3  -9.350136024295352E-4  
 2.462000000000000E10   -8.929702125897165E-4  -3.314747591502965E-3  
 2.464000000000000E10   -3.417465384700336E-3   1.396412662870716E-3  
 2.466000000000000E10    1.516195610747673E-3   3.209493355825543E-3  
 2.468000000000000E10    2.997905918164179E-3  -1.488906702434178E-3  
 2.470000000000000E10   -1.380284549668431E-3  -2.905514469603077E-3  
 2.472000000000000E10   -2.560917477239855E-3   1.883910110336728E-3  
 2.474000000000000E10    1.735961544909515E-3   2.605002795462497E-3  
 2.476000000000000E10    2.170927415136248E-3  -1.829742323025130E-3  
 2.478000000000000E10   -2.064272528514266E-3  -1.978044936549850E-3  
 2.480000000000000E10   -1.237176657014061E-3   2.346088280319236E-3  
 2.482000000000000E10    2.234341212897562E-3   7.307597443286795E-4  
 2.484000000000000E10    6.884257527417503E-4  -2.591427793959156E-3  
 2.486000000000000E10   -2.957239674287848E-3   1.789898778952193E-4  
 2.488000000000000E10    1.016695998259820E-3   2.372736620600335E-3  
 2.490000000000000E10    2.696882671443746E-3  -5.886756152904127E-4  
 2.492000000000000E10   -1.375153573462740E-3  -2.965413877973333E-3  
 2.494000000000000E10   -2.822761773131788E-3   1.241507838130929E-3  
 2.496000000000000E10    1.587937214935664E-3   2.934986652689986E-3  
 2.498000000000000E10    2.591385680716485E-3  -1.670487399678677E-3  
 2.500000000000000E10   -1.652229184401222E-3  -2.801800743327476E-3  
 2.502000000000000E10   -2.409708351478912E-3   1.969940676644910E-3  
 2.504000000000000E10    2.302474385942332E-3   2.031545009231195E-3  
 2.506000000000000E10    1.680419911281206E-3  -2.099152654409409E-3  
 2.508000000000000E10   -1.553687667183112E-3  -1.269025407964364E-3  
 2.510000000000000E10   -7.381912764685694E-4   1.761322266247589E-3  
 2.512000000000000E10    1.806398402550258E-3   5.497721649589948E-4  
 2.514000000000000E10   -2.686959578568349E-4  -1.821426485548727E-3  
 2.516000000000000E10   -1.747801710735075E-3   7.772782264510170E-4  
 2.518000000000000E10    1.281413540709764E-3   1.831075314839836E-3  
 2.520000000000000E10    1.699865068076178E-3  -2.222318900749087E-3  
 2.522000000000000E10   -1.804716506740078E-3  -1.693723475909792E-3  
 2.524000000000000E10   -1.807010958145838E-3   2.152408400434069E-3  
 2.526000000000000E10    2.827693795552477E-3   1.853302303061355E-3  
 2.528000000000000E10    1.844891732616816E-3  -2.739990231930278E-3  
 2.530000000000000E10   -2.758651869953610E-3  -1.693455546046607E-3  
 2.532000000000000E10   -1.597985370608512E-3   2.853873680578545E-3  
 2.534000000000000E10    3.261986465076916E-3   1.845932856667787E-3  
 2.536000000000000E10    1.206150118377991E-3  -3.224702726583928E-3  
 2.538000000000000E10   -2.473865941283293E-3  -1.541352830827236E-3  
 2.540000000000000E10   -8.762249999563210E-4   2.528403085307218E-3  
 2.542000000000000E10    2.016703554545529E-3  -1.424396359652747E-4  
 2.544000000000000E10    4.463556961127324E-4  -1.824754166591447E-3  
 2.546000000000000E10   -1.374008934362792E-3   2.655439275258686E-4  
 2.548000000000000E10    6.167637584439945E-4   1.144501533417497E-3  
 2.550000000000000E10    1.044511627696920E-3  -1.145985130278859E-3  
 2.552000000000000E10   -1.496649761975277E-3  -7.613614325236995E-4  
 2.554000000000000E10   -6.627728471357841E-4   1.343523763353005E-3  
 2.556000000000000E10    1.799394376575947E-3   3.740855863725301E-4  
 2.558000000000000E10    1.003644097181677E-4  -2.086221036734060E-3  
 2.560000000000000E10   -2.339073806069791E-3  -8.116678109217901E-4  
 2.562000000000000E10   -1.733245144350804E-4   2.159572584787384E-3  
 2.564000000000000E10    2.387145548709668E-3   9.496709981249296E-5  
 2.566000000000000E10    3.524450094118947E-4  -3.086828044615686E-3  
 2.568000000000000E10   -3.071021172218025E-3   8.211662589019397E-5  
 2.570000000000000E10   -1.887514804366219E-5   2.339670143555850E-3  
 2.572000000000000E10    2.664642626768909E-3  -4.912014337605797E-4  
 2.574000000000000E10   -7.245449778565671E-4  -2.299138999660499E-3  
 2.576000000000000E10   -2.141642893548124E-3   5.104538267914904E-4  
 2.578000000000000E10    6.863509588583838E-4   1.633762549317908E-3  
 2.580000000000000E10    1.424498230335303E-3  -1.407707750331610E-3  
 2.582000000000000E10   -1.811112786526792E-3  -1.427313552994747E-3  
 2.584000000000000E10   -1.076899607141968E-3   1.868185157945845E-3  
 2.586000000000000E10    2.236714746686630E-3   6.362934218486771E-4  
 2.588000000000000E10   -1.065272494997771E-4  -2.934908116003498E-3  
 2.590000000000000E10   -2.857172381482087E-3  -1.736626904857985E-4  
 2.592000000000000E10   -2.780948725558119E-4   3.083303628955036E-3  
 2.594000000000000E10    2.786786892102100E-3  -6.426314757845830E-4  
 2.596000000000000E10   -1.164874440291897E-3  -3.167487535392866E-3  
 2.598000000000000E10   -3.139782769721933E-3   8.215459856728558E-4  
 2.600000000000000E10    7.890038978075609E-4   3.088810073677450E-3  
 2.602000000000000E10    2.537183361710049E-3  -1.523424260085449E-3  
 2.604000000000000E10   -1.289154861296993E-3  -2.328468326595612E-3  
 2.606000000000000E10   -1.956439387868159E-3   1.603842923941556E-3  
 2.608000000000000E10    1.569857944559772E-3   1.146378854173236E-3  
 2.610000000000000E10    8.282594208139926E-4  -1.512952047050931E-3  
 2.612000000000000E10   -2.320002022315748E-3  -6.129678313300246E-4  
 2.614000000000000E10   -4.151418434048537E-4   2.007674105698243E-3  
 2.616000000000000E10    2.318828584975563E-3  -1.810860612749821E-4  
 2.618000000000000E10   -1.018921575450804E-3  -2.385363710345700E-3  
 2.620000000000000E10   -2.700681739952415E-3   1.213545925565995E-3  
 2.622000000000000E10    1.268337779038120E-3   2.613784978166223E-3  
 2.624000000000000E10    2.471334941219539E-3  -1.679645181866363E-3  
 2.626000000000000E10   -2.050952723948285E-3  -2.397920310613699E-3  
 2.628000000000000E10   -2.630404924275354E-3   2.003229965339415E-3  
 2.630000000000000E10    1.760578183166217E-3   2.216375782154501E-3  
 2.632000000000000E10    2.106501226080582E-3  -1.700991597317625E-3  
 2.634000000000000E10   -1.891351035737898E-3  -1.760245773766656E-3  
 2.636000000000000E10   -1.604160053830128E-3   1.644771989958827E-3  
 2.638000000000000E10    1.628400212212000E-3   1.192721727420576E-3  
 2.640000000000000E10    8.302668356918730E-4  -1.536399031465408E-3  
 2.642000000000000E10   -1.815938398067374E-3  -3.045349894819083E-4  
 2.644000000000000E10    3.055293673241977E-4   1.963356873602606E-3  
 2.646000000000000E10    1.328424645180348E-3  -2.612915959616657E-4  
 2.648000000000000E10   -8.529659899068065E-4  -1.763007523550186E-3  
 2.650000000000000E10   -1.732252982037608E-3   1.680747460341081E-3  
 2.652000000000000E10    1.650697195145767E-3   1.571021442941856E-3  
 2.654000000000000E10    1.869540574261919E-3  -2.223584233433940E-3  
 2.656000000000000E10   -2.645453903824091E-3  -1.447944698156789E-3  
 2.658000000000000E10   -1.369331410387531E-3   2.598385995952413E-3  
 2.660000000000000E10    2.566942886915058E-3   1.517869255621918E-3  
 2.662000000000000E10    1.335730339633301E-3  -2.569009200669825E-3  
 2.664000000000000E10   -2.910008392063901E-3  -8.080169136519544E-4  
 2.666000000000000E10   -4.452028297237121E-4   2.489008358679712E-3  
 2.668000000000000E10    2.018856641370803E-3   5.885579594178125E-4  
 2.670000000000000E10   -6.245326403586660E-5  -2.099032484693453E-3  
 2.672000000000000E10   -1.555229478981346E-3   5.009719025110826E-4  
 2.674000000000000E10    4.849329488934018E-4   1.365975593216717E-3  
 2.676000000000000E10    1.133962039602920E-3  -1.134310121415183E-3  
 2.678000000000000E10   -1.397567786625587E-3  -7.806007561157458E-4  
 2.680000000000000E10   -7.230824121506885E-4   1.584987214300782E-3  
 2.682000000000000E10    1.789897098205984E-3   7.400110625894740E-4  
 2.684000000000000E10    7.383214688161388E-4  -2.002307679504156E-3  
 2.686000000000000E10   -2.291386219440028E-3  -2.519629852031358E-4  
 2.688000000000000E10   -2.752567197603639E-4   2.518516033887863E-3  
 2.690000000000000E10    2.281519817188382E-3   7.828616799088195E-4  
 2.692000000000000E10    7.232733187265694E-4  -2.490067330654711E-3  
 2.694000000000000E10   -2.739104296779260E-3  -2.661723319761222E-4  
 2.696000000000000E10   -1.079678077076096E-4   2.529186924220994E-3  
 2.698000000000000E10    1.997320068767294E-3   3.992021047451999E-4  
 2.700000000000000E10   -9.011765723698773E-5  -1.832768728490919E-3  
 2.702000000000000E10   -1.733720098854974E-3   2.534100312914234E-4  
 2.704000000000000E10    2.638482619659044E-4   1.680228058830835E-3  
 2.706000000000000E10    8.682952757226303E-4  -4.744680991279893E-4  
 2.708000000000000E10   -7.527242341893725E-4  -6.589867916773073E-4  
 2.710000000000000E10   -5.841426755068824E-4   1.487621047999710E-3  
 2.712000000000000E10    1.431712444173172E-3   2.107044656440849E-4  
 2.714000000000000E10    4.892803626717068E-4  -1.808169254218228E-3  
 2.716000000000000E10   -2.479839749867097E-3   3.377316852493095E-5  
 2.718000000000000E10    3.330727868160466E-4   2.601299143861979E-3  
 2.720000000000000E10    2.717667463002726E-3  -2.881566542782821E-4  
 2.722000000000000E10   -3.461336200416554E-4  -2.554717939347029E-3  
 2.724000000000000E10   -2.837605541571975E-3   2.350523554923711E-4  
 2.726000000000000E10    5.906429432798177E-4   3.034988156287000E-3  
 2.728000000000000E10    2.879304607631639E-3  -1.569347195982118E-4  
 2.730000000000000E10   -4.834329301957041E-4  -2.848721458576620E-3  
 2.732000000000000E10   -2.022846587351523E-3   7.657281967112795E-4  
 2.734000000000000E10    2.440778698655777E-4   1.918063338962384E-3  
 2.736000000000000E10    1.899788840091787E-3  -5.768768387497403E-4  
 2.738000000000000E10   -8.226760764955543E-4  -1.165994821349159E-3  
 2.740000000000000E10   -9.281401362386532E-4   1.045485492795706E-3  
 2.742000000000000E10    1.152604643721134E-3   3.565774568414781E-4  
 2.744000000000000E10    2.811083541018888E-4  -1.383728973451071E-3  
 2.746000000000000E10   -1.805960098863579E-3   2.383179071330233E-4  
 2.748000000000000E10    7.524551256210543E-4   1.698480933555402E-3  
 2.750000000000000E10    2.049460134003311E-3  -5.772416843683459E-4  
 2.752000000000000E10   -1.166647300124168E-3  -2.394096372881904E-3  
 2.754000000000000E10   -2.321367966942489E-3   1.488798923674040E-3  
 2.756000000000000E10    1.447241724235937E-3   2.185444463975728E-3  
