#  HZ   S   RI   R     50.00 
! Rohde & Schwarz ZVA40 4Ports - Version 3.90 - 1145.1110k42 SN: 100403
! Date: 2023-09-30 09:01:36
! Measurement: S12 
! 
 2.000000000000000E10    1.594042002264313E-4  -2.739144553365225E-4  
 2.000200000000000E10    1.435812326919145E-4  -2.581598810849658E-4  
 2.000400000000000E10    1.449377903618748E-4  -2.746843900250473E-4  
 2.000600000000000E10    1.178452557129400E-4  -3.074757087503905E-4  
 2.000800000000000E10    7.136938623444379E-5  -3.192453325200600E-4  
 2.001000000000000E10    6.544655111833552E-5  -3.146772874204317E-4  
 2.001200000000000E10    6.978278962292600E-5  -3.846395695247744E-4  
 2.001400000000000E10   -1.606785888427668E-5  -4.782745020647603E-4  
 2.001600000000000E10   -1.613400914794866E-4  -5.140265383982072E-4  
 2.001800000000000E10   -3.293347165034723E-4  -4.769136305736821E-4  
 2.002000000000000E10   -4.719594986636617E-4  -3.470462612324630E-4  
 2.002200000000000E10   -4.936997077081167E-4  -1.765516105250728E-4  
 2.002400000000000E10   -4.622021580063221E-4  -8.381016581299259E-5  
 2.002600000000000E10   -4.508863959235115E-4  -2.029559043287498E-5  
 2.002800000000000E10   -4.467702269295226E-4   3.819730556853181E-5  
 2.003000000000000E10   -4.556232763492219E-4   1.061343802374443E-4  
 2.003200000000000E10   -4.385264767400937E-4   2.103366407761768E-4  
 2.003400000000000E10   -3.726124887462838E-4   3.096841036659978E-4  
 2.003600000000000E10   -2.679723775665079E-4   3.668717954101899E-4  
 2.003800000000000E10   -1.765792938836655E-4   3.690895980890887E-4  
 2.004000000000000E10   -1.351488326279037E-4   3.491676473525061E-4  
 2.004200000000000E10   -1.175377842139582E-4   3.851106922982400E-4  
 2.004400000000000E10   -2.240124209454674E-5   4.414006663846414E-4  
 2.004600000000000E10    1.045847072111514E-4   4.219096960950428E-4  
 2.004800000000000E10    1.909764381887300E-4   3.470794053452927E-4  
 2.005000000000000E10    2.237377741665673E-4   2.573247115644293E-4  
 2.005200000000000E10    2.172228919790256E-4   1.987888949352480E-4  
 2.005400000000000E10    2.086413144332003E-4   1.433712005744372E-4  
 2.005600000000000E10    1.624312382513997E-4   1.347122360765040E-4  
 2.005800000000000E10    1.826014548687458E-4   1.961901249454724E-4  
 2.006000000000000E10    2.826690201752551E-4   1.905828052953910E-4  
 2.006200000000000E10    3.531630164733908E-4   9.309643099225453E-5  
 2.006400000000000E10    3.310376676042221E-4  -1.653271037654853E-5  
 2.006600000000000E10    2.742007886016785E-4  -3.908784578690444E-5  
 2.006800000000000E10    2.985477850092793E-4  -4.348473638638880E-5  
 2.007000000000000E10    3.394986422767392E-4  -1.279162286724244E-4  
 2.007200000000000E10    2.771768481203427E-4  -2.510927935309962E-4  
 2.007400000000000E10    1.551521356602634E-4  -2.831682294891840E-4  
 2.007600000000000E10    8.266136539094134E-5  -2.498278340126104E-4  
 2.007800000000000E10    6.450404148608142E-5  -2.219851160721976E-4  
 2.008000000000000E10    5.157143123637184E-5  -2.286922371309957E-4  
 2.008200000000000E10    5.370936846991560E-6  -2.406344059204801E-4  
 2.008400000000000E10   -4.500798070052261E-5  -2.164112026956500E-4  
 2.008600000000000E10   -5.815003789920298E-5  -1.858089280191888E-4  
 2.008800000000000E10   -6.539762112512753E-5  -1.761558501244275E-4  
 2.009000000000000E10   -8.440673544767767E-5  -1.790740486331520E-4  
 2.009200000000000E10   -1.237291532191655E-4  -1.796018643841590E-4  
 2.009400000000000E10   -1.787417986525831E-4  -1.280840928860586E-4  
 2.009600000000000E10   -1.618961631440718E-4  -6.622018553149983E-5  
 2.009800000000000E10   -1.507358591383767E-4  -6.619812415930421E-5  
 2.010000000000000E10   -1.678678410999251E-4  -4.427622084261602E-5  
 2.010200000000000E10   -1.758110229840765E-4  -4.339517519520689E-6  
 2.010400000000000E10   -1.590509372935803E-4   4.662801223159035E-5  
 2.010600000000000E10   -9.963957432993474E-5   7.193100574518124E-5  
 2.010800000000000E10   -4.965484369937474E-5   4.524192355644135E-5  
 2.011000000000000E10   -4.668865329776935E-5  -4.494610012203488E-6  
 2.011200000000000E10   -8.825201435828716E-5  -2.423626803180063E-5  
 2.011400000000000E10   -1.281490507259902E-4  -4.800828704274382E-6  
 2.011600000000000E10   -1.546694470152590E-4   2.840329183083359E-5  
 2.011800000000000E10   -1.506494557410781E-4   9.468638459487748E-5  
 2.012000000000000E10   -8.530266489333228E-5   1.327967986681256E-4  
 2.012200000000000E10   -4.159615311364577E-5   9.644265243920186E-5  
 2.012400000000000E10   -6.639999451873626E-5   7.215074179102665E-5  
 2.012600000000000E10   -8.905503853506554E-5   1.072590632088047E-4  
 2.012800000000000E10   -5.649883539683540E-5   1.628263482073843E-4  
 2.013000000000000E10    1.239923026095648E-5   1.527666123639273E-4  
 2.013200000000000E10    3.879012797525747E-5   1.098649715584208E-4  
 2.013400000000000E10    2.129949695425852E-5   9.103244306870098E-5  
 2.013600000000000E10    1.602788839760758E-5   7.945609028167640E-5  
 2.013800000000000E10   -5.144753433128221E-6   8.661682062446356E-5  
 2.014000000000000E10   -1.945250286061379E-5   1.233133208102436E-4  
 2.014200000000000E10    1.190944536304950E-5   1.778796627962874E-4  
 2.014400000000000E10    9.182886890342029E-5   2.168485426822414E-4  
 2.014600000000000E10    1.979264211910660E-4   1.710036712193267E-4  
 2.014800000000000E10    2.399399428472739E-4   6.362042105771606E-5  
 2.015000000000000E10    2.078980716234619E-4  -2.818638260514112E-5  
 2.015200000000000E10    1.375131162661599E-4  -7.263761585828827E-5  
 2.015400000000000E10    7.226213034104313E-5  -6.148438455747916E-5  
 2.015600000000000E10    3.868759871207599E-5  -1.710959871784703E-5  
 2.015800000000000E10    4.909943349153061E-5   3.052459937086709E-5  
 2.016000000000000E10    9.873848483302842E-5   5.858752899582316E-5  
 2.016200000000000E10    1.696652729555758E-4   4.225224401901580E-5  
 2.016400000000000E10    2.149607701414761E-4  -1.701160105609873E-5  
 2.016600000000000E10    2.117351713463316E-4  -1.000612640743701E-4  
 2.016800000000000E10    1.753391654087571E-4  -1.667884267447900E-4  
 2.017000000000000E10    1.217027231633568E-4  -2.043562325827606E-4  
 2.017200000000000E10    6.713081336635898E-5  -2.225746768504377E-4  
 2.017400000000000E10    1.731440633283658E-5  -2.303760891324497E-4  
 2.017600000000000E10   -4.073961970894872E-5  -2.245800994766389E-4  
 2.017800000000000E10   -1.018675557175561E-4  -1.916067512429337E-4  
 2.018000000000000E10   -1.360160287314033E-4  -1.276880787684130E-4  
 2.018200000000000E10   -1.285223102892616E-4  -5.553761613195947E-5  
 2.018400000000000E10   -5.009088900799022E-5  -1.491460862819189E-5  
 2.018600000000000E10    7.556171180596106E-6  -8.631707212365408E-5  
 2.018800000000000E10   -4.388159479624173E-5  -1.618685404550554E-4  
 2.019000000000000E10   -1.192841660446670E-4  -1.577605573492079E-4  
 2.019200000000000E10   -1.721537472727800E-4  -1.185053430103900E-4  
 2.019400000000000E10   -1.951985312257411E-4  -7.035769354181014E-5  
 2.019600000000000E10   -2.107208702844412E-4  -3.878811532794137E-5  
 2.019800000000000E10   -2.248941409258086E-4   8.823921023320821E-6  
 2.020000000000000E10   -2.220710484784950E-4   6.022090004570687E-5  
 2.020200000000000E10   -2.172951967861916E-4   1.251889652578747E-4  
 2.020400000000000E10   -1.630916757596198E-4   2.008733152116236E-4  
 2.020600000000000E10   -7.675920742353964E-5   2.211472899122309E-4  
 2.020800000000000E10   -2.729793858782828E-6   2.093945136739842E-4  
 2.021000000000000E10    5.956352903590106E-5   1.825595943583091E-4  
 2.021200000000000E10    1.052802147286106E-4   1.180234691927925E-4  
 2.021400000000000E10    1.007876125463539E-4   4.664232034484941E-5  
 2.021600000000000E10    6.498976323894286E-5   9.203703806967236E-6  
 2.021800000000000E10    4.096451236768179E-5  -1.152908019029810E-5  
 2.022000000000000E10    5.818337352491840E-6  -3.896285574902919E-5  
 2.022200000000000E10   -6.548566038026824E-5  -3.017584857680324E-5  
 2.022400000000000E10   -1.132758328989270E-4   4.205168227066922E-5  
 2.022600000000000E10   -8.711810790464495E-5   1.366814422660376E-4  
 2.022800000000000E10   -4.592653932798558E-6   1.712537733095928E-4  
 2.023000000000000E10    5.638842070064282E-5   1.443074341975391E-4  
 2.023200000000000E10    7.806223101936713E-5   1.108551305804102E-4  
 2.023400000000000E10    9.119563364565088E-5   9.015345038558904E-5  
 2.023600000000000E10    1.019552565475142E-4   6.778077106696849E-5  
 2.023800000000000E10    9.899359565658542E-5   4.659423453738755E-5  
 2.024000000000000E10    9.831009610410427E-5   4.727774534814054E-5  
 2.024200000000000E10    1.160936367031673E-4   4.110422007338771E-5  
 2.024400000000000E10    1.306276131129305E-4   1.275679160539445E-5  
 2.024600000000000E10    1.321364261411602E-4  -1.601751327358577E-5  
 2.024800000000000E10    1.155777266811176E-4  -5.487696977348098E-5  
 2.025000000000000E10    7.382337357716873E-5  -5.985785356648145E-5  
 2.025200000000000E10    6.579938317443277E-5  -3.419860386526718E-5  
 2.025400000000000E10    9.312746960197709E-5  -3.737855591646172E-5  
 2.025600000000000E10    1.009437345720681E-4  -7.860756988460851E-5  
 2.025800000000000E10    6.826908040420095E-5  -1.089860908891254E-4  
 2.026000000000000E10    2.899914803408716E-5  -1.068547476992698E-4  
 2.026200000000000E10    1.218511953788148E-5  -8.196152462319536E-5  
 2.026400000000000E10    3.178968523540861E-5  -5.641445848847233E-5  
 2.026600000000000E10    7.006576635941773E-5  -8.231290662618612E-5  
 2.026800000000000E10    5.500114891635990E-5  -1.421099450940328E-4  
 2.027000000000000E10   -3.705474415038513E-6  -1.675445799245578E-4  
 2.027200000000000E10   -5.298382597907831E-5  -1.523882621022220E-4  
 2.027400000000000E10   -7.475743256059507E-5  -1.413530374303968E-4  
 2.027600000000000E10   -1.174272801103194E-4  -1.428367756256556E-4  
 2.027800000000000E10   -1.818780967221878E-4  -9.869359739780151E-5  
 2.028000000000000E10   -1.968933709212662E-4  -1.121014179625574E-5  
 2.028200000000000E10   -1.602358471654474E-4   5.804982782505438E-5  
 2.028400000000000E10   -9.986128532418737E-5   1.000368030900225E-4  
 2.028600000000000E10   -3.067231319749334E-5   1.032587837380852E-4  
 2.028800000000000E10    1.761514459572582E-5   5.984357100806894E-5  
 2.029000000000000E10    3.259138383052092E-5   1.911080996012552E-5  
 2.029200000000000E10    3.151223910500853E-5  -2.385063471201818E-5  
 2.029400000000000E10    1.340187507073990E-6  -7.158202172249183E-5  
 2.029600000000000E10   -6.765739010196291E-5  -9.202539546955077E-5  
 2.029800000000000E10   -1.251650667246796E-4  -5.697259568164769E-5  
 2.030000000000000E10   -1.520370556271342E-4  -5.809380766774159E-7  
 2.030200000000000E10   -1.448587468868078E-4   6.607332807710018E-5  
 2.030400000000000E10   -1.032901251367673E-4   1.021817288492491E-4  
 2.030600000000000E10   -6.869406903188789E-5   1.149690915158876E-4  
 2.030800000000000E10   -4.006774696456733E-5   1.101574223502622E-4  
 2.031000000000000E10   -2.227306712433128E-5   9.893015928027338E-5  
 2.031200000000000E10   -1.951569223384291E-5   9.270673398610149E-5  
 2.031400000000000E10   -1.311183522948004E-5   1.108772565379580E-4  
 2.031600000000000E10    2.120019124554437E-5   1.138092432957642E-4  
 2.031800000000000E10    4.586832100431760E-5   9.164528288574237E-5  
 2.032000000000000E10    4.029345115540047E-5   6.136211196501358E-5  
 2.032200000000000E10    1.639600256420889E-5   4.617338645856217E-5  
 2.032400000000000E10   -6.088121182990397E-6   6.342177649093170E-5  
 2.032600000000000E10   -1.579577000256385E-5   1.085366840678394E-4  
 2.032800000000000E10    1.752774862344298E-5   1.656114520050162E-4  
 2.033000000000000E10    1.085922512048868E-4   1.964502619686109E-4  
 2.033200000000000E10    2.148945855824099E-4   1.390565342944163E-4  
 2.033400000000000E10    2.324226000328145E-4   3.439511446138599E-5  
 2.033600000000000E10    2.031951130429138E-4  -8.121404532142949E-6  
 2.033800000000000E10    1.612341873247473E-4  -7.646369025305280E-5  
 2.034000000000000E10    1.003067032040140E-4  -8.059063621114892E-5  
 2.034200000000000E10    7.525889689905914E-5  -5.068404342561122E-5  
 2.034400000000000E10    8.695213253226896E-5  -2.720103258109270E-5  
 2.034600000000000E10    1.044184695183795E-4  -3.131770779642257E-5  
 2.034800000000000E10    1.147792112592405E-4  -3.370734557858775E-5  
 2.035000000000000E10    1.540049796911327E-4  -3.818108936366720E-5  
 2.035200000000000E10    2.012123359847605E-4  -9.358781207444223E-5  
 2.035400000000000E10    1.972131194226584E-4  -1.921128911011145E-4  
 2.035600000000000E10    1.312872144283117E-4  -2.664896009421120E-4  
 2.035800000000000E10    5.444190140939108E-5  -2.978810199397346E-4  
 2.036000000000000E10   -1.794875866250235E-5  -3.112373234637919E-4  
 2.036200000000000E10   -1.035621446470524E-4  -3.120748556644248E-4  
 2.036400000000000E10   -2.076130405251618E-4  -2.720997348274682E-4  
 2.036600000000000E10   -2.728353294978923E-4  -1.665129295197262E-4  
 2.036800000000000E10   -2.491031052646065E-4  -4.765895750646889E-5  
 2.037000000000000E10   -1.748635622023962E-4  -7.945135719971976E-6  
 2.037200000000000E10   -1.238387866498444E-4  -3.234756971152885E-5  
 2.037400000000000E10   -1.249187632931131E-4  -6.505886165934174E-5  
 2.037600000000000E10   -1.551072722852676E-4  -8.370579712152070E-5  
 2.037800000000000E10   -2.072571369154067E-4  -9.517749664628671E-5  
 2.038000000000000E10   -2.863484679085297E-4  -5.555385983541927E-5  
 2.038200000000000E10   -3.382301190894636E-4   5.552853465893732E-5  
 2.038400000000000E10   -2.924606926265677E-4   1.744115696148969E-4  
 2.038600000000000E10   -2.090536073266172E-4   2.336110114334999E-4  
 2.038800000000000E10   -1.152807924421981E-4   2.401977311300794E-4  
 2.039000000000000E10   -7.028552998204078E-5   1.927639864993341E-4  
 2.039200000000000E10   -8.018469124641500E-5   1.633520952775516E-4  
 2.039400000000000E10   -1.068764897810200E-4   1.841589051418460E-4  
 2.039600000000000E10   -9.794059264499490E-5   2.432426562734314E-4  
 2.039800000000000E10   -3.893162515399933E-5   2.892521202775459E-4  
 2.040000000000000E10    2.830837286250520E-5   2.952040083872246E-4  
 2.040200000000000E10    8.687507967204011E-5   2.854870807738898E-4  
 2.040400000000000E10    1.471304590885677E-4   2.623710917446475E-4  
 2.040600000000000E10    1.817665641567835E-4   2.192313764492905E-4  
 2.040800000000000E10    2.091354956445538E-4   2.003160315794338E-4  
 2.041000000000000E10    2.657881273124087E-4   1.646362914497571E-4  
 2.041200000000000E10    2.987576051159312E-4   6.861922132244904E-5  
 2.041400000000000E10    2.498360576479010E-4  -6.767301309493833E-6  
 2.041600000000000E10    2.010082101017564E-4  -1.087928369793637E-5  
 2.041800000000000E10    1.897760803509861E-4   3.833877829883345E-6  
 2.042000000000000E10    2.101360957222771E-4   5.190946330673872E-6  
 2.042200000000000E10    2.512094762567414E-4  -2.151776427220592E-5  
 2.042400000000000E10    2.652438451477660E-4  -8.979497063770541E-5  
 2.042600000000000E10    2.187547952105037E-4  -1.686708354243177E-4  
 2.042800000000000E10    1.471141006731653E-4  -1.795547269180926E-4  
 2.043000000000000E10    1.106707956447887E-4  -1.399667622277405E-4  
 2.043200000000000E10    1.316233975380561E-4  -1.094573089353839E-4  
 2.043400000000000E10    2.025083856800125E-4  -1.284848637699508E-4  
 2.043600000000000E10    2.362957872212624E-4  -2.432258262016454E-4  
 2.043800000000000E10    1.476638336978073E-4  -3.695655454578927E-4  
 2.044000000000000E10    1.230100657521955E-5  -3.851596915311508E-4  
 2.044200000000000E10   -7.445335167449604E-5  -3.325599816758323E-4  
 2.044400000000000E10   -9.709594590521484E-5  -2.913846340548685E-4  
 2.044600000000000E10   -1.180875365613080E-4  -3.132509380331153E-4  
 2.044800000000000E10   -2.163459690280577E-4  -3.256318662563662E-4  
 2.045000000000000E10   -3.250278746625124E-4  -2.392793056444586E-4  
 2.045200000000000E10   -3.509564550059486E-4  -1.077904629794252E-4  
 2.045400000000000E10   -2.975840740632752E-4  -1.959018707202132E-5  
 2.045600000000000E10   -2.406547472023997E-4   6.255402155803983E-6  
 2.045800000000000E10   -2.156984667219418E-4   1.544511399509285E-5  
 2.046000000000000E10   -1.823075565638955E-4   1.825096595718228E-5  
 2.046200000000000E10   -1.740209149869260E-4  -2.560371743852696E-5  
 2.046400000000000E10   -2.385148031453001E-4  -5.121558379155346E-5  
 2.046600000000000E10   -3.226529978920255E-4   4.394212734768437E-6  
 2.046800000000000E10   -3.411552994168152E-4   1.235968310836913E-4  
 2.047000000000000E10   -2.946900742783867E-4   2.092221277537784E-4  
 2.047200000000000E10   -2.411418368535906E-4   2.681566671263700E-4  
 2.047400000000000E10   -1.661858491353209E-4   3.141430638163940E-4  
 2.047600000000000E10   -7.453982312378960E-5   3.217414263185544E-4  
 2.047800000000000E10   -4.541129291040704E-7   2.831227870584156E-4  
 2.048000000000000E10    1.444524992429026E-5   2.165097186494015E-4  
 2.048200000000000E10   -2.782646803392465E-5   1.938982865267238E-4  
 2.048400000000000E10   -5.874279943840119E-5   2.452932938095098E-4  
 2.048600000000000E10   -3.064072758160172E-5   3.288872893581361E-4  
 2.048800000000000E10    6.113121389820947E-5   3.800030867877887E-4  
 2.049000000000000E10    1.655012788759395E-4   3.752747826367851E-4  
 2.049200000000000E10    2.569446183998091E-4   3.381068239255311E-4  
 2.049400000000000E10    3.405641060826936E-4   2.736465592481534E-4  
 2.049600000000000E10    3.942345976272738E-4   1.691534539646221E-4  
 2.049800000000000E10    3.871322155507026E-4   7.041182623728797E-5  
 2.050000000000000E10    3.480836565963580E-4   2.226700321042478E-5  
 2.050200000000000E10    3.501549216619066E-4   2.534275707274902E-6  
 2.050400000000000E10    3.704713182228950E-4  -4.872508518450294E-5  
 2.050600000000000E10    3.680430232280219E-4  -1.116290130065833E-4  
 2.050800000000000E10    3.573387928003004E-4  -1.830048031117435E-4  
 2.051000000000000E10    3.126934201197480E-4  -2.754965595216255E-4  
 2.051200000000000E10    2.185816500755603E-4  -3.170363383343598E-4  
 2.051400000000000E10    1.454107236278094E-4  -3.014588874931246E-4  
 2.051600000000000E10    1.306918391718448E-4  -2.820804850175973E-4  
 2.051800000000000E10    1.297540574232466E-4  -3.104014972905758E-4  
 2.052000000000000E10    8.258480210917367E-5  -3.558348754369137E-4  
 2.052200000000000E10    2.674956318759416E-5  -3.663548997503922E-4  
 2.052400000000000E10   -2.629747884343244E-5  -3.836179775541252E-4  
 2.052600000000000E10   -1.001878774209735E-4  -3.846431023731469E-4  
 2.052800000000000E10   -1.649675165017416E-4  -3.635708217396881E-4  
 2.053000000000000E10   -2.091046778885899E-4  -3.252535995933180E-4  
 2.053200000000000E10   -2.385399940675555E-4  -3.172694942569016E-4  
 2.053400000000000E10   -3.142977704770547E-4  -3.147096308518864E-4  
 2.053600000000000E10   -4.142065293952580E-4  -2.493644977314420E-4  
 2.053800000000000E10   -4.555724321570288E-4  -1.273459832727342E-4  
 2.054000000000000E10   -4.198139282657796E-4  -4.264859515040138E-5  
 2.054200000000000E10   -3.976796020293344E-4  -3.611791980486026E-5  
 2.054400000000000E10   -4.537710652492471E-4  -1.886563082151897E-5  
 2.054600000000000E10   -5.224126916072981E-4   7.439112889597569E-5  
 2.054800000000000E10   -5.283741259463660E-4   2.267261473402368E-4  
 2.055000000000000E10   -4.637883887606003E-4   3.628973276170195E-4  
 2.055200000000000E10   -3.662274384802565E-4   4.477763976494024E-4  
 2.055400000000000E10   -2.658835611412380E-4   5.140366826600779E-4  
 2.055600000000000E10   -1.370353602613040E-4   5.609322861807910E-4  
