#  HZ   S   RI   R     50.00 
! Rohde & Schwarz ZVA40 4Ports - Version 3.90 - 1145.1110k42 SN: 100403
! Date: 2023-09-30 06:29:54
! Measurement: S12 
! 
 2.000000000000000E10   -1.363606767341513E-4   1.680330644836173E-4  
 2.000200000000000E10   -6.845985374721744E-5   1.002323163883969E-4  
 2.000400000000000E10   -7.494508876958924E-5   5.312185564418696E-5  
 2.000600000000000E10   -1.098316910122368E-4   4.869855949497613E-5  
 2.000800000000000E10   -1.137323051108819E-4   8.273172184503858E-5  
 2.001000000000000E10   -9.178457579449431E-5   9.884345876972803E-5  
 2.001200000000000E10   -7.842380807620157E-5   1.038933671339874E-4  
 2.001400000000000E10   -4.748798299062720E-5   1.225394227409279E-4  
 2.001600000000000E10   -8.998813550639715E-6   9.643064409828263E-5  
 2.001800000000000E10   -1.646006797904701E-5   6.077354436164166E-5  
 2.002000000000000E10   -3.840812785018194E-5   5.686559240318512E-5  
 2.002200000000000E10   -5.771707851817067E-5   5.807652456445991E-5  
 2.002400000000000E10   -9.216127270046125E-5   8.159290955950873E-5  
 2.002600000000000E10   -1.117533001560127E-4   1.365210410457109E-4  
 2.002800000000000E10   -9.133810152014494E-5   2.139739763380463E-4  
 2.003000000000000E10   -2.804935085060462E-5   2.764644977224844E-4  
 2.003200000000000E10    5.966010636114900E-5   3.153518698160986E-4  
 2.003400000000000E10    1.930546319288056E-4   3.303922319428755E-4  
 2.003600000000000E10    3.411638712999976E-4   2.344735192918425E-4  
 2.003800000000000E10    3.911381090531713E-4   7.584971886990098E-5  
 2.004000000000000E10    3.606273435001063E-4  -4.863196620308569E-5  
 2.004200000000000E10    3.130912451157845E-4  -1.472406406879637E-4  
 2.004400000000000E10    2.322549557813265E-4  -2.302386885116373E-4  
 2.004600000000000E10    1.171738994875255E-4  -2.636737330449609E-4  
 2.004800000000000E10    1.826586014142477E-5  -2.196573268308206E-4  
 2.005000000000000E10   -5.742091866138296E-6  -1.589999370758452E-4  
 2.005200000000000E10   -5.971014914436101E-6  -1.344387874177670E-4  
 2.005400000000000E10   -6.517156572212364E-6  -1.305755716048553E-4  
 2.005600000000000E10   -1.206059737576966E-5  -1.401744329027328E-4  
 2.005800000000000E10   -4.967976179234931E-5  -1.686040210274867E-4  
 2.006000000000000E10   -1.296703513368833E-4  -1.474167930922984E-4  
 2.006200000000000E10   -1.766268682798029E-4  -6.307070954821713E-5  
 2.006400000000000E10   -1.573471457282359E-4   1.092963244216298E-5  
 2.006600000000000E10   -1.130308119222600E-4   7.060600205030334E-5  
 2.006800000000000E10   -3.540664076431356E-5   8.741448742082979E-5  
 2.007000000000000E10    1.266664386290612E-5   3.678632410906327E-5  
 2.007200000000000E10   -9.637354566575742E-6  -4.147804682304757E-6  
 2.007400000000000E10   -4.012092361185691E-5   1.822759098561178E-5  
 2.007600000000000E10   -2.366469264810738E-5   3.895965680789220E-5  
 2.007800000000000E10    2.526558024677044E-6   4.905718383546692E-5  
 2.008000000000000E10    2.750671164941334E-5   3.502428699509426E-5  
 2.008200000000000E10    3.869323839099364E-5   1.665874137124085E-5  
 2.008400000000000E10    4.273777259636700E-5  -1.831170673217616E-6  
 2.008600000000000E10    4.385877786766455E-5  -2.940957795798080E-5  
 2.008800000000000E10   -6.249193472340146E-7  -6.541444638453465E-5  
 2.009000000000000E10   -6.605672908433836E-5  -1.625586569786420E-5  
 2.009200000000000E10   -3.130069208458308E-5   6.524864364564774E-5  
 2.009400000000000E10    5.389296289969177E-5   6.525475886678278E-5  
 2.009600000000000E10    1.045341164298826E-4   2.187803171738594E-5  
 2.009800000000000E10    1.169499844969214E-4  -3.735308248943234E-5  
 2.010000000000000E10    1.106492034371193E-4  -1.018829180087825E-4  
 2.010200000000000E10    6.717819377355608E-5  -1.665833255241591E-4  
 2.010400000000000E10   -6.762984862246437E-6  -1.824505749226377E-4  
 2.010600000000000E10   -7.548333351627235E-5  -1.775678075278527E-4  
 2.010800000000000E10   -1.331394649189303E-4  -1.394711771691046E-4  
 2.011000000000000E10   -1.618334840861574E-4  -8.303179572787027E-5  
 2.011200000000000E10   -1.816732156034334E-4  -2.897637682643659E-5  
 2.011400000000000E10   -1.564414036506745E-4   4.256647536003310E-5  
 2.011600000000000E10   -7.918372612321882E-5   7.156978118803271E-5  
 2.011800000000000E10   -3.605338209325985E-5   3.907972792746952E-5  
 2.012000000000000E10   -3.479078685064073E-5  -7.469660918293864E-7  
 2.012200000000000E10   -5.211230245071572E-5  -2.498329294053178E-5  
 2.012400000000000E10   -8.328095372021775E-5  -4.828478724999796E-5  
 2.012600000000000E10   -1.561196674787617E-4  -3.092523681084386E-5  
 2.012800000000000E10   -1.885138869474127E-4   5.235622011341312E-5  
 2.013000000000000E10   -1.581923741221072E-4   1.320666731923155E-4  
 2.013200000000000E10   -8.065882510191344E-5   1.877566465392972E-4  
 2.013400000000000E10    2.094208096917707E-5   1.651351474988103E-4  
 2.013600000000000E10    6.198566532522934E-5   9.078459513131901E-5  
 2.013800000000000E10    5.483139182758618E-5   1.748326290832466E-5  
 2.014000000000000E10    1.175919917360126E-6  -5.229374560073234E-5  
 2.014200000000000E10   -1.051550195749362E-4  -6.736979857188807E-5  
 2.014400000000000E10   -1.872016884056297E-4   1.116292585809655E-6  
 2.014600000000000E10   -2.338093634332634E-4   8.849360188141924E-5  
 2.014800000000000E10   -2.537516238926738E-4   2.152579311294431E-4  
 2.015000000000000E10   -1.861093494146645E-4   3.687728101871593E-4  
 2.015200000000000E10   -3.046468886701578E-5   4.651909646833428E-4  
 2.015400000000000E10    1.643314825819749E-4   4.797938446046732E-4  
 2.015600000000000E10    3.517160276396036E-4   3.940431300607550E-4  
 2.015800000000000E10    4.642934656037026E-4   2.397626547281689E-4  
 2.016000000000000E10    5.154482318513406E-4   4.461142799779925E-5  
 2.016200000000000E10    4.605530591589618E-4  -1.664573094115781E-4  
 2.016400000000000E10    3.077763347243691E-4  -3.038235683680589E-4  
 2.016600000000000E10    1.045933898905004E-4  -3.411704384123291E-4  
 2.016800000000000E10   -6.651669131066744E-5  -2.503154034178899E-4  
 2.017000000000000E10   -1.139996448929060E-4  -1.089675239827129E-4  
 2.017200000000000E10   -8.558893464107509E-5  -1.959142424473077E-5  
 2.017400000000000E10   -6.714359179103900E-5   4.272563580335657E-5  
 2.017600000000000E10   -7.977298317683127E-6   1.120803105188909E-4  
 2.017800000000000E10    8.993227687733744E-5   1.218289953384114E-4  
 2.018000000000000E10    1.620406642544799E-4   7.343005093006356E-5  
 2.018200000000000E10    2.018516923057233E-4   1.241774503288292E-5  
 2.018400000000000E10    1.989642254058906E-4  -7.739936908688179E-5  
 2.018600000000000E10    1.290359366154443E-4  -1.049010693847241E-4  
 2.018800000000000E10    1.213659182536681E-4  -6.520822253720717E-5  
 2.019000000000000E10    1.773702669154685E-4  -7.576551865718712E-5  
 2.019200000000000E10    1.918334744071779E-4  -1.448328125792644E-4  
 2.019400000000000E10    1.897401497626395E-4  -1.936228780903005E-4  
 2.019600000000000E10    1.859236368079081E-4  -2.818517519989800E-4  
 2.019800000000000E10    1.035629335777725E-4  -3.817286749064215E-4  
 2.020000000000000E10   -2.974150162831895E-5  -4.286474260063157E-4  
 2.020200000000000E10   -1.753551867280784E-4  -4.031016059067811E-4  
 2.020400000000000E10   -2.729134511387391E-4  -3.101513171309812E-4  
 2.020600000000000E10   -3.107885781691121E-4  -2.125134965148084E-4  
 2.020800000000000E10   -3.190989050541285E-4  -1.516040421704663E-4  
 2.021000000000000E10   -3.467269136972179E-4  -9.008613204136178E-5  
 2.021200000000000E10   -3.612745946975213E-4  -1.478997988635917E-5  
 2.021400000000000E10   -3.775626843865233E-4   8.113084022982761E-5  
 2.021600000000000E10   -3.296626465280967E-4   2.133911682273550E-4  
 2.021800000000000E10   -1.827286576178197E-4   3.009673241560169E-4  
 2.022000000000000E10   -3.063570467420804E-5   2.627875805467497E-4  
 2.022200000000000E10    4.600949865224462E-5   1.684878486434635E-4  
 2.022400000000000E10    5.177632875347793E-5   6.026662957072506E-5  
 2.022600000000000E10   -2.250988213286057E-5  -2.699832682478557E-5  
 2.022800000000000E10   -1.420023282380902E-4  -9.364218428121189E-6  
 2.023000000000000E10   -1.961041358419323E-4   9.193865620047491E-5  
 2.023200000000000E10   -1.795802922776948E-4   1.997207525439300E-4  
 2.023400000000000E10   -9.208244475276606E-5   2.914362029683707E-4  
 2.023600000000000E10    5.151219665405338E-5   3.127768135728178E-4  
 2.023800000000000E10    1.631044764546520E-4   2.138503995509716E-4  
 2.024000000000000E10    1.633543420480169E-4   1.197422519755249E-4  
 2.024200000000000E10    1.642430880275514E-4   6.211176719230669E-5  
 2.024400000000000E10    1.368792490147863E-4  -2.305515019475035E-5  
 2.024600000000000E10    2.886049517089929E-5  -5.810714954081613E-5  
 2.024800000000000E10   -5.830918718905233E-5   7.181416818908728E-7  
 2.025000000000000E10   -7.768316863537041E-5   9.380934388784200E-5  
 2.025200000000000E10   -5.943254262418563E-5   1.932172596952966E-4  
 2.025400000000000E10    4.588021431391057E-5   2.922990066890410E-4  
 2.025600000000000E10    2.190943821576081E-4   2.866090171893562E-4  
 2.025800000000000E10    3.485430427677896E-4   1.907268720973351E-4  
 2.026000000000000E10    4.220647652827035E-4   3.931760193091953E-5  
 2.026200000000000E10    4.018240829155312E-4  -1.295192330008608E-4  
 2.026400000000000E10    3.149218248436760E-4  -2.589244615602992E-4  
 2.026600000000000E10    2.021271190002423E-4  -3.330058525580442E-4  
 2.026800000000000E10    5.342541955636387E-5  -3.636237498433264E-4  
 2.027000000000000E10   -7.829645440506951E-5  -3.179581369033614E-4  
 2.027200000000000E10   -1.689580246707881E-4  -2.269915522032647E-4  
 2.027400000000000E10   -2.030361577819277E-4  -1.118094317935906E-4  
 2.027600000000000E10   -1.847714895518155E-4   2.777441689443789E-6  
 2.027800000000000E10   -9.775241543152416E-5   8.214663953681542E-5  
 2.028000000000000E10    1.549674750090967E-5   9.271096890283582E-5  
 2.028200000000000E10    1.006525710225531E-4   1.908432569596147E-5  
 2.028400000000000E10    1.111381743674963E-4  -8.349580587849030E-5  
 2.028600000000000E10    5.473923986984146E-5  -1.703745508233275E-4  
 2.028800000000000E10   -5.188879153692191E-5  -2.013737171837570E-4  
 2.029000000000000E10   -1.524028965049186E-4  -1.453822608401588E-4  
 2.029200000000000E10   -1.921742378037690E-4  -7.031217493139959E-5  
 2.029400000000000E10   -2.073231284736257E-4   1.930062305046415E-5  
 2.029600000000000E10   -1.659009570354246E-4   1.389112148234203E-4  
 2.029800000000000E10   -3.681616410457628E-5   1.999183428005022E-4  
 2.030000000000000E10    9.814478042187891E-5   1.746136346353056E-4  
 2.030200000000000E10    2.095857751715433E-4   7.045159876746564E-5  
 2.030400000000000E10    2.423120827864320E-4  -9.841465949647579E-5  
 2.030600000000000E10    1.490612695274460E-4  -2.693122482485346E-4  
 2.030800000000000E10   -4.281547844468124E-5  -3.465180931148466E-4  
 2.031000000000000E10   -2.386140225547361E-4  -2.939791446584684E-4  
 2.031200000000000E10   -3.691746951875060E-4  -1.507708731889478E-4  
 2.031400000000000E10   -4.151229804581237E-4   4.994938274760898E-5  
 2.031600000000000E10   -3.403055589378032E-4   2.649514722455997E-4  
 2.031800000000000E10   -1.314512703851037E-4   3.965303182068985E-4  
 2.032000000000000E10    1.021772447900191E-4   3.638900232234750E-4  
 2.032200000000000E10    2.565149254546509E-4   2.124653297419408E-4  
 2.032400000000000E10    2.937455473211775E-4   2.020623645427884E-5  
 2.032600000000000E10    2.338560573686644E-4  -1.456769730874572E-4  
 2.032800000000000E10    1.044162202161338E-4  -2.605758059405133E-4  
 2.033000000000000E10   -8.239744295354187E-5  -2.925456209041376E-4  
 2.033200000000000E10   -2.491425398170713E-4  -1.850836609767441E-4  
 2.033400000000000E10   -2.956778097643965E-4  -4.013567197461395E-5  
 2.033600000000000E10   -3.098787404493539E-4   5.052328468362417E-5  
 2.033800000000000E10   -2.550342746541436E-4   2.494035604215902E-4  
 2.034000000000000E10   -7.003196319853156E-5   3.530418324749705E-4  
 2.034200000000000E10    1.155509125316434E-4   2.923541369425942E-4  
 2.034400000000000E10    2.084744776167197E-4   1.675519708935367E-4  
 2.034600000000000E10    2.340247277530791E-4   2.351972748455829E-5  
 2.034800000000000E10    1.728468886767691E-4  -1.211515916444346E-4  
 2.035000000000000E10    3.422338635994251E-5  -1.963646905456262E-4  
 2.035200000000000E10   -1.186106574665636E-4  -1.869265815737850E-4  
 2.035400000000000E10   -2.645703990657137E-4  -8.540844539671504E-5  
 2.035600000000000E10   -3.234729934179288E-4   1.203942385604469E-4  
 2.035800000000000E10   -2.168429181507564E-4   2.977548054766309E-4  
 2.036000000000000E10   -6.497332076410602E-5   3.692431021773457E-4  
 2.036200000000000E10    8.752225060103749E-5   3.916830460872684E-4  
 2.036400000000000E10    2.662830228850657E-4   3.267519284091050E-4  
 2.036600000000000E10    3.658152146069662E-4   1.547640018405395E-4  
 2.036800000000000E10    3.411246043374225E-4  -2.577907057043412E-5  
 2.037000000000000E10    2.226297941090707E-4  -1.402543747107101E-4  
 2.037200000000000E10    7.810301023334113E-5  -1.522037338496965E-4  
 2.037400000000000E10   -1.795033013554275E-5  -7.496658052778989E-5  
 2.037600000000000E10   -3.587129685245968E-5   3.722065240230166E-5  
 2.037800000000000E10    2.015870704797900E-5   1.380033664376389E-4  
 2.038000000000000E10    1.329877784826581E-4   1.783599008907827E-4  
 2.038200000000000E10    2.710963036736392E-4   1.451823896989606E-4  
 2.038400000000000E10    3.658108827672903E-4   1.485513232322442E-5  
 2.038600000000000E10    3.657798390540839E-4  -1.489925940224993E-4  
 2.038800000000000E10    2.977863974650155E-4  -2.812944348581276E-4  
 2.039000000000000E10    1.663823599618284E-4  -3.748934419997503E-4  
 2.039200000000000E10   -2.146141064556044E-7  -3.790837012151080E-4  
 2.039400000000000E10   -1.210097009227192E-4  -2.903699466652460E-4  
 2.039600000000000E10   -1.646430149269757E-4  -1.816728202996914E-4  
 2.039800000000000E10   -1.582488246941509E-4  -7.676932775659224E-5  
 2.040000000000000E10   -8.744775033105065E-5  -9.620292138646945E-6  
 2.040200000000000E10   -1.105168753564524E-5  -8.251470251185037E-6  
 2.040400000000000E10    3.838338622329963E-5  -5.151640741407611E-5  
 2.040600000000000E10    4.998525095135605E-5  -9.587896772424825E-5  
 2.040800000000000E10    4.598319695042806E-5  -1.633849960733095E-4  
 2.041000000000000E10   -2.227910420585682E-5  -2.434795370005424E-4  
 2.041200000000000E10   -1.431959226357427E-4  -2.380051942156594E-4  
 2.041400000000000E10   -2.097484864501916E-4  -1.699779442158367E-4  
 2.041600000000000E10   -2.346146991188972E-4  -8.826697631880675E-5  
 2.041800000000000E10   -2.101360620605765E-4  -2.624340645822424E-5  
 2.042000000000000E10   -1.845101601233179E-4  -4.502995242911315E-6  
 2.042200000000000E10   -1.696360922135561E-4   1.962715991426500E-5  
 2.042400000000000E10   -1.354265108536997E-4   2.446104624224888E-5  
 2.042600000000000E10   -1.159798297572510E-4  -9.958891918871203E-6  
 2.042800000000000E10   -1.661695358794286E-4  -6.275667279332095E-5  
 2.043000000000000E10   -2.815468214660079E-4  -3.285975169504247E-5  
 2.043200000000000E10   -3.504422447234512E-4   9.779027474082895E-5  
 2.043400000000000E10   -3.229313576391720E-4   2.436008954223307E-4  
 2.043600000000000E10   -2.301362792851219E-4   3.662924684809200E-4  
 2.043800000000000E10   -6.509873404679779E-5   4.352960802842942E-4  
 2.044000000000000E10    9.894279825408950E-5   3.935947174307090E-4  
 2.044200000000000E10    2.016025505952855E-4   2.927527111060927E-4  
 2.044400000000000E10    2.377059102250254E-4   1.686382699879926E-4  
 2.044600000000000E10    1.887285172438720E-4   7.843985532547886E-5  
 2.044800000000000E10    1.625323314977185E-4   7.407277104067717E-5  
 2.045000000000000E10    1.922982016704580E-4   2.639832829194053E-5  
 2.045200000000000E10    1.400970430961339E-4  -6.263598276987669E-5  
 2.045400000000000E10    2.803836478521308E-5  -6.510961637089660E-5  
 2.045600000000000E10   -2.686285168535028E-5   2.067362666502314E-5  
 2.045800000000000E10   -4.168317083864319E-6   1.063274033085512E-4  
 2.046000000000000E10    7.175371843451596E-5   1.633890980299862E-4  
 2.046200000000000E10    1.758993250636404E-4   1.452069686689326E-4  
 2.046400000000000E10    2.485254620325168E-4   7.460654536847161E-5  
 2.046600000000000E10    2.680739979554567E-4  -4.408258684079585E-5  
 2.046800000000000E10    1.980479007923148E-4  -1.495908270967945E-4  
 2.047000000000000E10    8.038114660663748E-5  -1.701856450393101E-4  
 2.047200000000000E10   -1.882280705680158E-6  -9.983940079735204E-5  
 2.047400000000000E10    1.000598335419226E-5   1.582078297897864E-5  
 2.047600000000000E10    1.221159053471359E-4   6.121908641182312E-5  
 2.047800000000000E10    2.308448343744815E-4   2.964410584777000E-6  
 2.048000000000000E10    2.880521617624543E-4  -1.146218678374519E-4  
 2.048200000000000E10    2.713050968023286E-4  -2.494348097512960E-4  
 2.048400000000000E10    1.993702590661115E-4  -3.732511018150349E-4  
 2.048600000000000E10    7.203812301863680E-5  -4.860159467424982E-4  
 2.048800000000000E10   -1.381479566760326E-4  -5.437727816303691E-4  
 2.049000000000000E10   -3.874694097889984E-4  -4.649877103981803E-4  
 2.049200000000000E10   -5.495194368601821E-4  -2.356671295588676E-4  
 2.049400000000000E10   -5.698393301658885E-4   2.592203669540265E-5  
 2.049600000000000E10   -4.346342019168904E-4   2.476658327918595E-4  
 2.049800000000000E10   -2.357221620810395E-4   3.404836682187565E-4  
 2.050000000000000E10   -5.032338020177244E-5   3.297870687568270E-4  
 2.050200000000000E10    7.819632276288282E-5   2.311713397486398E-4  
 2.050400000000000E10    1.126913122334164E-4   1.183119330892257E-4  
 2.050600000000000E10    1.089313672308552E-4   3.740948777471151E-5  
 2.050800000000000E10    8.455581887434913E-5  -4.144027541804835E-5  
 2.051000000000000E10    6.385543445039474E-6  -1.004457075197421E-4  
 2.051200000000000E10   -8.487171460481007E-5  -9.938066669744150E-5  
 2.051400000000000E10   -1.778766469368081E-4  -5.813954733568436E-5  
 2.051600000000000E10   -2.375718472293605E-4   6.878900942303753E-5  
 2.051800000000000E10   -1.752706152685268E-4   2.182303722847763E-4  
 2.052000000000000E10   -3.518794711084795E-5   2.710791875073405E-4  
 2.052200000000000E10    8.431694934556730E-5   2.415637398065397E-4  
 2.052400000000000E10    1.692280860136127E-4   1.672623946139705E-4  
 2.052600000000000E10    2.262285870104832E-4   4.328812279321797E-5  
 2.052800000000000E10    1.624366060184327E-4  -1.156163515362746E-4  
 2.053000000000000E10   -5.613535523418965E-6  -1.495015555615850E-4  
 2.053200000000000E10   -1.219394701252974E-4  -6.234475733646257E-5  
 2.053400000000000E10   -1.486795662835651E-4   5.531991825583931E-5  
 2.053600000000000E10   -1.274184044153761E-4   1.699945586571167E-4  
 2.053800000000000E10   -3.052893616265220E-5   2.817964974652838E-4  
 2.054000000000000E10    1.670203277958637E-4   3.228377230578474E-4  
 2.054200000000000E10    3.654564226117108E-4   1.976990705112419E-4  
 2.054400000000000E10    4.274667238204042E-4  -4.869601237085134E-5  
 2.054600000000000E10    3.137653668405328E-4  -2.589638685459671E-4  
 2.054800000000000E10    1.115647129737698E-4  -3.457088053100208E-4  
 2.055000000000000E10   -8.572402341368707E-5  -2.998731544449548E-4  
 2.055200000000000E10   -1.900671149493729E-4  -1.573484713631326E-4  
 2.055400000000000E10   -1.849876683796545E-4  -2.212275581587331E-5  
 2.055600000000000E10   -1.452964960503663E-4   6.919962017959609E-5  
