#  HZ   S   RI   R     50.00 
! Rohde & Schwarz ZVA40 4Ports - Version 3.90 - 1145.1110k42 SN: 100403
! Date: 2023-09-30 06:32:17
! Measurement: S12 
! 
 2.000000000000000E10   -5.528162210163243E-4   7.175070055604443E-4  
 2.000200000000000E10   -4.398839157446595E-4   7.670734925673233E-4  
 2.000400000000000E10   -3.152143366777078E-4   7.993563190145873E-4  
 2.000600000000000E10   -2.143736552671572E-4   8.120414849257587E-4  
 2.000800000000000E10   -1.281200879056104E-4   8.715346297550130E-4  
 2.001000000000000E10    1.895452998622597E-5   9.396720188407258E-4  
 2.001200000000000E10    2.104594527992238E-4   9.666991363949661E-4  
 2.001400000000000E10    4.367916883066887E-4   9.336278620025554E-4  
 2.001600000000000E10    6.491509151219587E-4   8.144984855196634E-4  
 2.001800000000000E10    8.138104543242321E-4   6.275714013270293E-4  
 2.002000000000000E10    8.926902671212995E-4   4.048058890766765E-4  
 2.002200000000000E10    9.122965318160614E-4   1.917652522517243E-4  
 2.002400000000000E10    8.716296380717348E-4  -4.106039096756039E-6  
 2.002600000000000E10    7.797075931752616E-4  -1.491965001407541E-4  
 2.002800000000000E10    6.624514339976479E-4  -2.294393909259802E-4  
 2.003000000000000E10    5.847499440585257E-4  -2.318445156987056E-4  
 2.003200000000000E10    5.980813634837230E-4  -2.271664064796152E-4  
 2.003400000000000E10    6.610896697717442E-4  -2.982800647637608E-4  
 2.003600000000000E10    6.838426045695004E-4  -4.705814616836982E-4  
 2.003800000000000E10    6.067484053414764E-4  -6.578652889548261E-4  
 2.004000000000000E10    4.648470183430733E-4  -8.109941693165365E-4  
 2.004200000000000E10    2.738801223226815E-4  -9.236346723358087E-4  
 2.004400000000000E10    4.497857314504837E-5  -9.653925248903646E-4  
 2.004600000000000E10   -1.583970949502179E-4  -9.352968075197555E-4  
 2.004800000000000E10   -3.541721539475215E-4  -8.703795498166893E-4  
 2.005000000000000E10   -5.411210039372471E-4  -7.515937224362798E-4  
 2.005200000000000E10   -6.627749024418812E-4  -5.597366479410275E-4  
 2.005400000000000E10   -6.845232107438946E-4  -3.654005660443665E-4  
 2.005600000000000E10   -6.341063435237832E-4  -2.385116042745829E-4  
 2.005800000000000E10   -6.025377444341221E-4  -1.929974662613197E-4  
 2.006000000000000E10   -6.341805343465497E-4  -1.477697702045526E-4  
 2.006200000000000E10   -6.638467008622149E-4  -7.035716669860217E-5  
 2.006400000000000E10   -6.869759234710347E-4   8.272000394523450E-6  
 2.006600000000000E10   -7.208957052023819E-4   9.975766363546642E-5  
 2.006800000000000E10   -7.494714610942785E-4   2.303662913973481E-4  
 2.007000000000000E10   -7.409447777442576E-4   3.786703249747412E-4  
 2.007200000000000E10   -7.253629441305342E-4   5.428101930338189E-4  
 2.007400000000000E10   -6.371960387421971E-4   7.765527678427333E-4  
 2.007600000000000E10   -4.099280424435229E-4   9.798685748209860E-4  
 2.007800000000000E10   -1.084971264063048E-4   1.049838131636460E-3  
 2.008000000000000E10    1.526822597264998E-4   1.005203702923259E-3  
 2.008200000000000E10    3.838172933382574E-4   8.973977469426513E-4  
 2.008400000000000E10    5.424840553322854E-4   7.203892955803929E-4  
 2.008600000000000E10    5.978329466187989E-4   5.416433200867690E-4  
 2.008800000000000E10    5.931544561111400E-4   4.370237164369478E-4  
 2.009000000000000E10    6.308115273384036E-4   4.089939925636381E-4  
 2.009200000000000E10    7.541173626931358E-4   3.425014468449052E-4  
 2.009400000000000E10    8.722787376662420E-4   1.756755544388590E-4  
 2.009600000000000E10    9.054611734315588E-4  -5.333307534355471E-5  
 2.009800000000000E10    8.453558323631767E-4  -2.677425062314748E-4  
 2.010000000000000E10    7.168340732778851E-4  -4.233892870920509E-4  
 2.010200000000000E10    5.991758900039316E-4  -4.908576659435435E-4  
 2.010400000000000E10    5.324090809032981E-4  -5.651221414912289E-4  
 2.010600000000000E10    4.364542641476887E-4  -6.827607401717650E-4  
 2.010800000000000E10    2.832867788568093E-4  -7.612337244293718E-4  
 2.011000000000000E10    1.246861986516383E-4  -7.845396030394879E-4  
 2.011200000000000E10   -2.418690203950260E-5  -7.751756722193126E-4  
 2.011400000000000E10   -1.695229793780270E-4  -7.444220966025832E-4  
 2.011600000000000E10   -2.912626826663776E-4  -6.599377196684856E-4  
 2.011800000000000E10   -3.648463169955194E-4  -5.654935909512799E-4  
 2.012000000000000E10   -3.924941869246842E-4  -4.866656037855902E-4  
 2.012200000000000E10   -3.989154161042422E-4  -4.538075771955898E-4  
 2.012400000000000E10   -4.358934688262899E-4  -4.885735792885615E-4  
 2.012600000000000E10   -5.882252662814104E-4  -5.139065181227245E-4  
 2.012800000000000E10   -7.950130979001190E-4  -4.317208571783090E-4  
 2.013000000000000E10   -9.557616592732223E-4  -2.230483149471805E-4  
 2.013200000000000E10   -1.006061202409835E-3   4.600646442827776E-5  
 2.013400000000000E10   -9.473067950299774E-4   2.861875404427303E-4  
 2.013600000000000E10   -8.266626452597595E-4   4.737649448186154E-4  
 2.013800000000000E10   -6.758828255905907E-4   5.957507200552882E-4  
 2.014000000000000E10   -5.434964143533691E-4   6.554852344793809E-4  
 2.014200000000000E10   -4.496605572230888E-4   7.132162165513210E-4  
 2.014400000000000E10   -3.279939377894763E-4   7.693257222298152E-4  
 2.014600000000000E10   -2.122115489026641E-4   7.878611145924760E-4  
 2.014800000000000E10   -1.391255473168530E-4   8.268806289132266E-4  
 2.015000000000000E10   -2.953756781462672E-5   8.975890610808379E-4  
 2.015200000000000E10    1.440034461178819E-4   9.629147940119704E-4  
 2.015400000000000E10    3.777007033029321E-4   9.755514213434061E-4  
 2.015600000000000E10    6.377710197567332E-4   8.944220046162598E-4  
 2.015800000000000E10    8.509729636326744E-4   6.915237795659640E-4  
 2.016000000000000E10    9.547868507762789E-4   4.220867610049350E-4  
 2.016200000000000E10    9.483014870012847E-4   1.698818401072944E-4  
 2.016400000000000E10    8.738738957510329E-4  -2.699747866171555E-5  
 2.016600000000000E10    7.566935890603336E-4  -1.539636852493111E-4  
 2.016800000000000E10    6.426145854252613E-4  -2.119017334219430E-4  
 2.017000000000000E10    5.769740406761930E-4  -2.177887658123779E-4  
 2.017200000000000E10    5.662507906978710E-4  -2.383507234210453E-4  
 2.017400000000000E10    5.609004175086204E-4  -2.776093287165269E-4  
 2.017600000000000E10    5.720249627144220E-4  -3.283545040138546E-4  
 2.017800000000000E10    6.033599649769188E-4  -4.311829428395039E-4  
 2.018000000000000E10    5.833442472079717E-4  -6.009169258555573E-4  
 2.018200000000000E10    4.636866928928789E-4  -7.910308652795055E-4  
 2.018400000000000E10    2.483839404361780E-4  -9.058687136996261E-4  
 2.018600000000000E10    1.705128997514346E-5  -9.158123131540350E-4  
 2.018800000000000E10   -1.754714558409732E-4  -8.476082518459876E-4  
 2.019000000000000E10   -3.169177621252045E-4  -7.493713430746893E-4  
 2.019200000000000E10   -4.198558151320171E-4  -6.287283219972385E-4  
 2.019400000000000E10   -4.539193770606691E-4  -4.923611376071177E-4  
 2.019600000000000E10   -4.263952114036476E-4  -4.333336807736247E-4  
 2.019800000000000E10   -4.615754637523840E-4  -4.482123366420934E-4  
 2.020000000000000E10   -5.788556361141419E-4  -4.389086313395382E-4  
 2.020200000000000E10   -7.218364313971739E-4  -3.283690121380428E-4  
 2.020400000000000E10   -7.923201781433124E-4  -1.250482905781227E-4  
 2.020600000000000E10   -7.399963803014170E-4   5.204649815192494E-5  
 2.020800000000000E10   -6.658868934034949E-4   1.386950616593842E-4  
 2.021000000000000E10   -6.413539027105470E-4   2.065954166229229E-4  
 2.021200000000000E10   -6.070452521336101E-4   2.962028061234145E-4  
 2.021400000000000E10   -5.762036325724566E-4   3.935024024803131E-4  
 2.021600000000000E10   -5.139343669796879E-4   5.179930962573194E-4  
 2.021800000000000E10   -3.870589983821452E-4   6.284350504383424E-4  
 2.022000000000000E10   -1.993675704439627E-4   6.739307774132610E-4  
 2.022200000000000E10   -3.445183948319410E-5   6.177805207917862E-4  
 2.022400000000000E10    5.109478299633993E-5   5.172232770082221E-4  
 2.022600000000000E10    4.701554789046943E-5   4.273778611893550E-4  
 2.022800000000000E10   -1.365037881455269E-6   4.368995251890978E-4  
 2.023000000000000E10    3.074970139164863E-5   4.985078865521832E-4  
 2.023200000000000E10    8.911248446831339E-5   5.326900351054443E-4  
 2.023400000000000E10    1.701290874160942E-4   5.784029059856307E-4  
 2.023600000000000E10    2.966345070731824E-4   6.267555729098388E-4  
 2.023800000000000E10    4.865919845973635E-4   6.085618324755955E-4  
 2.024000000000000E10    6.710108998295467E-4   4.852985916701821E-4  
 2.024200000000000E10    8.037621439277738E-4   2.942225583482633E-4  
 2.024400000000000E10    8.403933327758624E-4   3.219943861612195E-5  
 2.024600000000000E10    7.194087316490475E-4  -1.787329772443102E-4  
 2.024800000000000E10    5.816689232188140E-4  -2.535895675988129E-4  
 2.025000000000000E10    5.066146230983886E-4  -2.851823939572191E-4  
 2.025200000000000E10    4.344375022614838E-4  -3.239581004555061E-4  
 2.025400000000000E10    3.827925597818879E-4  -3.275417535097152E-4  
 2.025600000000000E10    3.662233551387642E-4  -3.564804317764660E-4  
 2.025800000000000E10    3.350375926567361E-4  -3.898112430391816E-4  
 2.026000000000000E10    3.454732748369589E-4  -4.273344919751170E-4  
 2.026200000000000E10    3.341794366683006E-4  -5.565404988244186E-4  
 2.026400000000000E10    2.095895963922544E-4  -6.854414844136267E-4  
 2.026600000000000E10    4.507151829223839E-5  -7.460946933219585E-4  
 2.026800000000000E10   -1.390197179755039E-4  -7.660366424843852E-4  
 2.027000000000000E10   -3.521150408623971E-4  -7.130562846995709E-4  
 2.027200000000000E10   -5.293028756554258E-4  -5.522231535037569E-4  
 2.027400000000000E10   -5.824306500593570E-4  -3.200153112036756E-4  
 2.027600000000000E10   -4.869993850463885E-4  -1.327416632323517E-4  
 2.027800000000000E10   -3.430062561643204E-4  -1.015268304684525E-4  
 2.028000000000000E10   -2.738141799229216E-4  -1.911783389683408E-4  
 2.028200000000000E10   -3.343419602469821E-4  -3.012137174729961E-4  
 2.028400000000000E10   -5.005172137914840E-4  -3.422202595947571E-4  
 2.028600000000000E10   -7.066908854942368E-4  -2.571277787589955E-4  
 2.028800000000000E10   -8.434283574268757E-4  -4.082463278591385E-5  
 2.029000000000000E10   -8.576691205563776E-4   2.106411022033981E-4  
 2.029200000000000E10   -7.874890670600206E-4   4.174615624453717E-4  
 2.029400000000000E10   -6.950516218134010E-4   6.074960504526793E-4  
 2.029600000000000E10   -5.368406450738026E-4   7.920343756626466E-4  
 2.029800000000000E10   -2.952370456662404E-4   9.131024201373468E-4  
 2.030000000000000E10   -3.925296401718549E-5   9.274402805918458E-4  
 2.030200000000000E10    1.905326943857616E-4   8.621874927632391E-4  
 2.030400000000000E10    3.770023574544800E-4   7.272807853751345E-4  
 2.030600000000000E10    4.687283219492941E-4   5.496118258410346E-4  
 2.030800000000000E10    4.806012085225446E-4   4.073079483220325E-4  
 2.031000000000000E10    4.647283705032743E-4   3.076577177583179E-4  
 2.031200000000000E10    4.320430919812118E-4   2.796084988742543E-4  
 2.031400000000000E10    4.600578782392385E-4   2.868713293700597E-4  
 2.031600000000000E10    5.560956641157554E-4   2.841089800103601E-4  
 2.031800000000000E10    6.989562482295017E-4   2.054490650790527E-4  
 2.032000000000000E10    8.266108745801045E-4   2.332073195248780E-5  
 2.032200000000000E10    8.669186162419115E-4  -2.481467064774603E-4  
 2.032400000000000E10    7.447925232455302E-4  -5.377225526179844E-4  
 2.032600000000000E10    4.941767583698199E-4  -7.222128453292720E-4  
 2.032800000000000E10    2.174917586564084E-4  -7.500270175709392E-4  
 2.033000000000000E10    7.908629720762659E-6  -6.571702066300908E-4  
 2.033200000000000E10   -8.971677566394455E-5  -5.225072004435583E-4  
 2.033400000000000E10   -9.462839069030939E-5  -4.449890538837324E-4  
 2.033600000000000E10   -8.849009252770281E-5  -4.435677699424752E-4  
 2.033800000000000E10   -1.890062535542333E-4  -3.886926192704037E-4  
 2.034000000000000E10   -1.890704240514911E-4  -3.342238400688115E-4  
 2.034200000000000E10   -1.896398606776462E-4  -3.490280541056202E-4  
 2.034400000000000E10   -2.475004918106826E-4  -3.766946037878513E-4  
 2.034600000000000E10   -3.411021535867161E-4  -3.767618098199488E-4  
 2.034800000000000E10   -4.533468574113254E-4  -3.231987134768757E-4  
 2.035000000000000E10   -5.367678373594550E-4  -2.278004860223836E-4  
 2.035200000000000E10   -5.954366812787383E-4  -1.226985378201362E-4  
 2.035400000000000E10   -6.462133247811263E-4   2.325819903336309E-5  
 2.035600000000000E10   -6.226523394972221E-4   2.019098025169340E-4  
 2.035800000000000E10   -5.197994767601201E-4   3.369113525015957E-4  
 2.036000000000000E10   -3.976514694843251E-4   3.982534307699479E-4  
 2.036200000000000E10   -3.199983564148121E-4   4.171450209124019E-4  
 2.036400000000000E10   -2.438416142486889E-4   4.502996240161653E-4  
 2.036600000000000E10   -1.616857434168922E-4   4.458793080081468E-4  
 2.036800000000000E10   -1.237261625998623E-4   4.265989305383307E-4  
 2.037000000000000E10   -1.154226250915471E-4   4.491675419725760E-4  
 2.037200000000000E10   -7.137089055226540E-5   5.032351943904856E-4  
 2.037400000000000E10   -1.663259721661278E-6   5.466339956153389E-4  
 2.037600000000000E10    7.887475957519361E-5   5.920258135849381E-4  
 2.037800000000000E10    2.007525998199171E-4   6.351770966814432E-4  
 2.038000000000000E10    3.795349164362351E-4   6.345379134597372E-4  
 2.038200000000000E10    5.622684942803838E-4   5.333091031843444E-4  
 2.038400000000000E10    6.612565684710151E-4   3.653707191590950E-4  
 2.038600000000000E10    6.876326666248067E-4   2.197384925367108E-4  
 2.038800000000000E10    7.045316172189810E-4   9.512499881778558E-5  
 2.039000000000000E10    7.031428866018695E-4  -2.509026883157349E-5  
 2.039200000000000E10    6.719928086142533E-4  -1.414459177407755E-4  
 2.039400000000000E10    6.224988990461472E-4  -2.273783510283782E-4  
 2.039600000000000E10    5.938039877961694E-4  -2.872552385698435E-4  
 2.039800000000000E10    6.017982286025357E-4  -3.692128551266040E-4  
 2.040000000000000E10    5.930226068696608E-4  -5.201218615358020E-4  
 2.040200000000000E10    4.832010625778830E-4  -6.799801482685307E-4  
 2.040400000000000E10    3.368112485881156E-4  -7.729565763162986E-4  
 2.040600000000000E10    1.899214497478489E-4  -8.442674118718437E-4  
 2.040800000000000E10    1.654304427575803E-5  -9.037616774625057E-4  
 2.041000000000000E10   -2.044426601245721E-4  -9.077494768327879E-4  
 2.041200000000000E10   -4.205674813081812E-4  -8.290387112018466E-4  
 2.041400000000000E10   -5.902045114182910E-4  -6.877800971104948E-4  
 2.041600000000000E10   -7.089863862669713E-4  -5.081437533793580E-4  
 2.041800000000000E10   -7.562290143071579E-4  -2.943422909167897E-4  
 2.042000000000000E10   -7.033498026998401E-4  -1.013202128388910E-4  
 2.042200000000000E10   -5.909332742694822E-4   2.962230209383004E-6  
 2.042400000000000E10   -5.025730961141662E-4   3.492769591015210E-6  
 2.042600000000000E10   -4.937898243722521E-4  -1.968603260253276E-5  
 2.042800000000000E10   -5.511178995183540E-4  -1.481044586983067E-5  
 2.043000000000000E10   -6.300740319718232E-4   4.812043799703675E-5  
 2.043200000000000E10   -6.897026916613527E-4   1.764539418583044E-4  
 2.043400000000000E10   -6.953527086712204E-4   3.366299971314697E-4  
 2.043600000000000E10   -6.652119492526717E-4   5.031390377255977E-4  
 2.043800000000000E10   -5.693632657829184E-4   7.029578181164222E-4  
 2.044000000000000E10   -3.593870893100468E-4   8.650961764752435E-4  
 2.044200000000000E10   -9.665934168084600E-5   9.038204654611619E-4  
 2.044400000000000E10    1.226130810591904E-4   8.083594410296693E-4  
 2.044600000000000E10    2.241534233513287E-4   7.009628137055916E-4  
 2.044800000000000E10    3.122006601853715E-4   6.412664437171847E-4  
 2.045000000000000E10    4.097226160260679E-4   5.453380060196520E-4  
 2.045200000000000E10    4.410471722579877E-4   4.154173675219058E-4  
 2.045400000000000E10    3.982826449651817E-4   3.457268347847720E-4  
 2.045600000000000E10    3.924537983978067E-4   3.792161391071753E-4  
 2.045800000000000E10    4.850921237561185E-4   4.088937357851830E-4  
 2.046000000000000E10    6.288211600048159E-4   3.792678761406552E-4  
 2.046200000000000E10    7.814376383541203E-4   2.523793922973763E-4  
 2.046400000000000E10    8.730620368195177E-4   5.612900926273627E-5  
 2.046600000000000E10    8.978728655154520E-4  -1.696940725287957E-4  
 2.046800000000000E10    8.310443256600399E-4  -4.301416083180679E-4  
 2.047000000000000E10    6.074237247236697E-4  -6.227205919231434E-4  
 2.047200000000000E10    3.751660238447459E-4  -6.247914372343611E-4  
 2.047400000000000E10    2.783109697875180E-4  -5.518761873516361E-4  
 2.047600000000000E10    2.648280725456409E-4  -5.439205100743399E-4  
 2.047800000000000E10    2.336988862066416E-4  -5.926034307295980E-4  
 2.048000000000000E10    1.661180305454420E-4  -6.525437013125321E-4  
 2.048200000000000E10    8.513861443537210E-5  -7.002686404973988E-4  
 2.048400000000000E10   -6.245664229231905E-6  -7.734160953867945E-4  
 2.048600000000000E10   -1.717256656467118E-4  -8.526158846209003E-4  
 2.048800000000000E10   -4.115206277337323E-4  -8.637843327486776E-4  
 2.049000000000000E10   -6.765739062162663E-4  -7.576617442734764E-4  
 2.049200000000000E10   -8.639675913848588E-4  -5.277550219013241E-4  
 2.049400000000000E10   -9.306674794367187E-4  -2.779979084001909E-4  
 2.049600000000000E10   -9.269313912046201E-4  -4.871595562040628E-5  
 2.049800000000000E10   -8.809304134911014E-4   1.618097455741261E-4  
 2.050000000000000E10   -7.596228008870093E-4   3.614744436082903E-4  
 2.050200000000000E10   -5.897945642754218E-4   4.617885559306999E-4  
 2.050400000000000E10   -4.453623783118164E-4   4.927286428749003E-4  
 2.050600000000000E10   -3.486782423032991E-4   5.046026159955905E-4  
 2.050800000000000E10   -2.477548160567556E-4   5.263465834309054E-4  
 2.051000000000000E10   -1.439089618419987E-4   5.015592015189180E-4  
 2.051200000000000E10   -9.056220319238084E-5   4.398726556585194E-4  
 2.051400000000000E10   -1.225994907791453E-4   4.206672676789538E-4  
 2.051600000000000E10   -1.308832805333828E-4   5.136486345238762E-4  
 2.051800000000000E10   -1.869272122487535E-5   6.239531826412579E-4  
 2.052000000000000E10    1.536629571757152E-4   6.529921961394963E-4  
 2.052200000000000E10    3.411053225063492E-4   6.125486212540682E-4  
 2.052400000000000E10    5.026987781736822E-4   4.733593861306008E-4  
 2.052600000000000E10    5.644494783780695E-4   2.789880459835562E-4  
 2.052800000000000E10    5.251122225602448E-4   1.089348923175408E-4  
 2.053000000000000E10    4.430911359033691E-4   2.017585535862887E-5  
 2.053200000000000E10    3.942302557758093E-4  -1.484727216515736E-5  
 2.053400000000000E10    3.475302298715607E-4  -5.289561110232665E-5  
 2.053600000000000E10    2.999877940649456E-4  -5.090063919099515E-5  
 2.053800000000000E10    3.108347980993292E-4  -2.977156289095951E-5  
 2.054000000000000E10    3.685038350080705E-4  -4.985142282850461E-5  
 2.054200000000000E10    4.027148595027189E-4  -1.625195655334347E-4  
 2.054400000000000E10    3.338390055393315E-4  -2.753653274978231E-4  
 2.054600000000000E10    2.387396259039383E-4  -3.163554094583259E-4  
 2.054800000000000E10    1.603147146335361E-4  -3.216641150825388E-4  
 2.055000000000000E10    9.063560936838160E-5  -3.057589043017532E-4  
 2.055200000000000E10    4.568071024638893E-5  -2.674964799128662E-4  
 2.055400000000000E10    4.047030947068098E-5  -2.249731630598410E-4  
 2.055600000000000E10    5.745579822650704E-5  -2.071681938329597E-4  
