#  HZ   S   RI   R     50.00 
! Rohde & Schwarz ZVA40 4Ports - Version 3.90 - 1145.1110k42 SN: 100403
! Date: 2023-09-30 09:12:56
! Measurement: S12 
! 
 2.000000000000000E10   -1.248376313194541E-3  -1.246980956272671E-3  
 2.000200000000000E10   -1.458337088307144E-3  -1.029922796505285E-3  
 2.000400000000000E10   -1.611183345731762E-3  -7.574773080256067E-4  
 2.000600000000000E10   -1.717816134282377E-3  -4.795833690563379E-4  
 2.000800000000000E10   -1.796053627164797E-3  -1.580541192433211E-4  
 2.001000000000000E10   -1.757716011244482E-3   1.966964819113084E-4  
 2.001200000000000E10   -1.615824861501808E-3   4.425430247596554E-4  
 2.001400000000000E10   -1.541193040018833E-3   6.122222683323479E-4  
 2.001600000000000E10   -1.514861579129756E-3   8.389075981824826E-4  
 2.001800000000000E10   -1.403850502307707E-3   1.145849332075428E-3  
 2.002000000000000E10   -1.175814800715618E-3   1.417481014696659E-3  
 2.002200000000000E10   -8.698293362905124E-4   1.610337590814066E-3  
 2.002400000000000E10   -5.890584932621033E-4   1.728244973806504E-3  
 2.002600000000000E10   -2.993701267537160E-4   1.811336114650033E-3  
 2.002800000000000E10   -9.410550444827173E-6   1.851693755820578E-3  
 2.003000000000000E10    2.980481859808213E-4   1.868849927310376E-3  
 2.003200000000000E10    6.399241272731850E-4   1.851468483549485E-3  
 2.003400000000000E10    1.030336995034214E-3   1.734440598671360E-3  
 2.003600000000000E10    1.378496890837795E-3   1.482018035330615E-3  
 2.003800000000000E10    1.603864917604430E-3   1.152987281960501E-3  
 2.004000000000000E10    1.715960400753919E-3   8.397848803335381E-4  
 2.004200000000000E10    1.813861147650046E-3   6.078508557510322E-4  
 2.004400000000000E10    1.965254629529063E-3   3.308271004726398E-4  
 2.004600000000000E10    2.073010078098610E-3  -6.111663803752847E-5  
 2.004800000000000E10    2.051132615203414E-3  -5.040742019038081E-4  
 2.005000000000000E10    1.900982065222115E-3  -9.221883194613053E-4  
 2.005200000000000E10    1.657347434867220E-3  -1.265912386205492E-3  
 2.005400000000000E10    1.364520513318449E-3  -1.552972953130373E-3  
 2.005600000000000E10    1.021044133346022E-3  -1.757801725498474E-3  
 2.005800000000000E10    6.683097911304929E-4  -1.872898346778971E-3  
 2.006000000000000E10    3.007480843757268E-4  -1.937523632264340E-3  
 2.006200000000000E10   -6.302590894540621E-5  -1.918414966950630E-3  
 2.006400000000000E10   -4.096516816917072E-4  -1.816430252712266E-3  
 2.006600000000000E10   -6.819232522678628E-4  -1.650693583965241E-3  
 2.006800000000000E10   -8.773069966243345E-4  -1.468101957594447E-3  
 2.007000000000000E10   -1.049387387532757E-3  -1.336019832560402E-3  
 2.007200000000000E10   -1.257140675191710E-3  -1.176490161449116E-3  
 2.007400000000000E10   -1.451281129302067E-3  -9.573141602538680E-4  
 2.007600000000000E10   -1.593023955385075E-3  -6.968640794674770E-4  
 2.007800000000000E10   -1.682166856667602E-3  -4.159547477182568E-4  
 2.008000000000000E10   -1.723964226244347E-3  -1.308295941421065E-4  
 2.008200000000000E10   -1.705592501536779E-3   1.575618953810078E-4  
 2.008400000000000E10   -1.644783006567094E-3   4.174230787222784E-4  
 2.008600000000000E10   -1.573876654077705E-3   6.477514007837807E-4  
 2.008800000000000E10   -1.504331738534748E-3   8.987015184616756E-4  
 2.009000000000000E10   -1.369527708298293E-3   1.183127871821845E-3  
 2.009200000000000E10   -1.149901027461598E-3   1.458069772858158E-3  
 2.009400000000000E10   -8.673186357891947E-4   1.678773788869412E-3  
 2.009600000000000E10   -5.037430491789010E-4   1.821624901751248E-3  
 2.009800000000000E10   -1.358809498729905E-4   1.848472794422060E-3  
 2.010000000000000E10    1.836663077670675E-4   1.792206276599088E-3  
 2.010200000000000E10    4.439521915089616E-4   1.711118196945929E-3  
 2.010400000000000E10    6.935416657090526E-4   1.645385455378473E-3  
 2.010600000000000E10    9.963927908375127E-4   1.543954059332150E-3  
 2.010800000000000E10    1.289568994761495E-3   1.339432864867672E-3  
 2.011000000000000E10    1.503177445167254E-3   1.062556594387924E-3  
 2.011200000000000E10    1.649571034133650E-3   7.826941044246129E-4  
 2.011400000000000E10    1.763628045989990E-3   4.881898220532685E-4  
 2.011600000000000E10    1.821924062779197E-3   1.634488267927175E-4  
 2.011800000000000E10    1.818666092806147E-3  -1.598510846525332E-4  
 2.012000000000000E10    1.757781939205442E-3  -4.825411572115336E-4  
 2.012200000000000E10    1.633287902821791E-3  -7.838423712631312E-4  
 2.012400000000000E10    1.445796869124129E-3  -1.049526749608019E-3  
 2.012600000000000E10    1.232052247285261E-3  -1.238017426343796E-3  
 2.012800000000000E10    1.036720945396357E-3  -1.402879534327567E-3  
 2.013000000000000E10    8.176966642658132E-4  -1.578877334111206E-3  
 2.013200000000000E10    5.476147881632388E-4  -1.743950415881726E-3  
 2.013400000000000E10    1.984134615507215E-4  -1.852255456873940E-3  
 2.013600000000000E10   -1.695613625795684E-4  -1.845496072368735E-3  
 2.013800000000000E10   -4.989560255148438E-4  -1.757671743719513E-3  
 2.014000000000000E10   -7.898185707325953E-4  -1.618425369956397E-3  
 2.014200000000000E10   -1.044106511629106E-3  -1.444575847739760E-3  
 2.014400000000000E10   -1.256529325638503E-3  -1.233542588570083E-3  
 2.014600000000000E10   -1.421210370908028E-3  -1.022727667055105E-3  
 2.014800000000000E10   -1.594248539653182E-3  -7.985608657982984E-4  
 2.015000000000000E10   -1.740853229361307E-3  -5.055247811282461E-4  
 2.015200000000000E10   -1.811717005940959E-3  -1.738728381575511E-4  
 2.015400000000000E10   -1.809243071602022E-3   1.672557536574893E-4  
 2.015600000000000E10   -1.741865320694576E-3   4.914640928062883E-4  
 2.015800000000000E10   -1.611785843408832E-3   7.978448718058047E-4  
 2.016000000000000E10   -1.429754723277357E-3   1.060262310928033E-3  
 2.016200000000000E10   -1.204962534120943E-3   1.300113683819403E-3  
 2.016400000000000E10   -9.054539939810220E-4   1.474793564428579E-3  
 2.016600000000000E10   -6.078367208709381E-4   1.525997084569294E-3  
 2.016800000000000E10   -3.914534565350692E-4   1.530099167189573E-3  
 2.017000000000000E10   -1.908797138838152E-4   1.576205447254848E-3  
 2.017200000000000E10    3.455012494234902E-5   1.602709761422143E-3  
 2.017400000000000E10    2.856532828221213E-4   1.605031618545668E-3  
 2.017600000000000E10    5.508438617454789E-4   1.567784010302352E-3  
 2.017800000000000E10    8.111576661812488E-4   1.485734896776516E-3  
 2.018000000000000E10    1.083667006309110E-3   1.353761756604867E-3  
 2.018200000000000E10    1.335605139625661E-3   1.148543892133169E-3  
 2.018400000000000E10    1.544981027872842E-3   8.824976928122037E-4  
 2.018600000000000E10    1.669739282003953E-3   5.703298846899759E-4  
 2.018800000000000E10    1.714983261324496E-3   2.615930898921803E-4  
 2.019000000000000E10    1.725382531835955E-3  -1.569204999404863E-5  
 2.019200000000000E10    1.709459751457314E-3  -3.159987963467775E-4  
 2.019400000000000E10    1.617538947765352E-3  -6.252160337044564E-4  
 2.019600000000000E10    1.478659369936788E-3  -8.952226149638804E-4  
 2.019800000000000E10    1.270764171521452E-3  -1.134516196057139E-3  
 2.020000000000000E10    1.019080686421276E-3  -1.316509546363274E-3  
 2.020200000000000E10    7.544125175417821E-4  -1.400224989521559E-3  
 2.020400000000000E10    5.557876525335629E-4  -1.431489763819755E-3  
 2.020600000000000E10    3.839297260353227E-4  -1.496129431148585E-3  
 2.020800000000000E10    1.637449006812547E-4  -1.563172991034947E-3  
 2.021000000000000E10   -4.846809405321832E-5  -1.590297291047657E-3  
 2.021200000000000E10   -2.815987004078312E-4  -1.627631025549807E-3  
 2.021400000000000E10   -5.819044392575116E-4  -1.639884701113642E-3  
 2.021600000000000E10   -9.297355441778991E-4  -1.538707778900249E-3  
 2.021800000000000E10   -1.223779903866596E-3  -1.318216806760541E-3  
 2.022000000000000E10   -1.423930420172343E-3  -1.053945031093717E-3  
 2.022200000000000E10   -1.555662853221712E-3  -7.871067845607523E-4  
 2.022400000000000E10   -1.636617893636718E-3  -5.204719647002473E-4  
 2.022600000000000E10   -1.690436091845081E-3  -2.590440259911044E-4  
 2.022800000000000E10   -1.705668934663076E-3  -9.987569492408016E-6  
 2.023000000000000E10   -1.720351116241190E-3   2.472749147123424E-4  
 2.023200000000000E10   -1.694578152828287E-3   5.284944738916778E-4  
 2.023400000000000E10   -1.613851667788079E-3   8.173400982677816E-4  
 2.023600000000000E10   -1.486956103083988E-3   1.101180307429146E-3  
 2.023800000000000E10   -1.295253100283751E-3   1.372161251876059E-3  
 2.024000000000000E10   -1.046296319763326E-3   1.619201986149812E-3  
 2.024200000000000E10   -7.230797339395578E-4   1.808302020443290E-3  
 2.024400000000000E10   -3.603703219974376E-4   1.896324504737900E-3  
 2.024600000000000E10   -3.288017090988717E-5   1.897576542421716E-3  
 2.024800000000000E10    2.725418999483580E-4   1.872154373825057E-3  
 2.025000000000000E10    5.752273975131812E-4   1.813329545466743E-3  
 2.025200000000000E10    8.791513248047805E-4   1.717361064873054E-3  
 2.025400000000000E10    1.200825247124083E-3   1.548287586630955E-3  
 2.025600000000000E10    1.462995810070125E-3   1.284919332314298E-3  
 2.025800000000000E10    1.636806129546906E-3   9.826913585219488E-4  
 2.026000000000000E10    1.743802870240507E-3   6.936581428316059E-4  
 2.026200000000000E10    1.827055682263379E-3   4.154035796166050E-4  
 2.026400000000000E10    1.865529392964740E-3   1.065146608636025E-4  
 2.026600000000000E10    1.854805141656733E-3  -2.044165697870508E-4  
 2.026800000000000E10    1.772655279053674E-3  -5.091411676478225E-4  
 2.027000000000000E10    1.646259819241739E-3  -7.577920804440273E-4  
 2.027200000000000E10    1.536397148429612E-3  -9.647470833292931E-4  
 2.027400000000000E10    1.422505053009363E-3  -1.215648868048388E-3  
 2.027600000000000E10    1.225780993182626E-3  -1.487333691629118E-3  
 2.027800000000000E10    9.410485195057322E-4  -1.698130069572648E-3  
 2.028000000000000E10    6.318065117941136E-4  -1.842293239183295E-3  
 2.028200000000000E10    3.035707694359523E-4  -1.916710880427879E-3  
 2.028400000000000E10   -6.771043955930875E-6  -1.917552717466966E-3  
 2.028600000000000E10   -2.910242716105341E-4  -1.898385554172651E-3  
 2.028800000000000E10   -5.805955774825328E-4  -1.862873946059756E-3  
 2.029000000000000E10   -8.832704342437963E-4  -1.784780803385647E-3  
 2.029200000000000E10   -1.201131441937032E-3  -1.667160831617935E-3  
 2.029400000000000E10   -1.524311572757891E-3  -1.456236344122102E-3  
 2.029600000000000E10   -1.796056286033259E-3  -1.158286582624900E-3  
 2.029800000000000E10   -1.983061962695831E-3  -8.160436433479345E-4  
 2.030000000000000E10   -2.108386331601950E-3  -4.473122501738155E-4  
 2.030200000000000E10   -2.156265000448613E-3  -6.315877989335504E-5  
 2.030400000000000E10   -2.137659676181375E-3   3.251441904830406E-4  
 2.030600000000000E10   -2.032210474542569E-3   7.172721208632761E-4  
 2.030800000000000E10   -1.841849368640487E-3   1.047521249444795E-3  
 2.031000000000000E10   -1.624159476098915E-3   1.311827800236642E-3  
 2.031200000000000E10   -1.390011700391463E-3   1.529504878948531E-3  
 2.031400000000000E10   -1.144527991344470E-3   1.743066313852836E-3  
 2.031600000000000E10   -8.716066149944909E-4   1.945981255218908E-3  
 2.031800000000000E10   -5.011379631588796E-4   2.101880345884481E-3  
 2.032000000000000E10   -9.755878584098203E-5   2.138417997922549E-3  
 2.032200000000000E10    2.532427276675341E-4   2.068125591095951E-3  
 2.032400000000000E10    5.449826410902596E-4   1.982058226916587E-3  
 2.032600000000000E10    8.315573206435845E-4   1.901949582422160E-3  
 2.032800000000000E10    1.153498253719920E-3   1.777534783193114E-3  
 2.033000000000000E10    1.458230555831712E-3   1.587843127671338E-3  
 2.033200000000000E10    1.746666844773256E-3   1.317188708560059E-3  
 2.033400000000000E10    1.965600627363342E-3   9.823054220880012E-4  
 2.033600000000000E10    2.028934062562055E-3   7.943269655821318E-4  
 2.033800000000000E10    2.138355812019527E-3   2.128060731903646E-4  
 2.034000000000000E10    2.108331116245976E-3  -1.373382843000845E-4  
 2.034200000000000E10    2.048336523259251E-3  -4.635191322045608E-4  
 2.034400000000000E10    1.930946367313710E-3  -7.730500035777444E-4  
 2.034600000000000E10    1.783354271111298E-3  -1.038276336976009E-3  
 2.034800000000000E10    1.641428634167914E-3  -1.282526009597283E-3  
 2.035000000000000E10    1.488708123495734E-3  -1.555769210355548E-3  
 2.035200000000000E10    1.256264499465288E-3  -1.861970327936358E-3  
 2.035400000000000E10    9.029111724323882E-4  -2.128994618370026E-3  
 2.035600000000000E10    4.688404463835199E-4  -2.296102885731761E-3  
 2.035800000000000E10    1.775045257277962E-5  -2.335746833908951E-3  
 2.036000000000000E10   -4.191578352927334E-4  -2.275822769444237E-3  
 2.036200000000000E10   -8.098474926978290E-4  -2.118178538847792E-3  
 2.036400000000000E10   -1.120297831326049E-3  -1.911801668343905E-3  
 2.036600000000000E10   -1.382552998029309E-3  -1.691266584378733E-3  
 2.036800000000000E10   -1.606964208223999E-3  -1.455261625939743E-3  
 2.037000000000000E10   -1.806771779842982E-3  -1.208871523006494E-3  
 2.037200000000000E10   -2.008559066350017E-3  -9.366549149542712E-4  
 2.037400000000000E10   -2.175335842280538E-3  -6.158250633631010E-4  
 2.037600000000000E10   -2.296975842550581E-3  -2.471439381333168E-4  
 2.037800000000000E10   -2.355145941078357E-3   1.603527663015941E-4  
 2.038000000000000E10   -2.328944814088659E-3   5.993535708628381E-4  
 2.038200000000000E10   -2.198378060112704E-3   1.048323047278380E-3  
 2.038400000000000E10   -1.951181836648550E-3   1.447200451291515E-3  
 2.038600000000000E10   -1.628794752870047E-3   1.773769584476734E-3  
 2.038800000000000E10   -1.265549760143208E-3   2.032531734839573E-3  
 2.039000000000000E10   -8.502932830230783E-4   2.183990471578614E-3  
 2.039200000000000E10   -4.454178974193372E-4   2.228966459953859E-3  
 2.039400000000000E10   -8.876047961518300E-5   2.225595737190404E-3  
 2.039600000000000E10    2.376293410679303E-4   2.195289182196920E-3  
 2.039800000000000E10    5.921382816803524E-4   2.145008267374870E-3  
 2.040000000000000E10    9.552247730302224E-4   1.989853367163444E-3  
 2.040200000000000E10    1.229756404914023E-3   1.777346648367835E-3  
 2.040400000000000E10    1.465021029934901E-3   1.564551318742703E-3  
 2.040600000000000E10    1.684098079064746E-3   1.334881964292945E-3  
 2.040800000000000E10    1.882093156105360E-3   1.083437783582282E-3  
 2.041000000000000E10    2.078276602819624E-3   7.966455657115598E-4  
 2.041200000000000E10    2.245796245518965E-3   4.308398388069384E-4  
 2.041400000000000E10    2.307606514144705E-3  -8.956340156176325E-7  
 2.041600000000000E10    2.269682490722940E-3  -4.242576270435130E-4  
 2.041800000000000E10    2.133609877454708E-3  -8.225960416504693E-4  
 2.042000000000000E10    1.922588642598456E-3  -1.151108915472994E-3  
 2.042200000000000E10    1.695020257020101E-3  -1.412524526973290E-3  
 2.042400000000000E10    1.467901579518285E-3  -1.655998900858494E-3  
 2.042600000000000E10    1.202270772342605E-3  -1.905577726290397E-3  
 2.042800000000000E10    8.432007808652191E-4  -2.127468718192828E-3  
 2.043000000000000E10    4.072421707774402E-4  -2.218076624857730E-3  
 2.043200000000000E10    2.380881199281214E-5  -2.185679358955274E-3  
 2.043400000000000E10   -2.769416143280290E-4  -2.119992808879587E-3  
 2.043600000000000E10   -5.730043178320760E-4  -2.072089360337015E-3  
 2.043800000000000E10   -9.022684048750121E-4  -1.995339915884559E-3  
 2.044000000000000E10   -1.242937659557311E-3  -1.835666239499249E-3  
 2.044200000000000E10   -1.549542176828494E-3  -1.613093249752750E-3  
 2.044400000000000E10   -1.812454404543181E-3  -1.332516597062656E-3  
 2.044600000000000E10   -2.018722803274423E-3  -1.010447043500105E-3  
 2.044800000000000E10   -2.185539015733595E-3  -6.504407501779497E-4  
 2.045000000000000E10   -2.269552794472917E-3  -2.488697847397424E-4  
 2.045200000000000E10   -2.263950374659627E-3   1.496936167890222E-4  
 2.045400000000000E10   -2.207704226643522E-3   5.355345468763110E-4  
 2.045600000000000E10   -2.073288075970831E-3   9.043442263601372E-4  
 2.045800000000000E10   -1.890084856197453E-3   1.237376374115884E-3  
 2.046000000000000E10   -1.641927516459652E-3   1.545838876090822E-3  
 2.046200000000000E10   -1.343421771673969E-3   1.798995012616731E-3  
 2.046400000000000E10   -1.028650942825762E-3   1.977343648794747E-3  
 2.046600000000000E10   -7.019315054831805E-4   2.140676724406366E-3  
 2.046800000000000E10   -3.048974856324188E-4   2.264949454784148E-3  
 2.047000000000000E10    1.197047015700447E-4   2.279984996627266E-3  
 2.047200000000000E10    5.235450824726481E-4   2.223213961148642E-3  
 2.047400000000000E10    9.410723741070479E-4   2.087763113970007E-3  
 2.047600000000000E10    1.320197926776737E-3   1.838423950317864E-3  
 2.047800000000000E10    1.601449916246558E-3   1.501207997823142E-3  
 2.048000000000000E10    1.783212077221355E-3   1.137118301749107E-3  
 2.048200000000000E10    1.850782147198609E-3   7.830864923274140E-4  
 2.048400000000000E10    1.851433325164143E-3   4.946601930660783E-4  
 2.048600000000000E10    1.870733154496876E-3   2.603336108499686E-4  
 2.048800000000000E10    1.912039453106254E-3   4.825640479730248E-7  
 2.049000000000000E10    1.910122440085429E-3  -3.049136885612391E-4  
 2.049200000000000E10    1.841319467174848E-3  -6.158648805171559E-4  
 2.049400000000000E10    1.732084186318419E-3  -9.002118450953578E-4  
 2.049600000000000E10    1.564315229907264E-3  -1.196814638202236E-3  
 2.049800000000000E10    1.322916391738710E-3  -1.446392379007436E-3  
 2.050000000000000E10    1.056248354706377E-3  -1.630372462177136E-3  
 2.050200000000000E10    7.751029856223231E-4  -1.774249311417740E-3  
 2.050400000000000E10    4.633003143965432E-4  -1.891775729341640E-3  
 2.050600000000000E10    1.198461600493088E-4  -1.930018809313576E-3  
 2.050800000000000E10   -2.152108084415220E-4  -1.882739638173838E-3  
 2.051000000000000E10   -5.004289383959762E-4  -1.777556117378758E-3  
 2.051200000000000E10   -7.452226716760593E-4  -1.667288691571956E-3  
 2.051400000000000E10   -9.976596032066172E-4  -1.533202094470492E-3  
 2.051600000000000E10   -1.220812969323662E-3  -1.344861211197704E-3  
 2.051800000000000E10   -1.410848686256956E-3  -1.147698632100360E-3  
 2.052000000000000E10   -1.584118974218797E-3  -9.095892532912579E-4  
 2.052200000000000E10   -1.703809382424618E-3  -6.356253973764097E-4  
 2.052400000000000E10   -1.784114016185480E-3  -3.639427853274876E-4  
 2.052600000000000E10   -1.810402232375563E-3  -7.242773408731331E-5  
 2.052800000000000E10   -1.805054298372089E-3   1.983873820633708E-4  
 2.053000000000000E10   -1.785248446607878E-3   4.841056241559962E-4  
 2.053200000000000E10   -1.696609693613869E-3   7.949136822760383E-4  
 2.053400000000000E10   -1.548628793711249E-3   1.065381994248663E-3  
 2.053600000000000E10   -1.370957744530107E-3   1.335709510512895E-3  
 2.053800000000000E10   -1.112791830807955E-3   1.576591767428191E-3  
 2.054000000000000E10   -8.090225109684861E-4   1.739622878941704E-3  
 2.054200000000000E10   -5.025755860287038E-4   1.829976299796790E-3  
 2.054400000000000E10   -1.954125466089650E-4   1.876725358198639E-3  
 2.054600000000000E10    1.124645032215224E-4   1.883715112337176E-3  
 2.054800000000000E10    4.139996711988723E-4   1.844547947661745E-3  
 2.055000000000000E10    7.122369356637384E-4   1.774299530496384E-3  
 2.055200000000000E10    1.017517973132309E-3   1.658965678264698E-3  
 2.055400000000000E10    1.328471929712582E-3   1.475544073408156E-3  
 2.055600000000000E10    1.596302518414127E-3   1.205584076961403E-3  
