#  HZ   S   RI   R     50.00 
! Rohde & Schwarz ZVA40 4Ports - Version 3.90 - 1145.1110k42 SN: 100403
! Date: 2023-09-30 06:27:08
! Measurement: S12 
! 
 2.000000000000000E10    6.321100551642693E-4  -9.435869380520321E-5  
 2.000200000000000E10    5.597550023841546E-4  -2.244385431828208E-4  
 2.000400000000000E10    4.614726062998207E-4  -2.902123745082430E-4  
 2.000600000000000E10    3.826967293229875E-4  -3.268485480426991E-4  
 2.000800000000000E10    3.249478807151625E-4  -3.298361949314107E-4  
 2.001000000000000E10    3.253848802388374E-4  -3.498176315419928E-4  
 2.001200000000000E10    3.070803875354629E-4  -4.334513667143054E-4  
 2.001400000000000E10    2.405059173197290E-4  -5.072119928189313E-4  
 2.001600000000000E10    1.608642913332140E-4  -5.592148786472012E-4  
 2.001800000000000E10    8.276679440269270E-5  -6.077528326128277E-4  
 2.002000000000000E10   -3.644769036147836E-5  -6.806663280149823E-4  
 2.002200000000000E10   -2.277219712225445E-4  -6.996068033704022E-4  
 2.002400000000000E10   -4.252102557778620E-4  -6.361963323685399E-4  
 2.002600000000000E10   -5.832511154118421E-4  -4.849658055909347E-4  
 2.002800000000000E10   -6.482530672221979E-4  -2.989914013626660E-4  
 2.003000000000000E10   -6.414430391775453E-4  -1.414403791367862E-4  
 2.003200000000000E10   -5.951456624033398E-4  -9.339075681534039E-6  
 2.003400000000000E10   -5.154579208585063E-4   6.193289109545237E-5  
 2.003600000000000E10   -5.010121656244492E-4   7.173330799440294E-5  
 2.003800000000000E10   -5.145984552819819E-4   1.357350676713814E-4  
 2.004000000000000E10   -4.856504517638052E-4   2.055054884059010E-4  
 2.004200000000000E10   -4.693646706859179E-4   2.490762267127603E-4  
 2.004400000000000E10   -4.933948536142861E-4   3.082870064761276E-4  
 2.004600000000000E10   -5.022564343820660E-4   4.282384274149920E-4  
 2.004800000000000E10   -4.546158209753534E-4   5.974788237899665E-4  
 2.005000000000000E10   -3.235197706059879E-4   7.602897460223657E-4  
 2.005200000000000E10   -1.207329768188290E-4   8.674747918525505E-4  
 2.005400000000000E10    1.239430212268200E-4   8.922696301383983E-4  
 2.005600000000000E10    3.640708697283327E-4   8.173026326553201E-4  
 2.005800000000000E10    5.344161224827447E-4   6.586950211958202E-4  
 2.006000000000000E10    6.103869173062560E-4   5.194745222949750E-4  
 2.006200000000000E10    7.104653157983666E-4   3.866982231167656E-4  
 2.006400000000000E10    7.740730609468842E-4   1.912554742173396E-4  
 2.006600000000000E10    7.257245762710587E-4  -1.684007671660897E-5  
 2.006800000000000E10    6.097940770706063E-4  -1.341979541655807E-4  
 2.007000000000000E10    5.178551858869753E-4  -1.646168514417385E-4  
 2.007200000000000E10    4.789364773783941E-4  -1.713723776533380E-4  
 2.007400000000000E10    4.887240141181759E-4  -1.937055517392379E-4  
 2.007600000000000E10    5.227807195906991E-4  -2.538746478200849E-4  
 2.007800000000000E10    5.288075034337985E-4  -3.763620875566938E-4  
 2.008000000000000E10    4.754265216504964E-4  -5.091250998182645E-4  
 2.008200000000000E10    3.733902800983440E-4  -6.389079724223863E-4  
 2.008400000000000E10    2.123334634533620E-4  -7.194799961284602E-4  
 2.008600000000000E10    4.939451664465829E-5  -7.491902881321105E-4  
 2.008800000000000E10   -1.316189619452873E-4  -7.298732954441520E-4  
 2.009000000000000E10   -2.742364095742412E-4  -6.220063346499432E-4  
 2.009200000000000E10   -3.147684341898273E-4  -5.202056430931752E-4  
 2.009400000000000E10   -3.585607247473098E-4  -4.885338829857119E-4  
 2.009600000000000E10   -4.421554726439265E-4  -4.347418879260360E-4  
 2.009800000000000E10   -5.079010233700798E-4  -3.520472764723586E-4  
 2.010000000000000E10   -5.542523569691881E-4  -2.372763650213970E-4  
 2.010200000000000E10   -5.195377612057231E-4  -1.296469668183215E-4  
 2.010400000000000E10   -4.795526961341823E-4  -1.279972512811545E-4  
 2.010600000000000E10   -5.592206692315424E-4  -1.456947471906236E-4  
 2.010800000000000E10   -6.762156854651931E-4  -4.135324525871553E-5  
 2.011000000000000E10   -7.305599958923313E-4   1.289441919532976E-4  
 2.011200000000000E10   -7.075271044604849E-4   3.268546404445414E-4  
 2.011400000000000E10   -5.959985038043296E-4   5.194065649706274E-4  
 2.011600000000000E10   -4.092318101914470E-4   6.265203284536616E-4  
 2.011800000000000E10   -2.259033480122563E-4   6.419297972686375E-4  
 2.012000000000000E10   -7.341686465419110E-5   6.010117873534132E-4  
 2.012200000000000E10    2.862718572590137E-5   5.077508219743891E-4  
 2.012400000000000E10    3.952677039189529E-5   4.057751195035768E-4  
 2.012600000000000E10   -1.512694743190496E-5   3.818143293292190E-4  
 2.012800000000000E10   -4.285674299447130E-5   4.428640877973642E-4  
 2.013000000000000E10   -9.875726703850344E-6   5.499667702664320E-4  
 2.013200000000000E10    1.336997121581118E-4   6.644302414281777E-4  
 2.013400000000000E10    3.674347924955818E-4   6.683247502598100E-4  
 2.013600000000000E10    5.568767281693748E-4   5.309308204539274E-4  
 2.013800000000000E10    6.560175720345490E-4   3.629879538044564E-4  
 2.014000000000000E10    7.012327392815533E-4   1.967309519850722E-4  
 2.014200000000000E10    7.129376327787593E-4   3.522684742521003E-5  
 2.014400000000000E10    6.780980850489420E-4  -1.411273655239224E-4  
 2.014600000000000E10    5.630706115951571E-4  -2.855153171318764E-4  
 2.014800000000000E10    4.152682097964066E-4  -3.461894756968712E-4  
 2.015000000000000E10    3.040533275927950E-4  -3.141181474243035E-4  
 2.015200000000000E10    3.024757336231079E-4  -2.720890954278655E-4  
 2.015400000000000E10    3.243227963098191E-4  -2.988572649220810E-4  
 2.015600000000000E10    3.388064388624573E-4  -3.840369771238525E-4  
 2.015800000000000E10    2.946869398078234E-4  -5.059840005282084E-4  
 2.016000000000000E10    1.694631748190801E-4  -6.142360160180940E-4  
 2.016200000000000E10    1.102060701639019E-5  -6.452462966017303E-4  
 2.016400000000000E10   -1.103558973792496E-4  -6.530269484108491E-4  
 2.016600000000000E10   -2.709998664879260E-4  -6.486489166842905E-4  
 2.016800000000000E10   -4.533656443796915E-4  -5.932696433852854E-4  
 2.017000000000000E10   -6.283168643118945E-4  -4.653235851430600E-4  
 2.017200000000000E10   -7.659858722649823E-4  -2.567023977851918E-4  
 2.017400000000000E10   -8.175635256195144E-4   2.726604661839840E-5  
 2.017600000000000E10   -6.945633078894652E-4   3.017802295656377E-4  
 2.017800000000000E10   -4.792227105567148E-4   4.510849188733464E-4  
 2.018000000000000E10   -2.721793186197388E-4   4.570101607694395E-4  
 2.018200000000000E10   -1.576181681761557E-4   4.043904342257453E-4  
 2.018400000000000E10   -9.560940154577100E-5   3.680100529397160E-4  
 2.018600000000000E10   -4.694253426096262E-5   3.379059716179554E-4  
 2.018800000000000E10   -2.038822385806825E-5   3.202300570970363E-4  
 2.019000000000000E10   -5.592004594358585E-6   3.364116627504521E-4  
 2.019200000000000E10    6.330465689999026E-5   3.733482597963004E-4  
 2.019400000000000E10    1.677135874516304E-4   3.676229985833261E-4  
 2.019600000000000E10    2.641673132761884E-4   2.986692989708803E-4  
 2.019800000000000E10    3.104223978730616E-4   2.029731799872332E-4  
 2.020000000000000E10    3.141711329238359E-4   1.190006909599727E-4  
 2.020200000000000E10    3.025737712533432E-4   6.571127569596112E-5  
 2.020400000000000E10    3.170015861916476E-4   2.767527919397268E-5  
 2.020600000000000E10    3.277134578320517E-4  -4.978920041150874E-5  
 2.020800000000000E10    3.009417852187537E-4  -1.354267769335068E-4  
 2.021000000000000E10    2.417687104857784E-4  -2.070730010722094E-4  
 2.021200000000000E10    1.410061477107636E-4  -2.363416378974624E-4  
 2.021400000000000E10    5.528276450316415E-5  -2.063335420265832E-4  
 2.021600000000000E10    2.406195293318619E-5  -1.292600875340475E-4  
 2.021800000000000E10    7.373626536015162E-5  -7.050538111244303E-5  
 2.022000000000000E10    1.531405244578335E-4  -9.280025318012010E-5  
 2.022200000000000E10    2.038022443372373E-4  -1.712304348587883E-4  
 2.022400000000000E10    1.985009329335059E-4  -3.052851797940033E-4  
 2.022600000000000E10    9.808932923771244E-5  -4.521993179556458E-4  
 2.022800000000000E10   -1.117917765643344E-4  -5.184430717643919E-4  
 2.023000000000000E10   -3.427361205714629E-4  -4.412229362120201E-4  
 2.023200000000000E10   -4.854193917828241E-4  -2.266655715830134E-4  
 2.023400000000000E10   -4.664383579041703E-4   6.098147566633460E-6  
 2.023600000000000E10   -3.337195223827805E-4   1.578495599168502E-4  
 2.023800000000000E10   -1.704121740782105E-4   1.892733517957568E-4  
 2.024000000000000E10   -4.974228556080121E-5   1.215389749759122E-4  
 2.024200000000000E10   -7.215839123615416E-6   5.945414634546746E-6  
 2.024400000000000E10   -6.955115448198677E-5  -1.064574719265816E-4  
 2.024600000000000E10   -2.146854414844142E-4  -1.502201725717312E-4  
 2.024800000000000E10   -3.800859885365001E-4  -6.240699928298924E-5  
 2.025000000000000E10   -4.514933876605100E-4   1.320840222325077E-4  
 2.025200000000000E10   -3.955839556323772E-4   3.498103697171029E-4  
 2.025400000000000E10   -2.238265399911169E-4   4.993783470066917E-4  
 2.025600000000000E10   -1.331832309268126E-5   5.303476575413268E-4  
 2.025800000000000E10    1.763681134490733E-4   4.863942208711381E-4  
 2.026000000000000E10    3.427402263673966E-4   3.305072348838895E-4  
 2.026200000000000E10    3.712325558830973E-4   1.069951869922004E-4  
 2.026400000000000E10    2.568343064054050E-4  -4.020877977120049E-5  
 2.026600000000000E10    1.266081950990407E-4  -6.281342848149941E-5  
 2.026800000000000E10    3.961253637105894E-5  -8.988797502258233E-6  
 2.027000000000000E10    1.088097916767587E-5   7.750810075294009E-5  
 2.027200000000000E10    6.680842273420207E-5   1.617171408186012E-4  
 2.027400000000000E10    1.726513075160338E-4   1.936135409373998E-4  
 2.027600000000000E10    3.000652390472791E-4   1.441883175957703E-4  
 2.027800000000000E10    3.819687001181024E-4  -1.561294349977351E-6  
 2.028000000000000E10    3.444292724377825E-4  -1.514912773366374E-4  
 2.028200000000000E10    2.554840933571765E-4  -2.536044621106176E-4  
 2.028400000000000E10    1.564279441537773E-4  -2.987664919911880E-4  
 2.028600000000000E10    5.479202001071018E-5  -2.990183008474456E-4  
 2.028800000000000E10   -3.138701293868762E-5  -2.813959907914739E-4  
 2.029000000000000E10   -1.083433802585489E-4  -2.336804103489521E-4  
 2.029200000000000E10   -1.705184267137253E-4  -1.568423382053535E-4  
 2.029400000000000E10   -1.789409191292086E-4  -4.394045152613768E-5  
 2.029600000000000E10   -1.046570983749849E-4   5.377981019610685E-5  
 2.029800000000000E10    2.065481253470382E-5   6.359602759305748E-5  
 2.030000000000000E10    9.524645659892435E-5  -1.441294990238972E-5  
 2.030200000000000E10    1.120385286599923E-4  -9.946433779133923E-5  
 2.030400000000000E10    1.010803131560542E-4  -1.995831247948019E-4  
 2.030600000000000E10   -3.203562819143231E-6  -3.138898553014369E-4  
 2.030800000000000E10   -1.824016866289509E-4  -3.377504887753033E-4  
 2.031000000000000E10   -3.380738538900705E-4  -2.301891275428604E-4  
 2.031200000000000E10   -4.053171513287865E-4  -6.555898425898922E-5  
 2.031400000000000E10   -3.904089214972034E-4   1.077570541907455E-4  
 2.031600000000000E10   -2.873816371487201E-4   2.544346470778632E-4  
 2.031800000000000E10   -1.115386431544268E-4   3.052516272693965E-4  
 2.032000000000000E10    3.865525485643995E-5   2.389580817172619E-4  
 2.032200000000000E10    9.395469179728603E-5   1.092330780378045E-4  
 2.032400000000000E10    4.547898340951115E-5  -3.087407711984585E-6  
 2.032600000000000E10   -5.799983827509331E-5  -2.284003773634945E-5  
 2.032800000000000E10   -1.259662496350483E-4   2.865659747832771E-5  
 2.033000000000000E10   -1.496956350737915E-4   1.229638123713288E-4  
 2.033200000000000E10   -9.931796178276318E-5   2.184661792508814E-4  
 2.033400000000000E10    2.339258659926620E-6   2.484988280353539E-4  
 2.033600000000000E10    5.081503936726746E-5   2.401853440767308E-4  
 2.033800000000000E10    1.527307062350413E-4   2.451047089062019E-4  
 2.034000000000000E10    2.916553718854248E-4   1.766543697427821E-4  
 2.034200000000000E10    3.395906897211916E-4   1.437026126209444E-5  
 2.034400000000000E10    2.973142891802247E-4  -1.174516990491469E-4  
 2.034600000000000E10    2.368458125351281E-4  -2.196234871404353E-4  
 2.034800000000000E10    1.214521289961183E-4  -3.000314485419680E-4  
 2.035000000000000E10   -2.629485345036442E-6  -3.146433665267664E-4  
 2.035200000000000E10   -1.225414485411926E-4  -2.920116357066489E-4  
 2.035400000000000E10   -2.427264798189219E-4  -2.151310964633133E-4  
 2.035600000000000E10   -3.032103299935552E-4  -7.532184958887200E-5  
 2.035800000000000E10   -2.599927108570045E-4   6.850882834101427E-5  
 2.036000000000000E10   -1.614588804336058E-4   1.291992873865575E-4  
 2.036200000000000E10   -7.429589195715441E-5   1.271849478031566E-4  
 2.036400000000000E10   -8.832638243506968E-6   7.008826216982694E-5  
 2.036600000000000E10   -2.320578406536027E-5  -2.024052639860385E-5  
 2.036800000000000E10   -1.055982763389865E-4  -6.773693249995656E-5  
 2.037000000000000E10   -2.107259322416781E-4  -4.738199391353561E-5  
 2.037200000000000E10   -3.074906014745342E-4   3.746745820805060E-5  
 2.037400000000000E10   -3.578931928244362E-4   1.862365904565012E-4  
 2.037600000000000E10   -3.268659430308797E-4   3.756376656697902E-4  
 2.037800000000000E10   -1.788929339791476E-4   5.416673507039349E-4  
 2.038000000000000E10    3.530602741264547E-5   6.009256414524875E-4  
 2.038200000000000E10    2.272787961175612E-4   5.442759179253392E-4  
 2.038400000000000E10    3.467075231603880E-4   4.480956595366124E-4  
 2.038600000000000E10    4.338648722606708E-4   3.516699329742955E-4  
 2.038800000000000E10    5.003314421209411E-4   2.430835093822860E-4  
 2.039000000000000E10    5.223940559202967E-4   1.099147865802161E-4  
 2.039200000000000E10    4.791451475310903E-4   1.508831193088794E-5  
 2.039400000000000E10    4.482943259961444E-4  -1.133835846412095E-5  
 2.039600000000000E10    4.727686489472328E-4  -2.730365707631244E-5  
 2.039800000000000E10    5.355091145599392E-4  -8.632711586619080E-5  
 2.040000000000000E10    5.889292197961192E-4  -2.015495645035626E-4  
 2.040200000000000E10    5.981362062609859E-4  -3.601904816440702E-4  
 2.040400000000000E10    5.503449890352480E-4  -5.368637392937433E-4  
 2.040600000000000E10    4.274401438389924E-4  -7.190162010793671E-4  
 2.040800000000000E10    2.199284571971277E-4  -8.381635296530257E-4  
 2.041000000000000E10   -4.476851633585040E-6  -8.604571684608582E-4  
 2.041200000000000E10   -2.048935925270864E-4  -8.271458695753796E-4  
 2.041400000000000E10   -3.877598357553606E-4  -7.437345219216475E-4  
 2.041600000000000E10   -5.435982772720204E-4  -5.888554996738035E-4  
 2.041800000000000E10   -5.886080950774529E-4  -3.986744394088970E-4  
 2.042000000000000E10   -5.391074944318201E-4  -2.635176616448741E-4  
 2.042200000000000E10   -4.832154140355442E-4  -2.452923156107382E-4  
 2.042400000000000E10   -5.166248819376860E-4  -2.792194645436013E-4  
 2.042600000000000E10   -6.324046946786069E-4  -2.628197246628772E-4  
 2.042800000000000E10   -7.628776725197648E-4  -1.791797687564000E-4  
 2.043000000000000E10   -8.768629586446740E-4  -1.933711429259864E-5  
 2.043200000000000E10   -9.408656655285708E-4   2.119217345581118E-4  
 2.043400000000000E10   -9.104519631663807E-4   4.828057324690094E-4  
 2.043600000000000E10   -7.714427604700283E-4   7.303395215613546E-4  
 2.043800000000000E10   -5.314617286965160E-4   9.158482749222055E-4  
 2.044000000000000E10   -2.325591865381794E-4   9.668900213614414E-4  
 2.044200000000000E10   -1.624083351989350E-5   8.837112983489418E-4  
 2.044400000000000E10    9.190888947605084E-5   7.859451785863765E-4  
 2.044600000000000E10    1.496040201678857E-4   7.645862010296114E-4  
 2.044800000000000E10    2.766119891350300E-4   7.748455949388292E-4  
 2.045000000000000E10    4.305390846137525E-4   7.045093654087695E-4  
 2.045200000000000E10    5.142902049960362E-4   5.972054597745371E-4  
 2.045400000000000E10    5.638314302773082E-4   5.278007406166491E-4  
 2.045600000000000E10    6.406145482209086E-4   4.965723090979497E-4  
 2.045800000000000E10    7.757145629758821E-4   4.338824615139254E-4  
 2.046000000000000E10    9.435937124775886E-4   2.897169911436768E-4  
 2.046200000000000E10    1.044181042346996E-3   4.096410880485356E-5  
 2.046400000000000E10    1.026048718802171E-3  -2.391942186997782E-4  
 2.046600000000000E10    9.203447376803302E-4  -4.727429808059961E-4  
 2.046800000000000E10    7.551887667634423E-4  -6.510263460749615E-4  
 2.047000000000000E10    5.518621980661044E-4  -7.506367010773457E-4  
 2.047200000000000E10    3.687780869764434E-4  -7.642810783874045E-4  
 2.047400000000000E10    2.605594520829810E-4  -7.381560175522488E-4  
 2.047600000000000E10    1.849773237644599E-4  -7.522432492861963E-4  
 2.047800000000000E10    1.000271925780301E-4  -7.789847385923959E-4  
 2.048000000000000E10   -6.777818723249565E-6  -8.225082297648454E-4  
 2.048200000000000E10   -1.423344409635574E-4  -8.302119894934352E-4  
 2.048400000000000E10   -2.532506341482571E-4  -8.436964696403517E-4  
 2.048600000000000E10   -4.276336058629332E-4  -8.781712290010735E-4  
 2.048800000000000E10   -6.899573071763962E-4  -8.287382785924578E-4  
 2.049000000000000E10   -9.363685979377557E-4  -6.291729579162267E-4  
 2.049200000000000E10   -1.045695360876436E-3  -3.323731922406566E-4  
 2.049400000000000E10   -1.014394608973966E-3  -7.423199960253387E-5  
 2.049600000000000E10   -9.384357874423513E-4   1.061277306775674E-4  
 2.049800000000000E10   -8.758237384692785E-4   2.354151426063307E-4  
 2.050000000000000E10   -8.011046193881200E-4   3.795686378881505E-4  
 2.050200000000000E10   -6.923750407012648E-4   4.857974349705066E-4  
 2.050400000000000E10   -6.004317789127737E-4   5.375173698857795E-4  
 2.050600000000000E10   -5.328577405144557E-4   6.218436085465729E-4  
 2.050800000000000E10   -4.239230100046307E-4   7.071426826234095E-4  
 2.051000000000000E10   -3.056792984764502E-4   7.267583270821675E-4  
 2.051200000000000E10   -2.485915161899211E-4   7.331268409163589E-4  
 2.051400000000000E10   -2.281597384046611E-4   8.003442294784505E-4  
 2.051600000000000E10   -1.377319550769760E-4   9.584218472502974E-4  
 2.051800000000000E10    8.790318565749767E-5   1.088641592542882E-3  
 2.052000000000000E10    3.661213218955009E-4   1.109070386047717E-3  
 2.052200000000000E10    6.515752924644531E-4   1.032315743627188E-3  
 2.052400000000000E10    9.022375236748270E-4   8.662752328064953E-4  
 2.052600000000000E10    1.088630134975653E-3   6.279022511432079E-4  
 2.052800000000000E10    1.173033862405384E-3   3.460586031969760E-4  
 2.053000000000000E10    1.172464805149278E-3   9.697586555012845E-5  
 2.053200000000000E10    1.144896081740750E-3  -1.044049648852605E-4  
 2.053400000000000E10    1.096628255157161E-3  -3.010075949678589E-4  
 2.053600000000000E10    1.009522958317534E-3  -4.704722036596066E-4  
 2.053800000000000E10    9.271417739187893E-4  -6.173276629896813E-4  
 2.054000000000000E10    8.418506148861486E-4  -7.663848781153378E-4  
 2.054200000000000E10    7.182406896338205E-4  -9.324509361107287E-4  
 2.054400000000000E10    5.552760481550800E-4  -1.068450041487047E-3  
 2.054600000000000E10    3.720967873016856E-4  -1.188135213877837E-3  
 2.054800000000000E10    1.443443300862176E-4  -1.302580755403258E-3  
 2.055000000000000E10   -1.449018124914479E-4  -1.365567147904248E-3  
 2.055200000000000E10   -4.862308662208449E-4  -1.327649434863632E-3  
 2.055400000000000E10   -7.864696085318894E-4  -1.145916230643145E-3  
 2.055600000000000E10   -9.699758849348186E-4  -9.090002252980915E-4  
