#  HZ   S   RI   R     50.00 
! Rohde & Schwarz ZVA40 4Ports - Version 3.90 - 1145.1110k42 SN: 100403
! Date: 2023-09-30 06:25:42
! Measurement: S12 
! 
 2.000000000000000E10    2.320901241510432E-3   5.465187837575282E-4  
 2.000200000000000E10    2.331789761834403E-3   1.036568704671328E-4  
 2.000400000000000E10    2.247257323127754E-3  -3.033777523621596E-4  
 2.000600000000000E10    2.096901653980458E-3  -6.647903853061907E-4  
 2.000800000000000E10    1.913897406983577E-3  -9.422162159479052E-4  
 2.001000000000000E10    1.759327727446664E-3  -1.204746054610449E-3  
 2.001200000000000E10    1.578652848860446E-3  -1.494628232725871E-3  
 2.001400000000000E10    1.315790698802529E-3  -1.780526141650458E-3  
 2.001600000000000E10    9.759095803055819E-4  -2.003469616306710E-3  
 2.001800000000000E10    6.103487328441163E-4  -2.140808760164909E-3  
 2.002000000000000E10    2.400384181631591E-4  -2.250237357703563E-3  
 2.002200000000000E10   -2.195869238650082E-4  -2.298492865306868E-3  
 2.002400000000000E10   -7.061698618280377E-4  -2.235605592943942E-3  
 2.002600000000000E10   -1.162279204240982E-3  -1.998061222372840E-3  
 2.002800000000000E10   -1.493379571754727E-3  -1.654551274533565E-3  
 2.003000000000000E10   -1.691749269326429E-3  -1.297364107695139E-3  
 2.003200000000000E10   -1.813822178734472E-3  -9.496697621339213E-4  
 2.003400000000000E10   -1.843823600528347E-3  -6.395234980078250E-4  
 2.003600000000000E10   -1.885253718475203E-3  -4.052943794585721E-4  
 2.003800000000000E10   -1.950533434209294E-3  -1.209127944575166E-4  
 2.004000000000000E10   -1.954041026205791E-3   1.959645222284274E-4  
 2.004200000000000E10   -1.901318236179018E-3   4.946336212807004E-4  
 2.004400000000000E10   -1.835042654762552E-3   7.797710738860094E-4  
 2.004600000000000E10   -1.742140449449295E-3   1.078643019151013E-3  
 2.004800000000000E10   -1.590704285347205E-3   1.418918332306737E-3  
 2.005000000000000E10   -1.347771388554425E-3   1.761082222980755E-3  
 2.005200000000000E10   -9.826588380085534E-4   2.058047557613811E-3  
 2.005400000000000E10   -5.236932155992969E-4   2.237595935936359E-3  
 2.005600000000000E10   -2.789802448095942E-5   2.276572456685300E-3  
 2.005800000000000E10    4.113140181967006E-4   2.169478932079601E-3  
 2.006000000000000E10    7.627835472691217E-4   2.016099142962982E-3  
 2.006200000000000E10    1.125422715223052E-3   1.840377323552686E-3  
 2.006400000000000E10    1.428102515687557E-3   1.541686321676668E-3  
 2.006600000000000E10    1.611590517957548E-3   1.198516506517175E-3  
 2.006800000000000E10    1.702280174539348E-3   9.052358639759353E-4  
 2.007000000000000E10    1.763476113467177E-3   6.470842786389365E-4  
 2.007200000000000E10    1.823620889754145E-3   4.241272862936519E-4  
 2.007400000000000E10    1.921132209945039E-3   1.812886948542924E-4  
 2.007600000000000E10    2.002497185348594E-3  -1.357830639706655E-4  
 2.007800000000000E10    2.004907891002973E-3  -5.160333900331301E-4  
 2.008000000000000E10    1.910030371180173E-3  -8.940142596854080E-4  
 2.008200000000000E10    1.736630945907350E-3  -1.262088081342989E-3  
 2.008400000000000E10    1.466251844229609E-3  -1.599362133635686E-3  
 2.008600000000000E10    1.100968715960431E-3  -1.851341163578499E-3  
 2.008800000000000E10    6.971173468880074E-4  -1.980417304107489E-3  
 2.009000000000000E10    3.313845854628811E-4  -1.999010529035727E-3  
 2.009200000000000E10    2.981047998515921E-5  -1.977909689626539E-3  
 2.009400000000000E10   -2.676539063377946E-4  -1.967905687831329E-3  
 2.009600000000000E10   -6.054856631111966E-4  -1.899559066235291E-3  
 2.009800000000000E10   -9.081064178196946E-4  -1.778167955115711E-3  
 2.010000000000000E10   -1.207006507551883E-3  -1.589673774534845E-3  
 2.010200000000000E10   -1.436276741223464E-3  -1.334673152354631E-3  
 2.010400000000000E10   -1.591371099594431E-3  -1.112738806766511E-3  
 2.010600000000000E10   -1.791355841138407E-3  -8.853689299505577E-4  
 2.010800000000000E10   -1.973667935785417E-3  -5.721006659752644E-4  
 2.011000000000000E10   -2.076952670113325E-3  -1.942405816109063E-4  
 2.011200000000000E10   -2.098491303762779E-3   2.046326458569134E-4  
 2.011400000000000E10   -2.013840154998631E-3   6.236606564142634E-4  
 2.011600000000000E10   -1.794374879525407E-3   9.969230832819070E-4  
 2.011800000000000E10   -1.516464310787403E-3   1.248789144471855E-3  
 2.012000000000000E10   -1.241345340349127E-3   1.414072265075042E-3  
 2.012200000000000E10   -9.821678508616376E-4   1.508948262680122E-3  
 2.012400000000000E10   -7.767684686841833E-4   1.566307731601598E-3  
 2.012600000000000E10   -6.224019160309062E-4   1.644044838605270E-3  
 2.012800000000000E10   -4.390724553358590E-4   1.786126593475242E-3  
 2.013000000000000E10   -1.842472169744387E-4   1.941447007245886E-3  
 2.013200000000000E10    1.777599876288303E-4   2.079064047057452E-3  
 2.013400000000000E10    6.559056500791746E-4   2.067001202720843E-3  
 2.013600000000000E10    1.096710505755167E-3   1.873269844832646E-3  
 2.013800000000000E10    1.417425041295541E-3   1.604533493139828E-3  
 2.014000000000000E10    1.663823707494530E-3   1.299523738692574E-3  
 2.014200000000000E10    1.877400104089136E-3   9.704296259005915E-4  
 2.014400000000000E10    2.012970148397088E-3   5.716549354961526E-4  
 2.014600000000000E10    2.010184629138321E-3   1.567674901746828E-4  
 2.014800000000000E10    1.902126290275975E-3  -1.620808705434418E-4  
 2.015000000000000E10    1.801638548512578E-3  -3.906891635670774E-4  
 2.015200000000000E10    1.766947044112345E-3  -6.226080666491932E-4  
 2.015400000000000E10    1.699547242730559E-3  -9.139559581553675E-4  
 2.015600000000000E10    1.564225525522997E-3  -1.226042765001767E-3  
 2.015800000000000E10    1.345637245627979E-3  -1.542976400271526E-3  
 2.016000000000000E10    1.009824130125477E-3  -1.811180741632459E-3  
 2.016200000000000E10    6.180858834803401E-4  -1.953244808033253E-3  
 2.016400000000000E10    2.564650040415210E-4  -2.002303726611642E-3  
 2.016600000000000E10   -1.141481427160715E-4  -2.015677276359140E-3  
 2.016800000000000E10   -4.998123711246647E-4  -1.955429501493459E-3  
 2.017000000000000E10   -8.615351529422746E-4  -1.817524807033634E-3  
 2.017200000000000E10   -1.216957992226566E-3  -1.598965562993598E-3  
 2.017400000000000E10   -1.501227553799197E-3  -1.257590516143655E-3  
 2.017600000000000E10   -1.628012798842200E-3  -8.544858838820950E-4  
 2.017800000000000E10   -1.621753798819919E-3  -5.300367972821828E-4  
 2.018000000000000E10   -1.589381446653937E-3  -2.959004416262164E-4  
 2.018200000000000E10   -1.591738922193477E-3  -9.945992214230187E-5  
 2.018400000000000E10   -1.600403466370940E-3   1.434109754815091E-4  
 2.018600000000000E10   -1.545247556774656E-3   4.031823756058418E-4  
 2.018800000000000E10   -1.459391691194354E-3   6.290228714572303E-4  
 2.019000000000000E10   -1.369322107850785E-3   8.623654661538641E-4  
 2.019200000000000E10   -1.219738673007158E-3   1.130561776847824E-3  
 2.019400000000000E10   -9.638464825085152E-4   1.365204408017198E-3  
 2.019600000000000E10   -6.508687898457370E-4   1.479654228508044E-3  
 2.019800000000000E10   -3.799942544635463E-4   1.520798460872397E-3  
 2.020000000000000E10   -1.255096409660811E-4   1.540058544962658E-3  
 2.020200000000000E10    1.321422135775030E-4   1.527412421614553E-3  
 2.020400000000000E10    4.036927680551644E-4   1.475100246591328E-3  
 2.020600000000000E10    6.635604957719073E-4   1.344444009002060E-3  
 2.020800000000000E10    8.530542185632603E-4   1.159024871869689E-3  
 2.021000000000000E10    9.865511635457321E-4   9.747609989658934E-4  
 2.021200000000000E10    1.071719232594745E-3   7.933360259925410E-4  
 2.021400000000000E10    1.128126626276606E-3   6.551691256742221E-4  
 2.021600000000000E10    1.220592577435055E-3   5.539815940699766E-4  
 2.021800000000000E10    1.377525542702454E-3   3.985394054057667E-4  
 2.022000000000000E10    1.509744215202395E-3   1.417494204952443E-4  
 2.022200000000000E10    1.570444772613941E-3  -1.740803434472877E-4  
 2.022400000000000E10    1.536318513301263E-3  -5.296161983029728E-4  
 2.022600000000000E10    1.365719643352484E-3  -8.884437228810635E-4  
 2.022800000000000E10    1.071145844272285E-3  -1.135701889226894E-3  
 2.023000000000000E10    7.246650032989299E-4  -1.254722631220069E-3  
 2.023200000000000E10    4.209099245493878E-4  -1.206320075007398E-3  
 2.023400000000000E10    2.663924188991369E-4  -1.084685271386492E-3  
 2.023600000000000E10    2.427366227574207E-4  -1.027472311292441E-3  
 2.023800000000000E10    2.192271052400072E-4  -1.082976792333787E-3  
 2.024000000000000E10    1.361318295787776E-4  -1.204069178117878E-3  
 2.024200000000000E10   -2.728232448897223E-5  -1.350306380745343E-3  
 2.024400000000000E10   -3.094623430841145E-4  -1.467343124898660E-3  
 2.024600000000000E10   -6.797428391777786E-4  -1.467256421738413E-3  
 2.024800000000000E10   -1.048273579874951E-3  -1.318603056894242E-3  
 2.025000000000000E10   -1.346598488637769E-3  -1.042990865664365E-3  
 2.025200000000000E10   -1.541231149579604E-3  -6.851055025347717E-4  
 2.025400000000000E10   -1.582607773186752E-3  -3.011298081133886E-4  
 2.025600000000000E10   -1.513841565279307E-3   1.468434187140381E-5  
 2.025800000000000E10   -1.384632592449077E-3   2.711662594920626E-4  
 2.026000000000000E10   -1.206653371222099E-3   4.150811908737647E-4  
 2.026200000000000E10   -1.116886911581594E-3   4.431937266100036E-4  
 2.026400000000000E10   -1.150356281971461E-3   5.182526975499578E-4  
 2.026600000000000E10   -1.192991314492064E-3   7.098076576993015E-4  
 2.026800000000000E10   -1.166981084782854E-3   9.822368751430857E-4  
 2.027000000000000E10   -1.034810819947903E-3   1.295641374516925E-3  
 2.027200000000000E10   -7.692500639340436E-4   1.591376399339411E-3  
 2.027400000000000E10   -3.772743805703989E-4   1.800392419774299E-3  
 2.027600000000000E10    9.252780333333479E-5   1.846875120523087E-3  
 2.027800000000000E10    5.154172255991689E-4   1.700627165823105E-3  
 2.028000000000000E10    7.956608253487534E-4   1.464551523286805E-3  
 2.028200000000000E10    9.858824235603101E-4   1.242293050301027E-3  
 2.028400000000000E10    1.128662155624301E-3   1.030681934697400E-3  
 2.028600000000000E10    1.241743079521171E-3   8.205369001837659E-4  
 2.028800000000000E10    1.322991276120705E-3   6.034699934814132E-4  
 2.029000000000000E10    1.362895065478667E-3   3.991935919441021E-4  
 2.029200000000000E10    1.383456880513609E-3   2.181644322160730E-4  
 2.029400000000000E10    1.419820394292694E-3   6.071620506610466E-5  
 2.029600000000000E10    1.477900118197890E-3  -1.252808383551084E-4  
 2.029800000000000E10    1.532794875496411E-3  -3.836149924397532E-4  
 2.030000000000000E10    1.511033028913995E-3  -7.000032379018466E-4  
 2.030200000000000E10    1.391408264618824E-3  -1.025832933767656E-3  
 2.030400000000000E10    1.196768731322655E-3  -1.343177526402436E-3  
 2.030600000000000E10    8.783962087966351E-4  -1.626149592021423E-3  
 2.030800000000000E10    4.463184009582366E-4  -1.777107280202149E-3  
 2.031000000000000E10    4.734424659572936E-6  -1.751296720069817E-3  
 2.031200000000000E10   -3.376542271618519E-4  -1.585911970528995E-3  
 2.031400000000000E10   -5.588988994969972E-4  -1.355961251886139E-3  
 2.031600000000000E10   -6.450812224877298E-4  -1.152402840676601E-3  
 2.031800000000000E10   -6.609344113507796E-4  -1.049422293226527E-3  
 2.032000000000000E10   -7.168285408560385E-4  -1.037692993324821E-3  
 2.032200000000000E10   -8.650978899209359E-4  -1.050003829781654E-3  
 2.032400000000000E10   -1.104045785330068E-3  -1.009762583220318E-3  
 2.032600000000000E10   -1.377972725093492E-3  -8.431059804938354E-4  
 2.032800000000000E10   -1.595307866649666E-3  -5.634802143478744E-4  
 2.033000000000000E10   -1.715231563524794E-3  -2.222791617703608E-4  
 2.033200000000000E10   -1.722293304041353E-3   1.422206018290235E-4  
 2.033400000000000E10   -1.636121319808230E-3   4.454098171828467E-4  
 2.033600000000000E10   -1.596801459342329E-3   5.721793678666149E-4  
 2.033800000000000E10   -1.362903626650670E-3   1.024316734494663E-3  
 2.034000000000000E10   -1.080668250732435E-3   1.224631096786883E-3  
 2.034200000000000E10   -8.437503825854969E-4   1.298333755112815E-3  
 2.034400000000000E10   -6.643625001313477E-4   1.374157945012883E-3  
 2.034600000000000E10   -4.607697388312967E-4   1.449241883943122E-3  
 2.034800000000000E10   -2.584651472013827E-4   1.495932870871590E-3  
 2.035000000000000E10   -5.884253760516911E-5   1.540134068389833E-3  
 2.035200000000000E10    1.564221455641453E-4   1.556323567449205E-3  
 2.035400000000000E10    3.686447609332965E-4   1.568210096850714E-3  
 2.035600000000000E10    6.174652441317226E-4   1.589264720861680E-3  
 2.035800000000000E10    9.428217190808290E-4   1.563838367245689E-3  
 2.036000000000000E10    1.307331588697377E-3   1.417388191614350E-3  
 2.036200000000000E10    1.640261904689159E-3   1.159873451682087E-3  
 2.036400000000000E10    1.916671054192092E-3   7.718891533595961E-4  
 2.036600000000000E10    2.028623809489578E-3   3.012236041446010E-4  
 2.036800000000000E10    1.974764959882412E-3  -1.401763265096082E-4  
 2.037000000000000E10    1.837020097478792E-3  -5.134173475942327E-4  
 2.037200000000000E10    1.625637975976567E-3  -8.140878384091929E-4  
 2.037400000000000E10    1.375040056199596E-3  -1.011405436857049E-3  
 2.037600000000000E10    1.155142788467711E-3  -1.115673102026753E-3  
 2.037800000000000E10    1.021875491923789E-3  -1.184295858134207E-3  
 2.038000000000000E10    9.264612951932376E-4  -1.331644502390289E-3  
 2.038200000000000E10    7.467907090245611E-4  -1.539320309723269E-3  
 2.038400000000000E10    4.688884795579324E-4  -1.706658037616580E-3  
 2.038600000000000E10    1.498624528544182E-4  -1.796423460123907E-3  
 2.038800000000000E10   -1.851335688892630E-4  -1.816665957867456E-3  
 2.039000000000000E10   -5.194631106036505E-4  -1.789367774877890E-3  
 2.039200000000000E10   -8.975346502580636E-4  -1.669442643367123E-3  
 2.039400000000000E10   -1.215083941705665E-3  -1.413414090165997E-3  
 2.039600000000000E10   -1.425005731673275E-3  -1.106143260405137E-3  
 2.039800000000000E10   -1.526323466418888E-3  -7.852578736012324E-4  
 2.040000000000000E10   -1.550452893956205E-3  -5.109000733622456E-4  
 2.040200000000000E10   -1.551836085651423E-3  -2.801930958813168E-4  
 2.040400000000000E10   -1.539393556424459E-3  -8.344793554757241E-5  
 2.040600000000000E10   -1.554757935970039E-3   9.490915480672294E-5  
 2.040800000000000E10   -1.586595280856305E-3   3.248854779329329E-4  
 2.041000000000000E10   -1.567043448211497E-3   6.175296987850120E-4  
 2.041200000000000E10   -1.463784699441850E-3   9.032146842279265E-4  
 2.041400000000000E10   -1.318221049203860E-3   1.165703544383719E-3  
 2.041600000000000E10   -1.123230938295953E-3   1.449856098284409E-3  
 2.041800000000000E10   -8.065214009504084E-4   1.718269952932296E-3  
 2.042000000000000E10   -3.710331044880975E-4   1.851617315182852E-3  
 2.042200000000000E10    5.870519506633422E-5   1.797870128114690E-3  
 2.042400000000000E10    3.708347357975837E-4   1.622224023785386E-3  
 2.042600000000000E10    5.682621682763735E-4   1.444797842040942E-3  
 2.042800000000000E10    7.098432110054213E-4   1.300015895368999E-3  
 2.043000000000000E10    8.250309809671804E-4   1.187910381297414E-3  
 2.043200000000000E10    9.470120742827871E-4   1.107557807271715E-3  
 2.043400000000000E10    1.117507142293683E-3   1.043178418968998E-3  
 2.043600000000000E10    1.334270976684158E-3   9.328094452533628E-4  
 2.043800000000000E10    1.582737746590765E-3   7.566321948116638E-4  
 2.044000000000000E10    1.835595666955532E-3   4.366019932703496E-4  
 2.044200000000000E10    1.957501454477271E-3  -1.800286077668866E-5  
 2.044400000000000E10    1.869925826802428E-3  -4.849233988805738E-4  
 2.044600000000000E10    1.657142261731309E-3  -8.065607512011287E-4  
 2.044800000000000E10    1.477930435810227E-3  -1.048081959906268E-3  
 2.045000000000000E10    1.283024350451019E-3  -1.303633306463768E-3  
 2.045200000000000E10    1.002701973599682E-3  -1.531088637380985E-3  
 2.045400000000000E10    6.509382761007744E-4  -1.652518057338958E-3  
 2.045600000000000E10    3.476120462705210E-4  -1.658856971892970E-3  
 2.045800000000000E10    1.121510241107597E-4  -1.625517898377642E-3  
 2.046000000000000E10   -6.273459084823782E-5  -1.612833336054157E-3  
 2.046200000000000E10   -2.657317343181305E-4  -1.676370830585796E-3  
 2.046400000000000E10   -5.675940257955626E-4  -1.706486798550387E-3  
 2.046600000000000E10   -9.290851162640469E-4  -1.654504673243066E-3  
 2.046800000000000E10   -1.303141452787746E-3  -1.488932324075160E-3  
 2.047000000000000E10   -1.641304805769404E-3  -1.190067628610845E-3  
 2.047200000000000E10   -1.860456364697515E-3  -7.803104886179884E-4  
 2.047400000000000E10   -1.925480135310810E-3  -3.657016899861706E-4  
 2.047600000000000E10   -1.891232895271107E-3  -1.659516974752645E-6  
 2.047800000000000E10   -1.805150864778040E-3   3.043809538229931E-4  
 2.048000000000000E10   -1.712489062060716E-3   5.792664018490043E-4  
 2.048200000000000E10   -1.587297237933709E-3   8.494043969738741E-4  
 2.048400000000000E10   -1.392422372096549E-3   1.087754102812158E-3  
 2.048600000000000E10   -1.211240773355809E-3   1.254943714030032E-3  
 2.048800000000000E10   -1.056190060776405E-3   1.418102285244858E-3  
 2.049000000000000E10   -8.874401622157063E-4   1.643598411089197E-3  
 2.049200000000000E10   -5.909556782393632E-4   1.905439678342610E-3  
 2.049400000000000E10   -1.666232299793549E-4   2.061925927406650E-3  
 2.049600000000000E10    2.934261933317222E-4   2.053616068137666E-3  
 2.049800000000000E10    6.959037492086971E-4   1.919066428333621E-3  
 2.050000000000000E10    1.044804010389451E-3   1.740358473310488E-3  
 2.050200000000000E10    1.360360943578485E-3   1.493663312380638E-3  
 2.050400000000000E10    1.595501600334494E-3   1.185121822873037E-3  
 2.050600000000000E10    1.755763872486415E-3   8.708778869413254E-4  
 2.050800000000000E10    1.905013975421267E-3   5.306998278303558E-4  
 2.051000000000000E10    1.969572062733445E-3   1.109282036873726E-4  
 2.051200000000000E10    1.870668265762831E-3  -3.186632001311712E-4  
 2.051400000000000E10    1.649143749760758E-3  -6.300901714009739E-4  
 2.051600000000000E10    1.418207674545842E-3  -7.925819600052931E-4  
 2.051800000000000E10    1.282944506325628E-3  -9.106300403507610E-4  
 2.052000000000000E10    1.164193146914895E-3  -1.053050415796609E-3  
 2.052200000000000E10    1.033131359911566E-3  -1.219442531449498E-3  
 2.052400000000000E10    8.632380761605406E-4  -1.395351305970776E-3  
 2.052600000000000E10    6.623784432380538E-4  -1.567711449240861E-3  
 2.052800000000000E10    3.793609107554532E-4  -1.735539461980211E-3  
 2.053000000000000E10    1.122321715801790E-5  -1.805427412879388E-3  
 2.053200000000000E10   -3.483864143213047E-4  -1.757427943988101E-3  
 2.053400000000000E10   -6.686759310984495E-4  -1.639804866942374E-3  
 2.053600000000000E10   -9.477091683988981E-4  -1.454519651469554E-3  
 2.053800000000000E10   -1.154739091490353E-3  -1.229614460326638E-3  
 2.054000000000000E10   -1.304513561582268E-3  -9.990684245957918E-4  
 2.054200000000000E10   -1.427234270557537E-3  -7.832991816683792E-4  
 2.054400000000000E10   -1.518964196729393E-3  -5.385451208187004E-4  
 2.054600000000000E10   -1.557318877735331E-3  -2.870429609527815E-4  
 2.054800000000000E10   -1.570268120332873E-3  -6.434198545282865E-5  
 2.055000000000000E10   -1.584766783941238E-3   1.464319957143443E-4  
 2.055200000000000E10   -1.609450966920449E-3   3.977858847881936E-4  
 2.055400000000000E10   -1.570382326395543E-3   7.219336037004279E-4  
 2.055600000000000E10   -1.415748404089742E-3   1.028955469403541E-3  
