#  HZ   S   RI   R     50.00 
! Rohde & Schwarz ZVA40 4Ports - Version 3.90 - 1145.1110k42 SN: 100403
! Date: 2023-09-30 09:09:09
! Measurement: S12 
! 
 2.000000000000000E10    2.784235608794414E-5   1.432776295890411E-3  
 2.000200000000000E10    2.278541025529336E-4   1.414768374812456E-3  
 2.000400000000000E10    4.553968480159625E-4   1.355747708575532E-3  
 2.000600000000000E10    6.746754590172797E-4   1.254324899476650E-3  
 2.000800000000000E10    8.564481778557074E-4   1.134541416981492E-3  
 2.001000000000000E10    1.070612350214319E-3   1.019208795015428E-3  
 2.001200000000000E10    1.297991764022674E-3   8.137906415755920E-4  
 2.001400000000000E10    1.433188400380773E-3   5.437703613946867E-4  
 2.001600000000000E10    1.490589231731746E-3   2.779863080596207E-4  
 2.001800000000000E10    1.528817331974123E-3   8.328928720683183E-6  
 2.002000000000000E10    1.514971639995498E-3  -2.686022892220659E-4  
 2.002200000000000E10    1.411124478466043E-3  -5.579069800533110E-4  
 2.002400000000000E10    1.284645421913377E-3  -8.090635720418132E-4  
 2.002600000000000E10    1.083143879927756E-3  -1.038932001961725E-3  
 2.002800000000000E10    8.357173876756413E-4  -1.191806802219508E-3  
 2.003000000000000E10    5.984713683679026E-4  -1.277850365933077E-3  
 2.003200000000000E10    4.034913670790954E-4  -1.313633577219774E-3  
 2.003400000000000E10    2.319370794067842E-4  -1.356359326410962E-3  
 2.003600000000000E10    1.686389808394034E-5  -1.423686623971894E-3  
 2.003800000000000E10   -2.657642774619239E-4  -1.432621135345733E-3  
 2.004000000000000E10   -5.428371443164080E-4  -1.311683119466306E-3  
 2.004200000000000E10   -7.170118777648596E-4  -1.112856256867541E-3  
 2.004400000000000E10   -8.004868145334562E-4  -9.741148443838944E-4  
 2.004600000000000E10   -9.119287490128032E-4  -9.010606239369686E-4  
 2.004800000000000E10   -1.094982548283390E-3  -8.096785376561278E-4  
 2.005000000000000E10   -1.299414559029840E-3  -6.415537079899677E-4  
 2.005200000000000E10   -1.447446099597455E-3  -3.871271544118861E-4  
 2.005400000000000E10   -1.506789906981398E-3  -1.156256897238451E-4  
 2.005600000000000E10   -1.527140656708445E-3   1.615642902557259E-4  
 2.005800000000000E10   -1.467298208965840E-3   4.436954757229353E-4  
 2.006000000000000E10   -1.351408435246398E-3   7.016852279117048E-4  
 2.006200000000000E10   -1.202133251833174E-3   9.486027600419990E-4  
 2.006400000000000E10   -9.771305023320788E-4   1.160384506013996E-3  
 2.006600000000000E10   -7.113900599491481E-4   1.313987769638744E-3  
 2.006800000000000E10   -4.404473689541896E-4   1.404781594447056E-3  
 2.007000000000000E10   -1.809042495787489E-4   1.397573360368426E-3  
 2.007200000000000E10    3.702227389827393E-5   1.357297719180308E-3  
 2.007400000000000E10    2.209562114214740E-4   1.323705750379574E-3  
 2.007600000000000E10    4.068814319129191E-4   1.261372343395595E-3  
 2.007800000000000E10    5.821876092277345E-4   1.162068248599952E-3  
 2.008000000000000E10    7.486680571426765E-4   1.057201547552008E-3  
 2.008200000000000E10    9.045347970442793E-4   9.284383567517679E-4  
 2.008400000000000E10    1.038956773992429E-3   7.636656169300525E-4  
 2.008600000000000E10    1.132032179576441E-3   5.941754379482182E-4  
 2.008800000000000E10    1.198894914369954E-3   4.524864357466898E-4  
 2.009000000000000E10    1.287104095784572E-3   2.999446163655340E-4  
 2.009200000000000E10    1.373489821854780E-3   9.791097311981393E-5  
 2.009400000000000E10    1.407685108509666E-3  -1.070153469341010E-4  
 2.009600000000000E10    1.432988063984171E-3  -3.370978835243885E-4  
 2.009800000000000E10    1.404853530013512E-3  -6.425729066463104E-4  
 2.010000000000000E10    1.256115344609805E-3  -9.503898092491914E-4  
 2.010200000000000E10    1.019443610468458E-3  -1.178154095225496E-3  
 2.010400000000000E10    7.687738728652032E-4  -1.321458295581732E-3  
 2.010600000000000E10    5.478159559951950E-4  -1.421038874850413E-3  
 2.010800000000000E10    3.147730419370097E-4  -1.499599888786643E-3  
 2.011000000000000E10    5.601067269659783E-5  -1.543517258025921E-3  
 2.011200000000000E10   -2.024337918106697E-4  -1.537214204814638E-3  
 2.011400000000000E10   -4.530695935092300E-4  -1.497209307339058E-3  
 2.011600000000000E10   -7.173000011351650E-4  -1.406153466613818E-3  
 2.011800000000000E10   -9.724785992492437E-4  -1.254113032693358E-3  
 2.012000000000000E10   -1.184633463034751E-3  -1.066244000362026E-3  
 2.012200000000000E10   -1.373472823301491E-3  -8.413089720011066E-4  
 2.012400000000000E10   -1.531065876189420E-3  -5.874852566029341E-4  
 2.012600000000000E10   -1.620450858582471E-3  -2.910338728803636E-4  
 2.012800000000000E10   -1.644261510479322E-3   2.761925894641529E-5  
 2.013000000000000E10   -1.578306654705800E-3   3.101788747455895E-4  
 2.013200000000000E10   -1.471419029662179E-3   5.501674118340630E-4  
 2.013400000000000E10   -1.352210443394083E-3   7.790840571504778E-4  
 2.013600000000000E10   -1.195777362833421E-3   1.013258058642930E-3  
 2.013800000000000E10   -9.879730723284708E-4   1.212302914920259E-3  
 2.014000000000000E10   -7.341827549530892E-4   1.366608404389625E-3  
 2.014200000000000E10   -4.794283644507023E-4   1.453500421173534E-3  
 2.014400000000000E10   -2.299232374629535E-4   1.480187312412409E-3  
 2.014600000000000E10    2.296318796749747E-7   1.471404505533324E-3  
 2.014800000000000E10    2.050148420191060E-4   1.460789732056299E-3  
 2.015000000000000E10    4.356110441199516E-4   1.417075935367940E-3  
 2.015200000000000E10    6.731954731867332E-4   1.308108887868960E-3  
 2.015400000000000E10    8.618351826137662E-4   1.157580347877349E-3  
 2.015600000000000E10    1.040794890960334E-3   1.004552662203955E-3  
 2.015800000000000E10    1.209941032963495E-3   8.260190219583888E-4  
 2.016000000000000E10    1.362212028147446E-3   6.146083680295804E-4  
 2.016200000000000E10    1.469003613904088E-3   3.704345128029478E-4  
 2.016400000000000E10    1.519536507055317E-3   8.235138209881367E-5  
 2.016600000000000E10    1.486628490247201E-3  -2.003563112874397E-4  
 2.016800000000000E10    1.376875852993517E-3  -4.196513136139777E-4  
 2.017000000000000E10    1.261812122634501E-3  -5.893891858350900E-4  
 2.017200000000000E10    1.168502570386716E-3  -7.501251335876685E-4  
 2.017400000000000E10    1.045900549348674E-3  -9.412351507528729E-4  
 2.017600000000000E10    8.718344052858775E-4  -1.122791386677006E-3  
 2.017800000000000E10    6.684519114823622E-4  -1.267572108909120E-3  
 2.018000000000000E10    4.376057865253339E-4  -1.374079926809442E-3  
 2.018200000000000E10    1.880098289978756E-4  -1.407860176074376E-3  
 2.018400000000000E10   -2.382580520141556E-5  -1.395689224375895E-3  
 2.018600000000000E10   -2.109891966889793E-4  -1.395845125571139E-3  
 2.018800000000000E10   -4.581044429966820E-4  -1.366289585460851E-3  
 2.019000000000000E10   -6.909341685025505E-4  -1.244234178912799E-3  
 2.019200000000000E10   -8.689839421165917E-4  -1.095590224765517E-3  
 2.019400000000000E10   -1.017161705837788E-3  -9.237510090360396E-4  
 2.019600000000000E10   -1.141080445487344E-3  -7.671822258175463E-4  
 2.019800000000000E10   -1.279658951256194E-3  -6.184692311564407E-4  
 2.020000000000000E10   -1.428671746510905E-3  -4.205963718791114E-4  
 2.020200000000000E10   -1.548840160818901E-3  -1.339695119124611E-4  
 2.020400000000000E10   -1.556328566813911E-3   1.868563026300950E-4  
 2.020600000000000E10   -1.460536427646416E-3   4.810174466484446E-4  
 2.020800000000000E10   -1.310297583590105E-3   7.458991306899080E-4  
 2.021000000000000E10   -1.088791421936526E-3   9.382788811469215E-4  
 2.021200000000000E10   -8.767191097887673E-4   1.036561793674535E-3  
 2.021400000000000E10   -7.182463633237646E-4   1.116295612451655E-3  
 2.021600000000000E10   -5.627839997077339E-4   1.232103995093501E-3  
 2.021800000000000E10   -3.730306902961660E-4   1.326793493365739E-3  
 2.022000000000000E10   -1.312268643921199E-4   1.419977593492456E-3  
 2.022200000000000E10    1.670359136223402E-4   1.425568280749238E-3  
 2.022400000000000E10    4.199824040590828E-4   1.307771402246361E-3  
 2.022600000000000E10    5.920884039429297E-4   1.158292369376638E-3  
 2.022800000000000E10    7.293677142411165E-4   1.026088602787244E-3  
 2.023000000000000E10    8.513205572138752E-4   9.028641233956559E-4  
 2.023200000000000E10    9.835225984132219E-4   7.698832174625112E-4  
 2.023400000000000E10    1.115462161627418E-3   5.946523129533778E-4  
 2.023600000000000E10    1.204026909449249E-3   4.020769230747374E-4  
 2.023800000000000E10    1.247318300568027E-3   1.861381997476972E-4  
 2.024000000000000E10    1.245851454577972E-3  -8.389296221917870E-6  
 2.024200000000000E10    1.223476383252522E-3  -1.815474444114960E-4  
 2.024400000000000E10    1.178540221373302E-3  -3.949098163016080E-4  
 2.024600000000000E10    1.057354696938163E-3  -5.927899133302886E-4  
 2.024800000000000E10    9.145194766640573E-4  -7.340118788190401E-4  
 2.025000000000000E10    7.684234148389642E-4  -8.476323562141494E-4  
 2.025200000000000E10    6.230772923727984E-4  -9.503576767040656E-4  
 2.025400000000000E10    4.712208186145949E-4  -1.018278520178709E-3  
 2.025600000000000E10    3.239894469044413E-4  -1.067096904521893E-3  
 2.025800000000000E10    1.724092782654229E-4  -1.110710727756100E-3  
 2.026000000000000E10    2.181135508633763E-5  -1.121950340112326E-3  
 2.026200000000000E10   -1.279301564721774E-4  -1.124284068245150E-3  
 2.026400000000000E10   -3.050092544019560E-4  -1.103832797001695E-3  
 2.026600000000000E10   -4.686437438935840E-4  -1.054752123668606E-3  
 2.026800000000000E10   -6.522853037633709E-4  -9.711737152372983E-4  
 2.027000000000000E10   -8.253859987946176E-4  -8.346080969743157E-4  
 2.027200000000000E10   -9.447810488730027E-4  -6.863091920920239E-4  
 2.027400000000000E10   -1.046948475042673E-3  -5.336445365810131E-4  
 2.027600000000000E10   -1.147930651190289E-3  -3.670305194507580E-4  
 2.027800000000000E10   -1.207920464441763E-3  -1.710345126030231E-4  
 2.028000000000000E10   -1.208904874798509E-3   2.337517520415677E-5  
 2.028200000000000E10   -1.188307833846337E-3   2.252502278750571E-4  
 2.028400000000000E10   -1.134966995946511E-3   4.211640704773873E-4  
 2.028600000000000E10   -1.037756159303733E-3   5.990145598641701E-4  
 2.028800000000000E10   -9.310976961443640E-4   7.595006276378141E-4  
 2.029000000000000E10   -7.989790437670251E-4   9.209362034486616E-4  
 2.029200000000000E10   -6.126391767512686E-4   1.059554502417797E-3  
 2.029400000000000E10   -3.944426585025243E-4   1.146310590659824E-3  
 2.029600000000000E10   -1.927730914803199E-4   1.152630746862832E-3  
 2.029800000000000E10   -4.298568241016264E-5   1.124172744057582E-3  
 2.030000000000000E10    8.275943272052441E-5   1.104357227426283E-3  
 2.030200000000000E10    2.276651833614588E-4   1.108459728758461E-3  
 2.030400000000000E10    3.978722399903593E-4   1.081575539419160E-3  
 2.030600000000000E10    6.023308460087107E-4   1.040840352341196E-3  
 2.030800000000000E10    7.912764992131834E-4   9.280786092140150E-4  
 2.031000000000000E10    9.404508446806989E-4   7.848272472811642E-4  
 2.031200000000000E10    1.048517738729562E-3   6.205654868840743E-4  
 2.031400000000000E10    1.153252442528344E-3   4.894374082882510E-4  
 2.031600000000000E10    1.281624499405639E-3   3.380466940278119E-4  
 2.031800000000000E10    1.383715270397564E-3   9.097451105912185E-5  
 2.032000000000000E10    1.393559194311745E-3  -2.027780592246097E-4  
 2.032200000000000E10    1.301218372282913E-3  -4.854570503429024E-4  
 2.032400000000000E10    1.143168264218135E-3  -7.194051717373509E-4  
 2.032600000000000E10    9.832662020507173E-4  -8.653138940023267E-4  
 2.032800000000000E10    8.459111374760730E-4  -9.933290936037470E-4  
 2.033000000000000E10    6.943006567185585E-4  -1.126101524128345E-3  
 2.033200000000000E10    5.227923260306090E-4  -1.258256824575978E-3  
 2.033400000000000E10    3.117579195951208E-4  -1.357843939870320E-3  
 2.033600000000000E10    1.865891387485880E-4  -1.396120605423066E-3  
 2.033800000000000E10   -2.403615812441419E-4  -1.403182321477206E-3  
 2.034000000000000E10   -5.180321321458606E-4  -1.290039785988169E-3  
 2.034200000000000E10   -7.250672783568472E-4  -1.119271851596979E-3  
 2.034400000000000E10   -8.953591560036589E-4  -9.569471813125131E-4  
 2.034600000000000E10   -1.031104989307684E-3  -7.871779754045019E-4  
 2.034800000000000E10   -1.138848565909782E-3  -5.795345423693306E-4  
 2.035000000000000E10   -1.183898001813441E-3  -3.721517376091960E-4  
 2.035200000000000E10   -1.178607191802329E-3  -2.153885597267300E-4  
 2.035400000000000E10   -1.176162622389940E-3  -9.083832243918309E-5  
 2.035600000000000E10   -1.208359485783388E-3   5.301457725334989E-5  
 2.035800000000000E10   -1.237434742267056E-3   2.414662887508993E-4  
 2.036000000000000E10   -1.215302853446469E-3   4.806963571418200E-4  
 2.036200000000000E10   -1.134268239565930E-3   7.441102583612866E-4  
 2.036400000000000E10   -9.772996767903124E-4   9.940002229037875E-4  
 2.036600000000000E10   -7.314735318346281E-4   1.182328576678142E-3  
 2.036800000000000E10   -4.668126943657260E-4   1.273706413560198E-3  
 2.037000000000000E10   -2.355754653680802E-4   1.309166907681605E-3  
 2.037200000000000E10   -1.657485900218134E-5   1.305109292839811E-3  
 2.037400000000000E10    1.987088603396812E-4   1.246128939360442E-3  
 2.037600000000000E10    3.733126146703530E-4   1.161044517171726E-3  
 2.037800000000000E10    5.337919061620234E-4   1.076674232079261E-3  
 2.038000000000000E10    6.955965556714056E-4   9.760591982377106E-4  
 2.038200000000000E10    8.522948154838519E-4   8.641254689080696E-4  
 2.038400000000000E10    1.005639763330512E-3   7.198315270440539E-4  
 2.038600000000000E10    1.122992343955325E-3   5.254068025272846E-4  
 2.038800000000000E10    1.194748215457816E-3   3.363390357584268E-4  
 2.039000000000000E10    1.236015479482803E-3   1.290058689884202E-4  
 2.039200000000000E10    1.218267852524794E-3  -9.688748766686347E-5  
 2.039400000000000E10    1.153501757677384E-3  -2.934655385166637E-4  
 2.039600000000000E10    1.069662482631029E-3  -4.383376442612659E-4  
 2.039800000000000E10    1.011926733980668E-3  -5.994689118580840E-4  
 2.040000000000000E10    9.330158519995527E-4  -8.112358167928496E-4  
 2.040200000000000E10    7.578030306704098E-4  -9.913319518690003E-4  
 2.040400000000000E10    5.622792264653577E-4  -1.112872223013345E-3  
 2.040600000000000E10    3.609234443674087E-4  -1.196617590179169E-3  
 2.040800000000000E10    1.567428211304033E-4  -1.233901390173461E-3  
 2.041000000000000E10   -4.831018637792245E-5  -1.232596511910421E-3  
 2.041200000000000E10   -2.582106001985570E-4  -1.219244312146227E-3  
 2.041400000000000E10   -4.846411563145619E-4  -1.167155923935060E-3  
 2.041600000000000E10   -7.181641235641002E-4  -1.041818725868845E-3  
 2.041800000000000E10   -9.145444101431705E-4  -8.575822662182705E-4  
 2.042000000000000E10   -1.030989367813792E-3  -6.292081155829562E-4  
 2.042200000000000E10   -1.066704580575657E-3  -4.305891167332223E-4  
 2.042400000000000E10   -1.085093501694654E-3  -2.922392069408096E-4  
 2.042600000000000E10   -1.149261427790295E-3  -1.742413142095263E-4  
 2.042800000000000E10   -1.224358234106115E-3   2.555093247613031E-5  
 2.043000000000000E10   -1.217910632828381E-3   2.999014727514498E-4  
 2.043200000000000E10   -1.097025237632571E-3   5.534381170684297E-4  
 2.043400000000000E10   -9.079016057617290E-4   7.385745715951633E-4  
 2.043600000000000E10   -7.281009540912303E-4   8.507313210624482E-4  
 2.043800000000000E10   -5.727340793045461E-4   9.180298036753888E-4  
 2.044000000000000E10   -4.126210397573135E-4   9.777651763896731E-4  
 2.044200000000000E10   -2.860138926955914E-4   1.009548731136745E-3  
 2.044400000000000E10   -1.686511710027440E-4   1.067775612076124E-3  
 2.044600000000000E10    3.388315205555224E-6   1.121739782642098E-3  
 2.044800000000000E10    2.111955930899499E-4   1.123965615329981E-3  
 2.045000000000000E10    4.178098888699840E-4   1.068917011608343E-3  
 2.045200000000000E10    5.991458068812581E-4   9.743731283034687E-4  
 2.045400000000000E10    7.791839237708155E-4   8.680917976094497E-4  
 2.045600000000000E10    9.321324556487243E-4   7.302554876643230E-4  
 2.045800000000000E10    1.083343176251668E-3   5.629428876985494E-4  
 2.046000000000000E10    1.218574562822871E-3   3.458025231440035E-4  
 2.046200000000000E10    1.279870338005938E-3   8.434956812061688E-5  
 2.046400000000000E10    1.232132035855649E-3  -1.650817787256514E-4  
 2.046600000000000E10    1.141903948790007E-3  -3.477248253967659E-4  
 2.046800000000000E10    1.079442037974672E-3  -5.113723704116152E-4  
 2.047000000000000E10    9.909160205243547E-4  -6.947963414215502E-4  
 2.047200000000000E10    8.640487274967535E-4  -9.004452396107557E-4  
 2.047400000000000E10    6.924282532825361E-4  -1.088304839426567E-3  
 2.047600000000000E10    4.502202165236414E-4  -1.239337851561667E-3  
 2.047800000000000E10    1.820756401890629E-4  -1.325519629485844E-3  
 2.048000000000000E10   -9.377868695150096E-5  -1.345330712274330E-3  
 2.048200000000000E10   -3.874160202292903E-4  -1.286710210052538E-3  
 2.048400000000000E10   -6.531634547176614E-4  -1.109705395218552E-3  
 2.048600000000000E10   -8.028517072395626E-4  -8.845562740505018E-4  
 2.048800000000000E10   -8.743947624313213E-4  -6.836898305832789E-4  
 2.049000000000000E10   -9.573935392147905E-4  -5.040873422233749E-4  
 2.049200000000000E10   -9.935218510275456E-4  -2.948348726617334E-4  
 2.049400000000000E10   -9.445242127192825E-4  -1.342009349128254E-4  
 2.049600000000000E10   -9.339482081793403E-4  -4.856864971871903E-5  
 2.049800000000000E10   -9.718810556908695E-4   4.149378807237498E-5  
 2.050000000000000E10   -1.014890708795791E-3   1.980349311433587E-4  
 2.050200000000000E10   -9.748326200577950E-4   4.068477315935518E-4  
 2.050400000000000E10   -8.650032773234503E-4   5.826494302466482E-4  
 2.050600000000000E10   -7.209236045663128E-4   7.132626710643556E-4  
 2.050800000000000E10   -5.635364087003403E-4   8.067198870454460E-4  
 2.051000000000000E10   -4.241358908707729E-4   8.630326258233241E-4  
 2.051200000000000E10   -3.140664671656940E-4   9.130126345852858E-4  
 2.051400000000000E10   -1.941939700062391E-4   9.995535185652570E-4  
 2.051600000000000E10   -9.673645509032772E-6   1.074474929628794E-3  
 2.051800000000000E10    1.880615601582461E-4   1.075438419721040E-3  
 2.052000000000000E10    3.774762565630332E-4   1.027307508095578E-3  
 2.052200000000000E10    5.623704407444615E-4   9.475435868553328E-4  
 2.052400000000000E10    7.247673541617892E-4   8.192595612801950E-4  
 2.052600000000000E10    8.687015298041115E-4   6.577400696644016E-4  
 2.052800000000000E10    9.781987063295435E-4   4.734502980244105E-4  
 2.053000000000000E10    1.040058412661952E-3   2.840069680016703E-4  
 2.053200000000000E10    1.079806824667004E-3   8.855685896209995E-5  
 2.053400000000000E10    1.079481279040560E-3  -1.027964012062085E-4  
 2.053600000000000E10    1.055528300070806E-3  -2.680997612863136E-4  
 2.053800000000000E10    1.005381382637707E-3  -4.486817894829246E-4  
 2.054000000000000E10    8.917715883844461E-4  -6.172977979084164E-4  
 2.054200000000000E10    7.619351563484643E-4  -7.537707033444488E-4  
 2.054400000000000E10    6.187112763363087E-4  -8.846322201966567E-4  
 2.054600000000000E10    4.074260471015019E-4  -1.014376973729474E-3  
 2.054800000000000E10    1.573141295618067E-4  -1.044507309460990E-3  
 2.055000000000000E10   -4.151631592209510E-5  -9.836368478351723E-4  
 2.055200000000000E10   -1.640591082697803E-4  -9.206042501887638E-4  
 2.055400000000000E10   -2.737162278298243E-4  -8.909769627886517E-4  
 2.055600000000000E10   -3.862324333174822E-4  -8.458714717098440E-4  
