#  HZ   S   RI   R     50.00 
! Rohde & Schwarz ZVA40 4Ports - Version 3.90 - 1145.1110k42 SN: 100403
! Date: 2023-09-30 09:07:36
! Measurement: S12 
! 
 2.000000000000000E10    1.534201728246483E-4  -2.932627179145057E-4  
 2.000200000000000E10    8.438627385462167E-5  -2.870625256645700E-4  
 2.000400000000000E10    2.951545417122967E-5  -2.610193215283746E-4  
 2.000600000000000E10    1.766283785724821E-6  -2.461745712231585E-4  
 2.000800000000000E10   -4.775362647478999E-5  -2.127984383054696E-4  
 2.001000000000000E10   -5.715338370271076E-5  -1.607196258334060E-4  
 2.001200000000000E10   -1.357465968304410E-5  -1.616902422121265E-4  
 2.001400000000000E10   -1.674904935363750E-5  -2.055717641356771E-4  
 2.001600000000000E10   -5.673531784261776E-5  -2.273557129702806E-4  
 2.001800000000000E10   -9.167012586285500E-5  -2.359108848981777E-4  
 2.002000000000000E10   -1.122172581872217E-4  -2.252906324953194E-4  
 2.002200000000000E10   -1.444142564603566E-4  -2.176263711759527E-4  
 2.002400000000000E10   -1.812047027728543E-4  -2.211307304049299E-4  
 2.002600000000000E10   -2.422703163211575E-4  -2.153510162245932E-4  
 2.002800000000000E10   -3.426018320244389E-4  -1.555591726574066E-4  
 2.003000000000000E10   -3.966134388797594E-4  -4.665554990551681E-5  
 2.003200000000000E10   -3.922223958246850E-4   7.246449310348506E-5  
 2.003400000000000E10   -3.183451326661686E-4   1.563481710335708E-4  
 2.003600000000000E10   -2.731095546114275E-4   1.667061889613116E-4  
 2.003800000000000E10   -2.755843854202048E-4   1.755593593408953E-4  
 2.004000000000000E10   -2.620271719464859E-4   2.455952614541032E-4  
 2.004200000000000E10   -1.813602646429856E-4   3.415406784997674E-4  
 2.004400000000000E10   -2.837934682399786E-5   3.487984935286109E-4  
 2.004600000000000E10    7.678988383562639E-5   2.750127293397539E-4  
 2.004800000000000E10    1.048448160802930E-4   1.906683021423054E-4  
 2.005000000000000E10    8.378663707610135E-5   1.464371613429800E-4  
 2.005200000000000E10    7.342163618527539E-5   1.478447712569329E-4  
 2.005400000000000E10    8.066168086038296E-5   1.374645684054473E-4  
 2.005600000000000E10    4.530666471456258E-5   1.301629407037834E-4  
 2.005800000000000E10    2.903263706727231E-5   1.600692176222687E-4  
 2.006000000000000E10    4.789368077532803E-5   1.969735004536077E-4  
 2.006200000000000E10    8.701568088580158E-5   2.228470325918066E-4  
 2.006400000000000E10    1.588969383869750E-4   2.095211699776817E-4  
 2.006600000000000E10    2.219142820531201E-4   1.656141591170357E-4  
 2.006800000000000E10    2.742943356985122E-4   1.118775515012100E-4  
 2.007000000000000E10    3.020805357035572E-4   2.888706963878529E-5  
 2.007200000000000E10    2.728588860145028E-4  -6.693760961853615E-5  
 2.007400000000000E10    2.347179210435955E-4  -9.569242159450021E-5  
 2.007600000000000E10    2.054487446995979E-4  -1.035615630112592E-4  
 2.007800000000000E10    1.916651937705612E-4  -1.296483983055929E-4  
 2.008000000000000E10    1.566410783110749E-4  -1.595520065944554E-4  
 2.008200000000000E10    1.073520237876011E-4  -1.690786542026460E-4  
 2.008400000000000E10    4.488071854698301E-5  -1.742427377221884E-4  
 2.008600000000000E10   -3.415784879885572E-6  -1.554682126874935E-4  
 2.008800000000000E10   -2.471122138901801E-5  -9.261045628758273E-5  
 2.009000000000000E10    1.308402967962961E-5  -4.149566749296063E-5  
 2.009200000000000E10    6.694967706746195E-5  -5.801746727164456E-5  
 2.009400000000000E10    9.530108621535919E-5  -7.959520336581793E-5  
 2.009600000000000E10    1.391581128391234E-4  -1.168553588882508E-4  
 2.009800000000000E10    1.548985492812396E-4  -2.031695891832180E-4  
 2.010000000000000E10    8.558606927572988E-5  -2.878453159821061E-4  
 2.010200000000000E10   -2.286833148274480E-5  -3.078272236036508E-4  
 2.010400000000000E10   -1.122926729688944E-4  -2.850148580033864E-4  
 2.010600000000000E10   -1.716396745381525E-4  -2.360913045135862E-4  
 2.010800000000000E10   -2.084380625633764E-4  -1.939722369246144E-4  
 2.011000000000000E10   -2.337314054299344E-4  -1.503763871222086E-4  
 2.011200000000000E10   -2.406738579991199E-4  -1.291039880115695E-4  
 2.011400000000000E10   -2.523850345302537E-4  -1.074626828189007E-4  
 2.011600000000000E10   -2.748632991756090E-4  -8.784364499923018E-5  
 2.011800000000000E10   -2.970190266682543E-4  -4.806810993713715E-5  
 2.012000000000000E10   -3.036567468221066E-4   1.389131332076622E-6  
 2.012200000000000E10   -3.191412531768211E-4   6.419342782804156E-5  
 2.012400000000000E10   -3.179146443760031E-4   1.394175994425529E-4  
 2.012600000000000E10   -2.982340702296469E-4   2.212555933830269E-4  
 2.012800000000000E10   -2.441401985829724E-4   3.129331106706478E-4  
 2.013000000000000E10   -1.672867128471570E-4   3.721748895665941E-4  
 2.013200000000000E10   -7.369554251405590E-5   3.770455495749483E-4  
 2.013400000000000E10    5.907932013661102E-7   3.749949387539772E-4  
 2.013600000000000E10    6.864396607662908E-5   3.434305512205799E-4  
 2.013800000000000E10    1.423387449170528E-4   2.963279167302618E-4  
 2.014000000000000E10    1.914729526902349E-4   2.284102066482618E-4  
 2.014200000000000E10    2.060787235987111E-4   1.660198752068249E-4  
 2.014400000000000E10    2.023641715756910E-4   1.284757202899337E-4  
 2.014600000000000E10    2.065956175484758E-4   9.728719982406731E-5  
 2.014800000000000E10    1.960076868057569E-4   8.910711387118687E-5  
 2.015000000000000E10    2.124940405243022E-4   8.685867169894922E-5  
 2.015200000000000E10    2.257046350025648E-4   5.261737514183114E-5  
 2.015400000000000E10    2.004872969489364E-4   3.703163193129334E-5  
 2.015600000000000E10    1.811664547104982E-4   3.714657861255372E-5  
 2.015800000000000E10    2.006701012020637E-4   3.712914066228873E-5  
 2.016000000000000E10    2.328906454521504E-4   1.662460627015622E-5  
 2.016200000000000E10    2.727993537300741E-4  -3.153893679008896E-5  
 2.016400000000000E10    2.889355746546917E-4  -1.220473600176211E-4  
 2.016600000000000E10    2.481307080960916E-4  -2.234110881210994E-4  
 2.016800000000000E10    1.718523648919778E-4  -2.593221541718339E-4  
 2.017000000000000E10    1.234562223344730E-4  -2.463195928955638E-4  
 2.017200000000000E10    1.337666489121304E-4  -2.504277615699361E-4  
 2.017400000000000E10    1.155651368391451E-4  -2.927585552936479E-4  
 2.017600000000000E10    4.992347018975594E-5  -3.180936321348530E-4  
 2.017800000000000E10   -2.274315999256717E-5  -3.302793144836092E-4  
 2.018000000000000E10   -1.040736084035981E-4  -3.152632383123138E-4  
 2.018200000000000E10   -1.793674774640732E-4  -2.618196438895782E-4  
 2.018400000000000E10   -1.939459588205881E-4  -2.019850755798975E-4  
 2.018600000000000E10   -1.872423567968218E-4  -2.099376495043519E-4  
 2.018800000000000E10   -2.425302538493156E-4  -2.168132055618523E-4  
 2.019000000000000E10   -3.091830362049053E-4  -1.703568769201115E-4  
 2.019200000000000E10   -3.209487387025154E-4  -1.149858711649880E-4  
 2.019400000000000E10   -3.113393967320303E-4  -5.214785855513869E-5  
 2.019600000000000E10   -2.950289537708578E-4  -2.803985136532352E-5  
 2.019800000000000E10   -3.308923594048056E-4  -2.289949957423796E-5  
 2.020000000000000E10   -3.968764798982716E-4   4.676378396069957E-5  
 2.020200000000000E10   -4.369745372979173E-4   1.882368778202757E-4  
 2.020400000000000E10   -3.949940003488541E-4   3.690015889840924E-4  
 2.020600000000000E10   -2.530177736023137E-4   4.841423771038795E-4  
 2.020800000000000E10   -8.904390036640595E-5   5.357714794832953E-4  
 2.021000000000000E10    8.483677338368028E-5   4.946572051127411E-4  
 2.021200000000000E10    2.052995112757499E-4   3.793258543732476E-4  
 2.021400000000000E10    2.336135095255884E-4   2.594228542436346E-4  
 2.021600000000000E10    2.283851226795892E-4   1.887519072684740E-4  
 2.021800000000000E10    2.271032180780525E-4   1.484908862837906E-4  
 2.022000000000000E10    2.598693849723621E-4   1.235112582767109E-4  
 2.022200000000000E10    3.130488101739836E-4   6.826632978614684E-5  
 2.022400000000000E10    3.177754864667061E-4  -4.793687880439285E-5  
 2.022600000000000E10    2.449944465493321E-4  -1.264706978547088E-4  
 2.022800000000000E10    1.626886025657852E-4  -1.517417478059427E-4  
 2.023000000000000E10    9.439467095036320E-5  -1.395336023603077E-4  
 2.023200000000000E10    6.352467978224978E-5  -1.177464244078075E-4  
 2.023400000000000E10    4.921405215585408E-5  -1.110630122182504E-4  
 2.023600000000000E10    3.863866342242331E-5  -1.169346008635515E-4  
 2.023800000000000E10    4.023281214691682E-6  -1.479451266838882E-4  
 2.024000000000000E10   -4.290058024735280E-5  -1.432054646732222E-4  
 2.024200000000000E10   -6.814592592209000E-5  -1.164802734222518E-4  
 2.024400000000000E10   -9.368041905567158E-5  -1.005197032468154E-4  
 2.024600000000000E10   -1.331404717258224E-4  -5.180393942152786E-5  
 2.024800000000000E10   -1.308769339576443E-4   2.471967753390520E-5  
 2.025000000000000E10   -1.098897289057963E-4   7.901604541875066E-5  
 2.025200000000000E10   -6.827015055966548E-5   1.219902017114835E-4  
 2.025400000000000E10   -2.364143841019113E-5   1.620998139306648E-4  
 2.025600000000000E10    5.171527950008833E-5   1.724373603079006E-4  
 2.025800000000000E10    9.882355672010288E-5   1.408812997836188E-4  
 2.026000000000000E10    1.458078748774900E-4   9.672412261664192E-5  
 2.026200000000000E10    1.735672596551412E-4   4.061123490204527E-5  
 2.026400000000000E10    1.884846248158059E-4  -2.454440992277876E-5  
 2.026600000000000E10    1.853539432398656E-4  -1.031630667324455E-4  
 2.026800000000000E10    1.328703344329126E-4  -1.543697558571131E-4  
 2.027000000000000E10    9.316050746985643E-5  -1.699213966642940E-4  
 2.027200000000000E10    5.971397402313372E-5  -1.776334326000455E-4  
 2.027400000000000E10    3.907502641333791E-5  -1.719512325802254E-4  
 2.027600000000000E10    1.582874041552505E-5  -1.769230967874298E-4  
 2.027800000000000E10   -1.467829625667117E-5  -1.778043714330873E-4  
 2.028000000000000E10   -5.129094055187231E-5  -1.859422436771935E-4  
 2.028200000000000E10   -1.058541736745982E-4  -1.805479822043823E-4  
 2.028400000000000E10   -1.531576242856650E-4  -1.665157863927113E-4  
 2.028600000000000E10   -1.764646376402019E-4  -1.391920059514060E-4  
 2.028800000000000E10   -2.175645318041353E-4  -1.054177796822655E-4  
 2.029000000000000E10   -2.345767324734147E-4  -4.458053451402952E-5  
 2.029200000000000E10   -2.128654471603357E-4   4.047910770368130E-6  
 2.029400000000000E10   -1.738746046682370E-4   1.954564827934113E-5  
 2.029600000000000E10   -1.699324757819203E-4   1.058949182986630E-5  
 2.029800000000000E10   -1.998612322155974E-4   1.543710863592826E-5  
 2.030000000000000E10   -2.542232956599307E-4   6.226820791128540E-5  
 2.030200000000000E10   -2.793659589736275E-4   1.587041681678710E-4  
 2.030400000000000E10   -2.538231954616348E-4   2.445795032577730E-4  
 2.030600000000000E10   -1.801259785990227E-4   3.231503464637991E-4  
 2.030800000000000E10   -1.026897435523672E-4   3.485791801969395E-4  
 2.031000000000000E10   -3.540235736146854E-5   3.624593528289098E-4  
 2.031200000000000E10    3.006000546874543E-5   3.632958075756640E-4  
 2.031400000000000E10    1.144091220938605E-4   3.764355944904572E-4  
 2.031600000000000E10    2.264321240499381E-4   3.635697154614396E-4  
 2.031800000000000E10    3.375267283863226E-4   2.866620407088447E-4  
 2.032000000000000E10    3.992539134010065E-4   1.780064311637051E-4  
 2.032200000000000E10    3.954399501587379E-4   7.115793074569819E-5  
 2.032400000000000E10    3.560025634838777E-4   4.960469806814603E-6  
 2.032600000000000E10    3.420976509991012E-4  -1.744009942716672E-5  
 2.032800000000000E10    3.562163943565350E-4  -6.080936492067496E-5  
 2.033000000000000E10    3.601952115954022E-4  -1.440548610030987E-4  
 2.033200000000000E10    3.290911516432098E-4  -2.475212659017376E-4  
 2.033400000000000E10    2.590562856902429E-4  -3.371170867826607E-4  
 2.033600000000000E10    2.024426410319309E-4  -3.752290511638596E-4  
 2.033800000000000E10    5.769400405371355E-5  -4.403534835103558E-4  
 2.034000000000000E10   -4.763998609740129E-5  -4.084742112952031E-4  
 2.034200000000000E10   -1.152479076422355E-4  -3.534592171480677E-4  
 2.034400000000000E10   -1.812452282598472E-4  -3.133892068183957E-4  
 2.034600000000000E10   -2.375822414488204E-4  -2.266968406346564E-4  
 2.034800000000000E10   -2.415696752978814E-4  -1.222657108967977E-4  
 2.035000000000000E10   -1.913204922344643E-4  -4.733552088387634E-5  
 2.035200000000000E10   -1.273943202005411E-4  -3.787653678209336E-5  
 2.035400000000000E10   -1.146260090683305E-4  -1.076092973171985E-4  
 2.035600000000000E10   -1.805974361596921E-4  -1.654727963730054E-4  
 2.035800000000000E10   -2.965489060672918E-4  -1.522796797829288E-4  
 2.036000000000000E10   -3.798264606577308E-4  -6.520781673705628E-5  
 2.036200000000000E10   -4.034818147947254E-4   6.502462236684351E-5  
 2.036400000000000E10   -3.651308940722900E-4   2.010060825279118E-4  
 2.036600000000000E10   -2.329702223310968E-4   2.894769876633882E-4  
 2.036800000000000E10   -1.056765146213852E-4   2.939234477252571E-4  
 2.037000000000000E10   -1.645825480487856E-5   2.603209787894766E-4  
 2.037200000000000E10    3.739960291553453E-5   2.218200596396279E-4  
 2.037400000000000E10    6.025371627633963E-5   1.813776439414468E-4  
 2.037600000000000E10    4.893299481831172E-5   1.513637172438930E-4  
 2.037800000000000E10    4.390308169382325E-5   1.480730345853718E-4  
 2.038000000000000E10    5.353701704729714E-5   1.350509780543743E-4  
 2.038200000000000E10    5.758550367877017E-5   1.443744260718438E-4  
 2.038400000000000E10    9.138207451355120E-5   1.268591056090802E-4  
 2.038600000000000E10    1.146921598392734E-4   9.073889784574630E-5  
 2.038800000000000E10    1.082120193812079E-4   5.757433629649199E-5  
 2.039000000000000E10    1.160089036421684E-4   5.176735076406876E-5  
 2.039200000000000E10    1.205173313283312E-4   4.678688394964516E-5  
 2.039400000000000E10    1.352594226024808E-4   3.928932788899515E-5  
 2.039600000000000E10    1.619342097019922E-4   3.495419338205479E-5  
 2.039800000000000E10    1.982899925423038E-4  -1.361905198033114E-6  
 2.040000000000000E10    1.985925391362086E-4  -8.827020821467539E-5  
 2.040200000000000E10    1.139455693171888E-4  -1.379487712979981E-4  
 2.040400000000000E10    4.349730931516991E-5  -1.392340597687660E-4  
 2.040600000000000E10    7.138037616690323E-6  -1.107973866378672E-4  
 2.040800000000000E10   -5.916040494763504E-6  -9.724800016825881E-5  
 2.041000000000000E10   -7.074626892225146E-6  -1.030212426787295E-4  
 2.041200000000000E10   -1.814401853321383E-5  -1.223356077079923E-4  
 2.041400000000000E10   -5.719412928991677E-5  -1.328969683103067E-4  
 2.041600000000000E10   -1.013350492827652E-4  -9.899149219952948E-5  
 2.041800000000000E10   -1.189182121217231E-4  -4.992327488543758E-5  
 2.042000000000000E10   -1.052036827480991E-4   7.703180566355993E-6  
 2.042200000000000E10   -6.274660697256121E-5   3.757389182802076E-5  
 2.042400000000000E10   -2.308051247088105E-5   2.028567436559539E-5  
 2.042600000000000E10   -5.001922382303867E-5  -1.823208176187799E-5  
 2.042800000000000E10   -1.333975060371042E-4  -1.384354051588511E-5  
 2.043000000000000E10   -1.795990015892695E-4   7.081936203842071E-5  
 2.043200000000000E10   -1.598199476460468E-4   1.684721358952755E-4  
 2.043400000000000E10   -6.900179066811209E-5   2.393427245478263E-4  
 2.043600000000000E10    3.944939983980246E-5   2.395435823181923E-4  
 2.043800000000000E10    1.218985040852256E-4   1.773576679777173E-4  
 2.044000000000000E10    1.730689231700115E-4   1.194589262991436E-4  
 2.044200000000000E10    1.712797021942689E-4   5.382884495046224E-5  
 2.044400000000000E10    1.530503210877050E-4   3.041224030391998E-5  
 2.044600000000000E10    1.550920730659838E-4   4.805633521575574E-5  
 2.044800000000000E10    1.737036099829884E-4   3.756582757429506E-5  
 2.045000000000000E10    1.947490636517061E-4   1.854162291898002E-5  
 2.045200000000000E10    2.132631927629325E-4  -1.655736604931977E-5  
 2.045400000000000E10    2.339860768415435E-4  -6.028923398944009E-5  
 2.045600000000000E10    2.342029839571418E-4  -1.207860264246383E-4  
 2.045800000000000E10    2.194083090678346E-4  -1.885914737604615E-4  
 2.046000000000000E10    2.081134783614118E-4  -2.500908866487010E-4  
 2.046200000000000E10    1.729252430484522E-4  -3.397006419565867E-4  
 2.046400000000000E10    8.652792384265763E-5  -4.149321346915493E-4  
 2.046600000000000E10   -2.832968634976358E-5  -4.253971293573084E-4  
 2.046800000000000E10   -9.507226114107339E-5  -3.913244853257388E-4  
 2.047000000000000E10   -1.597175437226299E-4  -3.781440811211293E-4  
 2.047200000000000E10   -2.281402187570112E-4  -3.669024557300009E-4  
 2.047400000000000E10   -3.013550848425437E-4  -3.514655224007359E-4  
 2.047600000000000E10   -4.126823822480968E-4  -3.082778439994401E-4  
 2.047800000000000E10   -5.165143291413560E-4  -2.377970387762482E-4  
 2.048000000000000E10   -6.034821612039896E-4  -1.382744743007099E-4  
 2.048200000000000E10   -6.934401632857667E-4  -1.841396854694194E-5  
 2.048400000000000E10   -7.411436334607514E-4   1.710117083345956E-4  
 2.048600000000000E10   -6.800533405828338E-4   3.883264410237314E-4  
 2.048800000000000E10   -5.376829938363893E-4   5.423284900043830E-4  
 2.049000000000000E10   -4.179658119829273E-4   6.444129216310982E-4  
 2.049200000000000E10   -2.554273237408790E-4   7.561725780364020E-4  
 2.049400000000000E10   -3.365392621411028E-5   8.029629149319624E-4  
 2.049600000000000E10    1.560928915954350E-4   7.567285417626385E-4  
 2.049800000000000E10    2.900604772255648E-4   6.699918650968362E-4  
 2.050000000000000E10    3.652339035470106E-4   6.011817928477714E-4  
 2.050200000000000E10    4.553086754264865E-4   5.514939783993133E-4  
 2.050400000000000E10    5.632088266042240E-4   4.642695120333941E-4  
 2.050600000000000E10    6.582233655574351E-4   3.405386975737077E-4  
 2.050800000000000E10    7.219012967688999E-4   1.806739499103866E-4  
 2.051000000000000E10    7.286512307134116E-4   1.262177535635575E-5  
 2.051200000000000E10    6.812057364125200E-4  -1.488529579959547E-4  
 2.051400000000000E10    6.140469526648471E-4  -2.360976300255328E-4  
 2.051600000000000E10    5.755705100360273E-4  -3.000163977894810E-4  
 2.051800000000000E10    5.358094955933126E-4  -3.908917292124057E-4  
 2.052000000000000E10    4.652332443780994E-4  -4.767188406325826E-4  
 2.052200000000000E10    3.798957527260615E-4  -5.437367275470308E-4  
 2.052400000000000E10    2.814139028617011E-4  -5.990010421928812E-4  
 2.052600000000000E10    1.795250773009882E-4  -6.540240375778610E-4  
 2.052800000000000E10    5.060562483120944E-5  -6.877808880018753E-4  
 2.053000000000000E10   -1.028031430246956E-4  -6.924294595943895E-4  
 2.053200000000000E10   -2.238579360576250E-4  -6.664537866848978E-4  
 2.053400000000000E10   -3.420372488934021E-4  -6.115742560970471E-4  
 2.053600000000000E10   -4.324788443740351E-4  -5.303562097158795E-4  
 2.053800000000000E10   -4.927862856926113E-4  -4.636154075958659E-4  
 2.054000000000000E10   -5.683428155154819E-4  -3.899415658000572E-4  
 2.054200000000000E10   -6.286699586102052E-4  -2.910394167009517E-4  
 2.054400000000000E10   -6.800451865598602E-4  -1.940306253766064E-4  
 2.054600000000000E10   -7.512376324174000E-4  -7.969740234976201E-5  
 2.054800000000000E10   -7.992399507042519E-4   1.105488382889257E-4  
 2.055000000000000E10   -7.593559558102185E-4   3.263538959867287E-4  
 2.055200000000000E10   -6.329054941502446E-4   4.894320646413337E-4  
 2.055400000000000E10   -4.851852598106962E-4   5.814334693357134E-4  
 2.055600000000000E10   -3.429612963887083E-4   6.202626659596194E-4  
