#  HZ   S   RI   R     50.00 
! Rohde & Schwarz ZVA40 4Ports - Version 3.90 - 1145.1110k42 SN: 100403
! Date: 2023-09-26 11:00:59
! Measurement: S12 
! 
 2.300000000000000E10    1.877618990838528E-2  -2.288617759197951E-3  
 2.304000000000000E10   -1.248652361035347E-2  -1.583423370718956E-2  
 2.308000000000000E10   -8.405017535388470E-3   1.975803514420987E-2  
 2.312000000000000E10    2.184183995127678E-2  -2.206152496486903E-3  
 2.316000000000000E10   -1.343927017152310E-2  -1.734846723973751E-2  
 2.320000000000000E10   -7.372776683419944E-3   1.906830156147480E-2  
 2.324000000000000E10    1.956388918161393E-2  -4.915620393306017E-3  
 2.328000000000000E10   -1.589903897047043E-2  -1.345773939341307E-2  
 2.332000000000000E10   -3.020522711053492E-3   2.224640194475651E-2  
 2.336000000000000E10    2.032097451686860E-2  -9.600718419253829E-3  
 2.340000000000000E10   -1.800393404066563E-2  -1.368358913511038E-2  
 2.344000000000000E10   -2.341972425952554E-3   2.221837175190449E-2  
 2.348000000000000E10    1.834266346991063E-2  -9.263721707463268E-3  
 2.352000000000000E10   -1.858198511600494E-2  -1.016129314899445E-2  
 2.356000000000000E10    2.933674755319954E-3   2.116032367348671E-2  
 2.360000000000000E10    1.792858077287675E-2  -1.438134494870902E-2  
 2.364000000000000E10   -2.141734206080437E-2  -7.604015120118856E-3  
 2.368000000000000E10    3.698442470282317E-3   2.170133963823319E-2  
 2.372000000000000E10    1.645424839854241E-2  -1.310671542584896E-2  
 2.376000000000000E10   -1.843588053286076E-2  -6.012602095305921E-3  
 2.380000000000000E10    4.672935830056669E-3   1.761568509042263E-2  
 2.384000000000000E10    1.235876461416483E-2  -1.475369960665703E-2  
 2.388000000000000E10   -2.023712370991707E-2  -2.161199549585581E-3  
 2.392000000000000E10    7.788606645166876E-3   1.831183675229550E-2  
 2.396000000000000E10    1.215253536254168E-2  -1.649100989401341E-2  
 2.400000000000000E10   -1.788499560058117E-2  -3.825981922447682E-3  
 2.404000000000000E10    8.279845292866232E-3   1.666043861806393E-2  
 2.408000000000000E10    8.484402428567413E-3  -1.556558178067208E-2  
 2.412000000000000E10   -1.836014003753662E-2   1.136422035377473E-3  
 2.416000000000000E10    1.042710853666067E-2   1.470285815149546E-2  
 2.420000000000000E10    8.996639072895052E-3  -1.656182996928692E-2  
 2.424000000000000E10   -1.820512615740300E-2   7.375365657731894E-4  
 2.428000000000000E10    9.308672945201397E-3   1.364562150835991E-2  
 2.432000000000000E10    5.960048489272595E-3  -1.560191082656384E-2  
 2.436000000000000E10   -1.492951304614544E-2   3.238879445940257E-3  
 2.440000000000000E10    1.220377042293549E-2   1.287499021738768E-2  
 2.444000000000000E10    2.066331918910146E-3  -1.681284072399140E-2  
 2.448000000000000E10   -1.637751049399376E-2   4.988035595417024E-3  
 2.452000000000000E10    1.274177386611700E-2   1.121430193483830E-2  
 2.456000000000000E10    4.607617091387510E-3  -1.487081761360169E-2  
 2.460000000000000E10   -1.322060707956553E-2   5.275641025602818E-3  
 2.464000000000000E10    1.098587612211704E-2   7.930283143371346E-3  
 2.468000000000000E10    1.882318589603529E-3  -1.461542160958052E-2  
 2.472000000000000E10   -1.225792117267847E-2   6.407775133103133E-3  
 2.476000000000000E10    1.330586481094361E-2   8.805657325685027E-3  
 2.480000000000000E10    8.622356936335565E-4  -1.225574879795313E-2  
 2.484000000000000E10   -1.244941034317017E-2   3.914733987301589E-3  
 2.488000000000000E10    1.044442221075297E-2   7.134514963626864E-3  
 2.492000000000000E10    1.262673310190440E-3  -1.070207967460156E-2  
 2.496000000000000E10   -9.691720417141914E-3   6.991479104012252E-3  
 2.500000000000000E10    1.030543247908354E-2   6.195234095305206E-3  
 2.504000000000000E10    2.524450591765345E-4  -1.412009633779526E-2  
 2.508000000000000E10   -1.131442727744580E-2   5.751286290585995E-3  
 2.512000000000000E10    1.018167814910412E-2   8.214523634314540E-3  
 2.516000000000000E10    3.786188590340318E-4  -1.157708332240582E-2  
 2.520000000000000E10   -8.894676248729229E-3   5.454648709297181E-3  
 2.524000000000000E10    9.790407159924509E-3   5.449529698491097E-3  
 2.528000000000000E10   -5.834168846718970E-4  -1.187997647523880E-2  
 2.532000000000000E10   -1.192578533142806E-2   5.425895830988885E-3  
 2.536000000000000E10    1.058548490554095E-2   8.106414832174780E-3  
 2.540000000000000E10    1.105285411514342E-3  -1.350769021511078E-2  
 2.544000000000000E10   -1.068076277226210E-2   4.749324614554644E-3  
 2.548000000000000E10    9.485585814714433E-3   6.653077711910011E-3  
 2.552000000000000E10   -1.135541932284832E-3  -1.148403562456370E-2  
 2.556000000000000E10   -1.127013638317585E-2   7.986229973286392E-3  
 2.560000000000000E10    1.260176352113486E-2   4.999528370797634E-3  
 2.564000000000000E10    9.805436409078539E-5  -1.505547683238983E-2  
 2.568000000000000E10   -1.161992959827185E-2   6.755117375403644E-3  
 2.572000000000000E10    1.265491877198220E-2   6.213718163222076E-3  
 2.576000000000000E10   -2.270045967400074E-3  -1.327956081628800E-2  
 2.580000000000000E10   -1.073773535490036E-2   1.021288203448057E-2  
 2.584000000000000E10    1.575176388919354E-2   5.592753508687019E-3  
 2.588000000000000E10   -4.380869957804680E-3  -1.646822886168957E-2  
 2.592000000000000E10   -1.225045002996922E-2   1.245633462369442E-2  
 2.596000000000000E10    1.473282297998667E-2   4.328541481867433E-3  
 2.600000000000000E10   -5.122613181918860E-3  -1.425028137117625E-2  
 2.604000000000000E10   -8.616514819115399E-3   1.172904804348946E-2  
 2.608000000000000E10    1.624752570092678E-2  -3.047209408134222E-4  
 2.612000000000000E10   -8.978383107483390E-3  -1.430795390754939E-2  
 2.616000000000000E10   -9.149558989703654E-3   1.523159354925156E-2  
 2.620000000000000E10    1.735048393607140E-2   4.573081633076073E-4  
 2.624000000000000E10   -8.782108464837075E-3  -1.444718909263611E-2  
 2.628000000000000E10   -7.388556738942863E-3   1.408712910562754E-2  
 2.632000000000000E10    1.524387430846691E-2  -2.803096778690815E-3  
 2.636000000000000E10   -1.074342773407698E-2  -1.196869731694460E-2  
 2.640000000000000E10   -5.167233458161356E-3   1.564918607473374E-2  
 2.644000000000000E10    1.567880712449551E-2  -4.895267561078072E-3  
 2.648000000000000E10   -9.937488971650600E-3  -1.250177815556526E-2  
 2.652000000000000E10   -5.679331629723311E-3   1.375239217877388E-2  
 2.656000000000000E10    1.362747301310301E-2  -2.379184347763658E-3  
 2.660000000000000E10   -1.075191622376442E-2  -9.871676926314830E-3  
 2.664000000000000E10   -3.114338158816100E-3   1.551111978888512E-2  
 2.668000000000000E10    1.534530398994685E-2  -5.700180035084487E-3  
 2.672000000000000E10   -1.170846652090550E-2  -1.094551382362843E-2  
 2.676000000000000E10   -3.636639323085547E-3   1.533856235444546E-2  
 2.680000000000000E10    1.436840039938689E-2  -4.856554729491472E-3  
 2.684000000000000E10   -1.152006135731936E-2  -9.654985064268113E-3  
 2.688000000000000E10   -9.774824605323375E-4   1.448873125463725E-2  
 2.692000000000000E10    1.286270379424095E-2  -6.819458708912136E-3  
 2.696000000000000E10   -1.442587093263865E-2  -8.996944190561773E-3  
 2.700000000000000E10    1.827145362272859E-4   1.563773822933436E-2  
