#  HZ   S   RI   R     50.00 
! Rohde & Schwarz ZVA40 4Ports - Version 3.90 - 1145.1110k42 SN: 100403
! Date: 2023-09-26 11:00:08
! Measurement: S12 
! 
 2.300000000000000E10    1.933809335267544E-2  -8.009256967663766E-3  
 2.304000000000000E10   -1.842932253694535E-2  -1.301929701584578E-2  
 2.308000000000000E10   -1.627389170236886E-3   2.317119486081600E-2  
 2.312000000000000E10    2.140684375536442E-2  -1.041699309945107E-2  
 2.316000000000000E10   -2.052265952646733E-2  -1.263623517578841E-2  
 2.320000000000000E10   -1.056053727671504E-3   2.292497814285756E-2  
 2.324000000000000E10    1.988500921094418E-2  -1.279240450894833E-2  
 2.328000000000000E10   -2.104017626214028E-2  -8.687653380036357E-3  
 2.332000000000000E10    3.917571794345975E-3   2.423299871683122E-2  
 2.336000000000000E10    1.802363118565083E-2  -1.619207254803181E-2  
 2.340000000000000E10   -2.449897257590294E-2  -7.692287265658382E-3  
 2.344000000000000E10    5.120003876179458E-3   2.370385822439194E-2  
 2.348000000000000E10    1.735703611791134E-2  -1.619496301639081E-2  
 2.352000000000000E10   -2.347595043790341E-2  -4.689025684148074E-3  
 2.356000000000000E10    8.681337223708632E-3   2.235480992579460E-2  
 2.360000000000000E10    1.316076377868653E-2  -2.078644185757637E-2  
 2.364000000000000E10   -2.454516876327992E-2  -2.690674462160097E-4  
 2.368000000000000E10    1.183984216946364E-2   2.082173664474488E-2  
 2.372000000000000E10    1.214142599850893E-2  -2.108029435491562E-2  
 2.376000000000000E10   -2.227615494549275E-2   9.937906322777272E-4  
 2.380000000000000E10    1.231765964806080E-2   1.786880519735813E-2  
 2.384000000000000E10    6.184317855566742E-3  -2.082198726212979E-2  
 2.388000000000000E10   -2.155008143270016E-2   4.746149729132653E-3  
 2.392000000000000E10    1.683597868633270E-2   1.635350653457642E-2  
 2.396000000000000E10    6.198850692957640E-3  -2.264898439657689E-2  
 2.400000000000000E10   -2.340702667868138E-2   4.032232283890248E-3  
 2.404000000000000E10    1.513067535239458E-2   1.385938982212544E-2  
 2.408000000000000E10    4.700408950865270E-3  -1.995848243546487E-2  
 2.412000000000000E10   -1.804981251764298E-2   8.843037593364717E-3  
 2.416000000000000E10    1.720863320279122E-2   1.028300427186489E-2  
 2.420000000000000E10   -1.948335988043692E-4  -2.169841671943665E-2  
 2.424000000000000E10   -1.860519409120083E-2   9.085037421464921E-3  
 2.428000000000000E10    1.870753844988347E-2   1.010130826091767E-2  
 2.432000000000000E10    3.972890718225390E-4  -1.839801634144783E-2  
 2.436000000000000E10   -1.666995282220841E-2   9.007282927751542E-3  
 2.440000000000000E10    1.810020453643799E-2   5.343433667570354E-3  
 2.444000000000000E10   -2.530949608594180E-3  -1.792153245425224E-2  
 2.448000000000000E10   -1.382243400216103E-2   1.500849686241150E-2  
 2.452000000000000E10    1.760175012195111E-2   5.617690203934909E-3  
 2.456000000000000E10   -3.814858019649983E-3  -1.886331521511078E-2  
 2.460000000000000E10   -1.170126793980599E-2   1.014142581450939E-2  
 2.464000000000000E10    1.504368455725909E-2   4.385956029981376E-3  
 2.468000000000000E10   -6.126047251343728E-3  -1.424079885834456E-2  
 2.472000000000000E10   -1.033904082828760E-2   1.245759536492825E-2  
 2.476000000000000E10    1.677261955618858E-2   1.110511914007366E-3  
 2.480000000000000E10   -3.986058385342361E-3  -1.580358981728554E-2  
 2.484000000000000E10   -1.087211621105671E-2   1.338588968777657E-2  
 2.488000000000000E10    1.360658305978775E-2   2.554763897702098E-3  
 2.492000000000000E10   -4.174764821499586E-3  -1.359875099682808E-2  
 2.496000000000000E10   -6.073720092058184E-3   1.101445755302906E-2  
 2.500000000000000E10    1.425412245303393E-2   4.882697099968791E-4  
 2.504000000000000E10   -7.676728764891626E-3  -1.221550164055825E-2  
 2.508000000000000E10   -9.766472839355471E-3   1.157090409678221E-2  
 2.512000000000000E10    1.564346360903979E-2   1.863944696678315E-3  
 2.516000000000000E10   -4.796165672495962E-3  -1.198587925279141E-2  
 2.520000000000000E10   -7.006039176195861E-3   1.027248716330529E-2  
 2.524000000000000E10    1.174706392699480E-2   8.833408802300692E-4  
 2.528000000000000E10   -6.232397413372995E-3  -1.183958079642058E-2  
 2.532000000000000E10   -6.214816103667023E-3   1.276040913313627E-2  
 2.536000000000000E10    1.482680792325735E-2  -1.252255798354745E-4  
 2.540000000000000E10   -7.337370275378229E-3  -1.326776412808895E-2  
 2.544000000000000E10   -8.542314768195156E-3   1.123706869596243E-2  
 2.548000000000000E10    1.394899321913719E-2   4.974349084571005E-4  
 2.552000000000000E10   -6.828675605058673E-3  -1.058183553278447E-2  
 2.556000000000000E10   -5.833741391986610E-3   1.238262404930592E-2  
 2.560000000000000E10    1.490964917904139E-2  -1.797589592022822E-3  
 2.564000000000000E10   -7.963803564548495E-3  -1.300815642404557E-2  
 2.568000000000000E10   -7.224234244138003E-3   1.525170173203945E-2  
 2.572000000000000E10    1.563546053051949E-2  -4.937048426643015E-4  
 2.576000000000000E10   -7.395408582687380E-3  -1.215665696144104E-2  
 2.580000000000000E10   -5.886430384814741E-3   1.358084800004959E-2  
 2.584000000000000E10    1.455241115748883E-2  -3.147852121293546E-3  
 2.588000000000000E10   -1.125631879001856E-2  -1.225622375637293E-2  
 2.592000000000000E10   -4.363999961614610E-3   1.769696057975293E-2  
 2.596000000000000E10    1.696519686341286E-2  -4.721903271973134E-3  
 2.600000000000000E10   -1.275592613190413E-2  -1.168928617298603E-2  
 2.604000000000000E10   -3.477633913829923E-3   1.661645957708359E-2  
 2.608000000000000E10    1.472199835985899E-2  -6.224250793606044E-3  
 2.612000000000000E10   -1.423775965481997E-2  -9.386427593529227E-3  
 2.616000000000000E10   -8.746084189042579E-6   1.788730842173100E-2  
 2.620000000000000E10    1.726250043392182E-2  -9.605289218127727E-3  
 2.624000000000000E10   -1.544150542736054E-2  -1.012137905955315E-2  
 2.628000000000000E10    4.703957453370095E-4   1.724406050026417E-2  
 2.632000000000000E10    1.277659535288811E-2  -9.023948971331120E-3  
 2.636000000000000E10   -1.526845363736153E-2  -5.696386398375036E-3  
 2.640000000000000E10    4.355724928528071E-3   1.576654993265867E-2  
 2.644000000000000E10    1.201335055291653E-2  -1.187604363113642E-2  
 2.648000000000000E10   -1.723298013806343E-2  -3.354144364818932E-3  
 2.652000000000000E10    3.622915256470443E-3   1.681376970171929E-2  
 2.656000000000000E10    1.187702059447766E-2  -1.101806875705719E-2  
 2.660000000000000E10   -1.421617665648461E-2  -4.450333283841611E-3  
 2.664000000000000E10    4.408370901942254E-3   1.476479975402355E-2  
 2.668000000000000E10    8.492794784605504E-3  -1.193011729985476E-2  
 2.672000000000000E10   -1.614343828380108E-2  -3.022100188359619E-3  
 2.676000000000000E10    6.963308463245632E-3   1.581880800008774E-2  
 2.680000000000000E10    1.150314468264580E-2  -1.281843329817057E-2  
 2.684000000000000E10   -1.662437075853348E-2  -2.377802267223597E-3  
 2.688000000000000E10    5.478781150132419E-3   1.427590037673712E-2  
 2.692000000000000E10    8.166278126835826E-3  -1.257493553787470E-2  
 2.696000000000000E10   -1.541541003227234E-2  -2.988364838063718E-4  
 2.700000000000000E10    7.647500781416894E-3   1.437713681101799E-2  
