#  HZ   S   RI   R     50.00 
! Rohde & Schwarz ZVA40 4Ports - Version 3.90 - 1145.1110k42 SN: 100403
! Date: 2023-09-26 10:59:04
! Measurement: S12 
! 
 2.300000000000000E10    1.296577673763037E-2  -2.159872225046159E-2  
 2.304000000000000E10   -2.534713922321797E-2   1.192418223619461E-4  
 2.308000000000000E10    1.284604949384928E-2   2.284395821452141E-2  
 2.312000000000000E10    1.275593534857035E-2  -2.262404506444932E-2  
 2.316000000000000E10   -2.570980848312379E-2   5.946921708062292E-5  
 2.320000000000000E10    1.423762005180121E-2   2.079912367939949E-2  
 2.324000000000000E10    9.906900228857995E-3  -2.310926925420761E-2  
 2.328000000000000E10   -2.591192631244660E-2   5.651658462435008E-3  
 2.332000000000000E10    1.783252882659436E-2   1.989453308880330E-2  
 2.336000000000000E10    7.896778122782710E-3  -2.672273812055589E-2  
 2.340000000000000E10   -2.632622366428376E-2   6.774230205118657E-3  
 2.344000000000000E10    1.967488817393780E-2   1.900367839932442E-2  
 2.348000000000000E10    4.531707959920169E-3  -2.522842884302140E-2  
 2.352000000000000E10   -2.422237034022809E-2   1.110812716186047E-2  
 2.356000000000000E10    2.241700609862805E-2   1.447185058325529E-2  
 2.360000000000000E10    5.817630141228439E-4  -2.756221664786339E-2  
 2.364000000000000E10   -2.371256288826466E-2   1.493231158822775E-2  
 2.368000000000000E10    2.450889354586602E-2   1.282710780531168E-2  
 2.372000000000000E10   -2.418360493704677E-3  -2.618108773231507E-2  
 2.376000000000000E10   -2.000257296681405E-2   1.544622705012560E-2  
 2.380000000000000E10    2.346001147806645E-2   8.356514835357667E-3  
 2.384000000000000E10   -6.582632019817830E-3  -2.547094828486443E-2  
 2.388000000000000E10   -1.867518876194954E-2   1.889969631373883E-2  
 2.392000000000000E10    2.533238114356995E-2   6.350163244456054E-3  
 2.396000000000000E10   -7.747668175399306E-3  -2.432973658740521E-2  
 2.400000000000000E10   -1.765161336779595E-2   1.589326476216316E-2  
 2.404000000000000E10    2.343212694406510E-2   2.289531333521009E-3  
 2.408000000000000E10   -1.116528928101063E-2  -1.946248511791230E-2  
 2.412000000000000E10   -1.159869593679905E-2   2.157272453069687E-2  
 2.416000000000000E10    2.521066980719567E-2  -2.876782021746040E-3  
 2.420000000000000E10   -1.219588733613491E-2  -2.024020205736160E-2  
 2.424000000000000E10   -1.321102023869753E-2   2.188860694348812E-2  
 2.428000000000000E10    2.277831730425358E-2  -7.636831761151555E-4  
 2.432000000000000E10   -1.369597196400166E-2  -1.865558381855488E-2  
 2.436000000000000E10   -5.388201586306096E-3   2.075852125704289E-2  
 2.440000000000000E10    2.091375657260418E-2  -4.884863626062870E-3  
 2.444000000000000E10   -1.740061957359314E-2  -1.519108882248402E-2  
 2.448000000000000E10   -5.379283724278212E-3   2.130334394335747E-2  
 2.452000000000000E10    2.153145290851594E-2  -7.482816818356514E-3  
 2.456000000000000E10   -1.532589899420738E-2  -1.224691497564316E-2  
 2.460000000000000E10   -3.508235563188791E-3   1.997974298298359E-2  
 2.464000000000000E10    1.568413002312184E-2  -9.220481108725072E-3  
 2.468000000000000E10   -1.703764811694623E-2  -1.175104147017002E-2  
 2.472000000000000E10    1.841685555130243E-3   2.101903094768525E-2  
 2.476000000000000E10    1.807363359093667E-2  -8.695809561461211E-3  
 2.480000000000000E10   -1.675379522085190E-2  -1.052010395646095E-2  
 2.484000000000000E10   -8.476643907651306E-4   1.762657257199288E-2  
 2.488000000000000E10    1.695129568397999E-2  -1.007059430599213E-2  
 2.492000000000000E10   -1.446926802366972E-2  -6.099503262639047E-3  
 2.496000000000000E10    2.390225226953626E-3   1.847415553689003E-2  
 2.500000000000000E10    1.237982404470444E-2  -1.212432781875134E-2  
 2.504000000000000E10   -1.629687837660313E-2  -6.639107830375433E-3  
 2.508000000000000E10    2.149263665056788E-3   1.692172698229551E-2  
 2.512000000000000E10    1.348007622748614E-2  -9.521924215555193E-3  
 2.516000000000000E10   -1.458471660196782E-2  -5.430260348170996E-3  
 2.520000000000000E10    3.601780973821880E-3   1.358112596660853E-2  
 2.524000000000000E10    1.215068930476904E-2  -1.089039508938790E-2  
 2.528000000000000E10   -1.605456684291363E-2  -3.686146304607392E-3  
 2.532000000000000E10    3.988441330045462E-3   1.679703799486161E-2  
 2.536000000000000E10    1.225527501672507E-2  -1.143315664589405E-2  
 2.540000000000000E10   -1.535742767333985E-2  -4.787045587599279E-3  
 2.544000000000000E10    4.355345428436995E-3   1.413712546348572E-2  
 2.548000000000000E10    9.538216215372087E-3  -1.152797191232443E-2  
 2.552000000000000E10   -1.494765443503857E-2  -1.535654786657542E-3  
 2.556000000000000E10    7.142768779993059E-3   1.536423665523530E-2  
 2.560000000000000E10    1.000589900195599E-2  -1.315822588562966E-2  
 2.564000000000000E10   -1.826075416743755E-2  -2.652771862894297E-3  
 2.568000000000000E10    5.539758647680283E-3   1.676881076157093E-2  
 2.572000000000000E10    1.042412788778544E-2  -1.194707884788514E-2  
 2.576000000000000E10   -1.556080999672413E-2  -1.256560440659523E-3  
 2.580000000000000E10    8.003192100822926E-3   1.404517277657986E-2  
 2.584000000000000E10    8.371000392735006E-3  -1.671201262176037E-2  
 2.588000000000000E10   -1.861613563418389E-2   1.102030405402184E-3  
 2.592000000000000E10    9.789510832428934E-3   1.857885474741459E-2  
 2.596000000000000E10    8.858902308046819E-3  -1.698687838375569E-2  
 2.600000000000000E10   -1.870928303301335E-2   6.267825298011303E-4  
 2.604000000000000E10    1.184761096507311E-2   1.435812806546689E-2  
 2.608000000000000E10    5.994145907759667E-3  -1.646055421113968E-2  
 2.612000000000000E10   -1.877727138161660E-2   4.923577445894481E-3  
 2.616000000000000E10    1.308848217159510E-2   1.327188411474228E-2  
 2.620000000000000E10    4.928951951265337E-3  -1.957404665291310E-2  
 2.624000000000000E10   -1.798504148721695E-2   6.566537753641607E-3  
 2.628000000000000E10    1.478850427299738E-2   1.203025796622038E-2  
 2.632000000000000E10    5.831354484148324E-4  -1.819202097833157E-2  
 2.636000000000000E10   -1.598815949380398E-2   8.733622057139874E-3  
 2.640000000000000E10    1.651712424457074E-2   8.514445922672750E-3  
 2.644000000000000E10    2.743861653655768E-4  -1.847229510843754E-2  
 2.648000000000000E10   -1.716388462305069E-2   9.758287696838380E-3  
 2.652000000000000E10    1.557505574196577E-2   7.993079607188702E-3  
 2.656000000000000E10   -8.836311762058178E-4  -1.605734538972378E-2  
 2.660000000000000E10   -1.301751736313105E-2   1.105462806761265E-2  
 2.664000000000000E10    1.532424050450326E-2   4.260960602909327E-3  
 2.668000000000000E10   -4.857134908288718E-3  -1.621107623398304E-2  
 2.672000000000000E10   -1.156094745278359E-2   1.343657892018557E-2  
 2.676000000000000E10    1.662143788754940E-2   4.679809288233520E-3  
 2.680000000000000E10   -3.748635373115540E-3  -1.603727040916682E-2  
 2.684000000000000E10   -1.098486301481724E-2   1.119494717746973E-2  
 2.688000000000000E10    1.540309117883444E-2   2.757744291946292E-3  
 2.692000000000000E10   -6.276111618876458E-3  -1.429452326714993E-2  
 2.696000000000000E10   -1.025811852008104E-2   1.435528425663710E-2  
 2.700000000000000E10    1.651258964180947E-2   6.618402988929302E-4  
