#  HZ   S   RI   R     50.00 
! Rohde & Schwarz ZVA40 4Ports - Version 3.90 - 1145.1110k42 SN: 100403
! Date: 2023-09-26 10:58:06
! Measurement: S12 
! 
 2.300000000000000E10    3.779534047039749E-3  -2.643348891873361E-2  
 2.304000000000000E10   -2.605582371179105E-2   1.195843862350703E-2  
 2.308000000000000E10    2.299228578982353E-2   1.656083198607445E-2  
 2.312000000000000E10    4.043455322605969E-3  -2.868835635314465E-2  
 2.316000000000000E10   -2.514811881905557E-2   1.183348974969149E-2  
 2.320000000000000E10    2.150568967766763E-2   1.551240708269597E-2  
 2.324000000000000E10   -7.290910618409517E-4  -2.721421874268533E-2  
 2.328000000000000E10   -2.264220512548924E-2   1.474129190845728E-2  
 2.332000000000000E10    2.719870626131059E-2   1.147949427970410E-2  
 2.336000000000000E10   -4.882499776203634E-3  -2.842683335705281E-2  
 2.340000000000000E10   -2.356759912161828E-2   1.856755922358990E-2  
 2.344000000000000E10    2.742538228499413E-2   9.060926616551876E-3  
 2.348000000000000E10   -5.967541118922236E-3  -2.704587534861565E-2  
 2.352000000000000E10   -1.922583755634308E-2   2.034160945763588E-2  
 2.356000000000000E10    2.797109028881074E-2   4.890338989902736E-3  
 2.360000000000000E10   -1.220228303946734E-2  -2.680868819397450E-2  
 2.364000000000000E10   -1.695457651676655E-2   2.513794686711789E-2  
 2.368000000000000E10    2.985495612124443E-2   1.479167239401341E-3  
 2.372000000000000E10   -1.429884395245791E-2  -2.587440834817887E-2  
 2.376000000000000E10   -1.438228652752161E-2   2.497439308462621E-2  
 2.380000000000000E10    2.728986105879785E-2  -1.715959662001432E-3  
 2.384000000000000E10   -1.711491678095818E-2  -2.132576135707379E-2  
 2.388000000000000E10   -8.983240687742235E-3   2.641884103502274E-2  
 2.392000000000000E10    2.747296287608625E-2  -7.153118226960899E-3  
 2.396000000000000E10   -2.039452159400463E-2  -1.974226072184563E-2  
 2.400000000000000E10   -9.425968867137433E-3   2.677738211532594E-2  
 2.404000000000000E10    2.499048846997262E-2  -8.253617614133360E-3  
 2.408000000000000E10   -2.017631705146790E-2  -1.671326843319416E-2  
 2.412000000000000E10   -1.671861763591879E-3   2.658793610083104E-2  
 2.416000000000000E10    2.389307498231889E-2  -1.198480863158465E-2  
 2.420000000000000E10   -2.411555325135709E-2  -1.491210443937540E-2  
 2.424000000000000E10   -5.403827815105023E-4   2.532664497572899E-2  
 2.428000000000000E10    2.345528616261959E-2  -1.328077018635273E-2  
 2.432000000000000E10   -2.271285399181366E-2  -1.104850220998764E-2  
 2.436000000000000E10    1.520772956593633E-3   2.394056558569432E-2  
 2.440000000000000E10    1.796805573401452E-2  -1.823683023173809E-2  
 2.444000000000000E10   -2.139043967792035E-2  -7.083297897809746E-3  
 2.448000000000000E10    6.516079537837506E-3   2.422760180444718E-2  
 2.452000000000000E10    1.600509022167207E-2  -1.781876816062451E-2  
 2.456000000000000E10   -2.380348832956315E-2  -6.693600349875691E-3  
 2.460000000000000E10    7.621922749212983E-3   2.107598723206044E-2  
 2.464000000000000E10    1.488505958175421E-2  -1.577361474362850E-2  
 2.468000000000000E10   -2.225888816882611E-2  -1.617151191454642E-3  
 2.472000000000000E10    9.511368347957136E-3   1.920865438864232E-2  
 2.476000000000000E10    1.173002491286993E-2  -2.071035585596085E-2  
 2.480000000000000E10   -2.105314846322537E-2  -1.317296490931511E-3  
 2.484000000000000E10    1.073519141145230E-2   2.017229548488617E-2  
 2.488000000000000E10    1.010866645473004E-2  -1.800844045444966E-2  
 2.492000000000000E10   -1.954709005598069E-2  -4.378590794518591E-4  
 2.496000000000000E10    1.124690904080153E-2   1.518405439178944E-2  
 2.500000000000000E10    6.973747804828883E-3  -1.768658434918404E-2  
 2.504000000000000E10   -1.931210834867955E-2   4.250621430487634E-3  
 2.508000000000000E10    1.261213765794993E-2   1.628957326106549E-2  
 2.512000000000000E10    8.564602596194746E-3  -1.959632223599435E-2  
 2.516000000000000E10   -1.849054076334477E-2   2.903415140719117E-3  
 2.520000000000000E10    1.105517963134766E-2   1.445830885349989E-2  
 2.524000000000000E10    6.441527709181311E-3  -1.643749106749058E-2  
 2.528000000000000E10   -1.918185986373425E-2   4.501578937597276E-3  
 2.532000000000000E10    1.533494282448769E-2   1.320310756954194E-2  
 2.536000000000000E10    5.310156599440576E-3  -1.920821050834656E-2  
 2.540000000000000E10   -1.961125961825848E-2   4.232576474153401E-3  
 2.544000000000000E10    1.385297024904967E-2   1.376580524381638E-2  
 2.548000000000000E10    3.738611866621972E-3  -1.831163820525647E-2  
 2.552000000000000E10   -1.557423349517584E-2   7.210845041217806E-3  
 2.556000000000000E10    1.486033760174990E-2   1.118844405459881E-2  
 2.560000000000000E10    2.012209215519429E-3  -1.929657399968148E-2  
 2.564000000000000E10   -1.756358734490872E-2   8.536307344431879E-3  
 2.568000000000000E10    1.687977521627427E-2   1.133633721522808E-2  
 2.572000000000000E10    9.572000782552738E-4  -1.918936873507023E-2  
 2.576000000000000E10   -1.642232196757794E-2   8.098661337902548E-3  
 2.580000000000000E10    1.645609983437062E-2   1.025599521242381E-2  
 2.584000000000000E10   -1.643037100945414E-3  -1.844258412996293E-2  
 2.588000000000000E10   -1.713678506585598E-2   1.168489298814774E-2  
 2.592000000000000E10    2.000587595453740E-2   7.769098999862672E-3  
 2.596000000000000E10   -2.242192469635607E-3  -2.149493197970868E-2  
 2.600000000000000E10   -1.717141218429089E-2   1.329531262983322E-2  
 2.604000000000000E10    1.916654087939263E-2   8.389541429752113E-3  
 2.608000000000000E10   -4.163514669677616E-3  -2.050021579336167E-2  
 2.612000000000000E10   -1.351217565078020E-2   1.475147486384631E-2  
 2.616000000000000E10    2.243672557524681E-2   3.535969283305408E-3  
 2.620000000000000E10   -9.380020882651809E-3  -1.972742126530648E-2  
 2.624000000000000E10   -1.443537249377966E-2   1.837344925869942E-2  
 2.628000000000000E10    2.316727069139958E-2   1.062483733817339E-3  
 2.632000000000000E10   -9.685382179813389E-3  -2.005528045785904E-2  
 2.636000000000000E10   -1.173066956592560E-2   1.959670388589383E-2  
 2.640000000000000E10    1.997008980617523E-2  -9.914221372129023E-4  
 2.644000000000000E10   -1.270509889151097E-2  -1.568755088542939E-2  
 2.648000000000000E10   -6.257862336193324E-3   2.013532186038972E-2  
 2.652000000000000E10    2.075315370956898E-2  -4.342801419509650E-3  
 2.656000000000000E10   -1.435750760967732E-2  -1.511028630049706E-2  
 2.660000000000000E10   -5.413516410770417E-3   1.884503561732293E-2  
 2.664000000000000E10    1.810903732498169E-2  -3.726811630308629E-3  
 2.668000000000000E10   -1.434913063047409E-2  -1.122345898839236E-2  
 2.672000000000000E10   -1.762579484041632E-3   1.849203156726837E-2  
 2.676000000000000E10    1.825598391385079E-2  -7.790462387703659E-3  
 2.680000000000000E10   -1.627372185162068E-2  -1.184567314711094E-2  
 2.684000000000000E10   -2.915496582650543E-3   2.014943122186661E-2  
 2.688000000000000E10    1.663036000135184E-2  -7.565000687642100E-3  
 2.692000000000000E10   -1.497964147979737E-2  -9.573525730369091E-3  
 2.696000000000000E10    2.332494445426763E-4   1.769203179281712E-2  
 2.700000000000000E10    1.461059598262787E-2  -9.152827664637566E-3  
