#  HZ   S   RI   R     50.00 
! Rohde & Schwarz ZVA40 4Ports - Version 3.90 - 1145.1110k42 SN: 100403
! Date: 2023-09-26 10:56:51
! Measurement: S12 
! 
 2.300000000000000E10   -3.158629380613566E-3  -2.775039442956449E-2  
 2.304000000000000E10   -2.170273200154305E-2   1.600083113402129E-2  
 2.308000000000000E10    2.556433236956597E-2   9.970280330777169E-3  
 2.312000000000000E10   -4.725299530178310E-3  -2.550956001937390E-2  
 2.316000000000000E10   -2.003732944846153E-2   1.910717154443264E-2  
 2.320000000000000E10    2.699237596392632E-2   6.098012014627458E-3  
 2.324000000000000E10   -8.561963835954667E-3  -2.856181422114373E-2  
 2.328000000000000E10   -1.922271938860417E-2   2.320746729493142E-2  
 2.332000000000000E10    2.934208166718483E-2   6.625977559238674E-3  
 2.336000000000000E10   -1.111643643677235E-2  -2.753434641420842E-2  
 2.340000000000000E10   -1.637114997744561E-2   2.333593946814538E-2  
 2.344000000000000E10    2.873314633786679E-2   2.583011269941927E-4  
 2.348000000000000E10   -1.479257800400257E-2  -2.370974460482598E-2  
 2.352000000000000E10   -1.370995866298676E-2   2.700379795789719E-2  
 2.356000000000000E10    3.030590652525426E-2  -3.364732783064247E-3  
 2.360000000000000E10   -1.855317503809929E-2  -2.513801198899747E-2  
 2.364000000000000E10   -1.044536839127541E-2   2.782668941259385E-2  
 2.368000000000000E10    2.866703035116196E-2  -5.040349583923818E-3  
 2.372000000000000E10   -2.167208709120751E-2  -1.984135048747063E-2  
 2.376000000000000E10   -5.088924149274828E-3   2.821251129448415E-2  
 2.380000000000000E10    2.677783916234971E-2  -1.152451665371657E-2  
 2.384000000000000E10   -2.475075737297535E-2  -1.705762307763100E-2  
 2.388000000000000E10   -2.445358044281603E-3   3.065424566328526E-2  
 2.392000000000000E10    2.582616517305375E-2  -1.277370969057083E-2  
 2.396000000000000E10   -2.481404603123666E-2  -1.527639447957278E-2  
 2.400000000000000E10   -1.485419736765325E-3   2.806400070190431E-2  
 2.404000000000000E10    2.275291657567025E-2  -1.649732031404972E-2  
 2.408000000000000E10   -2.654880220830441E-2  -8.632863846421241E-3  
 2.412000000000000E10    4.625799616053701E-3   2.746177004456521E-2  
 2.416000000000000E10    2.117225057065487E-2  -2.016121123313905E-2  
 2.420000000000000E10   -2.527302571356297E-2  -8.022527522146702E-3  
 2.424000000000000E10    8.310160816013816E-3   2.719152054905892E-2  
 2.428000000000000E10    1.629556199312210E-2  -2.018072528898716E-2  
 2.432000000000000E10   -2.693896360635758E-2  -3.266009382158519E-3  
 2.436000000000000E10    1.243613237261772E-2   2.347472622036935E-2  
 2.440000000000000E10    1.451872961968184E-2  -2.309886396646500E-2  
 2.444000000000000E10   -2.698477555274964E-2   1.174405103549362E-3  
 2.448000000000000E10    1.060996163398028E-2   2.141498696684838E-2  
 2.452000000000000E10    1.270686041504145E-2  -2.289056700110436E-2  
 2.456000000000000E10   -2.220897018849850E-2   5.040486934408547E-4  
 2.460000000000000E10    1.402211818337441E-2   1.914122032403946E-2  
 2.464000000000000E10    6.142815247327091E-3  -2.156105004906655E-2  
 2.468000000000000E10   -2.391350816905500E-2   3.309840704128147E-3  
 2.472000000000000E10    1.654275865882636E-2   1.661286478340626E-2  
 2.476000000000000E10    8.523229030370713E-3  -2.117514049768448E-2  
 2.480000000000000E10   -2.261096602618695E-2   3.761238418370486E-3  
 2.484000000000000E10    1.432110117971898E-2   1.448572512149811E-2  
 2.488000000000000E10    4.106248775944115E-3  -2.153532996892929E-2  
 2.492000000000000E10   -2.031929277241230E-2   8.982053641080857E-3  
 2.496000000000000E10    1.757564194083214E-2   1.419795601993800E-2  
 2.500000000000000E10    3.034099337309599E-3  -2.330129464566708E-2  
 2.504000000000000E10   -2.022322458803654E-2   6.910479050129654E-3  
 2.508000000000000E10    1.804573821246624E-2   1.395821676760912E-2  
 2.512000000000000E10    2.402882539331913E-3  -2.057332268893719E-2  
 2.516000000000000E10   -1.880652643144131E-2   9.081067620813847E-3  
 2.520000000000000E10    1.710983968973160E-2   9.354641778171063E-3  
 2.524000000000000E10    3.259339205827566E-4  -2.091701572895051E-2  
 2.528000000000000E10   -1.795724645376206E-2   1.242138092070818E-2  
 2.532000000000000E10    1.850026721477509E-2   9.908891576826574E-3  
 2.536000000000000E10   -9.464618996116042E-4  -2.077308917760850E-2  
 2.540000000000000E10   -1.646878028273583E-2   1.247127649217844E-2  
 2.544000000000000E10    1.838349090039730E-2   6.818398192971946E-3  
 2.548000000000000E10   -4.041682214289904E-3  -1.938257332563401E-2  
 2.552000000000000E10   -1.426251390159130E-2   1.328494249880314E-2  
 2.556000000000000E10    2.112674539983273E-2   5.670089201331139E-3  
 2.560000000000000E10   -4.679551090151073E-3  -2.018972361385823E-2  
 2.564000000000000E10   -1.457570668250323E-2   1.398190744847060E-2  
 2.568000000000000E10    1.995462770938874E-2   5.223518832772972E-3  
 2.572000000000000E10   -4.914705488085748E-3  -1.937577469408513E-2  
 2.576000000000000E10   -1.167153124541045E-2   1.499845582127572E-2  
 2.580000000000000E10    2.000398970842362E-2   2.128766451627016E-3  
 2.584000000000000E10   -9.273065348565580E-3  -2.090635065853596E-2  
 2.588000000000000E10   -1.246565515428782E-2   1.867639506816864E-2  
 2.592000000000000E10    2.310704479694367E-2   3.493041190281511E-3  
 2.596000000000000E10   -1.092914206862450E-2  -2.073998072206974E-2  
 2.600000000000000E10   -1.145194392919541E-2   1.865278495609761E-2  
 2.604000000000000E10    2.285901503503323E-2  -2.592410428971053E-3  
 2.608000000000000E10   -1.342313964158297E-2  -1.753964982032776E-2  
 2.612000000000000E10   -7.717495352923872E-3   2.241630233347416E-2  
 2.616000000000000E10    2.278628165781498E-2  -3.282398785501719E-3  
 2.620000000000000E10   -1.524880514264107E-2  -1.889968694925309E-2  
 2.624000000000000E10   -7.242733838111164E-3   2.211444956779481E-2  
 2.628000000000000E10    2.273282151043416E-2  -5.409275812804699E-3  
 2.632000000000000E10   -1.740468917846680E-2  -1.385139809131623E-2  
 2.636000000000000E10   -1.418276418596506E-3   2.138608135223389E-2  
 2.640000000000000E10    2.033473682880402E-2  -1.126722279727459E-2  
 2.644000000000000E10   -2.047376662909985E-2  -1.227563943982125E-2  
 2.648000000000000E10   -1.791969059780241E-4   2.407526416063310E-2  
 2.652000000000000E10    1.931010505735875E-2  -1.199009243875742E-2  
 2.656000000000000E10   -1.969887543737888E-2  -9.841354523599150E-3  
 2.660000000000000E10    3.029232466369868E-3   2.075716845273972E-2  
 2.664000000000000E10    1.566077668011189E-2  -1.356022505164147E-2  
 2.668000000000000E10   -2.017127401769162E-2  -6.361317950040104E-3  
 2.672000000000000E10    5.536062480211259E-3   2.143743889927864E-2  
 2.676000000000000E10    1.570962308853865E-2  -1.370977519720793E-2  
 2.680000000000000E10   -2.053548732042313E-2  -5.872973790913822E-3  
 2.684000000000000E10    5.199987686425449E-3   2.010722099244595E-2  
 2.688000000000000E10    1.215026093482972E-2  -1.504321121215821E-2  
 2.692000000000000E10   -2.059160171985627E-2  -1.653174234479666E-3  
 2.696000000000000E10    8.850251526832581E-3   1.755162348270416E-2  
 2.700000000000000E10    1.097298701316118E-2  -1.779414481282234E-2  
