#  HZ   S   RI   R     50.00 
! Rohde & Schwarz ZVA40 4Ports - Version 3.90 - 1145.1110k42 SN: 100403
! Date: 2023-09-26 10:56:02
! Measurement: S12 
! 
 2.300000000000000E10   -1.127190155076981E-2  -2.268817448782921E-2  
 2.304000000000000E10   -1.348662483114005E-2   2.374028967034817E-2  
 2.308000000000000E10    2.696907437443734E-2  -2.483167331169826E-4  
 2.312000000000000E10   -1.401932881647349E-2  -2.409126024580002E-2  
 2.316000000000000E10   -1.258754772388935E-2   2.481270737433434E-2  
 2.320000000000000E10    2.671698275816441E-2  -1.209817836299539E-3  
 2.324000000000000E10   -1.664603429365158E-2  -2.267467109215260E-2  
 2.328000000000000E10   -9.569021674692632E-3   2.622498840963842E-2  
 2.332000000000000E10    2.890627956497669E-2  -6.635029482781888E-3  
 2.336000000000000E10   -2.079754735028744E-2  -1.968145820748807E-2  
 2.340000000000000E10   -8.177622152388098E-3   2.868110490596295E-2  
 2.344000000000000E10    2.842116144454480E-2  -8.673530312478544E-3  
 2.348000000000000E10   -2.170076647555828E-2  -1.859973983502388E-2  
 2.352000000000000E10   -3.522192158088089E-3   2.885006366872788E-2  
 2.356000000000000E10    2.542638069677354E-2  -1.273825082778931E-2  
 2.360000000000000E10   -2.521409686374665E-2  -1.457402096003294E-2  
 2.364000000000000E10    1.272200191248208E-3   3.004877041900159E-2  
 2.368000000000000E10    2.570389814293385E-2  -1.696117598128319E-2  
 2.372000000000000E10   -2.774395679199696E-2  -1.259073799312115E-2  
 2.376000000000000E10    3.784028008416295E-3   2.913627886211873E-2  
 2.380000000000000E10    2.155284547388554E-2  -1.847538524389267E-2  
 2.384000000000000E10   -2.763523148071766E-2  -8.006710214197639E-3  
 2.388000000000000E10    8.907143737733367E-3   2.794079784095288E-2  
 2.392000000000000E10    1.888782209360600E-2  -2.348263068532944E-2  
 2.396000000000000E10   -3.044222921860218E-2  -3.957479456573726E-3  
 2.400000000000000E10    8.310235881984235E-3   2.921170524013043E-2  
 2.404000000000000E10    1.694549065911770E-2  -2.368354272282125E-2  
 2.408000000000000E10   -2.713499298381806E-2  -1.930211473852396E-3  
 2.412000000000000E10    1.409874737989903E-2   2.428771702718736E-2  
 2.416000000000000E10    1.042005394804478E-2  -2.476010040652752E-2  
 2.420000000000000E10   -2.845473938751221E-2   4.482545250326396E-3  
 2.424000000000000E10    1.865316692543030E-2   2.119958607006073E-2  
 2.428000000000000E10    9.286401740908622E-3  -2.653542008960248E-2  
 2.432000000000000E10   -2.833355581581593E-2   6.127104408651592E-3  
 2.436000000000000E10    1.868808586084843E-2   1.842383512878418E-2  
 2.440000000000000E10    5.473965087682010E-3  -2.529834908401967E-2  
 2.444000000000000E10   -2.265686598575116E-2   8.768867059201005E-3  
 2.448000000000000E10    2.006467153060437E-2   1.530108943152428E-2  
 2.452000000000000E10    5.318189468588681E-4  -2.651983576846124E-2  
 2.456000000000000E10   -2.291034679937363E-2   9.191479677796367E-3  
 2.460000000000000E10    2.093106198990345E-2   1.305843806713820E-2  
 2.464000000000000E10    2.478078580312431E-3  -2.311160067605973E-2  
 2.468000000000000E10   -2.044599013447761E-2   1.165842126488686E-2  
 2.472000000000000E10    1.964100790643693E-2   9.070441405415537E-3  
 2.476000000000000E10   -1.278617782665417E-3  -2.305512559401990E-2  
 2.480000000000000E10   -1.809801097881795E-2   1.567679988443852E-2  
 2.484000000000000E10    2.158784828507901E-2   9.106501742184164E-3  
 2.488000000000000E10   -4.367126854300500E-3  -2.449576168930532E-2  
 2.492000000000000E10   -1.857425108170510E-2   1.311579641473294E-2  
 2.496000000000000E10    2.249593222749233E-2   6.598851901590826E-3  
 2.500000000000000E10   -5.418794148862364E-3  -2.065223962664605E-2  
 2.504000000000000E10   -1.543519109690190E-2   1.476486323511601E-2  
 2.508000000000000E10    2.177802030956745E-2   3.604248272791506E-3  
 2.512000000000000E10   -7.910623880028727E-3  -2.139066911923886E-2  
 2.516000000000000E10   -1.376209494400025E-2   1.723148629689217E-2  
 2.520000000000000E10    2.058071197509766E-2   4.510601029843093E-3  
 2.524000000000000E10   -7.022645866096021E-3  -1.972918385636807E-2  
 2.528000000000000E10   -1.227370442235470E-2   1.705081568372250E-2  
 2.532000000000000E10    2.099329632902146E-2   1.212143539300189E-3  
 2.536000000000000E10   -1.054551396036148E-2  -1.778388093006611E-2  
 2.540000000000000E10   -1.083153390896321E-2   1.868097111999989E-2  
 2.544000000000000E10    2.334013860929013E-2  -3.462936947308480E-5  
 2.548000000000000E10   -1.165955918717384E-2  -1.916449186003209E-2  
 2.552000000000000E10   -1.044225579923392E-2   1.903789940690995E-2  
 2.556000000000000E10    2.076559724402428E-2  -1.823131819434465E-3  
 2.560000000000000E10   -1.161588509756327E-2  -1.563855094063282E-2  
 2.564000000000000E10   -8.419404017210008E-3   2.015434516894818E-2  
 2.568000000000000E10    2.120994518625737E-2  -6.010110828578474E-3  
 2.572000000000000E10   -1.553576301401854E-2  -1.657041046679020E-2  
 2.576000000000000E10   -6.180370112270118E-3   2.117916977775097E-2  
 2.580000000000000E10    2.225380846643448E-2  -4.321923984438182E-3  
 2.584000000000000E10   -1.649242270267010E-2  -1.536338140475750E-2  
 2.588000000000000E10   -4.839408110350371E-3   2.137596287226678E-2  
 2.592000000000000E10    2.186928347802163E-2  -7.853183496207001E-3  
 2.596000000000000E10   -1.976519889926911E-2  -1.287306456458569E-2  
 2.600000000000000E10   -1.348357605829835E-3   2.487913374459744E-2  
 2.604000000000000E10    2.228820244908333E-2  -1.114571702986956E-2  
 2.608000000000000E10   -2.107879657959938E-2  -1.363599708199502E-2  
 2.612000000000000E10    1.004415019840002E-3   2.433201909554005E-2  
 2.616000000000000E10    1.954728134560585E-2  -1.225854380631447E-2  
 2.620000000000000E10   -2.157883345997334E-2  -9.651330125749112E-3  
 2.624000000000000E10    4.196335300236942E-3   2.258086111402512E-2  
 2.628000000000000E10    1.910340256214142E-2  -1.698951220142841E-2  
 2.632000000000000E10   -2.484427613234521E-2  -6.502417237430812E-3  
 2.636000000000000E10    6.706332490801813E-3   2.377811784100533E-2  
 2.640000000000000E10    1.600970639634133E-2  -1.790758342611790E-2  
 2.644000000000000E10   -2.271558506667614E-2  -3.142423172861338E-3  
 2.648000000000000E10    1.047599209195376E-2   2.058795879817009E-2  
 2.652000000000000E10    1.153326224023104E-2  -1.971832246065140E-2  
 2.656000000000000E10   -2.395791558277608E-2   1.436668148785830E-4  
 2.660000000000000E10    1.317578190004826E-2   2.028517646980286E-2  
 2.664000000000000E10    1.123183113855124E-2  -2.031364274120331E-2  
 2.668000000000000E10   -2.262852169406415E-2   9.889616759661589E-4  
 2.672000000000000E10    1.312396824550629E-2   1.778469138228894E-2  
 2.676000000000000E10    7.568110022962095E-3  -1.991383627378941E-2  
 2.680000000000000E10   -2.160359242498875E-2   5.004329590231182E-3  
 2.684000000000000E10    1.673686851763725E-2   1.642921433877945E-2  
 2.688000000000000E10    6.338803649753333E-3  -2.282778098309041E-2  
 2.692000000000000E10   -2.099756566286087E-2   7.235002882838252E-3  
 2.696000000000000E10    1.643665048789979E-2   1.505156366151572E-2  
 2.700000000000000E10    2.539769571661949E-3  -2.000276197457314E-2  
