#  HZ   S   RI   R     50.00 
! Rohde & Schwarz ZVA40 4Ports - Version 3.90 - 1145.1110k42 SN: 100403
! Date: 2023-09-26 10:54:56
! Measurement: S12 
! 
 2.300000000000000E10   -1.993818214563847E-2  -1.214777531692982E-2  
 2.304000000000000E10    1.394705748028756E-3   2.282790343247891E-2  
 2.308000000000000E10    2.066686894641400E-2  -1.303497133528233E-2  
 2.312000000000000E10   -2.306511849376679E-2  -1.048505230949164E-2  
 2.316000000000000E10    2.132221597754956E-3   2.535995250160695E-2  
 2.320000000000000E10    2.075204657850743E-2  -1.425888977004529E-2  
 2.324000000000000E10   -2.249560442912579E-2  -9.499168825716973E-3  
 2.328000000000000E10    4.698590512835981E-3   2.429014932534696E-2  
 2.332000000000000E10    1.726166811641217E-2  -1.796825403958321E-2  
 2.336000000000000E10   -2.462281899533273E-2  -5.585368197617532E-3  
 2.340000000000000E10    8.669055289468767E-3   2.506355246799946E-2  
 2.344000000000000E10    1.722082314462662E-2  -2.067082445171356E-2  
 2.348000000000000E10   -2.578708570554258E-2  -3.396972267574669E-3  
 2.352000000000000E10    1.008938687488556E-2   2.436313270939827E-2  
 2.356000000000000E10    1.409555028724432E-2  -2.119212041266919E-2  
 2.360000000000000E10   -2.609036496736051E-2  -8.200515154734253E-5  
 2.364000000000000E10    1.560541058527470E-2   2.222597965105057E-2  
 2.368000000000000E10    1.024122700375319E-2  -2.470883751035214E-2  
 2.372000000000000E10   -2.792065849367142E-2   4.528830403710604E-3  
 2.376000000000000E10    1.812157243441105E-2   2.120470468398572E-2  
 2.380000000000000E10    8.393131925067902E-3  -2.553211383044243E-2  
 2.384000000000000E10   -2.529522503870964E-2   7.346530020242931E-3  
 2.388000000000000E10    1.906551284462452E-2   1.735918688752652E-2  
 2.392000000000000E10    3.251504515584112E-3  -2.625137129615784E-2  
 2.396000000000000E10   -2.428361684642316E-2   1.119072916171313E-2  
 2.400000000000000E10    2.139035010294915E-2   1.794253035742283E-2  
 2.404000000000000E10    1.335479581321180E-3  -2.686303866684437E-2  
 2.408000000000000E10   -2.353693735999108E-2   1.365896888973237E-2  
 2.412000000000000E10    2.285520420629025E-2   1.140155921358824E-2  
 2.416000000000000E10   -2.622460364720226E-3  -2.464006507632733E-2  
 2.420000000000000E10   -1.828473894446373E-2   1.702077837035656E-2  
 2.424000000000000E10    2.370911477922440E-2   9.152207582623960E-3  
 2.428000000000000E10   -8.333083205273154E-3  -2.747377610359193E-2  
 2.432000000000000E10   -1.781211513033867E-2   1.961337745629311E-2  
 2.436000000000000E10    2.564590926922322E-2   6.148249605306387E-3  
 2.440000000000000E10   -8.219854310390951E-3  -2.345777034739972E-2  
 2.444000000000000E10   -1.521638939646483E-2   1.714904187534809E-2  
 2.448000000000000E10    2.302545025497437E-2   4.361323925983906E-4  
 2.452000000000000E10   -1.127538688836813E-2  -1.983243240175725E-2  
 2.456000000000000E10   -1.087400161090851E-2   2.103783641589642E-2  
 2.460000000000000E10    2.234787154160977E-2  -5.984339161509277E-4  
 2.464000000000000E10   -1.187440005004168E-2  -2.034390859180927E-2  
 2.468000000000000E10   -9.820200872800351E-3   1.956487184668541E-2  
 2.472000000000000E10    2.221344467881203E-2  -1.123398287401200E-3  
 2.476000000000000E10   -1.344616873498917E-2  -1.542335700191022E-2  
 2.480000000000000E10   -7.415667438255550E-3   1.825328615260125E-2  
 2.484000000000000E10    2.068794790756226E-2  -7.136460905036927E-3  
 2.488000000000000E10   -1.517727485079289E-2  -1.580486627666474E-2  
 2.492000000000000E10   -6.163474278451206E-3   2.282953126440526E-2  
 2.496000000000000E10    2.122273321522237E-2  -6.379940999144317E-3  
 2.500000000000000E10   -1.423327229035855E-2  -1.551479393563748E-2  
 2.504000000000000E10   -3.958076295310260E-3   1.887475053936958E-2  
 2.508000000000000E10    1.813538711323738E-2  -6.569214788022044E-3  
 2.512000000000000E10   -1.732288031669617E-2  -1.246560096277714E-2  
 2.516000000000000E10   -1.003604662152529E-3   2.057324237111569E-2  
 2.520000000000000E10    1.905780487892152E-2  -1.047016463376284E-2  
 2.524000000000000E10   -1.788859333920002E-2  -1.222763934848786E-2  
 2.528000000000000E10   -6.735692577399316E-4   2.029362982503891E-2  
 2.532000000000000E10    1.816643805826664E-2  -1.056070846508265E-2  
 2.536000000000000E10   -1.701574562939167E-2  -9.036510419902803E-3  
 2.540000000000000E10    1.942286662968398E-3   2.035187450748444E-2  
 2.544000000000000E10    1.696155658030034E-2  -1.299106629023314E-2  
 2.548000000000000E10   -2.041867508391381E-2  -8.057016018154622E-3  
 2.552000000000000E10    3.947885123102665E-3   2.222939982479573E-2  
 2.556000000000000E10    1.628410081733704E-2  -1.386220798365117E-2  
 2.560000000000000E10   -1.957488213751316E-2  -6.920945402444602E-3  
 2.564000000000000E10    5.378016006386282E-3   1.888499178404331E-2  
 2.568000000000000E10    1.401127335779191E-2  -1.534050896334649E-2  
 2.572000000000000E10   -2.015232238337994E-2  -2.858475109444560E-3  
 2.576000000000000E10    7.688529099333288E-3   2.021329365929128E-2  
 2.580000000000000E10    1.475283109755278E-2  -1.828595128987312E-2  
 2.584000000000000E10   -2.250973427051068E-2  -4.012099468508960E-3  
 2.588000000000000E10    8.558658205316068E-3   2.104211745443822E-2  
 2.592000000000000E10    1.253927787477971E-2  -1.807611964064122E-2  
 2.596000000000000E10   -2.232858888607025E-2  -7.668835731955432E-4  
 2.600000000000000E10    1.382123939695835E-2   1.947985279093266E-2  
 2.604000000000000E10    9.150125832726957E-3  -2.181544141579628E-2  
 2.608000000000000E10   -2.345820557891370E-2   4.473359681733848E-3  
 2.612000000000000E10    1.500263125362397E-2   1.987363730933190E-2  
 2.616000000000000E10    9.534107821712497E-3  -2.307178199999810E-2  
 2.620000000000000E10   -2.257471259541035E-2   4.171389866434933E-3  
 2.624000000000000E10    1.660116200192452E-2   1.689616400218487E-2  
 2.628000000000000E10    3.773939351785184E-3  -2.282183882474900E-2  
 2.632000000000000E10   -2.205785026638509E-2   8.958437113475801E-3  
 2.636000000000000E10    2.029354314374447E-2   1.375994878034354E-2  
 2.640000000000000E10    9.751067037728431E-4  -2.418764446723939E-2  
 2.644000000000000E10   -2.176581530727387E-2   1.155886734186650E-2  
 2.648000000000000E10    1.943106715623856E-2   1.098927951882601E-2  
 2.652000000000000E10   -5.680706245301665E-4  -2.147523379394055E-2  
 2.656000000000000E10   -1.778449888748646E-2   1.370042584425450E-2  
 2.660000000000000E10    2.134925755519391E-2   7.890806641423704E-3  
 2.664000000000000E10   -4.588704541032315E-3  -2.255633306118489E-2  
 2.668000000000000E10   -1.647472465499878E-2   1.503653040764571E-2  
 2.672000000000000E10    2.204472521207333E-2   6.866673097670081E-3  
 2.676000000000000E10   -4.254517036633493E-3  -2.094636175282956E-2  
 2.680000000000000E10   -1.412732933163166E-2   1.533062541427613E-2  
 2.684000000000000E10    1.997306722716332E-2   3.510157704259158E-3  
 2.688000000000000E10   -8.491648418743610E-3  -1.877307582839013E-2  
 2.692000000000000E10   -1.191957697829724E-2   1.840926468351841E-2  
 2.696000000000000E10    2.187762081904412E-2  -3.129286559450626E-4  
 2.700000000000000E10   -1.148765760735512E-2  -1.830127215737820E-2  
