#  HZ   S   RI   R     50.00 
! Rohde & Schwarz ZVA40 4Ports - Version 3.90 - 1145.1110k42 SN: 100403
! Date: 2023-09-26 10:53:50
! Measurement: S12 
! 
 2.300000000000000E10   -1.886108469505311E-2  -8.515964189207555E-3  
 2.304000000000000E10    2.883124205756189E-3   2.178806925983429E-2  
 2.308000000000000E10    1.724927778637410E-2  -1.347578191896677E-2  
 2.312000000000000E10   -2.020808765001297E-2  -8.373135679495335E-3  
 2.316000000000000E10    4.478820416086913E-3   2.140305853126049E-2  
 2.320000000000000E10    1.533477917392254E-2  -1.449955324544907E-2  
 2.324000000000000E10   -2.088379775958062E-2  -5.012198144543172E-3  
 2.328000000000000E10    8.059113678026203E-3   2.096915286469461E-2  
 2.332000000000000E10    1.454545778939724E-2  -1.856260126810074E-2  
 2.336000000000000E10   -2.396308535044194E-2  -1.665729940795899E-3  
 2.340000000000000E10    9.436221260726452E-3   2.183740425462724E-2  
 2.344000000000000E10    1.328621726912261E-2  -2.040148260295392E-2  
 2.348000000000000E10   -2.279138678760529E-2  -5.842101687252522E-4  
 2.352000000000000E10    1.309295017738343E-2   1.932090544788838E-2  
 2.356000000000000E10    8.956892835974695E-3  -2.165728958263398E-2  
 2.360000000000000E10   -2.443460617382527E-2   4.050177083909512E-3  
 2.364000000000000E10    1.756067109076977E-2   1.941190187275410E-2  
 2.368000000000000E10    7.819281555271149E-3  -2.446711359596253E-2  
 2.372000000000000E10   -2.449254796404839E-2   6.579841372334958E-3  
 2.376000000000000E10    1.764072309880257E-2   1.717254234914780E-2  
 2.380000000000000E10    4.751336778342724E-3  -2.349101524300576E-2  
 2.384000000000000E10   -2.140256067097187E-2   9.825877833664417E-3  
 2.388000000000000E10    2.112023094544411E-2   1.327977971901894E-2  
 2.392000000000000E10   -1.180808801680804E-3  -2.373131666359902E-2  
 2.396000000000000E10   -2.152641801013947E-2   1.363785289469958E-2  
 2.400000000000000E10    2.105277622721196E-2   1.362759917885066E-2  
 2.404000000000000E10   -2.057923553955556E-3  -2.593269092984200E-2  
 2.408000000000000E10   -1.814427822544575E-2   1.511294279570580E-2  
 2.412000000000000E10    2.288660558967591E-2   7.467593590229752E-3  
 2.416000000000000E10   -6.413244406181577E-3  -2.317000987823010E-2  
 2.420000000000000E10   -1.586915586903095E-2   1.710784500730038E-2  
 2.424000000000000E10    2.442209511089326E-2   4.639325321406127E-3  
 2.428000000000000E10   -9.244354121291640E-3  -2.117002280120850E-2  
 2.432000000000000E10   -1.572814886949063E-2   1.848340221590996E-2  
 2.436000000000000E10    2.201441090209485E-2   1.275346818000078E-3  
 2.440000000000000E10   -1.075431803104878E-2  -1.828983027820588E-2  
 2.444000000000000E10   -8.433880667537452E-3   2.051926493957043E-2  
 2.448000000000000E10    2.098525003230572E-2  -2.994425667300821E-3  
 2.452000000000000E10   -1.499034751296044E-2  -1.859685102906227E-2  
 2.456000000000000E10   -8.462773762369157E-3   1.991044483900071E-2  
 2.460000000000000E10    2.210770826838017E-2  -3.639779553937913E-3  
 2.464000000000000E10   -1.363818886827231E-2  -1.574057238709927E-2  
 2.468000000000000E10   -7.581199816960099E-3   1.954168197555543E-2  
 2.472000000000000E10    1.904890155303479E-2  -6.234224244475366E-3  
 2.476000000000000E10   -1.442005646113158E-2  -1.402125552189351E-2  
 2.480000000000000E10   -3.758974625554681E-3   2.047228698232174E-2  
 2.484000000000000E10    1.931219714539051E-2  -6.847395795595648E-3  
 2.488000000000000E10   -1.663914723970891E-2  -1.346824298833609E-2  
 2.492000000000000E10   -2.213616082963348E-3   2.026759323644638E-2  
 2.496000000000000E10    1.737730859882832E-2  -6.801498289072516E-3  
 2.500000000000000E10   -1.549453555337191E-2  -9.364764343702795E-3  
 2.504000000000000E10    4.974354822270573E-4   1.731188504829407E-2  
 2.508000000000000E10    1.571898863435984E-2  -1.072461821941138E-2  
 2.512000000000000E10   -1.679478393577338E-2  -7.619146622467042E-3  
 2.516000000000000E10    1.204161689324677E-3   2.037816052818299E-2  
 2.520000000000000E10    1.637529338610173E-2  -1.116811978158951E-2  
 2.524000000000000E10   -1.693923488950730E-2  -1.051746360164881E-2  
 2.528000000000000E10    2.445993341201544E-3   1.865788954086304E-2  
 2.532000000000000E10    1.372788923760653E-2  -1.149746172130108E-2  
 2.536000000000000E10   -1.672247400457860E-2  -7.173953271400932E-3  
 2.540000000000000E10    5.202742616027594E-3   1.877405081474781E-2  
 2.544000000000000E10    1.481467260535956E-2  -1.504164550355673E-2  
 2.548000000000000E10   -2.085924845025540E-2  -4.368193353879452E-3  
 2.552000000000000E10    6.727092170548442E-3   1.871006988408566E-2  
 2.556000000000000E10    1.396037802702189E-2  -1.555411189559698E-2  
 2.560000000000000E10   -1.972197490532399E-2  -2.832880288657547E-3  
 2.564000000000000E10    7.604395728546382E-3   1.761323200933934E-2  
 2.568000000000000E10    9.937764760780340E-3  -1.815969343218804E-2  
 2.572000000000000E10   -2.071224761974812E-2   7.571968664228919E-4  
 2.576000000000000E10    1.137333746010065E-2   1.903403752923012E-2  
 2.580000000000000E10    1.138427341562510E-2  -1.814458909904957E-2  
 2.584000000000000E10   -2.215825956237317E-2  -7.153727926984431E-4  
 2.588000000000000E10    1.170939189124108E-2   1.753283343613148E-2  
 2.592000000000000E10    8.366636893749238E-3  -1.966533213186265E-2  
 2.596000000000000E10   -2.126794036257267E-2   5.533916267007590E-3  
 2.600000000000000E10    1.539278980290890E-2   1.603993543881178E-2  
 2.604000000000000E10    5.411776274472476E-3  -2.225668838131428E-2  
 2.608000000000000E10   -2.151639288640022E-2   5.977059840857984E-3  
 2.612000000000000E10    1.644942467027903E-2   1.453191305065156E-2  
 2.616000000000000E10    2.951431829124690E-3  -2.150754270231724E-2  
 2.620000000000000E10   -1.951793167471886E-2   8.362622832059862E-3  
 2.624000000000000E10    1.773729897809029E-2   9.957280416548253E-3  
 2.628000000000000E10   -5.698297953084114E-4  -2.246259454190731E-2  
 2.632000000000000E10   -1.907602734339238E-2   1.350449206328392E-2  
 2.636000000000000E10    2.082298189997673E-2   1.017172612392903E-2  
 2.640000000000000E10   -2.763917554005981E-3  -2.387531934940815E-2  
 2.644000000000000E10   -1.730610252332688E-2   1.353812100505829E-2  
 2.648000000000000E10    1.974445364964009E-2   6.730866249233487E-3  
 2.652000000000000E10   -4.748958677709103E-3  -1.982850133705139E-2  
 2.656000000000000E10   -1.407403946745396E-2   1.531262676876784E-2  
 2.660000000000000E10    2.147269013524056E-2   3.427331847637893E-3  
 2.664000000000000E10   -8.353416603475810E-3  -2.017858916342259E-2  
 2.668000000000000E10   -1.343601460820437E-2   1.707074529385567E-2  
 2.672000000000000E10    2.187313520371914E-2   2.348390202537179E-3  
 2.676000000000000E10   -8.912122988998891E-3  -1.858794881212712E-2  
 2.680000000000000E10   -1.057651200485230E-2   1.630049257338047E-2  
 2.684000000000000E10    2.053937171924115E-2  -4.314364521056413E-4  
 2.688000000000000E10   -1.204084672749043E-2  -1.748776569390297E-2  
 2.692000000000000E10   -8.568782903313640E-3   1.899639119219780E-2  
 2.696000000000000E10    2.233673554468155E-2  -2.779871799305082E-3  
 2.700000000000000E10   -1.260925241750479E-2  -1.696439285457135E-2  
