#  HZ   S   RI   R     50.00 
! Rohde & Schwarz ZVA40 4Ports - Version 3.90 - 1145.1110k42 SN: 100403
! Date: 2023-09-26 10:52:42
! Measurement: S12 
! 
 2.300000000000000E10   -1.653371501171589E-2  -9.689712949730458E-4  
 2.304000000000000E10    9.004983845531941E-3   1.400272222942114E-2  
 2.308000000000000E10    7.896408916532996E-3  -1.509120760047436E-2  
 2.312000000000000E10   -1.760199359214306E-2   2.262418917141855E-3  
 2.316000000000000E10    1.157081653302908E-2   1.432047526443005E-2  
 2.320000000000000E10    7.163081652939321E-3  -1.703224649274349E-2  
 2.324000000000000E10   -1.737128762865067E-2   3.186975402370096E-3  
 2.328000000000000E10    1.190662521851063E-2   1.313512676596642E-2  
 2.332000000000000E10    4.553645779192449E-3  -1.702931961953641E-2  
 2.336000000000000E10   -1.713530496418476E-2   6.909939438909295E-3  
 2.340000000000000E10    1.609201361155510E-2   1.154299655288458E-2  
 2.344000000000000E10    1.184849294289947E-3  -2.049565087854862E-2  
 2.348000000000000E10   -1.808222200381756E-2   8.388612257301809E-3  
 2.352000000000000E10    1.707220444798470E-2   1.085173746353388E-2  
 2.356000000000000E10    5.227389141209425E-4  -1.991829479312897E-2  
 2.360000000000000E10   -1.647013832378388E-2   1.060485470044613E-2  
 2.364000000000000E10    1.818848096990586E-2   7.132268822222949E-3  
 2.368000000000000E10   -4.139924274325371E-3  -1.949835136818886E-2  
 2.372000000000000E10   -1.542191851937771E-2   1.422406015586853E-2  
 2.376000000000000E10    2.086236082041264E-2   5.792166146636011E-3  
 2.380000000000000E10   -6.250806937873365E-3  -1.991400728774071E-2  
 2.384000000000000E10   -1.341638510507346E-2   1.561356081753969E-2  
 2.388000000000000E10    1.932674247670174E-2   2.452296508684755E-3  
 2.392000000000000E10   -8.259515501260759E-3  -1.651494714617729E-2  
 2.396000000000000E10   -1.008496112215519E-2   1.753840926682949E-2  
 2.400000000000000E10    2.095704201686383E-2   7.808683113232258E-4  
 2.404000000000000E10   -1.302417982649803E-2  -1.681628654623032E-2  
 2.408000000000000E10   -8.943274405121805E-3   2.053295357906819E-2  
 2.412000000000000E10    2.162001398408413E-2  -1.689263114415110E-3  
 2.416000000000000E10   -1.337932506614924E-2  -1.459961385697127E-2  
 2.420000000000000E10   -6.897898791015151E-3   1.879767882168294E-2  
 2.424000000000000E10    1.871259931182862E-2  -5.409295494616034E-3  
 2.428000000000000E10   -1.505475005108118E-2  -1.239579037040472E-2  
 2.432000000000000E10   -1.440710251364858E-3   2.057978075814248E-2  
 2.436000000000000E10    1.844086414885522E-2  -9.142956817030909E-3  
 2.440000000000000E10   -1.771927163887024E-2  -1.143664267224074E-2  
 2.444000000000000E10   -8.097909942716362E-4   1.970279773533345E-2  
 2.448000000000000E10    1.580841510796547E-2  -8.603829870641233E-3  
 2.452000000000000E10   -1.721924285304547E-2  -7.813210331141950E-3  
 2.456000000000000E10    1.711487447366119E-3   1.730632319593430E-2  
 2.460000000000000E10    1.392999188220501E-2  -1.210845367610455E-2  
 2.464000000000000E10   -1.731974725282193E-2  -5.805449017196894E-3  
 2.468000000000000E10    4.185850243240596E-3   2.006718817758561E-2  
 2.472000000000000E10    1.395047140800953E-2  -1.355296643465758E-2  
 2.476000000000000E10   -1.774434146511555E-2  -6.228545606732370E-3  
 2.480000000000000E10    4.975219226002695E-3   1.571097119516135E-2  
 2.484000000000000E10    1.064402032738925E-2  -1.259889073419571E-2  
 2.488000000000000E10   -1.753402604687214E-2  -1.786486630082131E-3  
 2.492000000000000E10    6.764201596379282E-3   1.496249983835221E-2  
 2.496000000000000E10    1.131230319613219E-2  -1.443605953830481E-2  
 2.500000000000000E10   -1.813731161653995E-2  -3.034633529558779E-4  
 2.504000000000000E10    7.173162189215422E-3   1.454520584613085E-2  
 2.508000000000000E10    8.482792314410211E-3  -1.388718369513750E-2  
 2.512000000000000E10   -1.543651731079817E-2  -7.126617498695663E-6  
 2.516000000000000E10    8.464660767495634E-3   1.304117001646758E-2  
 2.520000000000000E10    6.450751971393826E-3  -1.493925737369061E-2  
 2.524000000000000E10   -1.711064607620239E-2   1.832450145795942E-3  
 2.528000000000000E10    1.128338891506195E-2   1.303072913885117E-2  
 2.532000000000000E10    7.177480362951758E-3  -1.667107794976235E-2  
 2.536000000000000E10   -1.765497002470494E-2   9.833500542925906E-4  
 2.540000000000000E10    1.016547515839339E-2   1.361229311037064E-2  
 2.544000000000000E10    5.139518753588201E-3  -1.621378131037951E-2  
 2.548000000000000E10   -1.619158248853684E-2   5.577674695849421E-3  
 2.552000000000000E10    1.298057009476424E-2   1.017743495965004E-2  
 2.556000000000000E10    2.623838080227376E-3  -1.884223118746281E-2  
 2.560000000000000E10   -1.809190710890294E-2   8.032982601404191E-3  
 2.564000000000000E10    1.572733024406434E-2   1.188491055005789E-2  
 2.568000000000000E10    2.093280548349023E-3  -1.848530181992054E-2  
 2.572000000000000E10   -1.638093151199818E-2   6.606411247730256E-3  
 2.576000000000000E10    1.491945967453719E-2   8.780999945282938E-3  
 2.580000000000000E10   -1.596507759772242E-3  -1.830722509551049E-2  
 2.584000000000000E10   -1.562187624800206E-2   1.069288583064079E-2  
 2.588000000000000E10    1.941964774274826E-2   8.063219636440279E-3  
 2.592000000000000E10   -2.771072751313448E-3  -2.054031709384918E-2  
 2.596000000000000E10   -1.585994125199318E-2   1.190404539841414E-2  
 2.600000000000000E10    1.762102427172661E-2   6.306452227324249E-3  
 2.604000000000000E10   -4.337588728874923E-3  -1.958551994347572E-2  
 2.608000000000000E10   -1.159724470698834E-2   1.392908833903074E-2  
 2.612000000000000E10    1.893842518186570E-2   2.459094826102257E-3  
 2.616000000000000E10   -8.605968542754652E-3  -1.795132732486725E-2  
 2.620000000000000E10   -1.193078178220988E-2   1.729709945988656E-2  
 2.624000000000000E10    2.044139084661008E-2  -5.754994451813401E-4  
 2.628000000000000E10   -9.514388731777670E-3  -1.755978802871705E-2  
 2.632000000000000E10   -8.486304313898088E-3   1.653102297067642E-2  
 2.636000000000000E10    1.922970397317410E-2  -2.412064155519009E-3  
 2.640000000000000E10   -1.242872032123804E-2  -1.447921121323109E-2  
 2.644000000000000E10   -5.485481174975634E-3   1.850396199071408E-2  
 2.648000000000000E10    1.980613884198666E-2  -4.047083799183371E-3  
 2.652000000000000E10   -1.394880844199658E-2  -1.481644989031554E-2  
 2.656000000000000E10   -4.587808572143318E-3   1.958721936643124E-2  
 2.660000000000000E10    1.874900945055485E-2  -4.823664566397668E-3  
 2.664000000000000E10   -1.324345499676466E-2  -1.308502101182938E-2  
 2.668000000000000E10   -1.854777974590659E-3   1.836339239430428E-2  
 2.672000000000000E10    1.670215714275837E-2  -7.609908801406624E-3  
 2.676000000000000E10   -1.669874897181988E-2  -1.043817353051901E-2  
 2.680000000000000E10   -1.523892981670797E-3   1.982312702500820E-2  
 2.684000000000000E10    1.863063372397423E-2  -9.267673379838467E-3  
 2.688000000000000E10   -1.687255461525917E-2  -9.951106749415397E-3  
 2.692000000000000E10    8.479719650745404E-5   1.834340392887593E-2  
 2.696000000000000E10    1.378363170158863E-2  -1.133011444962025E-2  
 2.700000000000000E10   -1.709184871697426E-2  -6.283554355859758E-3  
