#  HZ   S   RI   R     50.00 
! Rohde & Schwarz ZVA40 4Ports - Version 3.90 - 1145.1110k42 SN: 100403
! Date: 2023-09-26 10:51:36
! Measurement: S12 
! 
 2.300000000000000E10   -1.390411193677683E-2   2.448249388719869E-3  
 2.304000000000000E10    8.720087731137850E-3   1.001547548875790E-2  
 2.308000000000000E10    4.481009572483254E-3  -1.300288036673709E-2  
 2.312000000000000E10   -1.250442754522191E-2   3.875678896453978E-3  
 2.316000000000000E10    9.817516889563754E-3   7.600966100187017E-3  
 2.320000000000000E10    9.213329727921965E-4  -1.375928425194865E-2  
 2.324000000000000E10   -1.204141358136540E-2   7.130644043426420E-3  
 2.328000000000000E10    1.304124024421349E-2   7.139861703928330E-3  
 2.332000000000000E10   -2.343262022740096E-4  -1.551003064933186E-2  
 2.336000000000000E10   -1.303195622250195E-2   8.176593715437507E-3  
 2.340000000000000E10    1.385398982435837E-2   6.382918230922130E-3  
 2.344000000000000E10   -2.316008997694922E-3  -1.384340272416792E-2  
 2.348000000000000E10   -1.036310231470232E-2   9.589781419154266E-3  
 2.352000000000000E10    1.474704204826527E-2   2.677980510185290E-3  
 2.356000000000000E10   -5.927710784454299E-3  -1.468575703315735E-2  
 2.360000000000000E10   -9.721107915389254E-3   1.336919427883139E-2  
 2.364000000000000E10    1.725034108343659E-2   2.240216027588392E-3  
 2.368000000000000E10   -6.723202278216745E-3  -1.532044147398349E-2  
 2.372000000000000E10   -8.445682628421689E-3   1.323531513443261E-2  
 2.376000000000000E10    1.501307798905487E-2  -1.836687840320956E-4  
 2.380000000000000E10   -8.968113629794884E-3  -1.227364832696676E-2  
 2.384000000000000E10   -5.679752724805452E-3   1.508247046461296E-2  
 2.388000000000000E10    1.565634068205576E-2  -3.918587877257944E-3  
 2.392000000000000E10   -1.096992491880732E-2  -1.231576943168984E-2  
 2.396000000000000E10   -4.535331895961953E-3   1.616694056752625E-2  
 2.400000000000000E10    1.652274925870305E-2  -2.709291336023356E-3  
 2.404000000000000E10   -1.238374975006438E-2  -1.030572100243712E-2  
 2.408000000000000E10   -1.890209226044900E-3   1.523360480941449E-2  
 2.412000000000000E10    1.498429385169850E-2  -7.430969344992639E-3  
 2.416000000000000E10   -1.472556227779103E-2  -8.073653291380026E-3  
 2.420000000000000E10    6.133139687726795E-5   1.793697334221841E-2  
 2.424000000000000E10    1.491981519008027E-2  -9.875599253419401E-3  
 2.428000000000000E10   -1.635394442903328E-2  -7.627984891677619E-3  
 2.432000000000000E10    2.134953650876499E-3   1.679380143539677E-2  
 2.436000000000000E10    1.161891267820149E-2  -9.658294483051732E-3  
 2.440000000000000E10   -1.492782530973292E-2  -3.467526524147392E-3  
 2.444000000000000E10    5.724606793726160E-3   1.347517371676894E-2  
 2.448000000000000E10    8.588681906521562E-3  -1.288285848942328E-2  
 2.452000000000000E10   -1.735387390634385E-2  -6.162249813711066E-5  
 2.456000000000000E10    6.261720444137576E-3   1.425251165298148E-2  
 2.460000000000000E10    8.943941303717139E-3  -1.185667044909401E-2  
 2.464000000000000E10   -1.413442370427447E-2  -7.998741998313637E-4  
 2.468000000000000E10    6.435121659737922E-3   1.255046197279091E-2  
 2.472000000000000E10    5.475269294256020E-3  -1.357302400342350E-2  
 2.476000000000000E10   -1.411698008667908E-2   1.609600255823708E-3  
 2.480000000000000E10    9.175736331838325E-3   1.148289299566861E-2  
 2.484000000000000E10    5.301494027214861E-3  -1.441637799122744E-2  
 2.488000000000000E10   -1.564858834667874E-2   3.089530759987832E-3  
 2.492000000000000E10    9.601260223108390E-3   1.247619142428389E-2  
 2.496000000000000E10    5.139891432035876E-3  -1.344237674342871E-2  
 2.500000000000000E10   -1.223392267289238E-2   3.842212418518497E-3  
 2.504000000000000E10    8.962026820519211E-3   7.978660108908131E-3  
 2.508000000000000E10    1.723862985950280E-3  -1.306909859981518E-2  
 2.512000000000000E10   -1.349674097460223E-2   6.765719901147653E-3  
 2.516000000000000E10    1.092079224127265E-2   7.927874667376234E-3  
 2.520000000000000E10    2.379093916277779E-3  -1.322226493870784E-2  
 2.524000000000000E10   -1.398703666268702E-2   3.869696624690426E-3  
 2.528000000000000E10    1.154182949269314E-2   8.763986639288141E-3  
 2.532000000000000E10    1.702736132068801E-3  -1.376549715666561E-2  
 2.536000000000000E10   -1.276432350198784E-2   6.568295601845171E-3  
 2.540000000000000E10    1.341450230498763E-2   6.939262769035961E-3  
 2.544000000000000E10   -1.598617707176614E-3  -1.584850785574647E-2  
 2.548000000000000E10   -1.276443503794632E-2   9.885982148511319E-3  
 2.552000000000000E10    1.453173679634285E-2   6.580449049358084E-3  
 2.556000000000000E10   -1.615868789628226E-3  -1.685708517704010E-2  
 2.560000000000000E10   -1.179443910376149E-2   8.857874207149031E-3  
 2.564000000000000E10    1.444485488858662E-2   3.803403396229268E-3  
 2.568000000000000E10   -4.231812584217906E-3  -1.573167982123175E-2  
 2.572000000000000E10   -1.059575278103915E-2   1.284652613950901E-2  
 2.576000000000000E10    1.678785638316250E-2   2.505615185682035E-3  
 2.580000000000000E10   -5.681787243289997E-3  -1.579036391118336E-2  
 2.584000000000000E10   -1.131090378079873E-2   1.292656125185643E-2  
 2.588000000000000E10    1.692905645134278E-2   1.473582700340766E-3  
 2.592000000000000E10   -6.982553914339737E-3  -1.450952298480111E-2  
 2.596000000000000E10   -7.364981679233267E-3   1.423651553615275E-2  
 2.600000000000000E10    1.640803534008008E-2  -1.443922546162093E-3  
 2.604000000000000E10   -1.002516896626072E-2  -1.371919128523141E-2  
 2.608000000000000E10   -7.073277028442098E-3   1.623233813415909E-2  
 2.612000000000000E10    1.779975280606900E-2  -2.161231113937504E-3  
 2.616000000000000E10   -1.053733418194075E-2  -1.431644911538039E-2  
 2.620000000000000E10   -5.457881184118177E-3   1.539611501061383E-2  
 2.624000000000000E10    1.478397985511866E-2  -3.809555491348744E-3  
 2.628000000000000E10   -1.269981788425961E-2  -1.041047471092549E-2  
 2.632000000000000E10   -1.006432405425859E-3   1.664564209689885E-2  
 2.636000000000000E10    1.613661339425126E-2  -8.983039305401040E-3  
 2.640000000000000E10   -1.573297323576422E-2  -9.366474970529941E-3  
 2.644000000000000E10   -1.432356264341533E-3   1.784867120449944E-2  
 2.648000000000000E10    1.511077177114735E-2  -8.216983065622524E-3  
 2.652000000000000E10   -1.434531636273203E-2  -9.718265659677126E-3  
 2.656000000000000E10    7.827784823280693E-4   1.721142019222298E-2  
 2.660000000000000E10    1.373859734802790E-2  -1.002567510062743E-2  
 2.664000000000000E10   -1.607499249106198E-2  -5.887370280459454E-3  
 2.668000000000000E10    3.768764877638818E-3   1.769837868693066E-2  
 2.672000000000000E10    1.419354537131358E-2  -1.306922211499138E-2  
 2.676000000000000E10   -1.814832855748806E-2  -5.851106243786289E-3  
 2.680000000000000E10    4.458568433123494E-3   1.693662611818390E-2  
 2.684000000000000E10    1.172042223872796E-2  -1.215492146930438E-2  
 2.688000000000000E10   -1.671309763165570E-2  -2.855131425337649E-3  
 2.692000000000000E10    7.400323284918215E-3   1.484892021554270E-2  
 2.696000000000000E10    8.772924877149585E-3  -1.498118758736859E-2  
 2.700000000000000E10   -1.804557163594819E-2  -5.221886474750996E-4  
