#  HZ   S   RI   R     50.00 
! Rohde & Schwarz ZVA40 4Ports - Version 3.90 - 1145.1110k42 SN: 100403
! Date: 2023-10-04 08:12:35
! Measurement: S12 
! 
 2.200000000000000E10   -1.464557280996814E-4  -1.558909716550261E-4  
 2.202000000000000E10   -2.234014915302396E-3   4.122721147723496E-4  
 2.204000000000000E10   -1.518940553069115E-3   1.419507781974971E-3  
 2.206000000000000E10    1.090208970708773E-4   1.009195693768561E-3  
 2.208000000000000E10   -3.231222581234761E-5  -1.646005781367421E-3  
 2.210000000000000E10   -1.479033380746841E-3  -2.004581736400724E-3  
 2.212000000000000E10   -1.627103076316416E-3  -6.682145758531988E-4  
 2.214000000000000E10    5.822322564199567E-4  -2.017374499700964E-4  
 2.216000000000000E10    1.619457267224789E-3   1.459015620639548E-4  
 2.218000000000000E10    1.062938594259322E-3  -7.162242545746267E-4  
 2.220000000000000E10    1.437234313925728E-4  -4.324937472119927E-4  
 2.222000000000000E10   -7.213155622594059E-4   1.186691340990365E-3  
 2.224000000000000E10   -1.330158207565546E-3   1.861658063717187E-3  
 2.226000000000000E10   -2.650539390742779E-4   1.541507430374622E-3  
 2.228000000000000E10    1.081177924788790E-5   5.158180138096213E-4  
 2.230000000000000E10   -1.253154594451189E-3  -1.413005520589650E-3  
 2.232000000000000E10   -1.503168954513967E-3  -8.567887125536799E-4  
 2.234000000000000E10   -7.427367963828147E-4   2.870380994863808E-4  
 2.236000000000000E10    1.284918165765703E-3   3.072817708016373E-5  
 2.238000000000000E10    1.695003593340516E-3  -1.260621502296999E-4  
 2.240000000000000E10    9.033942478708923E-4  -7.741076406091452E-4  
 2.242000000000000E10   -4.270979479770176E-5   1.771851966623217E-4  
 2.244000000000000E10   -2.814701583702117E-4   1.522880280390382E-3  
 2.246000000000000E10    5.996467079967260E-4   1.375426654703915E-3  
 2.248000000000000E10   -6.983969797147438E-5   4.644011205527932E-4  
 2.250000000000000E10   -3.326733421999961E-4  -7.093002786859870E-4  
 2.252000000000000E10   -1.689021009951830E-3  -5.898477393202484E-4  
 2.254000000000000E10   -1.550693879835308E-3   1.263643353013322E-4  
 2.256000000000000E10   -5.273430724628270E-5   5.867592408321798E-4  
 2.258000000000000E10    7.435100269503892E-4   7.374072447419167E-5  
 2.260000000000000E10    4.341658786870539E-4  -8.364112582057715E-4  
 2.262000000000000E10   -5.772460135631263E-4  -4.356126592028886E-4  
 2.264000000000000E10   -5.583330639638007E-4   8.935137884691358E-4  
 2.266000000000000E10    4.535714979283512E-4   1.541701611131430E-3  
 2.268000000000000E10    6.973398267291486E-4   1.407845411449671E-3  
 2.270000000000000E10    1.764291482686531E-5   8.329703705385327E-4  
 2.272000000000000E10   -2.511375350877643E-4   3.507313667796552E-4  
 2.274000000000000E10   -7.905197562649846E-4   3.799104597419500E-4  
 2.276000000000000E10   -1.005173078738153E-3   7.179676322266460E-4  
 2.278000000000000E10    2.724050136748701E-4   9.799927938729525E-4  
 2.280000000000000E10    7.560117519460619E-4  -2.688027416297700E-5  
 2.282000000000000E10    1.124902395531535E-3  -7.840946200303733E-4  
 2.284000000000000E10   -4.660907143261284E-4  -3.434821337577887E-5  
 2.286000000000000E10    1.532812748337165E-4   7.641419069841504E-4  
 2.288000000000000E10    1.369591569527984E-3   1.000642660073936E-3  
 2.290000000000000E10    1.321080257184804E-3   1.189000468002632E-4  
 2.292000000000000E10    4.269514465704560E-4   5.683216731995344E-4  
 2.294000000000000E10    5.559288547374308E-5   9.153600549325347E-4  
 2.296000000000000E10   -9.891492663882673E-5   9.315371280536056E-4  
 2.298000000000000E10    6.656548794126138E-5   8.549846243113279E-4  
 2.300000000000000E10    4.741282318718731E-4   7.511429430451244E-5  
 2.302000000000000E10   -5.279615288600326E-5  -1.319568138569593E-3  
 2.304000000000000E10   -7.074899040162563E-4  -1.221945625729859E-3  
 2.306000000000000E10   -3.994719590991736E-4   2.673027629498392E-4  
 2.308000000000000E10    1.020455267280340E-3   8.041941327974200E-5  
 2.310000000000000E10    1.281755161471665E-3  -1.092664897441864E-3  
 2.312000000000000E10    4.529978614300489E-4  -1.178774866275489E-3  
 2.314000000000000E10   -2.415032358840108E-4   4.160501703154296E-7  
 2.316000000000000E10   -2.562995359767228E-4   6.489649531431496E-4  
 2.318000000000000E10    4.536918713711202E-4   1.273340778425336E-3  
 2.320000000000000E10    2.873342309612781E-4   4.017916508018971E-4  
 2.322000000000000E10   -4.238449910189956E-4  -4.485772224143148E-4  
 2.324000000000000E10   -1.406872994266450E-3  -8.545602904632688E-4  
 2.326000000000000E10   -2.203427022323012E-3   4.823637427762151E-4  
 2.328000000000000E10   -4.077412886545062E-4   4.614514182321727E-4  
 2.330000000000000E10    1.328901853412390E-3   8.377576159546152E-5  
 2.332000000000000E10    3.354836080688983E-4  -1.908575533889234E-3  
 2.334000000000000E10   -9.337872033938766E-4  -7.831525290384889E-4  
 2.336000000000000E10   -1.332544256001711E-3   1.004874357022345E-3  
 2.338000000000000E10    4.445900849532336E-4   1.830843626521528E-3  
 2.340000000000000E10    1.010156585834920E-3   5.205429988563992E-5  
 2.342000000000000E10   -1.728665374685079E-4  -3.358381800353527E-4  
 2.344000000000000E10   -1.258712145499885E-3  -7.730702054686844E-4  
 2.346000000000000E10   -1.048305770382285E-3   1.480110659031197E-4  
 2.348000000000000E10   -1.316418638452888E-3   1.253983005881310E-3  
 2.350000000000000E10    4.225237644277513E-4   8.422927348874509E-4  
 2.352000000000000E10    5.252873525023460E-4  -6.123742205090821E-4  
 2.354000000000000E10   -6.830053753219545E-4  -1.120356493629515E-3  
 2.356000000000000E10   -1.621222007088363E-3   6.412468501366675E-4  
 2.358000000000000E10    2.307165268575773E-4   1.761803054250777E-3  
 2.360000000000000E10    1.095836050808430E-3   1.107975142076612E-3  
 2.362000000000000E10    7.236009878397454E-6  -3.151232376694679E-4  
 2.364000000000000E10   -9.858300909399986E-4   3.987696836702526E-4  
 2.366000000000000E10   -1.288177096284926E-3   1.292534871026874E-3  
 2.368000000000000E10    1.598888193257153E-4   1.812931033782661E-3  
 2.370000000000000E10    9.111081017181277E-4   3.517449658829719E-4  
 2.372000000000000E10    8.482315461151302E-4  -9.505027555860579E-4  
 2.374000000000000E10   -3.307378210593015E-4  -4.929094575345516E-4  
 2.376000000000000E10   -4.068058333359659E-4   1.039609662257135E-3  
 2.378000000000000E10    9.115447173826397E-4   1.441917731426656E-3  
 2.380000000000000E10    1.520191319286823E-3   5.637553404085338E-4  
 2.382000000000000E10    6.516883149743080E-4  -9.233770542778075E-4  
 2.384000000000000E10   -8.108073379844427E-4  -6.036371923983097E-4  
 2.386000000000000E10   -1.152500626631081E-3   7.025939412415028E-4  
 2.388000000000000E10    9.467763447901234E-5   8.696785662323237E-4  
 2.390000000000000E10    1.258572447113693E-3  -1.900521747302264E-4  
 2.392000000000000E10    6.449701613746584E-4  -1.660931622609496E-3  
 2.394000000000000E10   -6.517511210404337E-4  -1.290215528570116E-3  
 2.396000000000000E10   -9.516573627479374E-4   7.858457975089550E-4  
 2.398000000000000E10    3.909764054697007E-4   1.771014765836299E-3  
 2.400000000000000E10    1.742464140988886E-3   4.095196782145649E-4  
 2.402000000000000E10    6.079510203562677E-4  -1.203342806547880E-3  
 2.404000000000000E10   -2.505610173102468E-4  -7.033197907730937E-4  
 2.406000000000000E10   -1.073205610737205E-3   4.205964796710759E-4  
 2.408000000000000E10   -6.683348910883069E-4   7.207092712633312E-4  
 2.410000000000000E10    4.402658669278026E-4   7.397276349365711E-4  
 2.412000000000000E10    1.298623858019710E-3  -1.091732527129352E-3  
 2.414000000000000E10    7.744492613710463E-4  -1.589891733601689E-3  
 2.416000000000000E10   -7.451594574376941E-4  -8.767276885919273E-4  
 2.418000000000000E10   -3.392560756765306E-4   5.991905927658081E-4  
 2.420000000000000E10    7.283321465365589E-4   1.373685314320028E-3  
 2.422000000000000E10    8.456177311018109E-4   8.295428415294737E-5  
 2.424000000000000E10   -8.286073716590181E-5  -1.288772444240749E-3  
 2.426000000000000E10   -1.292827539145947E-3  -6.580178160220385E-4  
 2.428000000000000E10   -1.251516165211797E-3   5.220325547270477E-4  
 2.430000000000000E10    3.970474426751025E-5   5.638743750751019E-4  
 2.432000000000000E10    6.176886381581426E-4  -4.793217522092164E-4  
 2.434000000000000E10    1.786586508387700E-4  -1.585076795890927E-3  
 2.436000000000000E10   -8.103692671284080E-4  -3.027954371646047E-4  
 2.438000000000000E10   -7.169232121668756E-4   1.070999423973262E-3  
 2.440000000000000E10    4.896482569165528E-4   1.210196991451085E-3  
 2.442000000000000E10    1.210882095620036E-3   1.033361259032972E-4  
 2.444000000000000E10    4.865357768721879E-4  -5.566513282246888E-4  
 2.446000000000000E10   -1.363590126857162E-3  -3.237497876398265E-4  
 2.448000000000000E10   -1.199822290800512E-3   1.112213125452399E-3  
 2.450000000000000E10    4.201793344691396E-4   2.054490614682436E-3  
 2.452000000000000E10    1.159276929683983E-3  -6.075745914131403E-4  
 2.454000000000000E10   -2.042478299699724E-4  -1.697294181212783E-3  
 2.456000000000000E10   -1.786781009286642E-3  -4.706265754066408E-4  
 2.458000000000000E10   -7.404557545669377E-4   9.753176709637046E-4  
 2.460000000000000E10    1.076452434062958E-3   1.638600602746010E-3  
 2.462000000000000E10    1.400206121616066E-3  -4.197656235191971E-4  
 2.464000000000000E10    9.101787582039833E-4  -9.977711597457528E-4  
 2.466000000000000E10   -1.059683156199753E-3  -5.080028204247356E-4  
 2.468000000000000E10   -1.118444604799151E-3   1.001562573947012E-3  
 2.470000000000000E10    7.419159519486129E-4   2.116219606250525E-3  
 2.472000000000000E10    2.079470548778772E-3   4.604484129231423E-4  
 2.474000000000000E10    3.904944460373372E-4  -1.467498717829585E-3  
 2.476000000000000E10   -1.981991576030850E-3  -1.409103046171367E-3  
 2.478000000000000E10   -1.713498495519161E-3   8.872078615240753E-4  
 2.480000000000000E10    1.185900910058990E-4   9.593029972165823E-4  
 2.482000000000000E10    1.847402192652226E-3  -8.561972645111382E-4  
 2.484000000000000E10    5.339372437447310E-4  -2.426699502393603E-3  
 2.486000000000000E10   -1.402805675752461E-3  -1.605739351361990E-3  
 2.488000000000000E10   -8.245612261816859E-4   8.210190571844578E-4  
 2.490000000000000E10    5.066787125542760E-4   1.674853614531457E-3  
 2.492000000000000E10    1.513902796432376E-3   4.910070565529168E-4  
 2.494000000000000E10   -2.483038406353444E-4  -9.956385474652052E-4  
 2.496000000000000E10   -1.660654554143548E-3  -6.763446726836264E-4  
 2.498000000000000E10   -2.285425085574389E-3   9.166480158455670E-4  
 2.500000000000000E10   -7.943667005747557E-4   7.952926680445671E-4  
 2.502000000000000E10    9.042769088409841E-4  -2.641812316142023E-4  
 2.504000000000000E10    4.214808868709952E-4  -1.980732427909970E-3  
 2.506000000000000E10   -7.723604794591665E-4  -1.261813216842711E-3  
 2.508000000000000E10   -1.161722117103636E-3   8.236220455728471E-4  
 2.510000000000000E10    7.848870009183884E-4   1.839425764046609E-3  
 2.512000000000000E10    1.812050119042397E-3   3.879635478369892E-4  
 2.514000000000000E10    4.418575845193118E-4  -5.208189832046628E-4  
 2.516000000000000E10   -1.162778120487928E-3  -5.308917388902046E-5  
 2.518000000000000E10   -1.289967214688659E-3   1.082395785488188E-3  
 2.520000000000000E10   -3.876467817462981E-4   1.429835683666170E-3  
 2.522000000000000E10    1.029920764267445E-3  -8.921614062273875E-5  
 2.524000000000000E10    6.845573079772294E-4  -1.266911393031478E-3  
 2.526000000000000E10   -4.793269035872072E-4  -1.373363891616464E-3  
 2.528000000000000E10   -8.261182229034603E-4   2.829761651810259E-4  
 2.530000000000000E10    2.793501480482519E-4   1.573328743688762E-3  
 2.532000000000000E10    1.605918980203569E-3   4.476825051824562E-5  
 2.534000000000000E10    1.263675396330655E-3  -1.053230836987495E-3  
 2.536000000000000E10   -1.113102771341801E-3  -9.105487843044102E-4  
 2.538000000000000E10   -1.555905328132212E-3   8.657099679112434E-4  
 2.540000000000000E10    2.963128499686718E-4   1.802752143703401E-3  
 2.542000000000000E10    1.609510160051286E-3   7.029588450677693E-4  
 2.544000000000000E10    6.594153237529099E-4  -1.117083011195064E-3  
 2.546000000000000E10   -9.221655200235546E-4  -9.099846938624978E-4  
 2.548000000000000E10   -1.015267916955054E-3   8.850719314068556E-4  
 2.550000000000000E10   -6.992957059992477E-5   1.273333677090704E-3  
 2.552000000000000E10    1.588910585269332E-3   6.489509250968695E-4  
 2.554000000000000E10    1.288998173549771E-3  -1.183059415780008E-3  
 2.556000000000000E10   -7.837941666366532E-5  -1.333333784714341E-3  
 2.558000000000000E10   -5.932550411671400E-4   9.886079933494330E-4  
 2.560000000000000E10    1.011216198094189E-3   1.956905005499721E-3  
 2.562000000000000E10    2.301711356267333E-3   9.086951613426209E-4  
 2.564000000000000E10    1.187193091027439E-3  -5.511211929842830E-4  
 2.566000000000000E10   -2.119967393809930E-4  -2.114323433488607E-4  
 2.568000000000000E10   -6.688662688247860E-4   1.181731931865215E-3  
 2.570000000000000E10   -2.538012340664864E-4   1.641726237721741E-3  
 2.572000000000000E10    1.180778490379453E-3   1.139761152444407E-4  
 2.574000000000000E10    5.681775510311127E-4  -1.214044867083430E-3  
 2.576000000000000E10   -7.311837398447096E-4  -1.561840879730880E-3  
 2.578000000000000E10   -1.175915240310133E-3  -6.802161224186420E-4  
 2.580000000000000E10    6.350324838422239E-4   4.354852135293186E-4  
 2.582000000000000E10    1.653833198361099E-3   1.085251351469196E-4  
 2.584000000000000E10    1.288241008296609E-3  -7.654588553123176E-4  
 2.586000000000000E10   -4.048015980515629E-4  -7.589365704916418E-4  
 2.588000000000000E10   -1.029905048198998E-3   1.050723018124700E-3  
 2.590000000000000E10   -5.352939479053021E-4   1.873884699307382E-3  
 2.592000000000000E10    7.893950678408146E-4   4.015750309918076E-4  
 2.594000000000000E10   -3.275451672379859E-5  -8.046288858167827E-4  
 2.596000000000000E10   -1.774227945134044E-3  -1.528451684862375E-3  
 2.598000000000000E10   -1.659050583839417E-3  -7.222838030429557E-5  
 2.600000000000000E10   -8.312364225275815E-4   1.102113747037947E-3  
 2.602000000000000E10    7.021931232884526E-4   1.651857892284170E-4  
 2.604000000000000E10    3.617614274844527E-4  -1.074748579412699E-3  
 2.606000000000000E10   -7.718330598436296E-4  -1.140780164860189E-3  
 2.608000000000000E10   -1.342121628113091E-3   8.321385830640793E-4  
 2.610000000000000E10   -6.476030685007572E-4   1.613895758055151E-3  
 2.612000000000000E10    9.572793496772647E-4   1.128161791712046E-3  
 2.614000000000000E10    4.059971543028951E-4   3.123142232652754E-4  
 2.616000000000000E10   -1.142149674706161E-3  -2.899486280512065E-4  
 2.618000000000000E10   -2.286482835188508E-3   8.484451682306826E-4  
 2.620000000000000E10   -1.583884470164776E-3   1.843071775510907E-3  
 2.622000000000000E10    5.461820182972588E-5   8.294778526760638E-4  
 2.624000000000000E10    4.927424015477300E-4  -6.927172071300447E-4  
 2.626000000000000E10   -7.967423298396170E-4  -9.790760232135654E-4  
 2.628000000000000E10   -1.101450179703534E-3  -8.613075624452904E-5  
 2.630000000000000E10   -2.503315045032650E-5   1.242918428033590E-3  
 2.632000000000000E10    9.116476867347956E-4   1.022848999127746E-3  
 2.634000000000000E10    1.003117416985333E-3   3.308440500404686E-4  
 2.636000000000000E10    1.444571389583871E-4  -1.526163105154410E-4  
 2.638000000000000E10   -3.481342864688486E-4   4.263224836904556E-4  
 2.640000000000000E10   -3.578576433937997E-4   1.457122387364507E-3  
 2.642000000000000E10    3.110283869318664E-4   1.123770372942090E-3  
 2.644000000000000E10    2.451811160426587E-4  -2.952421200461686E-4  
 2.646000000000000E10   -4.439733747858554E-4  -1.117682084441185E-3  
 2.648000000000000E10   -4.514330648817122E-4  -7.353710825555027E-4  
 2.650000000000000E10   -1.799557321646716E-5  -8.750559936743230E-5  
 2.652000000000000E10    1.468286267481744E-3  -5.216715508140624E-4  
 2.654000000000000E10    1.530909910798073E-3  -9.616152383387089E-4  
 2.656000000000000E10    2.836474159266800E-4  -9.921079035848379E-4  
 2.658000000000000E10   -4.641115956474096E-4  -4.724044265458360E-5  
 2.660000000000000E10   -3.364997392054647E-4   7.675923989154398E-4  
 2.662000000000000E10    7.631832850165665E-4   5.297993193380535E-4  
 2.664000000000000E10    9.671700536273420E-4  -5.713999271392822E-4  
 2.666000000000000E10   -2.708749962039292E-4  -1.239550067111850E-3  
 2.668000000000000E10   -1.406193827278912E-3  -9.397626854479313E-4  
 2.670000000000000E10   -7.469478878192604E-4   4.279231943655759E-4  
 2.672000000000000E10    9.798648534342647E-4   6.520822644233704E-4  
 2.674000000000000E10    1.084560295566917E-3  -6.202232907526195E-4  
 2.676000000000000E10    6.241185474209487E-5  -1.547748688608408E-3  
 2.678000000000000E10   -1.127017079852521E-3  -2.552810765337199E-4  
 2.680000000000000E10   -2.332846488570795E-4   5.967217730358243E-4  
 2.682000000000000E10    3.043880278710276E-4   7.918513729237020E-4  
 2.684000000000000E10    3.501000173855573E-4  -1.798257144400850E-4  
 2.686000000000000E10   -4.430224726093002E-5  -9.355786605738103E-4  
 2.688000000000000E10   -9.171323035843670E-4  -7.547041168436408E-4  
 2.690000000000000E10   -6.610317504964769E-4   5.238344892859459E-4  
 2.692000000000000E10    6.406410830095410E-4   8.013608749024570E-4  
 2.694000000000000E10    1.644102740101516E-3   6.934061821084470E-5  
 2.696000000000000E10    4.856539599131793E-4  -6.771827465854585E-4  
 2.698000000000000E10   -8.561763679608703E-4  -4.927556801703759E-5  
 2.700000000000000E10   -5.964442971162498E-4   1.321522402577102E-3  
 2.702000000000000E10    2.899681276176125E-4   5.433932528831065E-4  
 2.704000000000000E10    4.539030487649143E-4  -1.750048540998250E-4  
 2.706000000000000E10   -4.564793198369443E-4  -3.981656918767840E-4  
 2.708000000000000E10   -5.956507520750165E-4  -4.306822374928743E-4  
 2.710000000000000E10   -2.795198233798146E-4   2.286396484123543E-4  
 2.712000000000000E10    6.214776076376438E-4  -1.275150716537610E-4  
 2.714000000000000E10    5.714063299819827E-4  -9.543797932565212E-5  
 2.716000000000000E10   -3.890532025252469E-5  -3.997379099018872E-4  
 2.718000000000000E10   -2.669095993041992E-4  -1.415680162608624E-4  
 2.720000000000000E10    6.914887489983812E-5   3.212058800272644E-4  
 2.722000000000000E10    6.014240207150579E-4   2.772122970782220E-4  
 2.724000000000000E10    3.925099736079574E-4  -5.621643504127860E-4  
 2.726000000000000E10   -5.634891567751765E-4  -5.457744700834155E-4  
 2.728000000000000E10   -5.239216843619943E-4   4.375929420348257E-4  
 2.730000000000000E10   -1.023064178298228E-4   2.088397013721988E-4  
 2.732000000000000E10   -1.460832281736657E-4  -6.194254965521395E-4  
 2.734000000000000E10   -2.470645704306662E-4  -3.218195925001055E-4  
 2.736000000000000E10   -4.422638448886573E-4  -1.378716551698744E-4  
 2.738000000000000E10   -7.752976380288601E-4  -2.448707818984985E-4  
 2.740000000000000E10   -6.129519897513092E-4   3.612935834098607E-4  
 2.742000000000000E10   -4.287002957426012E-4   2.067530294880271E-4  
 2.744000000000000E10   -1.429490657756105E-4   5.956705717835575E-5  
 2.746000000000000E10   -4.151552857365459E-4  -1.049433412845247E-4  
 2.748000000000000E10   -8.641812601126730E-4  -6.492710781458300E-6  
 2.750000000000000E10   -7.278928387677297E-5   1.511239825049415E-4  
 2.752000000000000E10   -8.718454773770645E-5   1.023007353069261E-4  
 2.754000000000000E10   -5.691033438779414E-4   2.873720404750202E-5  
 2.756000000000000E10   -4.236604945617728E-5   8.790484862402082E-4  
