#  HZ   S   RI   R     50.00 
! Rohde & Schwarz ZVA40 4Ports - Version 3.90 - 1145.1110k42 SN: 100403
! Date: 2023-10-04 08:12:18
! Measurement: S12 
! 
 2.200000000000000E10   -1.056349254213274E-3   3.414484672248364E-4  
 2.202000000000000E10   -1.475153374485672E-3   3.786204388234182E-6  
 2.204000000000000E10    3.485042179818265E-5   1.187350280815736E-4  
 2.206000000000000E10   -5.833667455590330E-5  -5.278201424516738E-4  
 2.208000000000000E10   -1.059400616213679E-3  -2.065885346382856E-3  
 2.210000000000000E10   -1.367614604532719E-3  -3.005338949151337E-4  
 2.212000000000000E10   -1.406234787282301E-5   7.309238426387310E-4  
 2.214000000000000E10    1.760717830620706E-3  -1.402241177856922E-4  
 2.216000000000000E10    6.265023257583380E-4  -7.675234228372574E-4  
 2.218000000000000E10   -1.282696146517992E-3  -4.036874161101878E-4  
 2.220000000000000E10   -1.290681888349354E-3   7.943277014419437E-4  
 2.222000000000000E10   -7.676640525460243E-4   1.698847976513207E-3  
 2.224000000000000E10   -4.731570952571929E-4   6.867808406241238E-4  
 2.226000000000000E10   -3.722658730112016E-4  -1.158787563326769E-4  
 2.228000000000000E10   -7.917858893051744E-4  -9.409555350430310E-4  
 2.230000000000000E10   -1.594623434357345E-3  -1.203567604534328E-3  
 2.232000000000000E10   -1.169780152849853E-3   1.961314264917746E-4  
 2.234000000000000E10    5.416815984062851E-4   1.185543718747795E-3  
 2.236000000000000E10    1.697208965197206E-3   3.354365617269650E-5  
 2.238000000000000E10    1.024276949465275E-3  -6.708244327455759E-4  
 2.240000000000000E10   -5.339207709766924E-4   2.831313759088516E-4  
 2.242000000000000E10   -6.385368760675192E-4   1.366222160868347E-3  
 2.244000000000000E10    2.116935211233795E-4   1.177876256406307E-3  
 2.246000000000000E10   -1.393293205182999E-4   6.463170866481960E-4  
 2.248000000000000E10   -8.508826722390950E-4  -1.278975105378777E-4  
 2.250000000000000E10   -2.007005095947534E-4  -2.679237222764641E-4  
 2.252000000000000E10   -9.967964142560959E-4  -3.461219894234091E-4  
 2.254000000000000E10   -3.414938400965184E-4   1.593942433828488E-4  
 2.256000000000000E10    8.981978753581643E-4   3.930501115974039E-4  
 2.258000000000000E10    8.527580066584051E-4  -3.896912094205618E-4  
 2.260000000000000E10    1.531430898467079E-4  -5.949813639745116E-4  
 2.262000000000000E10   -5.993290105834603E-4   9.113990818150342E-4  
 2.264000000000000E10   -3.088872836087830E-5   1.578183961100876E-3  
 2.266000000000000E10    4.992589238099754E-4   1.259034615941346E-3  
 2.268000000000000E10   -5.093439249321818E-4   2.888412564061582E-4  
 2.270000000000000E10   -9.384768200106919E-4   1.112641548388638E-4  
 2.272000000000000E10   -8.852563914842904E-4   5.530299386009574E-4  
 2.274000000000000E10   -8.390217553824186E-4   6.231509032659233E-4  
 2.276000000000000E10   -8.798068301985040E-5   4.494483000598848E-4  
 2.278000000000000E10    7.585150888189673E-4  -1.545793929835782E-4  
 2.280000000000000E10    4.302792076487094E-4  -1.203304971568286E-3  
 2.282000000000000E10   -3.361624840181321E-5  -6.597414612770081E-4  
 2.284000000000000E10   -1.155257705249824E-4   1.462326385080814E-3  
 2.286000000000000E10    1.168004469946027E-3   1.469494658522308E-3  
 2.288000000000000E10    1.744761713780463E-3   2.416671050013974E-4  
 2.290000000000000E10    1.174834760604426E-4  -6.434546667151153E-4  
 2.292000000000000E10   -1.257720170542598E-3   6.019810680299997E-4  
 2.294000000000000E10   -6.480378215201199E-4   1.532784430310130E-3  
 2.296000000000000E10    4.909519338980317E-4   1.098998240195215E-3  
 2.298000000000000E10    4.301773442421109E-4  -8.399814396398142E-5  
 2.300000000000000E10    5.315977614372969E-4  -1.582025201059878E-3  
 2.302000000000000E10   -3.518077428452671E-4  -1.685185357928276E-3  
 2.304000000000000E10   -7.489165873266757E-4  -1.018751499941573E-4  
 2.306000000000000E10    7.722287555225194E-4   1.338767469860613E-3  
 2.308000000000000E10    2.181363292038441E-3  -3.731743781827390E-4  
 2.310000000000000E10    1.020519412122667E-3  -1.709255971945822E-3  
 2.312000000000000E10   -9.269948350265622E-4  -9.534156997688115E-4  
 2.314000000000000E10   -1.322354422882199E-3   1.014493987895548E-3  
 2.316000000000000E10    4.888444091193378E-4   9.619130869396031E-4  
 2.318000000000000E10    6.888038478791714E-4  -2.031136973528191E-4  
 2.320000000000000E10   -8.166179759427905E-4  -1.077220658771694E-3  
 2.322000000000000E10   -1.496569951996207E-3  -1.000830321572721E-3  
 2.324000000000000E10   -1.374604180455208E-3   4.259861598256975E-4  
 2.326000000000000E10   -6.465108599513769E-4   5.885696155019105E-4  
 2.328000000000000E10    1.046614255756140E-3  -2.486820158082992E-4  
 2.330000000000000E10    4.913551965728402E-4  -6.240648217499256E-4  
 2.332000000000000E10   -1.084068208001554E-3  -6.505276542156935E-4  
 2.334000000000000E10   -7.438682951033115E-4   1.423331443220377E-3  
 2.336000000000000E10    1.709986245259643E-4   1.668985816650093E-3  
 2.338000000000000E10    1.074916799552739E-3  -2.454589703120291E-4  
 2.340000000000000E10   -6.074364064261317E-4  -1.985266106203198E-3  
 2.342000000000000E10   -2.378267701715231E-3  -4.609739116858691E-4  
 2.344000000000000E10   -1.367655582726002E-3   8.291141712106764E-4  
 2.346000000000000E10    5.219024606049061E-4   1.122731133364141E-3  
 2.348000000000000E10    5.125613533891738E-4  -2.436756913084537E-4  
 2.350000000000000E10   -3.363719151820988E-4  -1.510291243903339E-3  
 2.352000000000000E10   -1.361423404887319E-3  -4.267306649126113E-4  
 2.354000000000000E10   -1.492333132773638E-3   1.211643684655428E-3  
 2.356000000000000E10    6.820975977461785E-5   2.082469407469034E-3  
 2.358000000000000E10    1.677727093920112E-3   4.999992088414729E-4  
 2.360000000000000E10    1.712849734758493E-5  -1.296953530982137E-3  
 2.362000000000000E10   -2.041741274297237E-3  -6.273119361139834E-4  
 2.364000000000000E10   -1.731656608171761E-3   1.981304725632072E-3  
 2.366000000000000E10    1.001224518404342E-4   1.854127040132880E-3  
 2.368000000000000E10    1.637012464925647E-3   6.348195020109415E-4  
 2.370000000000000E10    8.801813819445670E-4  -1.488099107518792E-3  
 2.372000000000000E10   -7.759897853247821E-4  -1.019608811475337E-3  
 2.374000000000000E10   -1.263208105228841E-3   9.300636593252420E-4  
 2.376000000000000E10    7.603221456520259E-4   1.818608259782195E-3  
 2.378000000000000E10    1.661773538216949E-3   7.274191011674702E-4  
 2.380000000000000E10    1.014387118630111E-3  -1.377163804136217E-3  
 2.382000000000000E10   -9.375078370794654E-4  -8.634598343633115E-4  
 2.384000000000000E10   -1.175072044134140E-3   5.447740550152957E-4  
 2.386000000000000E10    7.734957762295380E-5   8.553365478292108E-4  
 2.388000000000000E10    1.045693759806454E-3   1.573198824189603E-4  
 2.390000000000000E10    8.260511676780880E-4  -1.584990997798741E-3  
 2.392000000000000E10   -9.422590374015272E-4  -1.549848471768200E-3  
 2.394000000000000E10   -1.343363779596984E-3   8.273530984297395E-4  
 2.396000000000000E10    1.572339097037911E-4   1.331925508566201E-3  
 2.398000000000000E10    1.591031905263662E-3   3.943027113564313E-4  
 2.400000000000000E10    6.165645318105817E-4  -1.278190873563290E-3  
 2.402000000000000E10   -1.100036897696555E-3  -6.657269550487399E-4  
 2.404000000000000E10   -1.055269851349294E-3   1.029521110467613E-3  
 2.406000000000000E10    4.172562912572175E-4   9.266685810871422E-4  
 2.408000000000000E10    1.281843404285610E-3  -4.677472752518952E-4  
 2.410000000000000E10    2.437541697872803E-4  -1.709208590909839E-3  
 2.412000000000000E10   -7.271243375726044E-4  -7.405765936709940E-4  
 2.414000000000000E10    7.174341590143740E-5   4.955331096425653E-4  
 2.416000000000000E10    6.609272677451372E-4   8.848131401464343E-4  
 2.418000000000000E10    1.272673602215946E-3   3.392573271412402E-4  
 2.420000000000000E10    4.880737105850130E-4  -8.209158550016582E-4  
 2.422000000000000E10   -1.337469555437565E-3  -9.478019783273339E-4  
 2.424000000000000E10   -1.620235620066524E-3   8.326894021593034E-4  
 2.426000000000000E10    7.263938459800556E-5   9.062282624654472E-4  
 2.428000000000000E10    1.204754924401641E-3  -1.176853475044482E-4  
 2.430000000000000E10    9.173500002361834E-4  -2.066022017970681E-3  
 2.432000000000000E10   -9.944492485374212E-4  -1.906531048007309E-3  
 2.434000000000000E10   -1.028678263537586E-3   5.038612289354205E-4  
 2.436000000000000E10    6.208624690771103E-4   1.423945766873658E-3  
 2.438000000000000E10    1.753039658069611E-3   3.970191464759409E-4  
 2.440000000000000E10    6.605139351449907E-4  -1.018831972032785E-3  
 2.442000000000000E10   -6.639587809331715E-4  -8.946574525907636E-4  
 2.444000000000000E10   -1.612318679690361E-3   5.064539145678282E-4  
 2.446000000000000E10   -9.851829381659627E-4   1.260319957509637E-3  
 2.448000000000000E10    4.929302376694977E-4   4.552144091576338E-4  
 2.450000000000000E10    7.072341977618635E-4  -6.274203769862652E-4  
 2.452000000000000E10   -5.481141852214932E-4  -2.037846017628908E-3  
 2.454000000000000E10   -1.536383759230375E-3  -5.745966918766499E-4  
 2.456000000000000E10   -9.918578434735537E-4   1.424273359589279E-3  
 2.458000000000000E10    1.063760486431420E-3   1.404018374159932E-3  
 2.460000000000000E10    1.440372434444726E-3  -4.824587376788259E-4  
 2.462000000000000E10   -4.505983670242131E-4  -8.920369436964393E-4  
 2.464000000000000E10   -1.423700712621212E-3   6.330922478809953E-4  
 2.466000000000000E10   -6.960224709473550E-4   1.204558182507753E-3  
 2.468000000000000E10    4.037429462186992E-4   1.252013491466641E-3  
 2.470000000000000E10    4.738346906378865E-4  -2.863332629203796E-4  
 2.472000000000000E10   -6.007766387483571E-6  -5.856513744220138E-4  
 2.474000000000000E10   -1.173586002551019E-3  -1.855729642556980E-4  
 2.476000000000000E10   -8.581663132645190E-4   5.841323290951550E-4  
 2.478000000000000E10    1.014261273667216E-3   9.221442742273212E-4  
 2.480000000000000E10    1.245882129296660E-3  -1.025398145429790E-3  
 2.482000000000000E10    3.845302562694997E-4  -1.832241890951991E-3  
 2.484000000000000E10   -9.224517270922661E-4  -6.207924452610314E-4  
 2.486000000000000E10   -2.862669061869383E-4   1.352643012069166E-3  
 2.488000000000000E10    1.212219591252506E-3   4.112381720915437E-4  
 2.490000000000000E10    1.313828979618847E-3  -6.672535673715174E-4  
 2.492000000000000E10   -1.023572287522256E-3  -1.451842254027724E-3  
 2.494000000000000E10   -1.760421553626657E-3  -1.982271060114726E-4  
 2.496000000000000E10   -1.025860663503408E-3   6.549402605742216E-4  
 2.498000000000000E10    5.492135533131659E-4   2.779230126179755E-4  
 2.500000000000000E10    6.990287220105529E-4  -1.720578642562032E-3  
 2.502000000000000E10   -8.854825136950240E-5  -1.896008732728660E-3  
 2.504000000000000E10   -1.117519568651915E-3  -1.030410174280405E-3  
 2.506000000000000E10   -4.559465742204338E-4   8.391527226194739E-4  
 2.508000000000000E10    7.976822089403868E-4   1.221515005454421E-3  
 2.510000000000000E10    1.348194084130228E-3   1.729920331854373E-4  
 2.512000000000000E10   -4.236220775055699E-5  -1.496372045949101E-3  
 2.514000000000000E10   -1.865915022790432E-3  -2.755443565547466E-4  
 2.516000000000000E10   -1.517211669124663E-3   1.197647303342819E-3  
 2.518000000000000E10    2.328918635612354E-4   5.827894783578813E-4  
 2.520000000000000E10    9.448999771848321E-4  -8.118975092656910E-4  
 2.522000000000000E10    3.368256730027497E-4  -1.820178469642997E-3  
 2.524000000000000E10   -6.297221989370883E-4  -1.104379189200699E-3  
 2.526000000000000E10   -3.484849730739370E-5   8.621927117928863E-4  
 2.528000000000000E10    8.216413552872837E-4   1.317287096753717E-3  
 2.530000000000000E10    1.371126854792237E-3   4.436581511981785E-4  
 2.532000000000000E10    4.603878769557923E-4  -5.444694543257356E-4  
 2.534000000000000E10   -1.176924910396338E-3  -1.267616462428123E-4  
 2.536000000000000E10   -1.684938091784716E-3   8.201157907024026E-4  
 2.538000000000000E10    2.516576205380261E-4   1.267470186576247E-3  
 2.540000000000000E10    9.180650813505054E-4  -4.159568052273244E-4  
 2.542000000000000E10    1.692942350928206E-5  -1.294781337492168E-3  
 2.544000000000000E10   -8.035139762796462E-4  -1.145957736298442E-3  
 2.546000000000000E10   -4.046151298098266E-4   8.080081897787750E-4  
 2.548000000000000E10    1.401399495080113E-3   1.099270419217646E-3  
 2.550000000000000E10    1.780759310349822E-3   7.106449629645795E-5  
 2.552000000000000E10    7.401359616778791E-4  -4.386084619909525E-4  
 2.554000000000000E10   -8.768077241256833E-4   4.660695849452168E-4  
 2.556000000000000E10    7.128674042178318E-5   1.484705950133503E-3  
 2.558000000000000E10    1.751290983520448E-4   1.710361801087856E-3  
 2.560000000000000E10    1.491206814534962E-3   4.744969482999295E-4  
 2.562000000000000E10   -1.934051833814010E-4  -9.222554508596659E-4  
 2.564000000000000E10   -5.999896093271673E-4  -4.423015052452683E-4  
 2.566000000000000E10   -8.144971798174083E-4   1.422330504283309E-3  
 2.568000000000000E10    9.234477183781564E-4   1.486831693910062E-3  
 2.570000000000000E10    1.773484866134822E-3  -3.189035924151540E-4  
 2.572000000000000E10    4.066340334247798E-4  -1.098617794923484E-3  
 2.574000000000000E10   -8.490811451338232E-4  -6.922862958163023E-4  
 2.576000000000000E10   -4.096537886653096E-4   1.223249826580286E-3  
 2.578000000000000E10    1.320638926699758E-3   8.912599296309054E-4  
 2.580000000000000E10    1.903395168483257E-3  -2.522256108932197E-4  
 2.582000000000000E10    8.495553629472852E-4  -7.178290979936719E-4  
 2.584000000000000E10   -1.262888312339783E-3   1.299742871196941E-4  
 2.586000000000000E10   -5.788785638287664E-4   9.399579721502960E-4  
 2.588000000000000E10   -7.596676005050540E-5   1.655353000387549E-3  
 2.590000000000000E10    7.006214000284672E-4  -4.782688629347831E-4  
 2.592000000000000E10   -2.351181174162775E-4  -1.257093506865203E-3  
 2.594000000000000E10   -1.635656459257007E-3  -1.175230718217790E-3  
 2.596000000000000E10   -1.470453687943518E-3  -4.565312701743096E-5  
 2.598000000000000E10    3.995566221419722E-4   8.911709883250296E-4  
 2.600000000000000E10    8.430080488324165E-4  -6.905564223416150E-4  
 2.602000000000000E10    3.914525223081000E-6  -1.260560471564531E-3  
 2.604000000000000E10   -1.416743500158191E-3  -1.149033894762397E-3  
 2.606000000000000E10   -1.181794330477715E-3   1.568564795888960E-3  
 2.608000000000000E10   -1.576483773533255E-4   1.079864217899740E-3  
 2.610000000000000E10    7.108246791176498E-4  -3.152788558509201E-4  
 2.612000000000000E10   -1.052205218002200E-3  -1.078509842045605E-3  
 2.614000000000000E10   -2.445467514917254E-3   8.176381379598752E-5  
 2.616000000000000E10   -1.174913486465812E-3   7.996952626854181E-4  
 2.618000000000000E10   -2.876743674278259E-4   7.658395916223526E-4  
 2.620000000000000E10   -3.806671520578675E-5  -6.450040382333100E-4  
 2.622000000000000E10   -7.486329996027052E-4  -8.074290235526860E-4  
 2.624000000000000E10   -1.380097935907543E-3   1.476206380175427E-4  
 2.626000000000000E10   -7.522450760006905E-4   6.008897908031941E-4  
 2.628000000000000E10    5.132158403284848E-4   1.398798427544534E-3  
 2.630000000000000E10    7.402683258987963E-4  -5.131038051331416E-5  
 2.632000000000000E10   -1.730963413137943E-4  -5.800541257485747E-4  
 2.634000000000000E10   -1.131943194195628E-3   7.339961302932352E-5  
 2.636000000000000E10   -3.758971870411187E-4   1.327591249719262E-3  
 2.638000000000000E10    8.391788578592241E-4   1.017099013552070E-3  
 2.640000000000000E10    5.380705697461963E-4  -2.703534119063988E-5  
 2.642000000000000E10   -2.064031141344458E-4  -4.613712953869253E-4  
 2.644000000000000E10   -5.652024410665035E-4  -3.253045724704862E-4  
 2.646000000000000E10   -2.405898994766176E-4  -8.475341746816412E-5  
 2.648000000000000E10    2.359201462240890E-4  -7.964202814036980E-5  
 2.650000000000000E10    1.012868713587523E-3  -7.856159936636686E-4  
 2.652000000000000E10    1.027764286845923E-3  -9.251475566998124E-4  
 2.654000000000000E10    4.363398184068501E-4  -6.126377847976983E-4  
 2.656000000000000E10    5.677886292687617E-5  -2.631914103403688E-4  
 2.658000000000000E10    3.100404283031821E-4   6.471539381891489E-4  
 2.660000000000000E10    8.972479263320565E-4  -2.613558026496321E-4  
 2.662000000000000E10    4.783053882420063E-4  -2.845582494046539E-4  
 2.664000000000000E10   -2.873254125006497E-4  -7.051356369629502E-4  
 2.666000000000000E10   -3.082007169723511E-4  -3.678199427668005E-4  
 2.668000000000000E10    5.378795322030783E-5  -3.083819174207747E-4  
 2.670000000000000E10    3.236572956666350E-4  -5.031470209360123E-4  
 2.672000000000000E10    6.290490273386240E-4  -5.596810369752348E-4  
 2.674000000000000E10   -1.105151604861021E-4  -1.083972165361047E-3  
 2.676000000000000E10    5.670126993209124E-4  -7.519123028032482E-5  
 2.678000000000000E10    2.534227678552270E-4  -1.920632639667019E-4  
 2.680000000000000E10    6.374061922542751E-4  -4.982077371096239E-5  
 2.682000000000000E10    5.906771984882653E-4  -6.106265354901552E-4  
 2.684000000000000E10   -5.156873958185315E-4  -2.716426970437169E-4  
 2.686000000000000E10   -2.142619196092710E-4  -3.153978468617424E-5  
 2.688000000000000E10    5.563485319726169E-5   8.717292803339660E-5  
 2.690000000000000E10    4.594615602400154E-4   2.499433176126331E-4  
 2.692000000000000E10    1.286878832615912E-4  -4.133785259909928E-4  
 2.694000000000000E10    1.018192415358499E-4   2.845785929821432E-4  
 2.696000000000000E10   -4.345339257270098E-4   2.060855913441628E-4  
 2.698000000000000E10   -5.131262005306780E-4   5.536799435503781E-4  
 2.700000000000000E10    4.327370261307806E-4  -1.575088972458616E-4  
 2.702000000000000E10    2.042995183728635E-4  -1.135721759055741E-4  
 2.704000000000000E10   -1.772315299604088E-4  -3.108915116172284E-4  
 2.706000000000000E10   -3.104614734183997E-4   1.076022817869671E-4  
 2.708000000000000E10    8.576885738875717E-5   6.106282235123217E-4  
 2.710000000000000E10    5.698432796634734E-4  -2.309072733623907E-4  
 2.712000000000000E10   -3.765317160286941E-7   3.292400288046338E-5  
 2.714000000000000E10   -2.375355834374204E-4  -2.181031886721030E-4  
 2.716000000000000E10   -3.267849679104984E-4  -1.683180744294077E-4  
 2.718000000000000E10    3.022121381945908E-5   2.158429124392569E-4  
 2.720000000000000E10   -7.148372242227197E-5  -1.460357307223603E-4  
 2.722000000000000E10    4.705174360424280E-4  -1.335572014795616E-4  
 2.724000000000000E10    8.506859740009531E-5  -2.214906544395490E-6  
 2.726000000000000E10   -4.491963045438752E-5  -3.077775472775102E-4  
 2.728000000000000E10   -1.053740415954962E-4   8.508605787937995E-6  
 2.730000000000000E10   -7.120948430383578E-5   1.073798121069558E-4  
 2.732000000000000E10   -4.360171733424068E-4  -3.748822200577706E-4  
 2.734000000000000E10   -1.984799600904807E-4   2.006411232287064E-4  
 2.736000000000000E10   -3.028825449291617E-4   7.572239701403305E-5  
 2.738000000000000E10   -3.788930771406740E-4  -8.659557788632810E-4  
 2.740000000000000E10   -8.956157253123820E-4  -4.431947891134769E-4  
 2.742000000000000E10   -9.407204925082624E-4   8.770116255618632E-5  
 2.744000000000000E10    3.832487855106592E-4   1.823969068937004E-4  
 2.746000000000000E10    4.491141007747501E-4  -1.778131118044257E-4  
 2.748000000000000E10    2.309489500476047E-4  -5.319516058079898E-4  
 2.750000000000000E10   -6.362204439938068E-4  -3.735792915904312E-6  
 2.752000000000000E10   -4.595280333887786E-4   8.926253649406135E-4  
 2.754000000000000E10   -1.869997504400089E-4   1.132306992076337E-3  
 2.756000000000000E10    1.600063260411844E-4   3.512899565976113E-4  
