#  HZ   S   RI   R     50.00 
! Rohde & Schwarz ZVA40 4Ports - Version 3.90 - 1145.1110k42 SN: 100403
! Date: 2023-10-04 08:11:59
! Measurement: S12 
! 
 2.200000000000000E10    9.478825959376991E-4  -7.252760115079582E-4  
 2.202000000000000E10    2.358165602345252E-6  -2.022423315793276E-3  
 2.204000000000000E10    1.273778849281371E-3  -8.701229817233980E-4  
 2.206000000000000E10    8.001154492376372E-5  -1.175772980786860E-3  
 2.208000000000000E10   -4.432049754541367E-4  -7.779201259836555E-4  
 2.210000000000000E10    3.151730052195489E-4   1.107645570300520E-3  
 2.212000000000000E10    8.469456224702299E-4   1.255617244169116E-3  
 2.214000000000000E10   -1.852808345574886E-4  -7.465376984328032E-4  
 2.216000000000000E10   -1.417776918970048E-3  -9.844626765698195E-4  
 2.218000000000000E10   -2.450420288369060E-3   5.430929013527930E-4  
 2.220000000000000E10   -8.934313664212823E-4  -1.199422913487069E-4  
 2.222000000000000E10    2.948352175735636E-6  -9.894442046061158E-4  
 2.224000000000000E10   -1.235426170751452E-3  -1.094895531423390E-3  
 2.226000000000000E10   -3.466724010650069E-4  -1.013287692330778E-3  
 2.228000000000000E10    4.723134625237435E-4  -1.042486168444157E-3  
 2.230000000000000E10   -7.049984997138381E-4  -5.792465890408494E-5  
 2.232000000000000E10    1.311368978349492E-4   4.993402981199324E-4  
 2.234000000000000E10    1.064794487319887E-3   8.521543932147324E-4  
 2.236000000000000E10   -3.101370530202985E-4  -1.872988650575280E-4  
 2.238000000000000E10   -1.577108050696552E-3   1.282150624319911E-4  
 2.240000000000000E10   -1.368739525787532E-3   1.823356491513550E-3  
 2.242000000000000E10   -4.309042196837254E-5   7.304594619199634E-4  
 2.244000000000000E10   -3.375552842044272E-5  -4.407659871503711E-4  
 2.246000000000000E10   -8.456676732748747E-4  -4.431037814356387E-4  
 2.248000000000000E10   -6.595472805202007E-4   6.813919026171789E-5  
 2.250000000000000E10    1.666370662860572E-4   1.248094777110964E-4  
 2.252000000000000E10    1.015814850688912E-4   4.090022703167051E-4  
 2.254000000000000E10    6.476982962340117E-4   8.002786198630929E-4  
 2.256000000000000E10    1.312901731580496E-3   2.603541943244636E-4  
 2.258000000000000E10   -3.006107290275395E-4  -5.392549792304635E-4  
 2.260000000000000E10   -1.050215912982822E-3   6.948150112293661E-4  
 2.262000000000000E10   -3.825404564850032E-4   2.122641308233142E-3  
 2.264000000000000E10    7.670185295864940E-4   8.840499795041978E-4  
 2.266000000000000E10    1.721628650557250E-4  -1.540152239613235E-3  
 2.268000000000000E10   -1.418005093000829E-3  -1.143381814472377E-3  
 2.270000000000000E10   -1.177087426185608E-3   6.907311617396772E-4  
 2.272000000000000E10    3.728604060597718E-4   5.797675694338977E-4  
 2.274000000000000E10    9.719588560983539E-4  -5.791753937955946E-5  
 2.276000000000000E10    5.060837720520794E-4  -1.087685348466039E-3  
 2.278000000000000E10   -2.097327524097636E-5  -1.008372404612601E-3  
 2.280000000000000E10   -7.811531540937722E-4   3.717366198543459E-4  
 2.282000000000000E10   -1.265156082808971E-3   7.822546758688986E-4  
 2.284000000000000E10    1.223831204697490E-3   1.638775924220681E-3  
 2.286000000000000E10    8.931218180805445E-4  -1.536833005957305E-4  
 2.288000000000000E10   -8.101728744804859E-4  -1.628587488085032E-3  
 2.290000000000000E10   -2.429852029308677E-3   3.606841492000967E-4  
 2.292000000000000E10   -9.552132105454803E-4   2.189737511798739E-3  
 2.294000000000000E10    1.737356767989695E-3   3.619549097493291E-4  
 2.296000000000000E10    1.108130323700607E-3  -1.855219248682261E-3  
 2.298000000000000E10   -1.141278073191643E-3  -1.672907965257764E-3  
 2.300000000000000E10   -4.544229523162358E-5   7.804240340192337E-6  
 2.302000000000000E10    9.393072105012834E-4   1.370252692140639E-3  
 2.304000000000000E10    1.323012867942452E-3   2.080549747915939E-4  
 2.306000000000000E10    1.116038183681667E-3  -4.595051868818700E-4  
 2.308000000000000E10   -3.566058876458556E-4  -8.737789466977119E-4  
 2.310000000000000E10   -1.602861448191106E-3   1.209017500514165E-4  
 2.312000000000000E10   -9.977982845157385E-4   1.154622179456055E-3  
 2.314000000000000E10    8.487416780553758E-4   7.778615108691156E-4  
 2.316000000000000E10    1.062038238160312E-3  -2.403846010565758E-3  
 2.318000000000000E10   -1.605234225280583E-3  -2.277861349284649E-3  
 2.320000000000000E10   -1.789905945770443E-3   2.911140036303550E-4  
 2.322000000000000E10    6.601871573366225E-4   1.265367493033409E-3  
 2.324000000000000E10    2.283472102135420E-3  -3.617430411395617E-5  
 2.326000000000000E10    5.419523222371936E-4  -1.530965790152550E-3  
 2.328000000000000E10   -7.436733576469123E-4  -5.300019984133542E-4  
 2.330000000000000E10   -1.211757422424853E-3   1.309324987232685E-3  
 2.332000000000000E10   -5.055244546383619E-4   1.851282780990005E-3  
 2.334000000000000E10    1.003404613584280E-3   7.343022152781487E-4  
 2.336000000000000E10    6.157121970318258E-5  -1.394813880324364E-3  
 2.338000000000000E10   -1.205440959893167E-3  -2.365637570619583E-3  
 2.340000000000000E10   -2.109114080667496E-3  -9.812075877562165E-4  
 2.342000000000000E10    5.661686882376671E-4   1.586862024851143E-3  
 2.344000000000000E10    1.932891900651157E-3   1.222480786964297E-4  
 2.346000000000000E10    1.893111155368388E-3  -2.039473969489336E-3  
 2.348000000000000E10   -1.080497051589191E-3  -1.446036971174181E-3  
 2.350000000000000E10   -1.762882224284113E-3   5.058078677393496E-4  
 2.352000000000000E10   -1.418854371877387E-4   2.293165773153305E-3  
 2.354000000000000E10    7.041897042654455E-4   9.163369541056454E-4  
 2.356000000000000E10    7.771055679768324E-4  -1.348088262602687E-3  
 2.358000000000000E10   -1.589629449881613E-3  -1.619143877178431E-3  
 2.360000000000000E10   -1.647102879360318E-3  -2.416370552964509E-4  
 2.362000000000000E10   -7.763612666167319E-4   1.189157832413912E-3  
 2.364000000000000E10    1.216360018588603E-3   7.049803971312940E-4  
 2.366000000000000E10    1.208437606692314E-3  -9.350361651740968E-4  
 2.368000000000000E10   -4.583640838973224E-4  -1.620173105038703E-3  
 2.370000000000000E10   -1.046689227223396E-3   7.982992683537304E-4  
 2.372000000000000E10    5.302632780512795E-5   1.913451473228633E-3  
 2.374000000000000E10    1.410951488651335E-3   3.544744104146957E-4  
 2.376000000000000E10    7.052554865367711E-4  -1.125812530517578E-3  
 2.378000000000000E10   -1.621201401576400E-3  -1.381193520501256E-3  
 2.380000000000000E10   -9.559061145409942E-4   2.141089062206447E-4  
 2.382000000000000E10    2.310814015800133E-4   1.331317354924977E-3  
 2.384000000000000E10    1.729089650325477E-3  -5.527005996555090E-4  
 2.386000000000000E10    1.068052137270570E-3  -1.810884103178978E-3  
 2.388000000000000E10   -1.145989634096623E-3  -1.409557997249067E-3  
 2.390000000000000E10   -1.295191119424999E-3   7.766345515847206E-4  
 2.392000000000000E10    3.990926779806614E-4   1.713347737677395E-3  
 2.394000000000000E10    1.629249192774296E-3   4.293671809136868E-4  
 2.396000000000000E10    2.650032110977918E-4  -1.611233456060290E-3  
 2.398000000000000E10   -1.700173714198172E-3  -1.149857416749001E-3  
 2.400000000000000E10   -1.444246037863195E-3   8.192555396817625E-4  
 2.402000000000000E10    5.810185102745891E-4   1.168737304396927E-3  
 2.404000000000000E10    1.687941257841885E-3  -8.238910813815892E-4  
 2.406000000000000E10    1.126607879996300E-3  -1.898614456877112E-3  
 2.408000000000000E10   -6.583081558346748E-4  -1.042651711031795E-3  
 2.410000000000000E10   -5.488684982992709E-4   4.233464715071023E-4  
 2.412000000000000E10    7.377348956651986E-4   1.940593472681940E-3  
 2.414000000000000E10    2.071890747174621E-3   8.240905590355396E-4  
 2.416000000000000E10    1.090715522877872E-3  -9.078137809410691E-4  
 2.418000000000000E10   -1.536487718112767E-3  -7.820143364369869E-4  
 2.420000000000000E10   -1.882835524156690E-3   8.468336309306324E-4  
 2.422000000000000E10    3.753069904632866E-4   9.428183548152447E-4  
 2.424000000000000E10    1.159001723863185E-3   1.617011148482561E-4  
 2.426000000000000E10    1.050097169354558E-3  -1.603531651198864E-3  
 2.428000000000000E10    1.684437447693199E-4  -1.495162025094032E-3  
 2.430000000000000E10    6.355670393531909E-6  -5.740945925936103E-4  
 2.432000000000000E10    3.205365210305899E-4   9.833660442382097E-4  
 2.434000000000000E10    1.389041310176253E-3   5.187366623431444E-4  
 2.436000000000000E10    1.932032173499465E-3  -2.055037912214175E-4  
 2.438000000000000E10   -1.757400314090774E-4  -1.022759475745261E-3  
 2.440000000000000E10   -1.275114482268691E-3  -3.775474615395069E-4  
 2.442000000000000E10   -7.941255462355912E-4   1.010087551549077E-3  
 2.444000000000000E10    3.966459189541638E-4  -3.288583684479818E-5  
 2.446000000000000E10    4.760159936267883E-4  -1.755104283802211E-3  
 2.448000000000000E10   -3.283284895587713E-4  -1.719324616715312E-3  
 2.450000000000000E10   -5.656111170537770E-4  -4.150129097979516E-4  
 2.452000000000000E10    3.763566492125392E-4   2.291120035806671E-4  
 2.454000000000000E10    7.936674519442022E-4   3.625855606514961E-4  
 2.456000000000000E10    1.922038500197232E-4   9.330047760158777E-5  
 2.458000000000000E10   -6.287153810262680E-4  -3.522453189361841E-4  
 2.460000000000000E10   -1.108860247768462E-3   2.899122773669660E-4  
 2.462000000000000E10   -1.207975787110627E-3   5.919054383412004E-4  
 2.464000000000000E10    1.381110196234658E-4   6.221761577762663E-4  
 2.466000000000000E10    6.455241236835718E-4  -4.263241717126221E-4  
 2.468000000000000E10   -3.634241293184459E-4  -1.562432851642370E-3  
 2.470000000000000E10   -1.288751256652176E-3  -6.435048999264836E-4  
 2.472000000000000E10   -6.109187961556017E-4   9.622645447961986E-4  
 2.474000000000000E10    1.158285187557340E-3   6.543929339386523E-4  
 2.476000000000000E10    1.112526748329401E-3  -4.818450252059847E-4  
 2.478000000000000E10   -4.957493365509436E-5  -1.032719272188842E-3  
 2.480000000000000E10   -9.037668933160603E-4   6.338171078823507E-5  
 2.482000000000000E10   -5.922793061472476E-4   9.723115363158286E-4  
 2.484000000000000E10    6.079538143239915E-4   1.061706221662462E-3  
 2.486000000000000E10    9.197701001539826E-4  -4.682411090470851E-4  
 2.488000000000000E10    8.115087985061109E-4  -1.494319876655936E-3  
 2.490000000000000E10   -1.080023474059999E-3  -1.354078762233257E-3  
 2.492000000000000E10   -7.788827060721815E-4   3.399591369088739E-4  
 2.494000000000000E10    3.531514375936240E-4   9.757541702128947E-4  
 2.496000000000000E10    2.213756320998073E-3  -7.659490802325308E-4  
 2.498000000000000E10    1.002182834781706E-3  -1.944603398442268E-3  
 2.500000000000000E10   -8.181356242857873E-4  -1.349710859358311E-3  
 2.502000000000000E10   -7.774623372824863E-5   6.602784851565957E-4  
 2.504000000000000E10    9.745084098540247E-4   1.062151626683772E-3  
 2.506000000000000E10    1.388487755320966E-3  -4.145375569351018E-4  
 2.508000000000000E10    8.721475023776293E-5  -8.885756251402199E-4  
 2.510000000000000E10   -9.799572871997953E-4  -4.698610864579678E-4  
 2.512000000000000E10   -1.373175298795104E-3   5.847245483892039E-5  
 2.514000000000000E10    2.570609794929624E-4   1.830009568948299E-4  
 2.516000000000000E10    8.373307064175606E-4   7.063010707497597E-5  
 2.518000000000000E10    1.148521783761680E-3  -2.093055984005332E-3  
 2.520000000000000E10   -3.691877645906061E-5  -1.352313091047108E-3  
 2.522000000000000E10   -5.085432203486562E-4   3.396111424081028E-4  
 2.524000000000000E10    1.253043068572879E-3   1.447215094231069E-3  
 2.526000000000000E10    1.599582610651851E-3   3.336268709972501E-4  
 2.528000000000000E10    3.122130001429468E-4  -5.977143300697208E-4  
 2.530000000000000E10   -1.579932868480682E-3  -1.797478907974437E-4  
 2.532000000000000E10   -1.378392335027456E-3   9.298609220422804E-4  
 2.534000000000000E10   -7.468947296729311E-5   7.064408273436129E-4  
 2.536000000000000E10    6.476712878793478E-4  -1.016401802189648E-3  
 2.538000000000000E10    2.598983410280198E-4  -1.567591796629131E-3  
 2.540000000000000E10   -6.545205251313746E-4  -1.117618638090789E-3  
 2.542000000000000E10   -8.391356095671654E-5   2.328052651137114E-4  
 2.544000000000000E10    1.818778575398028E-3   1.422644359990954E-3  
 2.546000000000000E10    1.650991500355303E-3   5.278092576190829E-4  
 2.548000000000000E10    1.495280186645687E-3  -5.114043597131968E-4  
 2.550000000000000E10   -9.777878876775503E-4   5.768157425336540E-4  
 2.552000000000000E10   -1.405811286531389E-3   1.960952766239643E-3  
 2.554000000000000E10    3.440988075453788E-4   1.800389960408211E-3  
 2.556000000000000E10    1.186296460218728E-3   5.653370753861964E-4  
 2.558000000000000E10   -6.334314239211381E-4  -1.849809545092285E-3  
 2.560000000000000E10   -1.261551864445210E-3  -5.123300943523645E-4  
 2.562000000000000E10   -2.480055845808238E-4   7.767350762151182E-4  
 2.564000000000000E10    1.186851644888520E-3   1.273886882700026E-3  
 2.566000000000000E10    1.762973028235138E-3  -5.833133400301449E-5  
 2.568000000000000E10    7.873850408941507E-4   3.549240545908106E-7  
 2.570000000000000E10   -4.654079384636134E-4   1.533192407805473E-4  
 2.572000000000000E10   -6.945594213902950E-4   1.752430922351778E-3  
 2.574000000000000E10    6.416510441340506E-4   1.394958468154073E-3  
 2.576000000000000E10    7.535970653407276E-4   3.218551282770932E-4  
 2.578000000000000E10    4.762291609949898E-6  -1.074621919542551E-3  
 2.580000000000000E10   -1.429106341674924E-3   3.079600865021348E-4  
 2.582000000000000E10   -7.482729852199554E-4   6.328321178443730E-4  
 2.584000000000000E10    6.005955510772765E-4   4.401630430947989E-4  
 2.586000000000000E10    7.817001896910369E-4  -7.455796003341675E-4  
 2.588000000000000E10   -2.409256994724274E-4  -1.433323719538748E-3  
 2.590000000000000E10   -6.209705024957657E-4   3.283952537458390E-4  
 2.592000000000000E10   -7.926727412268519E-4   3.612961154431105E-4  
 2.594000000000000E10    1.305976882576942E-3   2.577211998868734E-4  
 2.596000000000000E10    2.306560199940577E-4  -8.354117162525654E-4  
 2.598000000000000E10   -5.624166224151850E-4  -1.241835183463991E-3  
 2.600000000000000E10   -1.316000125370920E-3  -2.092477807309479E-4  
 2.602000000000000E10   -5.509870825335383E-4   9.441823931410909E-4  
 2.604000000000000E10    7.203627028502524E-4  -6.457944982685149E-5  
 2.606000000000000E10   -5.475980578921735E-4  -1.121050328947604E-3  
 2.608000000000000E10   -9.961468167603016E-4  -1.574690570123494E-3  
 2.610000000000000E10   -1.259792828932405E-3  -5.382390736485831E-5  
 2.612000000000000E10   -6.393228541128337E-4   1.738345235935412E-5  
 2.614000000000000E10    1.048232079483569E-4  -4.769749066326767E-4  
 2.616000000000000E10    5.036643124185503E-4  -1.264074700884521E-3  
 2.618000000000000E10   -8.942441199906170E-4  -8.238696027547121E-4  
 2.620000000000000E10   -9.812987409532070E-4  -1.603022828930989E-4  
 2.622000000000000E10   -6.580174085684121E-4   6.732955225743353E-4  
 2.624000000000000E10    3.193252778146416E-4  -2.470507388352417E-5  
 2.626000000000000E10   -3.019741270691156E-4  -5.559030687436461E-4  
 2.628000000000000E10   -1.121307373978198E-3  -4.254030500305817E-5  
 2.630000000000000E10   -5.816461634822190E-4   5.209094379097223E-4  
 2.632000000000000E10   -1.286053447984159E-4   2.539025153964758E-4  
 2.634000000000000E10    7.287750486284494E-5  -3.966801450587809E-4  
 2.636000000000000E10   -2.535646781325340E-4   3.797479075728916E-5  
 2.638000000000000E10    8.567146142013371E-5   9.819267870625481E-5  
 2.640000000000000E10    5.089690675958991E-4   2.987751795444638E-4  
 2.642000000000000E10    2.515193773433566E-4   7.634306530235335E-5  
 2.644000000000000E10    3.561263438314199E-4   6.913553079357371E-5  
 2.646000000000000E10    4.084058746229857E-4  -3.437599807512015E-4  
 2.648000000000000E10    2.370051151956432E-5  -3.366559685673565E-4  
 2.650000000000000E10    9.940807940438390E-4   4.345612542238087E-4  
 2.652000000000000E10    5.868067964911461E-4  -1.284147438127548E-4  
 2.654000000000000E10    7.067827391438186E-4  -1.023905933834612E-3  
 2.656000000000000E10    1.075892578228377E-4  -6.376647070283070E-5  
 2.658000000000000E10    4.104982072021812E-4   7.683329749852419E-4  
 2.660000000000000E10    8.192768436856568E-4   1.330258965026587E-4  
 2.662000000000000E10    9.124591597355902E-4  -2.734340669121593E-4  
 2.664000000000000E10    1.141087559517473E-4  -2.531379577703774E-4  
 2.666000000000000E10   -1.336404966423288E-4   1.785792555892840E-4  
 2.668000000000000E10    7.859496981836855E-4  -1.629802427487448E-4  
 2.670000000000000E10    4.902026848867536E-4  -1.596406073076651E-4  
 2.672000000000000E10    8.821464143693447E-4  -7.517276098951697E-4  
 2.674000000000000E10    5.940989358350635E-4   3.617930588006857E-6  
 2.676000000000000E10    6.102864281274378E-4  -2.951284113805741E-4  
 2.678000000000000E10    2.477752568665892E-4  -1.210106893267948E-5  
 2.680000000000000E10    6.410043570213020E-4   1.465959940105677E-4  
 2.682000000000000E10    3.541296755429357E-4  -3.507992078084499E-4  
 2.684000000000000E10    1.118077561841346E-4  -4.581912071444094E-4  
 2.686000000000000E10   -4.041210559080355E-5   3.188258051523008E-5  
 2.688000000000000E10    1.420663029421121E-4   3.796775708906353E-4  
 2.690000000000000E10    6.464340840466321E-4  -3.322194679640234E-4  
 2.692000000000000E10   -2.381003432674334E-4  -2.500383416190743E-4  
 2.694000000000000E10   -5.002816324122250E-4  -1.435776212019846E-4  
 2.696000000000000E10   -6.343682616716251E-5   7.237460231408477E-4  
 2.698000000000000E10    3.845130559056997E-4  -2.376685442868620E-4  
 2.700000000000000E10    4.259242268744856E-4   1.622968702577055E-4  
 2.702000000000000E10   -1.782506587915123E-4   1.094618055503815E-4  
 2.704000000000000E10   -4.109124129172415E-4  -1.353578795715293E-6  
 2.706000000000000E10   -3.835560346487910E-4   5.670177633874118E-4  
 2.708000000000000E10   -2.108285843860358E-4   6.900473381392658E-4  
 2.710000000000000E10    7.917807670310140E-5   5.498828249983490E-4  
 2.712000000000000E10    3.973888306063600E-5  -6.378580001182854E-4  
 2.714000000000000E10   -4.423528152983636E-4  -3.774952201638371E-4  
 2.716000000000000E10   -4.981291713193059E-4   2.736266178544611E-4  
 2.718000000000000E10    2.264446520712227E-4   8.287620148621500E-4  
 2.720000000000000E10    4.579251981340349E-4   1.107487405533902E-4  
 2.722000000000000E10    7.713111699558795E-4  -2.539653505664319E-4  
 2.724000000000000E10   -3.781978739425540E-4   2.183119795517996E-5  
 2.726000000000000E10   -6.392699433490634E-4   1.875549496617168E-4  
 2.728000000000000E10   -1.912023581098765E-4   5.853081238456070E-4  
 2.730000000000000E10    2.238875167677179E-4   8.357421029359102E-4  
 2.732000000000000E10   -6.100584141677246E-5  -3.649627615232021E-4  
 2.734000000000000E10   -4.645266744773835E-4  -9.523240732960403E-4  
 2.736000000000000E10   -1.128086703829467E-3  -5.086998571641743E-4  
 2.738000000000000E10   -2.344784152228385E-4   2.356829281779937E-5  
 2.740000000000000E10    4.805272619705647E-4  -2.890131327148993E-6  
 2.742000000000000E10    7.668722537346184E-4  -3.494978300295770E-4  
 2.744000000000000E10   -7.847160304663703E-5  -6.346988375298679E-4  
 2.746000000000000E10   -3.588091931305826E-5   1.444193912902847E-5  
 2.748000000000000E10   -4.862358910031617E-4   9.780441178008914E-4  
 2.750000000000000E10   -1.207744571729563E-4   5.904668942093849E-4  
 2.752000000000000E10    5.166796618141234E-4   5.829395377077162E-5  
 2.754000000000000E10   -7.541212835349143E-4  -3.841574362013489E-4  
 2.756000000000000E10   -8.688156376592815E-4  -8.250896935351193E-4  
