#  HZ   S   RI   R     50.00 
! Rohde & Schwarz ZVA40 4Ports - Version 3.90 - 1145.1110k42 SN: 100403
! Date: 2023-10-04 08:11:41
! Measurement: S12 
! 
 2.200000000000000E10    1.802717219106853E-3  -1.173949684016407E-3  
 2.202000000000000E10   -1.171081676147878E-3  -6.153172580525279E-4  
 2.204000000000000E10   -6.745696882717311E-4   4.587513976730406E-4  
 2.206000000000000E10    7.169249583967030E-4   1.100155175663531E-3  
 2.208000000000000E10   -2.334393939236179E-4  -1.499819481978193E-4  
 2.210000000000000E10    9.212300028593745E-6  -2.466684964019805E-4  
 2.212000000000000E10    9.006325126392767E-5  -2.948643523268402E-4  
 2.214000000000000E10   -1.219292986206710E-3  -1.197974197566509E-3  
 2.216000000000000E10   -8.229313534684479E-4  -1.835612201830372E-4  
 2.218000000000000E10    7.297061383724213E-4   7.789007504470646E-4  
 2.220000000000000E10    1.594543922692537E-3  -9.797425009310246E-4  
 2.222000000000000E10    5.618294235318899E-4  -1.368701457977295E-3  
 2.224000000000000E10   -1.522436388768256E-3   4.327910719439387E-4  
 2.226000000000000E10   -2.665906686161179E-5   1.732629374600947E-3  
 2.228000000000000E10    1.160737359896302E-3   1.100913388654590E-3  
 2.230000000000000E10   -4.063411688548513E-5  -1.015453948639333E-3  
 2.232000000000000E10   -1.612237305380404E-3  -8.372397278435528E-4  
 2.234000000000000E10   -7.213984499685466E-4   3.170353593304753E-4  
 2.236000000000000E10   -8.328300318680704E-4   3.399915003683418E-4  
 2.238000000000000E10    2.160747098969296E-4  -2.673834387678653E-4  
 2.240000000000000E10    1.013393397442997E-3   1.231297937920317E-4  
 2.242000000000000E10    2.266737865284085E-4  -1.429643714800477E-3  
 2.244000000000000E10   -9.281148668378592E-4  -6.635763566009700E-4  
 2.246000000000000E10   -9.501710301265121E-4   1.520776073448360E-3  
 2.248000000000000E10    9.042562451213598E-4   2.362075494602323E-3  
 2.250000000000000E10    1.999150263145566E-3  -3.909857769031078E-4  
 2.252000000000000E10   -3.802545252256095E-4  -1.137466984800994E-3  
 2.254000000000000E10   -2.434782451018691E-3   8.198145660571754E-4  
 2.256000000000000E10   -6.617638427997008E-5   2.115576528012753E-3  
 2.258000000000000E10    9.627263061702251E-4   1.461543957702816E-3  
 2.260000000000000E10    5.394472973421216E-4  -5.413401522673667E-4  
 2.262000000000000E10   -6.567610544152558E-4  -6.560304318554699E-4  
 2.264000000000000E10   -7.498831255361438E-4  -5.670281825587153E-4  
 2.266000000000000E10   -5.118850967846811E-4   7.111437153071165E-4  
 2.268000000000000E10    6.843638257123530E-4   1.644902164116502E-3  
 2.270000000000000E10    2.229276113212109E-3   5.311342538334429E-4  
 2.272000000000000E10    1.076273154467344E-3  -1.637183828279376E-3  
 2.274000000000000E10   -1.619145274162293E-3  -6.925636553205550E-4  
 2.276000000000000E10   -1.440846710465848E-3   2.297206781804562E-3  
 2.278000000000000E10    1.480945618823171E-3   1.770227099768817E-3  
 2.280000000000000E10    1.600738032720983E-3  -5.724891670979559E-4  
 2.282000000000000E10    4.724739410448819E-4  -1.914366846904159E-3  
 2.284000000000000E10   -1.827870844863355E-3  -1.935648015205516E-6  
 2.286000000000000E10   -5.547430482693017E-4   6.320872926153243E-4  
 2.288000000000000E10    5.806080298498273E-4   4.148333682678640E-4  
 2.290000000000000E10    1.212480594404042E-3  -6.645740941166878E-4  
 2.292000000000000E10    7.488003466278315E-4  -1.296551665291190E-3  
 2.294000000000000E10   -8.256889996118844E-4  -9.601749479770660E-4  
 2.296000000000000E10   -7.975340704433620E-4   1.121586537919939E-3  
 2.298000000000000E10    4.557159263640642E-4   2.161741023883224E-3  
 2.300000000000000E10    1.908259117044509E-3   1.515189505880699E-4  
 2.302000000000000E10   -9.494443656876683E-5  -1.250335597433150E-3  
 2.304000000000000E10   -2.548696706071496E-3  -3.074487613048405E-4  
 2.306000000000000E10   -1.413640915416181E-3   1.837605843320489E-3  
 2.308000000000000E10    7.266800967045128E-4   9.757582447491586E-4  
 2.310000000000000E10    1.053381594829261E-3  -1.471712370403111E-3  
 2.312000000000000E10   -7.059258059598506E-4  -2.361970022320747E-3  
 2.314000000000000E10   -9.667829144746065E-4  -2.724810037761927E-4  
 2.316000000000000E10   -1.714606696623378E-5   8.655772544443607E-4  
 2.318000000000000E10    2.144651021808386E-3   7.687641191296279E-4  
 2.320000000000000E10    1.824918901547790E-3   4.832424165215343E-4  
 2.322000000000000E10    5.180588923394680E-4  -9.827826870605350E-4  
 2.324000000000000E10   -1.516291638836265E-3   1.711476943455637E-4  
 2.326000000000000E10   -2.181688556447625E-3   2.148120198398829E-3  
 2.328000000000000E10    4.299714055377990E-4   2.136054681614041E-3  
 2.330000000000000E10    1.701861619949341E-3  -8.572342339903116E-4  
 2.332000000000000E10   -1.172195072285831E-3  -2.688827225938439E-3  
 2.334000000000000E10   -2.318633254617453E-3  -1.178915263153613E-3  
 2.336000000000000E10   -2.466954756528139E-4   1.133829122409225E-3  
 2.338000000000000E10    1.773539115674794E-3   2.956050739157945E-4  
 2.340000000000000E10    1.889700535684824E-3  -8.665827917866409E-4  
 2.342000000000000E10    6.268199067562819E-4  -8.011021418496966E-4  
 2.344000000000000E10   -9.273544419556856E-4  -3.322407719679177E-4  
 2.346000000000000E10   -1.314740278758109E-3   1.267730025574565E-3  
 2.348000000000000E10   -1.208689718623646E-4   2.513149054720998E-3  
 2.350000000000000E10    1.002273522317410E-3   3.292433757451363E-5  
 2.352000000000000E10    2.153494133381173E-4  -2.332800300791860E-3  
 2.354000000000000E10   -2.074657939374447E-3  -9.341304539702833E-4  
 2.356000000000000E10   -1.108147785998881E-3   1.103605725802481E-3  
 2.358000000000000E10    1.571575994603336E-3   6.673241150565445E-4  
 2.360000000000000E10    1.846565864980221E-3  -1.089146360754967E-3  
 2.362000000000000E10    1.457016333006322E-4  -1.063271076418459E-3  
 2.364000000000000E10   -6.958068115636706E-4   1.484249078202993E-4  
 2.366000000000000E10   -2.883989654947072E-4   1.736404956318438E-3  
 2.368000000000000E10    7.544137188233435E-4   1.427967101335526E-3  
 2.370000000000000E10    8.491448243148625E-4  -3.658440837170929E-4  
 2.372000000000000E10   -7.106552948243916E-4  -1.350969192571938E-3  
 2.374000000000000E10   -1.839105621911585E-3  -3.939587622880936E-4  
 2.376000000000000E10   -8.187527419067919E-5   8.593439124524593E-4  
 2.378000000000000E10    1.533699803985655E-3   8.567969198338687E-4  
 2.380000000000000E10    1.743950531817973E-3  -1.184507040306926E-3  
 2.382000000000000E10   -2.331829637114424E-5  -9.922537719830871E-4  
 2.384000000000000E10   -1.558517571538687E-3   7.019118056632578E-4  
 2.386000000000000E10   -9.931762178894132E-5   1.683606067672372E-3  
 2.388000000000000E10    1.341309398412705E-3   9.883837774395943E-4  
 2.390000000000000E10    7.097212364897132E-4  -1.820136094465852E-3  
 2.392000000000000E10   -9.521149913780391E-4  -1.886269659735262E-3  
 2.394000000000000E10   -1.702615991234779E-3   1.635941298445687E-4  
 2.396000000000000E10   -5.129499550093897E-5   1.097818138077855E-3  
 2.398000000000000E10    1.945837866514921E-3   1.651691563893110E-4  
 2.400000000000000E10    1.408212701790035E-3  -1.265938277356327E-3  
 2.402000000000000E10    7.611064938828349E-5  -1.845754333771765E-3  
 2.404000000000000E10   -8.998706471174955E-4   4.147582221776247E-4  
 2.406000000000000E10   -1.422187342541292E-4   1.792910741642118E-3  
 2.408000000000000E10    1.777396653778851E-3   1.498877885751426E-3  
 2.410000000000000E10    7.927981787361205E-4  -6.957860896363854E-4  
 2.412000000000000E10   -9.889457141980529E-4  -1.382218440994620E-3  
 2.414000000000000E10   -1.653337967582047E-3   1.960870140464976E-4  
 2.416000000000000E10   -7.537641213275492E-4   7.869107066653669E-4  
 2.418000000000000E10    9.450761135667563E-4   5.067603196948767E-4  
 2.420000000000000E10    7.593006012029946E-4  -4.357951402198523E-4  
 2.422000000000000E10    1.358251611236483E-4  -3.867905179504305E-4  
 2.424000000000000E10   -8.887813892215490E-4   4.178341623628512E-5  
 2.426000000000000E10   -8.390550501644611E-4   1.054361695423722E-3  
 2.428000000000000E10    3.642010560724884E-4   1.509933033958077E-3  
 2.430000000000000E10    8.999222191050649E-4   4.647927416954190E-4  
 2.432000000000000E10   -4.821975890081376E-4  -7.468656986020505E-4  
 2.434000000000000E10   -8.609311189502478E-4  -6.352738273562864E-5  
 2.436000000000000E10   -5.366271125240019E-6   1.181657426059246E-3  
 2.438000000000000E10    8.573280065320432E-4   2.104245213558897E-4  
 2.440000000000000E10    7.015328155830503E-4  -5.967908073216677E-4  
 2.442000000000000E10    3.066434292122722E-4  -4.750849329866469E-4  
 2.444000000000000E10    1.463418739149347E-4   9.758133091963828E-5  
 2.446000000000000E10    1.231024216394872E-4   4.794947162736207E-4  
 2.448000000000000E10    6.347632734104991E-4   7.120050722733140E-4  
 2.450000000000000E10    7.077231421135366E-4   4.616472870111466E-4  
 2.452000000000000E10    2.619213773868978E-4  -5.649036611430347E-4  
 2.454000000000000E10   -9.251293377019465E-4  -5.550250061787665E-4  
 2.456000000000000E10   -6.995127187110484E-4   1.053357555065304E-4  
 2.458000000000000E10    4.940386279486120E-4   5.049246246926487E-4  
 2.460000000000000E10    1.433769240975380E-3  -8.505687001161277E-4  
 2.462000000000000E10    9.118128946283832E-5  -1.365219242870808E-3  
 2.464000000000000E10   -4.208293685223907E-4  -5.708858370780945E-4  
 2.466000000000000E10   -2.674901224963833E-5   6.171076674945653E-4  
 2.468000000000000E10    5.658312002196908E-4   7.763860630802810E-4  
 2.470000000000000E10    4.372753028292209E-4  -9.537646837998182E-5  
 2.472000000000000E10   -3.636594046838582E-4  -6.068604416213930E-4  
 2.474000000000000E10   -1.056107808835805E-3  -5.062514683231711E-4  
 2.476000000000000E10   -1.234929310157895E-3  -1.103290269384161E-4  
 2.478000000000000E10   -2.580131986178458E-4   5.912171327508986E-4  
 2.480000000000000E10    6.806815508753061E-4  -4.354162083473057E-4  
 2.482000000000000E10    3.299391537439078E-4  -1.478437567129731E-3  
 2.484000000000000E10   -7.918127230368555E-4  -1.592386513948441E-3  
 2.486000000000000E10   -1.008798833936453E-3   8.943139109760523E-4  
 2.488000000000000E10    5.427332944236696E-4   9.909020736813545E-4  
 2.490000000000000E10    1.743396162055433E-3   6.303258123807609E-4  
 2.492000000000000E10    4.480866482481360E-4  -4.788497753906995E-4  
 2.494000000000000E10   -1.166905276477337E-3  -2.672262489795685E-4  
 2.496000000000000E10   -8.487497689202428E-4   4.121155070606619E-4  
 2.498000000000000E10   -5.787243208033033E-5   1.323260948993266E-3  
 2.500000000000000E10    5.699107423424721E-4  -8.808418351691216E-5  
 2.502000000000000E10    1.307640108279884E-3  -5.375137552618980E-4  
 2.504000000000000E10    1.112594254664145E-4  -3.377077518962324E-4  
 2.506000000000000E10   -1.181081461254507E-4   3.408970660530031E-4  
 2.508000000000000E10    3.712922625709325E-4   1.088989665731788E-3  
 2.510000000000000E10    1.405255403369665E-3   5.609625368379057E-4  
 2.512000000000000E10    7.868472603149712E-4  -6.061659660190344E-4  
 2.514000000000000E10    1.406069350196049E-4  -6.878506974317133E-4  
 2.516000000000000E10   -5.443828413262963E-4   1.054218737408519E-3  
 2.518000000000000E10    4.804091004189104E-4   9.752241894602776E-4  
 2.520000000000000E10    1.450314652174711E-3  -2.303146357007790E-5  
 2.522000000000000E10    4.566878487821668E-5  -4.139179363846779E-4  
 2.524000000000000E10   -7.219745893962681E-4  -3.318075323477387E-4  
 2.526000000000000E10    1.337142166448757E-4   5.151469376869500E-4  
 2.528000000000000E10    3.954708809033036E-4   9.551057592034340E-4  
 2.530000000000000E10    9.440404246561229E-4  -5.474683712236583E-5  
 2.532000000000000E10    7.595284841954708E-4  -8.887822623364627E-4  
 2.534000000000000E10   -2.847199357347563E-5  -6.239116191864014E-4  
 2.536000000000000E10   -6.924436311237514E-4   3.903403703588992E-4  
 2.538000000000000E10    7.275399984791875E-4   9.386104648001492E-4  
 2.540000000000000E10    1.257373718544841E-3   2.088383771479130E-4  
 2.542000000000000E10    4.029228875879198E-4  -3.064008487854153E-4  
 2.544000000000000E10   -1.200129743665457E-3   3.385223390068859E-4  
 2.546000000000000E10   -6.504160701297224E-4   1.588157727383077E-3  
 2.548000000000000E10   -3.039755392819643E-4   1.048013684339821E-3  
 2.550000000000000E10    1.727025519357994E-4   1.543065445730463E-4  
 2.552000000000000E10   -7.454399019479752E-4  -3.659221401903778E-4  
 2.554000000000000E10   -8.970261551439762E-4  -2.780157956294715E-4  
 2.556000000000000E10   -2.175880654249340E-4   6.149530527181923E-4  
 2.558000000000000E10    7.477776380255818E-4   2.979956625495106E-4  
 2.560000000000000E10    8.985255262814462E-4   6.046285852789879E-4  
 2.562000000000000E10    2.457810915075243E-4  -1.524498075013980E-4  
 2.564000000000000E10    3.156177117489278E-4   6.860168068669736E-4  
 2.566000000000000E10   -6.607542163692415E-4   1.298614777624607E-3  
 2.568000000000000E10   -6.050091542419978E-5   1.502262544818223E-3  
 2.570000000000000E10   -3.040416340809315E-4   6.976345321163535E-4  
 2.572000000000000E10   -5.954340449534357E-4  -1.542829122627154E-4  
 2.574000000000000E10   -1.527514774352312E-3  -1.108114302041940E-4  
 2.576000000000000E10   -4.348792717792094E-4  -3.101409238297492E-4  
 2.578000000000000E10   -2.575028920546174E-4  -7.359238225035369E-5  
 2.580000000000000E10    5.161707304068841E-5  -1.777825644239783E-3  
 2.582000000000000E10    2.885366557165980E-4   6.682033563265577E-5  
 2.584000000000000E10   -2.992796071339399E-4  -1.240707497345284E-4  
 2.586000000000000E10    8.884061826393008E-4   2.425043930998072E-4  
 2.588000000000000E10   -1.579375675646588E-4   6.971381953917444E-4  
 2.590000000000000E10    2.625779889058322E-4  -2.177768183173612E-4  
 2.592000000000000E10   -7.495621102862060E-4   2.007292059715837E-4  
 2.594000000000000E10   -6.929156370460987E-4  -8.449830056633800E-5  
 2.596000000000000E10   -3.402989823371172E-4   3.378253313712776E-4  
 2.598000000000000E10   -2.300726919202134E-4  -9.439098648726940E-4  
 2.600000000000000E10    1.080475558410399E-4  -7.369245286099613E-4  
 2.602000000000000E10   -5.046668811701238E-4  -5.943275173194706E-4  
 2.604000000000000E10    1.880561467260122E-4  -9.630167623981834E-4  
 2.606000000000000E10    6.981464102864265E-4  -4.892364377155900E-4  
 2.608000000000000E10    1.577876246301457E-4  -3.972915583290160E-4  
 2.610000000000000E10    2.156258560717106E-4  -8.088065078482032E-4  
 2.612000000000000E10    1.877122413134202E-4  -4.572804609779269E-4  
 2.614000000000000E10   -1.140115055022761E-4   8.921905100578442E-5  
 2.616000000000000E10   -7.638685201527551E-5  -2.422593679511920E-4  
 2.618000000000000E10   -2.128916239598766E-4  -5.513608339242637E-4  
 2.620000000000000E10   -8.112656068988144E-4  -8.014135528355837E-4  
 2.622000000000000E10   -5.476718069985509E-4  -9.584565123077482E-5  
 2.624000000000000E10   -3.080440728808753E-5  -3.076536231674254E-4  
 2.626000000000000E10    1.909090351546183E-4  -1.052746549248695E-3  
 2.628000000000000E10   -1.655257510719821E-4  -4.163534322287887E-4  
 2.630000000000000E10   -1.455981691833586E-4   1.274371752515435E-4  
 2.632000000000000E10    7.204328430816531E-4   3.643514937721193E-4  
 2.634000000000000E10    7.613160996697843E-4   8.784089004620910E-5  
 2.636000000000000E10    4.524231480900198E-4   6.242114613996819E-5  
 2.638000000000000E10    2.114420931320638E-4   4.889027331955731E-4  
 2.640000000000000E10    1.463405933463946E-4   5.213763797655702E-4  
 2.642000000000000E10   -3.751007534447126E-5   9.139677858911455E-4  
 2.644000000000000E10    2.589602372609079E-4   7.058958872221410E-4  
 2.646000000000000E10    8.526598685421050E-4  -3.280535747762770E-4  
 2.648000000000000E10   -2.151353255612776E-4  -6.890415097586811E-4  
 2.650000000000000E10   -1.159524545073509E-4   1.482079460402019E-5  
 2.652000000000000E10    8.093755459412932E-4   7.826529326848686E-4  
 2.654000000000000E10    1.393706537783146E-3   3.703030524775386E-4  
 2.656000000000000E10    1.021658186800778E-3  -1.274844835279509E-4  
 2.658000000000000E10   -1.009158513625152E-4  -1.276310285902582E-5  
 2.660000000000000E10    3.746975926333107E-5   1.351494720438495E-4  
 2.662000000000000E10    5.279371398501098E-4   7.497483748011291E-4  
 2.664000000000000E10    9.960728930309415E-4   3.794086223933846E-4  
 2.666000000000000E10    5.164938629604876E-4  -2.118402517226059E-5  
 2.668000000000000E10    3.604622615966946E-4  -5.681508337147534E-4  
 2.670000000000000E10    2.361511869821698E-4   3.498177975416184E-4  
 2.672000000000000E10   -4.333983088145033E-5   6.690263980999589E-4  
 2.674000000000000E10    7.079613860696554E-4   5.272352136671543E-4  
 2.676000000000000E10    6.690797745250166E-4  -6.921610329300165E-4  
 2.678000000000000E10    2.363265593885444E-5  -4.265117458999157E-4  
 2.680000000000000E10   -8.381798397749662E-4   2.236701111542061E-4  
 2.682000000000000E10    3.944928175769746E-5   6.651912117376924E-4  
 2.684000000000000E10    4.274656239431351E-4  -3.880042277160101E-5  
 2.686000000000000E10   -3.882119199261069E-5  -8.064049179665744E-4  
 2.688000000000000E10   -8.993144729174674E-4   2.771942490653601E-5  
 2.690000000000000E10   -4.592363256961107E-4   1.399234315613285E-4  
 2.692000000000000E10    1.600298564881086E-4   4.337218124419451E-4  
 2.694000000000000E10    7.108324643922970E-5  -1.915343455038965E-4  
 2.696000000000000E10   -1.321321324212477E-4   1.295413530897349E-4  
 2.698000000000000E10   -1.186326029710472E-3  -2.431301109027118E-4  
 2.700000000000000E10   -8.147310581989586E-4   2.408699074294418E-4  
 2.702000000000000E10   -3.377242537681013E-4   7.746319752186537E-4  
 2.704000000000000E10    7.014084985712543E-5  -2.713090216275305E-4  
 2.706000000000000E10   -3.196060715708882E-4  -6.590557168237865E-4  
 2.708000000000000E10   -1.121864654123783E-3  -5.317563191056252E-4  
 2.710000000000000E10   -7.809339440427721E-4   7.942983065731823E-4  
 2.712000000000000E10   -2.775288885459304E-4   4.109913425054401E-4  
 2.714000000000000E10    2.230080863228068E-4  -3.159040352329612E-5  
 2.716000000000000E10   -4.811477265320718E-4  -6.145017105154693E-4  
 2.718000000000000E10   -3.002006851602346E-4  -3.828480839729309E-5  
 2.720000000000000E10   -9.283468243665993E-4   1.597922528162599E-4  
 2.722000000000000E10   -4.602877015713602E-4   7.193627534434199E-4  
 2.724000000000000E10    3.026473859790713E-4   6.821117713116109E-4  
 2.726000000000000E10   -4.257978071109392E-5  -1.794406125554815E-4  
 2.728000000000000E10   -6.191074498929083E-4  -4.031791759189218E-4  
 2.730000000000000E10   -6.639397470280528E-4  -3.286924766143784E-5  
 2.732000000000000E10   -5.239680176600814E-4   5.831544403918088E-4  
 2.734000000000000E10    4.071017028763890E-4  -2.810208243317902E-4  
 2.736000000000000E10    2.705503429751843E-4  -4.529196885414422E-4  
 2.738000000000000E10   -4.827590601053089E-4  -4.528400604613125E-4  
 2.740000000000000E10    1.330688974121586E-4  -3.031338274013251E-4  
 2.742000000000000E10    1.910305581986904E-4   1.546271814731881E-4  
 2.744000000000000E10    2.176718408009037E-4   2.738268813118339E-4  
 2.746000000000000E10    4.604898858815432E-4  -2.007023285841569E-4  
 2.748000000000000E10    6.131253903731704E-4  -4.709936911240220E-4  
 2.750000000000000E10   -6.786590674892068E-4  -2.482149284332991E-4  
 2.752000000000000E10   -2.891848853323609E-4   1.009037951007485E-4  
 2.754000000000000E10    5.907880840823054E-4   6.444833124987781E-4  
 2.756000000000000E10    4.918403574265540E-4  -4.593343765009195E-4  
