#  HZ   S   RI   R     50.00 
! Rohde & Schwarz ZVA40 4Ports - Version 3.90 - 1145.1110k42 SN: 100403
! Date: 2023-10-04 08:11:08
! Measurement: S12 
! 
 2.200000000000000E10   -8.835477638058364E-4  -4.016167367808521E-4  
 2.202000000000000E10   -1.572884269990027E-3   1.190662151202560E-3  
 2.204000000000000E10    1.326762139797211E-3   1.740107109071687E-4  
 2.206000000000000E10    1.492001931183040E-3  -1.818519551306963E-3  
 2.208000000000000E10   -1.548772910609841E-3  -2.696442184969783E-3  
 2.210000000000000E10   -1.290420652367175E-3   8.268649107776582E-4  
 2.212000000000000E10    1.634177169762552E-3   1.760541228577495E-3  
 2.214000000000000E10    2.301664091646671E-3  -1.549280932522379E-5  
 2.216000000000000E10   -3.944191848859191E-5  -1.702620415017009E-3  
 2.218000000000000E10   -8.628607029095292E-4   5.445776623673737E-4  
 2.220000000000000E10   -1.230822876095772E-3   8.380268118344247E-4  
 2.222000000000000E10   -3.290835884399712E-4   1.044805510900915E-3  
 2.224000000000000E10   -6.265101837925613E-4   1.197973033413291E-3  
 2.226000000000000E10   -1.732417877065018E-4  -9.687739657238126E-4  
 2.228000000000000E10   -7.497636834159493E-4  -1.900857547298074E-3  
 2.230000000000000E10   -2.793035935610533E-3  -8.377612684853375E-4  
 2.232000000000000E10   -7.291883957805112E-5   1.142577268183231E-3  
 2.234000000000000E10    2.607105998322368E-3   6.835351232439280E-4  
 2.236000000000000E10    1.236240961588919E-3  -1.601082272827625E-3  
 2.238000000000000E10   -1.275928574614227E-3  -8.496825466863811E-4  
 2.240000000000000E10   -9.089233935810626E-4   2.719846321269870E-3  
 2.242000000000000E10    4.878374456893653E-4   2.343805041164160E-3  
 2.244000000000000E10    1.033458858728409E-3   1.124478585552424E-4  
 2.246000000000000E10   -7.938599446788430E-4  -7.617205119458959E-5  
 2.248000000000000E10   -1.557045499794185E-3  -7.144460687413812E-5  
 2.250000000000000E10   -1.305024721659720E-3   3.733001067303121E-4  
 2.252000000000000E10   -6.987291271798313E-4   1.041665440425277E-3  
 2.254000000000000E10    5.355213652364910E-4   1.601694966666400E-3  
 2.256000000000000E10    1.546600135043263E-3  -3.678078646771610E-4  
 2.258000000000000E10   -3.060310846194625E-4  -1.010170439258218E-3  
 2.260000000000000E10   -1.707352232187986E-3   7.003186037763953E-4  
 2.262000000000000E10    1.327974023297429E-4   2.989958506077528E-3  
 2.264000000000000E10    2.109840046614409E-3   1.345505705103278E-3  
 2.266000000000000E10    1.206137472763658E-3  -7.878395845182240E-4  
 2.268000000000000E10   -1.257169875316322E-3  -4.059209895785898E-4  
 2.270000000000000E10   -9.213557932525873E-4   1.510146772488952E-3  
 2.272000000000000E10    4.819223249796778E-4   1.190260867588222E-3  
 2.274000000000000E10    7.764471811242402E-4   1.224383595399559E-4  
 2.276000000000000E10    4.507001140154898E-4  -5.781466607004404E-4  
 2.278000000000000E10    1.714889222057536E-4  -1.236686133779585E-3  
 2.280000000000000E10   -6.643333472311497E-4  -4.780884191859514E-4  
 2.282000000000000E10   -9.126289514824748E-4  -6.246524571906775E-5  
 2.284000000000000E10    1.662504742853344E-3   9.771927725523710E-4  
 2.286000000000000E10    1.719392254017294E-3  -1.195378485135734E-3  
 2.288000000000000E10   -3.854453971143812E-4  -2.498137298971415E-3  
 2.290000000000000E10   -1.875429647043347E-3   2.828302967827767E-4  
 2.292000000000000E10    7.607232691952959E-5   1.655127853155136E-3  
 2.294000000000000E10    1.681971596553922E-3  -2.257514715893194E-4  
 2.296000000000000E10    1.223753497470170E-4  -1.871803076937795E-3  
 2.298000000000000E10   -1.729765790514648E-3  -9.315524948760867E-4  
 2.300000000000000E10   -1.292402506805956E-3  -3.421785950195044E-4  
 2.302000000000000E10   -3.598341718316078E-4   8.400501101277769E-4  
 2.304000000000000E10    2.142874436685816E-4   1.829599350458011E-4  
 2.306000000000000E10    3.959960013162345E-4  -1.144269132055342E-3  
 2.308000000000000E10   -6.999586476013064E-4  -1.790970214642584E-3  
 2.310000000000000E10   -2.236166968941689E-3  -2.280948101542890E-4  
 2.312000000000000E10   -1.103199319913983E-3   1.826091785915196E-3  
 2.314000000000000E10    1.762804458849132E-3   1.036477857269347E-3  
 2.316000000000000E10    1.023997436277568E-3  -1.528756809420884E-3  
 2.318000000000000E10   -1.414128928445280E-3  -1.316153910011053E-3  
 2.320000000000000E10   -2.251571277156472E-3   1.162544125691056E-3  
 2.322000000000000E10   -4.989619628759101E-5   1.482058432884514E-3  
 2.324000000000000E10    9.498953586444259E-4   5.458042141981423E-4  
 2.326000000000000E10    1.025729870889336E-4  -1.278319745324552E-3  
 2.328000000000000E10   -9.994693100452423E-4  -1.092898542992771E-3  
 2.330000000000000E10   -9.419021662324667E-4  -7.335095870075747E-5  
 2.332000000000000E10   -8.220446179620922E-4   1.014223322272301E-3  
 2.334000000000000E10    1.067534554749727E-3   9.423297015018761E-4  
 2.336000000000000E10    1.550307613797486E-3  -2.502092393115163E-4  
 2.338000000000000E10   -2.952363574877381E-4  -1.447087037377060E-3  
 2.340000000000000E10   -1.644461415708065E-3  -2.714367474254686E-5  
 2.342000000000000E10   -6.968240631977096E-5   2.277632709592581E-3  
 2.344000000000000E10    1.894263317808509E-3   7.668447797186673E-4  
 2.346000000000000E10    7.784499903209508E-4  -1.354749780148268E-3  
 2.348000000000000E10   -1.278432202525437E-3  -5.284764920361340E-4  
 2.350000000000000E10   -8.864273549988866E-4   6.024622707627714E-4  
 2.352000000000000E10    3.820273559540510E-4   4.754906403832138E-4  
 2.354000000000000E10    1.033462351188064E-3   2.453059096296784E-5  
 2.356000000000000E10    6.530713872052729E-4  -7.575361523777247E-4  
 2.358000000000000E10   -3.288128937128931E-4  -8.349746349267662E-4  
 2.360000000000000E10   -8.556171087548137E-4   2.638631849549711E-4  
 2.362000000000000E10   -4.488568811211735E-4   1.330127590335906E-3  
 2.364000000000000E10    1.768878079019487E-3   5.713087739422917E-4  
 2.366000000000000E10    6.540535250678659E-4  -1.262436853721738E-3  
 2.368000000000000E10   -1.671640668064356E-3  -1.418851898051798E-3  
 2.370000000000000E10   -1.409722724929452E-3   1.035768771544099E-3  
 2.372000000000000E10    7.073522428981960E-4   1.375940046273172E-3  
 2.374000000000000E10    1.808486180379987E-3  -6.975235301069915E-4  
 2.376000000000000E10    4.116236523259431E-4  -1.562621095217764E-3  
 2.378000000000000E10   -1.039203605614603E-3  -6.352617638185620E-4  
 2.380000000000000E10   -5.986894248053432E-4   8.942682179622352E-4  
 2.382000000000000E10    5.227653891779482E-4   1.580591546371579E-3  
 2.384000000000000E10    1.303466269746423E-3  -1.325102348346263E-4  
 2.386000000000000E10    6.919846637174487E-4  -1.630587154068053E-3  
 2.388000000000000E10   -9.580047917552292E-4  -1.313503133133054E-3  
 2.390000000000000E10   -1.450488925911486E-3   5.003758124075830E-4  
 2.392000000000000E10    5.333345616236329E-4   1.398596563376486E-3  
 2.394000000000000E10    1.768887625075877E-3   4.565493436530232E-4  
 2.396000000000000E10    7.299213903024793E-4  -1.318727736361325E-3  
 2.398000000000000E10   -1.003392622806132E-3  -9.445138275623322E-4  
 2.400000000000000E10   -9.534480050206184E-4   1.032130443491042E-3  
 2.402000000000000E10    2.337055775569752E-4   1.691064448095858E-3  
 2.404000000000000E10    1.227650907821953E-3  -4.026295500807464E-4  
 2.406000000000000E10    3.313402412459254E-4  -5.310692940838635E-4  
 2.408000000000000E10   -7.839213940314949E-4  -5.150341312400997E-4  
 2.410000000000000E10   -5.944686708971858E-4   3.214053867850453E-4  
 2.412000000000000E10   -7.122782335500233E-6   6.209847633726895E-4  
 2.414000000000000E10    7.748646312393248E-4  -1.285883536183974E-5  
 2.416000000000000E10    7.999563240446150E-4  -4.001769702881575E-4  
 2.418000000000000E10   -5.594465183094144E-4  -5.804093671031296E-4  
 2.420000000000000E10   -9.769084863364697E-4   6.521685863845050E-4  
 2.422000000000000E10   -1.580759562784806E-4   8.833205210976303E-4  
 2.424000000000000E10    4.575681814458221E-4  -2.651069662533701E-4  
 2.426000000000000E10   -8.404505206272006E-4  -1.208744710311294E-3  
 2.428000000000000E10   -1.176910707727075E-3  -2.541360154282302E-4  
 2.430000000000000E10   -2.126506005879492E-4   5.966568132862449E-4  
 2.432000000000000E10    4.354746779426932E-4  -4.180777614237741E-5  
 2.434000000000000E10    2.607011992949992E-4  -5.235494463704526E-4  
 2.436000000000000E10   -9.851226786850020E-5  -2.113465452566743E-4  
 2.438000000000000E10   -6.127406377345324E-4   2.136478578904644E-4  
 2.440000000000000E10   -5.920031690038741E-4   4.457004542928189E-4  
 2.442000000000000E10   -5.019371747039259E-4   1.179541461169720E-3  
 2.444000000000000E10    1.805847277864814E-4   3.075007989536971E-4  
 2.446000000000000E10   -4.709079221356660E-4  -7.171249017119408E-4  
 2.448000000000000E10   -1.169718685559928E-3  -3.171126008965075E-4  
 2.450000000000000E10   -8.822740637697280E-4   6.617410108447075E-4  
 2.452000000000000E10    9.129642276093364E-4   3.655193431768566E-4  
 2.454000000000000E10    1.128446776419878E-3  -5.495519726537168E-4  
 2.456000000000000E10    2.701025223359466E-4  -5.932133062742651E-4  
 2.458000000000000E10   -3.003847668878734E-4   1.288800558540970E-4  
 2.460000000000000E10    3.972687991335988E-4   6.065261550247669E-4  
 2.462000000000000E10    1.367688528262079E-4   5.052787018939853E-4  
 2.464000000000000E10    9.715487831272185E-4  -1.854456204455346E-4  
 2.466000000000000E10    4.402568738441914E-4  -3.050512750633061E-4  
 2.468000000000000E10   -1.278263080166653E-4  -1.221768325194717E-3  
 2.470000000000000E10   -9.983931668102741E-4  -4.118746437598020E-4  
 2.472000000000000E10   -1.018769398797303E-4   1.485885004512966E-4  
 2.474000000000000E10    8.600659202784300E-4  -2.065876033157110E-4  
 2.476000000000000E10    6.552206468768418E-4  -1.635103370063007E-3  
 2.478000000000000E10   -1.388331147609279E-4  -1.560289063490927E-3  
 2.480000000000000E10   -2.188439102610573E-4  -4.317454004194588E-4  
 2.482000000000000E10    3.178521874360740E-4   8.890446770237759E-5  
 2.484000000000000E10    5.259158206172288E-5  -3.047266800422221E-4  
 2.486000000000000E10   -1.121545865316875E-4  -4.532277816906571E-4  
 2.488000000000000E10   -1.699312997516245E-4   2.329589769942686E-4  
 2.490000000000000E10   -5.653235130012035E-4  -4.199386166874319E-4  
 2.492000000000000E10   -6.133454153314233E-4  -1.051549843396060E-4  
 2.494000000000000E10   -4.304372414480895E-4   6.271706079132855E-4  
 2.496000000000000E10    3.200803184881806E-4  -5.232268595136702E-4  
 2.498000000000000E10    1.289468855247833E-5  -4.379985039122403E-4  
 2.500000000000000E10   -3.392749640624970E-4  -1.283380843233317E-4  
 2.502000000000000E10    2.942638820968568E-4   4.344477201811969E-4  
 2.504000000000000E10    1.086078351363540E-3   3.010183281730861E-4  
 2.506000000000000E10    2.821259258780628E-4   2.161660813726485E-4  
 2.508000000000000E10   -1.218360630446114E-4   6.470433436334133E-5  
 2.510000000000000E10   -5.882966434000991E-5   1.051503000780940E-3  
 2.512000000000000E10   -5.402393071562983E-5   5.872563342563808E-4  
 2.514000000000000E10    5.404425319284201E-4   2.456437505315989E-4  
 2.516000000000000E10    2.711968263611198E-4   2.988991327583790E-4  
 2.518000000000000E10    1.864740625023842E-4  -3.937479632440954E-4  
 2.520000000000000E10    2.334416058147326E-4  -1.284158934140578E-4  
 2.522000000000000E10    1.864675577962771E-4   2.389563596807420E-4  
 2.524000000000000E10    7.121138041839004E-4   2.940604172181338E-4  
 2.526000000000000E10    1.012991997413337E-3  -2.354413009015843E-4  
 2.528000000000000E10    5.759127088822424E-4  -4.697897747973912E-5  
 2.530000000000000E10   -3.727711737155914E-4   5.677723675034940E-4  
 2.532000000000000E10    2.212484105257317E-4   7.975260377861559E-4  
 2.534000000000000E10    4.071774019394070E-4   3.559964243322611E-4  
 2.536000000000000E10   -5.651525571011007E-4  -5.101361311972141E-4  
 2.538000000000000E10   -7.357067661359906E-4  -5.905286525376141E-5  
 2.540000000000000E10   -4.934884491376579E-4  -3.806008317042142E-4  
 2.542000000000000E10   -2.237377193523571E-4  -6.481346790678799E-4  
 2.544000000000000E10   -1.390580146107823E-4   2.049651666311547E-4  
 2.546000000000000E10   -1.431627606507391E-4  -1.870903215603903E-4  
 2.548000000000000E10    5.216640420258045E-4  -5.642094183713198E-4  
 2.550000000000000E10   -1.947698910953477E-4  -4.609492316376418E-4  
 2.552000000000000E10   -9.075042326003313E-4   3.721131361089647E-4  
 2.554000000000000E10   -2.864673733711243E-4   8.209077641367912E-4  
 2.556000000000000E10    1.572934852447361E-4   7.615250069648027E-4  
 2.558000000000000E10   -8.191775414161384E-4   1.343029725831002E-4  
 2.560000000000000E10   -5.458027590066195E-4  -2.107633008563425E-5  
 2.562000000000000E10   -1.081158057786524E-3  -4.213974170852453E-5  
 2.564000000000000E10   -7.129606092348695E-4   1.990058954106644E-4  
 2.566000000000000E10   -4.241694987285882E-4   3.497413708828390E-4  
 2.568000000000000E10    2.771893923636526E-4  -4.055526806041598E-4  
 2.570000000000000E10   -7.875451410654932E-5  -1.318604627158493E-4  
 2.572000000000000E10   -5.242628394626081E-4  -5.953210638836026E-4  
 2.574000000000000E10   -9.013060480356216E-5   4.031101125292480E-4  
 2.576000000000000E10    3.581732162274420E-4  -1.794765557860956E-5  
 2.578000000000000E10    5.647006910294294E-4  -3.986325100413524E-5  
 2.580000000000000E10   -5.789740243926644E-4  -9.529646922601387E-5  
 2.582000000000000E10   -2.438259689370170E-4   9.546236105961725E-5  
 2.584000000000000E10   -7.763199391774833E-4   4.980766098015010E-4  
 2.586000000000000E10   -5.202820757403970E-4  -4.423796781338751E-4  
 2.588000000000000E10    3.781716804951429E-4  -2.663283958099783E-4  
 2.590000000000000E10   -2.390185400145128E-4  -5.314977024681866E-4  
 2.592000000000000E10   -1.225472224177793E-4  -8.192674140445888E-4  
 2.594000000000000E10    2.117172698490322E-4  -2.409684238955379E-4  
 2.596000000000000E10    6.715173949487507E-4   2.273484133183956E-4  
 2.598000000000000E10    5.057543748989701E-4  -8.674470591358841E-4  
 2.600000000000000E10    5.872394540347159E-4  -7.735077524557710E-4  
 2.602000000000000E10   -1.791824324754998E-4   4.782201722264290E-5  
 2.604000000000000E10    4.456178576219827E-4  -1.035780442180112E-4  
 2.606000000000000E10    3.570122353266925E-4  -2.524533483665437E-4  
 2.608000000000000E10    4.682131693698466E-4  -4.835454747080803E-4  
 2.610000000000000E10    4.098891804460436E-4  -4.914893652312458E-4  
 2.612000000000000E10   -3.815756936091930E-4  -6.724827690050006E-4  
 2.614000000000000E10   -4.566209099721164E-4  -1.071134975063615E-4  
 2.616000000000000E10    5.017051589675248E-4  -5.218637525103986E-4  
 2.618000000000000E10    8.135305834002793E-4  -5.520433769561350E-4  
 2.620000000000000E10    6.457224662881345E-5  -1.163522596471012E-3  
 2.622000000000000E10   -2.893994969781488E-4  -6.188956322148442E-4  
 2.624000000000000E10    3.465339541435242E-4   3.867170598823577E-4  
 2.626000000000000E10    7.732926169410348E-4   2.650505339261144E-4  
 2.628000000000000E10    5.128874909132719E-4  -5.185025656828657E-5  
 2.630000000000000E10    3.731263859663159E-4   2.116486284649000E-4  
 2.632000000000000E10   -5.672810584655963E-5   1.129380834754556E-4  
 2.634000000000000E10    7.946559344418347E-5   5.726548843085766E-4  
 2.636000000000000E10   -4.471634165383875E-4   9.051923407241702E-4  
 2.638000000000000E10    2.460787363816053E-4   5.182257154956460E-4  
 2.640000000000000E10    2.075543161481619E-4   1.539216173114255E-4  
 2.642000000000000E10   -3.782666171900928E-4  -1.964195835171267E-4  
 2.644000000000000E10   -7.004119688645005E-4   7.109228172339499E-4  
 2.646000000000000E10    2.697613672353327E-4   5.900143296457827E-4  
 2.648000000000000E10    7.694699452258647E-4   3.231860755477101E-4  
 2.650000000000000E10    3.346673911437392E-4   2.500127011444420E-4  
 2.652000000000000E10    1.564595440868288E-4   4.926561377942562E-4  
 2.654000000000000E10   -9.411177416041028E-6   6.961264298297465E-4  
 2.656000000000000E10    4.002839559689164E-4   7.569148438051343E-4  
 2.658000000000000E10    2.841055975295603E-4   1.335003646090627E-3  
 2.660000000000000E10    4.316618142183870E-4   2.601502055767924E-4  
 2.662000000000000E10    2.351624279981479E-4   2.155018446501344E-4  
 2.664000000000000E10   -5.830224254168570E-4   5.210649687796831E-4  
 2.666000000000000E10    3.861754084937275E-4   1.116798026487231E-3  
 2.668000000000000E10    7.514514727517963E-4   2.603148168418557E-4  
 2.670000000000000E10    5.652726977132261E-4  -5.749152624048293E-4  
 2.672000000000000E10   -3.233592433389276E-4  -1.914036256494001E-4  
 2.674000000000000E10    1.674447557888925E-4   5.503466236405075E-4  
 2.676000000000000E10    4.085052642039955E-4   1.560034434078261E-4  
 2.678000000000000E10    5.577295669354498E-4  -1.471618452342227E-4  
 2.680000000000000E10    1.539405457151588E-5  -2.458547241985798E-4  
 2.682000000000000E10   -3.524808853399009E-4  -2.006528666242957E-4  
 2.684000000000000E10   -5.770460702478886E-4  -8.375133620575070E-5  
 2.686000000000000E10   -3.782672574743629E-4   2.247086958959699E-4  
 2.688000000000000E10   -7.409533282043412E-5  -9.705851698527113E-5  
 2.690000000000000E10    3.120804612990469E-4  -9.403399890288711E-4  
 2.692000000000000E10   -4.856261657550931E-4  -1.083059119991958E-3  
 2.694000000000000E10   -1.174639328382909E-3  -2.359642821829766E-4  
 2.696000000000000E10   -2.077609387924895E-4   2.129009953932837E-4  
 2.698000000000000E10    6.362532731145620E-4  -5.535949603654444E-4  
 2.700000000000000E10   -2.352757437620312E-4  -1.250037923455238E-3  
 2.702000000000000E10   -1.089551835320890E-3  -5.371937877498567E-4  
 2.704000000000000E10   -7.309031789191067E-4  -5.774791861767881E-5  
 2.706000000000000E10   -1.138254010584205E-4  -2.511168131604791E-4  
 2.708000000000000E10   -3.202155930921435E-4  -1.177793674287386E-4  
 2.710000000000000E10   -4.207530873827636E-4  -5.539363482967019E-4  
 2.712000000000000E10   -1.549073786009103E-4  -1.195173244923353E-3  
 2.714000000000000E10   -8.526188903488219E-4  -4.732371598947793E-4  
 2.716000000000000E10   -6.906999042257667E-4   2.758998016361147E-4  
 2.718000000000000E10    3.583485959097743E-4   5.206513451412320E-4  
 2.720000000000000E10    4.171759064774960E-4  -5.785939283668995E-4  
 2.722000000000000E10   -7.918783230707049E-4  -4.426382947713137E-4  
 2.724000000000000E10   -1.029584673233330E-3   4.477521288208664E-4  
 2.726000000000000E10    1.848065403464716E-5   6.687838467769325E-4  
 2.728000000000000E10   -2.882662738556974E-5  -1.551946188556030E-4  
 2.730000000000000E10    1.831320550991222E-4  -3.346270823385567E-4  
 2.732000000000000E10   -4.695869865827262E-4   1.086691045202315E-4  
 2.734000000000000E10   -1.182705964311026E-4  -7.077210466377437E-4  
 2.736000000000000E10    3.261554520577192E-4   1.058103225659579E-4  
 2.738000000000000E10    2.120375029335264E-5   9.958337614079937E-5  
 2.740000000000000E10    1.045971177518368E-3  -3.208956622984260E-4  
 2.742000000000000E10    7.530104485340416E-4  -2.187222562497482E-4  
 2.744000000000000E10   -9.270653390558437E-5   1.399525644956157E-4  
 2.746000000000000E10    5.513704963959754E-4   5.427004070952535E-4  
 2.748000000000000E10    6.396358949132264E-4   5.487057496793568E-4  
 2.750000000000000E10    3.594253794290125E-4  -1.989648735616356E-4  
 2.752000000000000E10   -1.492502342443913E-4  -1.061759248841554E-4  
 2.754000000000000E10    2.008003093578736E-6   6.552989361807704E-5  
 2.756000000000000E10    3.118945169262588E-4  -1.038152640830958E-5  
