#  HZ   S   RI   R     50.00 
! Rohde & Schwarz ZVA40 4Ports - Version 3.90 - 1145.1110k42 SN: 100403
! Date: 2023-10-04 08:10:44
! Measurement: S12 
! 
 2.200000000000000E10    1.134370686486363E-3  -1.449534902349114E-3  
 2.202000000000000E10    2.256125007988885E-4  -1.851580338552594E-3  
 2.204000000000000E10   -2.526066382415593E-4  -1.840083394199610E-3  
 2.206000000000000E10    4.091384471394122E-4   2.243468588858377E-5  
 2.208000000000000E10    7.284066523425281E-4   5.491140764206648E-4  
 2.210000000000000E10    2.058757934719324E-3   8.370301220566034E-4  
 2.212000000000000E10    1.981247216463089E-3   3.564195822036709E-6  
 2.214000000000000E10   -8.569292840547860E-4  -8.434256887994707E-4  
 2.216000000000000E10   -2.371664391830564E-3   5.219846498221159E-4  
 2.218000000000000E10   -5.397801287472248E-4   2.458978677168489E-3  
 2.220000000000000E10    1.036406960338354E-3  -3.647306584753096E-4  
 2.222000000000000E10   -3.433375968597829E-4  -2.672730013728142E-3  
 2.224000000000000E10   -2.654363866895437E-3  -1.278112293221057E-3  
 2.226000000000000E10   -1.587102073244751E-3   4.242495633661747E-4  
 2.228000000000000E10    1.331730745732784E-3  -5.446263457997702E-5  
 2.230000000000000E10    1.024546916596592E-3  -8.146154577843845E-4  
 2.232000000000000E10    2.973858790937811E-4  -5.633860128000379E-4  
 2.234000000000000E10   -3.696355852298439E-4   3.329271567054093E-4  
 2.236000000000000E10   -9.734513005241752E-4   1.146183116361499E-3  
 2.238000000000000E10   -1.079246168956161E-3   2.050486626103520E-3  
 2.240000000000000E10    3.826919128187001E-4   1.489564194343984E-3  
 2.242000000000000E10   -2.170142543036491E-4  -7.525089895352721E-4  
 2.244000000000000E10   -2.108238637447357E-3  -1.729164738208056E-3  
 2.246000000000000E10   -2.498700050637126E-3   7.842246559448540E-4  
 2.248000000000000E10   -5.059922114014626E-5   1.461431384086609E-3  
 2.250000000000000E10    1.603795913979411E-3  -7.151077152229846E-4  
 2.252000000000000E10    8.967701432993636E-5  -1.498124795034528E-3  
 2.254000000000000E10   -1.317799557000399E-3   4.933044547215104E-4  
 2.256000000000000E10    4.228321995469742E-5   1.274571754038334E-3  
 2.258000000000000E10    6.104794447310269E-4   1.833766931667924E-3  
 2.260000000000000E10    2.151167791453190E-5   7.270768983289599E-4  
 2.262000000000000E10   -1.658569672144949E-4   6.805792800150812E-4  
 2.264000000000000E10   -9.097631555050612E-4  -2.708134998101741E-4  
 2.266000000000000E10   -1.632692641578615E-3   3.455551632214338E-4  
 2.268000000000000E10   -9.714277694001794E-4   1.952958991751075E-3  
 2.270000000000000E10    1.069111400283873E-3   7.171471370384097E-4  
 2.272000000000000E10    1.175531768240035E-3  -1.085598021745682E-3  
 2.274000000000000E10   -1.002456876449287E-3  -1.197605160996318E-3  
 2.276000000000000E10   -1.341390190646052E-3   1.418614760041237E-3  
 2.278000000000000E10    1.386919524520636E-3   1.796353375539184E-3  
 2.280000000000000E10    1.629111357033253E-3   2.763217780739069E-4  
 2.282000000000000E10    8.220226736739278E-4  -5.500647239387035E-4  
 2.284000000000000E10   -5.655965651385486E-4  -1.387221418553963E-4  
 2.286000000000000E10   -7.475068559870124E-4   5.165181937627494E-4  
 2.288000000000000E10   -8.365199028048664E-5   4.015083832200617E-4  
 2.290000000000000E10    1.133982208557427E-3   3.263084799982607E-4  
 2.292000000000000E10    1.312361564487219E-3  -1.337116817012429E-3  
 2.294000000000000E10    2.812698949128389E-4  -2.270139055326581E-3  
 2.296000000000000E10   -1.384011702612042E-3  -1.042326097376645E-3  
 2.298000000000000E10    3.143196227028966E-4   1.516395597718656E-3  
 2.300000000000000E10    2.609288087114692E-3   8.239523594966158E-5  
 2.302000000000000E10    1.248786225914955E-3  -1.738890772685409E-3  
 2.304000000000000E10   -1.651222584769130E-3  -1.416914979927242E-3  
 2.306000000000000E10   -1.103769056499004E-3   6.339370156638324E-4  
 2.308000000000000E10   -7.362034375546500E-5   8.662824984639883E-4  
 2.310000000000000E10    2.160737203666940E-4  -3.469348594080657E-4  
 2.312000000000000E10   -3.392356156837195E-4  -1.696066348813474E-3  
 2.314000000000000E10   -8.617992280051112E-4  -9.382264106534421E-4  
 2.316000000000000E10   -1.289091771468520E-3  -6.610702839680016E-4  
 2.318000000000000E10   -3.777054662350565E-4   3.482155443634838E-4  
 2.320000000000000E10    1.253579859621823E-3   3.334535867907107E-4  
 2.322000000000000E10    8.088094182312489E-4  -1.235105912201107E-3  
 2.324000000000000E10   -6.260413210839033E-4  -1.024477300234139E-3  
 2.326000000000000E10   -1.392165082506836E-3   1.335835200734437E-3  
 2.328000000000000E10    7.871809793869034E-5   1.616224180907011E-3  
 2.330000000000000E10    1.302613643929362E-3   3.727962848643074E-6  
 2.332000000000000E10   -9.755172068253160E-4  -9.528453811071813E-4  
 2.334000000000000E10   -1.709255855530500E-3  -3.515110001899302E-4  
 2.336000000000000E10   -5.970627535134554E-4   5.447457660920918E-4  
 2.338000000000000E10    8.302851347252727E-4   5.115816602483392E-4  
 2.340000000000000E10    8.442492689937353E-4  -5.863960832357407E-4  
 2.342000000000000E10    7.698831614106894E-4  -6.955374847166240E-4  
 2.344000000000000E10   -5.653240368701518E-4   8.362338849110529E-5  
 2.346000000000000E10   -4.358301812317222E-4   4.171279724687338E-4  
 2.348000000000000E10    9.042875899467617E-5   1.913406187668443E-3  
 2.350000000000000E10    1.382630551233888E-3   8.213240653276444E-4  
 2.352000000000000E10    6.873052334412932E-4  -1.362474984489381E-3  
 2.354000000000000E10   -1.796348020434380E-3  -9.569331305101514E-4  
 2.356000000000000E10   -1.217882730998099E-3   1.009818632155657E-3  
 2.358000000000000E10    7.451448473148048E-4   1.522785518318415E-3  
 2.360000000000000E10    1.530689885839820E-3  -8.155795512720943E-4  
 2.362000000000000E10    4.673359799198806E-4  -1.246275962330401E-3  
 2.364000000000000E10   -6.395364762283862E-4  -3.612786240410060E-4  
 2.366000000000000E10   -1.627899036975578E-4   6.274663028307259E-4  
 2.368000000000000E10    5.298102623783052E-4   1.138474442996085E-3  
 2.370000000000000E10    1.012734603136778E-3   6.196476751938462E-4  
 2.372000000000000E10    9.707458084449172E-4  -3.036801936104894E-4  
 2.374000000000000E10   -7.867941167205572E-4  -1.181168714538217E-3  
 2.376000000000000E10   -1.476732431910932E-3   1.557265932206065E-4  
 2.378000000000000E10    3.690558060043259E-6   1.223642146214843E-3  
 2.380000000000000E10    1.539071090519428E-3   3.287566360086203E-4  
 2.382000000000000E10    4.015394661109895E-4  -1.238497556187213E-3  
 2.384000000000000E10   -6.449246429838240E-4  -5.801429506391287E-4  
 2.386000000000000E10   -8.330567507073283E-4   8.195166010409594E-4  
 2.388000000000000E10    6.892514647915959E-4   9.804804576560855E-4  
 2.390000000000000E10    3.950433456338942E-4   3.026926133316010E-4  
 2.392000000000000E10    4.874040678259917E-5  -3.550299152266234E-4  
 2.394000000000000E10   -6.935090059414506E-4   8.807703125057742E-5  
 2.396000000000000E10   -5.123201408423483E-4   3.511844261083752E-4  
 2.398000000000000E10    2.915761142503470E-4   5.950064514763653E-4  
 2.400000000000000E10    2.685888321138918E-4   4.250201163813472E-5  
 2.402000000000000E10    5.017614457756281E-4  -1.065760734491050E-3  
 2.404000000000000E10   -3.435043909121305E-4  -1.334710686933249E-4  
 2.406000000000000E10   -1.265523314941675E-4   1.009073341265321E-3  
 2.408000000000000E10    1.166604459285736E-3   9.508716757409275E-4  
 2.410000000000000E10    8.286602678708732E-4  -1.069326608558185E-4  
 2.412000000000000E10   -1.833271235227585E-4  -5.108356126584113E-4  
 2.414000000000000E10   -1.122721005231142E-3   5.304483347572386E-4  
 2.416000000000000E10   -3.908739017788321E-4   1.402540132403374E-3  
 2.418000000000000E10    9.982191259041429E-4   5.251587717793882E-4  
 2.420000000000000E10    3.822553844656795E-4  -8.871643221937120E-4  
 2.422000000000000E10   -3.403653390705586E-4  -9.666459518484771E-4  
 2.424000000000000E10   -6.607708055526018E-4   2.237978478660807E-4  
 2.426000000000000E10   -1.089951110770926E-4   1.221079728566110E-4  
 2.428000000000000E10    9.436307009309530E-4   4.048105038236827E-4  
 2.430000000000000E10    8.106749155558646E-4  -4.858913307543844E-4  
 2.432000000000000E10   -3.833270166069269E-4  -8.401020313613117E-4  
 2.434000000000000E10   -1.276979688555002E-3  -3.232535964343697E-4  
 2.436000000000000E10   -6.842941511422396E-4   1.028123777359724E-3  
 2.438000000000000E10    4.566557472571731E-4   3.089123347308487E-4  
 2.440000000000000E10    9.498828148934990E-5  -1.097544329240918E-3  
 2.442000000000000E10   -8.377762860618532E-4  -1.013302244246006E-3  
 2.444000000000000E10   -7.495917379856110E-4   1.470793795306236E-4  
 2.446000000000000E10   -4.750588559545577E-4  -2.355442702537403E-4  
 2.448000000000000E10    9.742313704919070E-5  -4.848479875363410E-5  
 2.450000000000000E10   -1.642554270802066E-4   3.878936986438930E-4  
 2.452000000000000E10    3.111128171440214E-4   1.799848978407681E-4  
 2.454000000000000E10   -2.792252635117620E-4  -1.860479824244976E-4  
 2.456000000000000E10   -9.655521134845913E-4   2.088399050990120E-4  
 2.458000000000000E10   -1.537502539576963E-4   6.016173865646124E-4  
 2.460000000000000E10    1.616732042748481E-4  -1.487318077124655E-4  
 2.462000000000000E10    1.615902583580464E-4  -4.934536991640925E-4  
 2.464000000000000E10    5.708956086891703E-5  -3.833816153928638E-4  
 2.466000000000000E10    6.423227023333311E-4  -1.157265214715153E-4  
 2.468000000000000E10   -4.237088069203310E-5  -4.858617612626404E-4  
 2.470000000000000E10   -4.442586941877380E-5   1.345454220427200E-4  
 2.472000000000000E10   -1.326310302829370E-4   8.408755529671907E-4  
 2.474000000000000E10    9.935215348377824E-4   4.718251875601709E-4  
 2.476000000000000E10    1.704966125544161E-4  -5.652014515362680E-4  
 2.478000000000000E10   -1.869664120022208E-4  -3.654684405773878E-4  
 2.480000000000000E10    1.457040161767509E-5   6.046651396900415E-4  
 2.482000000000000E10    5.976950051262975E-4   1.957211316039320E-5  
 2.484000000000000E10    5.191734526306391E-4  -6.573739228770137E-4  
 2.486000000000000E10   -7.906771315902006E-6  -1.207594468723983E-4  
 2.488000000000000E10    2.439929230604321E-4  -2.113060036208481E-4  
 2.490000000000000E10    4.691508656833321E-4  -2.096192911267281E-4  
 2.492000000000000E10    5.341101787053049E-4   1.128272269852459E-4  
 2.494000000000000E10   -2.936325472546741E-5   1.323867909377441E-4  
 2.496000000000000E10    1.866469974629581E-4  -3.536842414177954E-4  
 2.498000000000000E10   -1.305642945226282E-4   9.600958583177999E-5  
 2.500000000000000E10   -4.188821185380220E-4   8.523472934029996E-5  
 2.502000000000000E10    7.199295796453953E-4  -5.169035284779966E-5  
 2.504000000000000E10    4.145354323554784E-4  -1.416057784808800E-4  
 2.506000000000000E10   -2.904040447901934E-4  -2.740698109846562E-4  
 2.508000000000000E10   -8.164006867446005E-4   5.524468724615872E-4  
 2.510000000000000E10    7.086374680511653E-4   9.453219827264547E-4  
 2.512000000000000E10    2.374380710534751E-5   5.290641565807164E-4  
 2.514000000000000E10    4.272998776286840E-4  -5.187683273106813E-4  
 2.516000000000000E10   -2.776021137833595E-4   4.238876572344452E-4  
 2.518000000000000E10   -4.543373361229897E-4   5.565495812334120E-4  
 2.520000000000000E10    5.453295889310539E-4   8.440772653557360E-4  
 2.522000000000000E10    4.757848510053009E-4   4.978383658453822E-4  
 2.524000000000000E10    5.960061753285117E-5  -1.328513899352402E-4  
 2.526000000000000E10    9.129996760748327E-5   1.020746713038534E-4  
 2.528000000000000E10   -6.659413920715451E-4   7.083013188093901E-4  
 2.530000000000000E10   -2.750940620899200E-4   1.032476313412190E-3  
 2.532000000000000E10    4.710828361567110E-4   2.734518784563988E-4  
 2.534000000000000E10    3.301244869362563E-4  -1.353728875983506E-4  
 2.536000000000000E10   -8.804225362837315E-4  -9.923387551680207E-4  
 2.538000000000000E10   -8.582497248426080E-4  -2.107733598677442E-4  
 2.540000000000000E10   -8.958955004345626E-5   2.883832785300911E-4  
 2.542000000000000E10    7.842946797609329E-4  -2.324791275896132E-4  
 2.544000000000000E10    3.312213229946792E-4  -5.636006826534867E-4  
 2.546000000000000E10   -1.933062449097633E-4   3.209313217666932E-5  
 2.548000000000000E10   -7.203697459772229E-4  -1.552588655613363E-4  
 2.550000000000000E10   -2.396116033196449E-4   1.013748813420534E-3  
 2.552000000000000E10   -3.647223929874599E-4   5.056261434219778E-4  
 2.554000000000000E10   -8.393257303396240E-5  -7.231457275338471E-4  
 2.556000000000000E10   -1.012558816000819E-3  -7.820239989086986E-4  
 2.558000000000000E10   -1.019412185996771E-3  -8.803013042779639E-5  
 2.560000000000000E10   -6.826800381531939E-5   2.087111352011561E-4  
 2.562000000000000E10    9.342331322841346E-4  -3.781222912948579E-4  
 2.564000000000000E10    5.145711111254059E-5  -1.491051283665001E-3  
 2.566000000000000E10   -2.899788378272206E-4   3.159019979648292E-5  
 2.568000000000000E10   -4.120590456295759E-4   5.522227147594094E-4  
 2.570000000000000E10    4.500352079048753E-4   7.116031483747065E-4  
 2.572000000000000E10    1.440556225134060E-4   3.017797716893256E-4  
 2.574000000000000E10   -1.138103179982863E-4  -5.844074767082930E-4  
 2.576000000000000E10   -9.138580644503236E-4  -5.393964820541441E-4  
 2.578000000000000E10   -1.224308856762946E-3   4.294291720725596E-4  
 2.580000000000000E10   -1.746178168104962E-4  -1.536175550427288E-4  
 2.582000000000000E10    8.542311261408031E-4  -1.826669031288475E-4  
 2.584000000000000E10    1.513008173787966E-4  -1.386717893183231E-3  
 2.586000000000000E10   -2.979956916533411E-4  -6.552882259711623E-4  
 2.588000000000000E10   -3.362036950420588E-4   5.883702542632818E-4  
 2.590000000000000E10    9.669227874837816E-4   5.932338535785675E-4  
 2.592000000000000E10    7.097458583302796E-4  -1.130356904468499E-4  
 2.594000000000000E10    1.693287922535092E-4  -4.227765020914376E-4  
 2.596000000000000E10   -6.217209738679230E-4   6.677322744508274E-6  
 2.598000000000000E10   -4.240025591570884E-4  -6.287259748205543E-5  
 2.600000000000000E10    4.598450905177742E-4   5.288591491989791E-4  
 2.602000000000000E10    6.617396138608456E-4  -1.303921599173918E-4  
 2.604000000000000E10    1.049357699230313E-3  -1.113170757889748E-3  
 2.606000000000000E10    1.867659011622891E-4  -7.343276520259678E-4  
 2.608000000000000E10   -1.973757462110370E-4   6.363607244566083E-4  
 2.610000000000000E10    7.657122914679349E-4   8.145070751197636E-4  
 2.612000000000000E10    1.074719475582242E-3   3.164241570630111E-5  
 2.614000000000000E10    1.290370128117502E-4  -3.740723477676511E-4  
 2.616000000000000E10   -3.867802297463641E-5  -3.550966503098607E-4  
 2.618000000000000E10   -3.128345997538418E-4   5.083130090497434E-4  
 2.620000000000000E10    3.446981718298048E-4   1.299696596106514E-4  
 2.622000000000000E10    6.783613935112953E-4   1.173731361632235E-4  
 2.624000000000000E10    5.654358537867665E-4   8.724649524083361E-5  
 2.626000000000000E10    3.185053938068450E-4  -8.067738235695288E-5  
 2.628000000000000E10   -4.109787405468524E-4   4.830758844036609E-4  
 2.630000000000000E10    2.820781955961138E-4   9.559713653288782E-4  
 2.632000000000000E10    6.513817352242768E-4   7.421855116263032E-4  
 2.634000000000000E10    3.991902340203524E-4  -2.920904662460089E-4  
 2.636000000000000E10   -5.417036009021103E-4  -4.999592420062982E-5  
 2.638000000000000E10   -5.304841324687004E-4   7.763390312902629E-4  
 2.640000000000000E10    1.273677626159042E-4   6.450743530876935E-4  
 2.642000000000000E10    3.290923195891082E-4   2.113269147230312E-4  
 2.644000000000000E10   -4.097292912774719E-5  -1.737222482915968E-4  
 2.646000000000000E10   -1.410051336279139E-4   4.139323427807540E-4  
 2.648000000000000E10   -3.736986254807562E-4   6.566693773493171E-4  
 2.650000000000000E10   -1.376444124616683E-4   7.061692303977907E-4  
 2.652000000000000E10    2.188842627219856E-4   7.336091948673129E-4  
 2.654000000000000E10    2.132196823367849E-5   5.155257531441748E-4  
 2.656000000000000E10   -5.338890478014946E-4   3.620365168899298E-4  
 2.658000000000000E10   -1.021133153699338E-3   7.526287809014320E-4  
 2.660000000000000E10   -2.597137354314327E-4   7.758280844427645E-4  
 2.662000000000000E10    3.255059127695859E-4   4.046034009661526E-4  
 2.664000000000000E10    1.217172248288989E-4  -2.229293604614213E-4  
 2.666000000000000E10   -6.298369844444096E-4   1.565565617056564E-4  
 2.668000000000000E10   -5.856591815245338E-5   2.076848613796756E-4  
 2.670000000000000E10    3.079665766563267E-4   7.179056410677731E-4  
 2.672000000000000E10   -1.378713786834851E-4   2.600689476821572E-4  
 2.674000000000000E10    1.202889616251923E-4   4.064876702614129E-4  
 2.676000000000000E10    5.969570338493213E-5  -3.408420598134399E-4  
 2.678000000000000E10   -4.149201558902860E-4  -2.180966839659959E-4  
 2.680000000000000E10   -7.113650790415704E-4   2.829315490089357E-4  
 2.682000000000000E10    3.388995246496052E-4   4.122512764297426E-4  
 2.684000000000000E10    3.007253108080477E-4  -5.233922274783254E-4  
 2.686000000000000E10    1.556300703668967E-4  -1.118398969992995E-3  
 2.688000000000000E10   -7.269100751727819E-4  -4.250082711223513E-4  
 2.690000000000000E10   -2.462375050527044E-5  -1.209066322189756E-4  
 2.692000000000000E10    2.699569449760020E-4  -2.224645286332816E-4  
 2.694000000000000E10    5.183263565413654E-4  -8.581457659602165E-4  
 2.696000000000000E10   -1.232078211614862E-4  -4.636653757188469E-4  
 2.698000000000000E10   -2.847699797712266E-4  -8.393137250095606E-4  
 2.700000000000000E10   -5.180708249099553E-4  -1.994452904909849E-4  
 2.702000000000000E10   -2.629528171382844E-4  -7.008104585111141E-4  
 2.704000000000000E10    5.109287449158728E-4  -6.165687227621675E-4  
 2.706000000000000E10   -6.787434540456161E-5  -1.195477903820574E-3  
 2.708000000000000E10   -3.842013538815081E-4  -8.105867891572416E-4  
 2.710000000000000E10   -2.373266761424020E-4   1.031749343383126E-4  
 2.712000000000000E10    7.544164545834065E-4  -1.024449666147120E-4  
 2.714000000000000E10    1.077327251550742E-4  -4.974270705133677E-4  
 2.716000000000000E10   -5.510867922566831E-4  -6.717855576425791E-4  
 2.718000000000000E10   -1.821765908971429E-4   3.296014328952879E-4  
 2.720000000000000E10   -6.734220369253308E-5   1.788554218364880E-4  
 2.722000000000000E10   -7.644136348972097E-5  -4.166665894445032E-4  
 2.724000000000000E10   -7.694568921579048E-5  -1.725129004626069E-5  
 2.726000000000000E10   -7.868326792959124E-5   3.603229561122134E-5  
 2.728000000000000E10   -1.258363918168470E-4  -8.453582995571196E-5  
 2.730000000000000E10   -4.824526695301756E-5   2.160069125238806E-4  
 2.732000000000000E10    2.871438628062606E-4   7.399361929856241E-4  
 2.734000000000000E10    3.594955196604133E-4  -3.579058102332056E-4  
 2.736000000000000E10    3.129953984171152E-4  -2.096058597089723E-4  
 2.738000000000000E10   -5.794565076939762E-4   5.536425160244107E-4  
 2.740000000000000E10    3.073037078138441E-4   4.156111099291593E-4  
 2.742000000000000E10    9.865097235888243E-4   2.048226451734081E-5  
 2.744000000000000E10    3.598228213377297E-4   7.415489380946383E-5  
 2.746000000000000E10   -6.031043085386045E-5  -9.585316001903266E-5  
 2.748000000000000E10    6.140535697340965E-4   2.405171981081367E-4  
 2.750000000000000E10   -3.863411620841362E-5   3.537513839546591E-4  
 2.752000000000000E10    3.133962745778263E-4   5.076932720839977E-4  
 2.754000000000000E10    8.183545432984829E-4   5.679514142684639E-4  
 2.756000000000000E10    5.169583600945771E-4   2.215240529039875E-4  
