#  HZ   S   RI   R     50.00 
! Rohde & Schwarz ZVA40 4Ports - Version 3.90 - 1145.1110k42 SN: 100403
! Date: 2023-10-04 08:10:24
! Measurement: S12 
! 
 2.200000000000000E10    1.077730092220008E-3  -2.391146263107657E-3  
 2.202000000000000E10   -6.637405022047460E-4   9.478588617639616E-5  
 2.204000000000000E10    4.787808575201780E-4   2.183004282414913E-3  
 2.206000000000000E10    2.260048408061266E-3   1.652878941968083E-3  
 2.208000000000000E10    8.141743601299822E-4  -1.888487022370100E-4  
 2.210000000000000E10   -5.634732078760862E-4  -4.566203642752953E-5  
 2.212000000000000E10   -1.405096496455371E-3   7.548716966994107E-4  
 2.214000000000000E10   -6.483807810582221E-4   8.015945786610246E-4  
 2.216000000000000E10   -9.626944665797055E-5  -5.498312384588644E-5  
 2.218000000000000E10    7.565916748717427E-4  -7.528099231421948E-4  
 2.220000000000000E10    2.997619449160993E-4  -2.023677108809352E-3  
 2.222000000000000E10   -5.366874975152314E-4  -1.504010870121419E-3  
 2.224000000000000E10   -5.783584201708436E-4   1.157908234745264E-3  
 2.226000000000000E10    1.273093745112419E-3   1.242546597495675E-3  
 2.228000000000000E10    2.091411268338561E-3  -7.897965260781348E-4  
 2.230000000000000E10   -1.036734320223332E-3  -1.216679811477661E-3  
 2.232000000000000E10   -2.482430776581168E-3   6.955392309464514E-4  
 2.234000000000000E10   -2.284263173351064E-4   1.865079626441002E-3  
 2.236000000000000E10    3.658957430161536E-4  -2.698734460864216E-4  
 2.238000000000000E10   -5.978704430162907E-4  -2.020135056227446E-3  
 2.240000000000000E10   -1.366272219456732E-3  -9.667194099165499E-4  
 2.242000000000000E10   -1.228094566613436E-3  -6.102542974986136E-4  
 2.244000000000000E10   -5.468012532219291E-4  -2.623581676743925E-4  
 2.246000000000000E10    4.239031695760787E-4   2.283905923832208E-4  
 2.248000000000000E10    1.028212485834956E-3  -4.752082750201225E-4  
 2.250000000000000E10    7.421847840305418E-5  -1.242939266376197E-3  
 2.252000000000000E10   -1.779872574843466E-3  -1.250006753252819E-4  
 2.254000000000000E10   -1.467434107325971E-3   2.008735202252865E-3  
 2.256000000000000E10    6.975252763368189E-4   1.516004558652639E-3  
 2.258000000000000E10    1.372838887618855E-4  -1.100062159821391E-3  
 2.260000000000000E10   -1.489410409703851E-3  -1.681847730651498E-3  
 2.262000000000000E10   -2.000428969040513E-3   1.182008418254554E-4  
 2.264000000000000E10   -2.010950556723401E-4   5.004976992495358E-4  
 2.266000000000000E10    4.771706298924983E-4   6.441422010539100E-5  
 2.268000000000000E10   -2.133479429176077E-4  -4.523097886703908E-4  
 2.270000000000000E10   -1.046697652782314E-4  -5.688315723091364E-4  
 2.272000000000000E10   -6.290460005402565E-4   1.525001571280882E-4  
 2.274000000000000E10   -9.142332710325718E-4   7.758163847029209E-4  
 2.276000000000000E10   -2.841985551640391E-4   1.577887567691505E-3  
 2.278000000000000E10    8.743894868530333E-4   3.501651808619499E-4  
 2.280000000000000E10   -1.480710780015215E-4  -5.047832964919508E-4  
 2.282000000000000E10   -1.767196692526341E-3  -1.523115090094507E-3  
 2.284000000000000E10   -5.655810236930847E-4   1.882498152554035E-3  
 2.286000000000000E10    1.194856595247984E-3   9.262280073016882E-4  
 2.288000000000000E10    1.249801600351930E-3  -1.448291703127325E-3  
 2.290000000000000E10   -2.089006738970056E-4  -6.996740703471005E-4  
 2.292000000000000E10   -1.493451272835955E-4   3.789603651966900E-4  
 2.294000000000000E10    1.064784475602210E-3   1.072429819032550E-3  
 2.296000000000000E10    1.500421552918851E-3   4.289303324185312E-4  
 2.298000000000000E10    1.021976000629365E-3   5.123979644849896E-4  
 2.300000000000000E10    2.542973088566214E-4  -5.003378028050065E-4  
 2.302000000000000E10   -4.929779097437859E-4  -6.241654045879841E-5  
 2.304000000000000E10   -1.039743074215949E-3   8.631729288026691E-4  
 2.306000000000000E10    1.079337438568473E-3   8.513742941431701E-4  
 2.308000000000000E10    1.368860015645623E-3  -1.416628714650869E-3  
 2.310000000000000E10   -2.626878558658063E-4  -2.747542923316360E-3  
 2.312000000000000E10   -1.118181506171823E-3  -2.287111565237865E-4  
 2.314000000000000E10    4.897640319541097E-4   8.307202951982617E-4  
 2.316000000000000E10    2.384982071816921E-3  -3.430732467677444E-4  
 2.318000000000000E10    1.282602432183921E-3  -1.534891431219876E-3  
 2.320000000000000E10   -3.752446791622788E-4  -4.230920458212495E-4  
 2.322000000000000E10   -5.158577114343643E-4   4.689116904046387E-4  
 2.324000000000000E10   -1.411351549904794E-4   1.030758023262024E-3  
 2.326000000000000E10   -7.602933328598738E-5   9.323968552052975E-4  
 2.328000000000000E10   -3.990419281763025E-5  -8.844781550578773E-4  
 2.330000000000000E10   -4.942707601003349E-4  -1.443097600713372E-3  
 2.332000000000000E10   -1.803342718631029E-3  -9.740964742377400E-4  
 2.334000000000000E10   -3.601099597290158E-4   3.588476101867855E-4  
 2.336000000000000E10    1.680284738540649E-3   6.989756366237998E-4  
 2.338000000000000E10    1.432422897778451E-3  -9.693732135929167E-4  
 2.340000000000000E10   -3.530783287715167E-4  -8.017231593839824E-4  
 2.342000000000000E10   -9.416816756129265E-4   1.089115277864039E-3  
 2.344000000000000E10   -4.731429216917604E-4   1.639005145989358E-3  
 2.346000000000000E10    9.061439050128683E-5   9.037323761731386E-4  
 2.348000000000000E10   -2.007114089792594E-4   2.568412455730140E-4  
 2.350000000000000E10   -8.185482001863420E-4  -3.753551864065230E-4  
 2.352000000000000E10   -5.354215973056853E-4  -5.327749531716108E-4  
 2.354000000000000E10   -7.423241622745991E-4  -7.672806532355025E-5  
 2.356000000000000E10    2.401260571787134E-4   4.326325142756105E-4  
 2.358000000000000E10    1.126529532484710E-3  -1.070878206519410E-4  
 2.360000000000000E10    4.641872365027666E-4  -6.501378375105560E-4  
 2.362000000000000E10   -5.401285598054528E-4   3.822172584477812E-4  
 2.364000000000000E10    1.233949005836621E-4   1.341692754067481E-3  
 2.366000000000000E10    6.720342207700014E-4   1.217380166053772E-3  
 2.368000000000000E10   -8.402226376347244E-5  -3.038573486264795E-4  
 2.370000000000000E10   -8.266814984381199E-4  -1.279892312595621E-4  
 2.372000000000000E10   -8.885986171662808E-4   2.417900541331619E-4  
 2.374000000000000E10    3.607205289881676E-4  -1.124268164858222E-4  
 2.376000000000000E10    6.439542048610747E-4  -5.586662446148694E-4  
 2.378000000000000E10    5.088760517537594E-4  -5.507004098035395E-4  
 2.380000000000000E10    1.674872619332746E-4  -5.138129927217960E-4  
 2.382000000000000E10   -4.534807521849871E-4   4.691260692197830E-4  
 2.384000000000000E10   -1.751176569086965E-5   1.036774716340005E-3  
 2.386000000000000E10    5.414363113231957E-4   6.207525730133057E-4  
 2.388000000000000E10    2.701802586670965E-4  -6.626832182519138E-4  
 2.390000000000000E10   -1.515319221653044E-3  -9.548016823828220E-4  
 2.392000000000000E10   -2.042463514953852E-3   2.940805279649794E-4  
 2.394000000000000E10   -1.847917519626208E-5   1.044726115651429E-3  
 2.396000000000000E10    5.519592668861151E-4  -5.532557261176407E-4  
 2.398000000000000E10    7.854748400859535E-5  -1.552846515551209E-3  
 2.400000000000000E10   -6.656353361904621E-4  -8.479391690343618E-4  
 2.402000000000000E10   -5.587163032032549E-4   7.794987759552896E-4  
 2.404000000000000E10   -2.561013388913125E-4   4.465896054171026E-4  
 2.406000000000000E10    3.721250686794519E-4   4.877531901001930E-4  
 2.408000000000000E10   -1.351760729448870E-4  -1.605864817975089E-4  
 2.410000000000000E10   -1.063096337020397E-3  -5.832220194861293E-4  
 2.412000000000000E10   -1.580561511218548E-3   4.999594530090690E-4  
 2.414000000000000E10   -5.654345150105655E-4   5.189627408981323E-4  
 2.416000000000000E10    5.454110796563327E-4   4.360460152383894E-4  
 2.418000000000000E10   -5.648269961966435E-6  -6.841793656349182E-4  
 2.420000000000000E10   -2.805838885251433E-4  -4.281427663954673E-6  
 2.422000000000000E10   -4.179370589554310E-4   5.082834395579994E-4  
 2.424000000000000E10    2.075963420793414E-4   8.533485233783722E-4  
 2.426000000000000E10    3.675277985166758E-4   3.491591196507216E-4  
 2.428000000000000E10    2.946322783827782E-4  -3.174669400323182E-4  
 2.430000000000000E10    5.930902989348397E-5   5.752671859227121E-5  
 2.432000000000000E10   -3.712407124112360E-5  -3.099248569924384E-4  
 2.434000000000000E10    4.964614636264741E-4  -3.483991022221744E-4  
 2.436000000000000E10    5.856826101080515E-5  -1.854755828389898E-4  
 2.438000000000000E10    2.724690712057054E-4  -2.227634395239875E-4  
 2.440000000000000E10    7.372554973699153E-4  -2.329360140720382E-4  
 2.442000000000000E10    3.544748469721526E-4  -3.179541090503335E-4  
 2.444000000000000E10    2.361921797273681E-4  -2.978290140163153E-4  
 2.446000000000000E10    1.484208769397810E-4  -5.633359542116523E-4  
 2.448000000000000E10   -8.854836778482422E-6  -2.409435983281583E-4  
 2.450000000000000E10   -5.806304980069399E-4  -1.135069032898173E-4  
 2.452000000000000E10    5.083234864287078E-4  -6.747731240466237E-4  
 2.454000000000000E10    1.263297745026648E-4  -7.941707153804600E-4  
 2.456000000000000E10   -9.668395796325058E-5  -1.037520822137594E-3  
 2.458000000000000E10   -2.528893237467855E-4  -4.178590024821460E-4  
 2.460000000000000E10    8.658595615997911E-4  -1.039376002154313E-4  
 2.462000000000000E10    5.623084725812078E-4  -2.939743571914733E-4  
 2.464000000000000E10    3.629215643741190E-5  -7.547343266196549E-4  
 2.466000000000000E10    3.632134394138120E-5   1.205780154123204E-5  
 2.468000000000000E10   -4.012989302282222E-5  -2.080331905744970E-4  
 2.470000000000000E10   -1.170070900116116E-4  -6.703952094540000E-4  
 2.472000000000000E10   -7.007305393926799E-4  -2.927652967628092E-4  
 2.474000000000000E10   -4.677810647990555E-4  -5.338135815691203E-5  
 2.476000000000000E10   -5.443761474452913E-4  -1.933877065312117E-4  
 2.478000000000000E10   -7.456464663846418E-5  -1.879860355984420E-4  
 2.480000000000000E10    1.663384609855712E-4   9.217095794156194E-5  
 2.482000000000000E10    6.186971586430445E-5  -2.498120302334428E-4  
 2.484000000000000E10   -3.939864400308579E-4   5.211559473536909E-4  
 2.486000000000000E10   -6.766330916434526E-4   1.267014420591295E-3  
 2.488000000000000E10    6.632905569858849E-4   1.126748393289745E-3  
 2.490000000000000E10    4.767195787280798E-4   4.877838946413249E-4  
 2.492000000000000E10   -6.859518471173942E-4  -4.123464459553361E-4  
 2.494000000000000E10   -1.222541322931647E-3   4.584889393299818E-4  
 2.496000000000000E10   -3.470303781796247E-4   9.178118780255318E-4  
 2.498000000000000E10    8.931681513786316E-4   4.941115039400756E-4  
 2.500000000000000E10    2.246034855488688E-4  -4.115043848287314E-4  
 2.502000000000000E10    7.761082815704867E-5  -5.828273715451360E-4  
 2.504000000000000E10   -2.806718694046140E-4   6.558282766491175E-4  
 2.506000000000000E10   -4.452847642824054E-4   7.564874831587076E-4  
 2.508000000000000E10    6.172650610096753E-4   7.487282273359597E-4  
 2.510000000000000E10    2.600569569040090E-4  -1.685043571342249E-5  
 2.512000000000000E10   -4.024564696010202E-4  -6.019620341248810E-4  
 2.514000000000000E10   -9.594945586286485E-4  -9.053421672433615E-5  
 2.516000000000000E10   -4.286397597752512E-4   9.135041036643088E-4  
 2.518000000000000E10    5.036583752371371E-4   2.310018608113751E-4  
 2.520000000000000E10    7.592601468786597E-4  -8.825794211588800E-4  
 2.522000000000000E10   -4.255818203091621E-4  -7.211659103631973E-4  
 2.524000000000000E10   -7.565889973193407E-4   1.608552556717768E-4  
 2.526000000000000E10    1.740390189297614E-6   7.497001206502318E-4  
 2.528000000000000E10    1.964677503565326E-4   2.046751906163991E-4  
 2.530000000000000E10   -2.226551732746884E-4  -4.964841646142304E-4  
 2.532000000000000E10   -5.268091917969286E-4  -5.134391249157488E-4  
 2.534000000000000E10   -9.714073967188597E-4   1.055738539434969E-4  
 2.536000000000000E10   -3.362946154084057E-4   2.087703032884747E-4  
 2.538000000000000E10    6.563827628269792E-4  -2.245329960715026E-4  
 2.540000000000000E10    2.487510209903121E-4  -9.678828064352274E-4  
 2.542000000000000E10   -1.635921507840976E-4  -1.008924446068704E-3  
 2.544000000000000E10   -3.187083930242807E-4   5.868455627933145E-4  
 2.546000000000000E10   -1.004505429591518E-5   4.695267125498503E-4  
 2.548000000000000E10    1.014382694847882E-3  -3.518953162711114E-4  
 2.550000000000000E10   -6.937913713045418E-5  -9.521725005470216E-4  
 2.552000000000000E10   -9.303677361458540E-4  -8.411054732277989E-4  
 2.554000000000000E10   -3.289465093985200E-4  -1.791965769371018E-4  
 2.556000000000000E10    4.115297051612288E-4   1.630468032089993E-4  
 2.558000000000000E10    7.494188612326980E-4  -5.375536857172847E-4  
 2.560000000000000E10    6.231550360098481E-4  -8.770495187491179E-4  
 2.562000000000000E10   -2.927329333033413E-4  -7.383241900242865E-4  
 2.564000000000000E10   -4.226955934427679E-4  -9.756309736985713E-5  
 2.566000000000000E10   -2.676593430805951E-4   7.294802344404161E-4  
 2.568000000000000E10    5.210399394854903E-4  -1.555719209136441E-4  
 2.570000000000000E10    4.504037497099489E-5  -8.602762827649713E-4  
 2.572000000000000E10   -9.571980917826295E-4  -9.623890509828925E-4  
 2.574000000000000E10   -8.425409905612469E-4   2.293503712280653E-5  
 2.576000000000000E10    3.071672399528325E-4  -3.149587137158960E-4  
 2.578000000000000E10    1.194835524074733E-3  -3.701919049490243E-4  
 2.580000000000000E10   -4.901052307104692E-5  -7.335144327953458E-4  
 2.582000000000000E10    3.729626769199967E-4  -2.850608434528112E-4  
 2.584000000000000E10   -4.073363379575312E-4   9.559898753650487E-4  
 2.586000000000000E10    1.128145522670820E-4   6.630492862313986E-4  
 2.588000000000000E10    6.713856128044426E-4   7.714574458077550E-4  
 2.590000000000000E10    3.266778658144176E-4  -3.398854169063270E-4  
 2.592000000000000E10   -3.367885656189174E-4  -2.949689514935017E-4  
 2.594000000000000E10   -4.491393046919256E-4   5.315218004398048E-5  
 2.596000000000000E10    5.330396234057844E-4   7.347463397309184E-4  
 2.598000000000000E10    1.150912954472005E-3   2.619990846142173E-5  
 2.600000000000000E10    5.916488589718938E-4  -5.692067788913846E-4  
 2.602000000000000E10   -8.405692824453581E-6  -1.183956192107871E-4  
 2.604000000000000E10    1.345929777016863E-4   9.672525338828564E-4  
 2.606000000000000E10    1.048572521540336E-4   1.086681731976569E-3  
 2.608000000000000E10    5.358350463211536E-4   2.523802686482668E-4  
 2.610000000000000E10   -3.816366734099574E-5  -1.986228562600445E-5  
 2.612000000000000E10   -4.728312778752297E-4  -2.874582714866847E-4  
 2.614000000000000E10   -8.779967320151627E-4   1.549232692923397E-4  
 2.616000000000000E10    1.758291182341054E-4   3.846878826152533E-4  
 2.618000000000000E10    1.056147273629904E-3   2.133789530489594E-4  
 2.620000000000000E10    4.926727269776166E-4  -4.963076207786799E-4  
 2.622000000000000E10   -7.458266336470842E-4  -9.493413017480634E-6  
 2.624000000000000E10   -8.239317103289068E-4   1.136520993895829E-3  
 2.626000000000000E10    2.658166295077535E-6   1.319311559200287E-3  
 2.628000000000000E10    2.010570751735941E-4   1.793195115169510E-4  
 2.630000000000000E10   -4.599238163791597E-4  -3.362430143170059E-4  
 2.632000000000000E10   -9.100727620534599E-4  -1.124803820857778E-4  
 2.634000000000000E10   -1.484492386225611E-4   6.126475054770708E-4  
 2.636000000000000E10   -1.937521738000214E-4   4.795152344740927E-4  
 2.638000000000000E10    5.521968123503029E-4   2.648565859999508E-4  
 2.640000000000000E10    6.427107291528955E-5  -4.365237255115062E-4  
 2.642000000000000E10   -5.071578780189157E-4  -2.438372757751495E-4  
 2.644000000000000E10   -1.268757856450975E-3   1.075055915862322E-3  
 2.646000000000000E10   -1.916240435093641E-4   4.196128866169602E-4  
 2.648000000000000E10    1.480936189182103E-4   1.154044439317659E-4  
 2.650000000000000E10   -7.721871370449662E-4  -1.005363883450627E-3  
 2.652000000000000E10   -8.741515921428800E-4  -1.977537031052634E-4  
 2.654000000000000E10   -1.167092472314835E-3  -1.721054431982338E-4  
 2.656000000000000E10    4.826689255423844E-4  -1.547160500194877E-4  
 2.658000000000000E10   -1.718227285891771E-4  -3.451009688433260E-4  
 2.660000000000000E10    1.576897630002350E-4  -6.281955866143107E-4  
 2.662000000000000E10   -3.325998841319233E-4   5.989074124954641E-4  
 2.664000000000000E10   -3.510116366669536E-4  -1.430111733498052E-4  
 2.666000000000000E10   -2.293081488460302E-4   5.799342179670930E-4  
 2.668000000000000E10   -3.315803187433630E-4   1.203890424221754E-4  
 2.670000000000000E10   -1.457691541872919E-4  -2.076976088574156E-4  
 2.672000000000000E10   -7.842632476240397E-4  -8.858585497364402E-4  
 2.674000000000000E10   -6.307467265287414E-5  -2.995167160406709E-4  
 2.676000000000000E10   -2.798501227516681E-4  -2.301521453773603E-4  
 2.678000000000000E10    7.056558970361948E-4  -5.403044633567333E-4  
 2.680000000000000E10   -1.206501256092452E-4  -1.216376258525997E-4  
 2.682000000000000E10    1.531971356598660E-4  -4.274775710655376E-5  
 2.684000000000000E10    2.134083042619750E-4   4.741431330330670E-4  
 2.686000000000000E10    9.042304736794904E-5  -1.097155472962186E-4  
 2.688000000000000E10   -1.230306497745914E-5   3.895043391821673E-6  
 2.690000000000000E10    1.467509282520041E-4  -3.233128227293491E-4  
 2.692000000000000E10    1.732421224005520E-4  -6.494081462733448E-4  
 2.694000000000000E10   -4.122883910895325E-5  -5.372838932089508E-4  
 2.696000000000000E10    3.996467276010662E-4   1.315716363023967E-4  
 2.698000000000000E10    1.008534687571228E-3  -5.423622787930071E-4  
 2.700000000000000E10    1.443864195607603E-3  -8.060809923335910E-4  
 2.702000000000000E10    4.158993833698332E-4  -4.713705857284367E-4  
 2.704000000000000E10    5.137970438227058E-4   3.233324969187379E-5  
 2.706000000000000E10    8.380950312130153E-4   2.558740379754454E-4  
 2.708000000000000E10    2.679164754226804E-4   1.654036313993856E-4  
 2.710000000000000E10   -1.791256654541940E-4   1.202914936584421E-4  
 2.712000000000000E10    1.519585493952036E-4  -3.821733116637915E-4  
 2.714000000000000E10   -2.139099815394729E-4  -2.150497166439891E-4  
 2.716000000000000E10   -1.118779910029843E-4  -3.443333262111992E-4  
 2.718000000000000E10    3.951513790525496E-4   1.424570509698242E-4  
 2.720000000000000E10    6.325662834569812E-4  -4.655733064282686E-4  
 2.722000000000000E10    1.873671717476100E-4  -2.812538878060877E-4  
 2.724000000000000E10   -5.481920088641346E-4   4.037735634483397E-4  
 2.726000000000000E10    1.692897640168667E-4   8.322413777932525E-4  
 2.728000000000000E10    2.117741241818294E-4   2.695659932214767E-4  
 2.730000000000000E10    1.462715881643817E-4   3.171972348354757E-4  
 2.732000000000000E10   -8.649852243252099E-4   4.568647709675133E-4  
 2.734000000000000E10   -5.853649781784043E-5   8.265555152320303E-6  
 2.736000000000000E10   -5.677524604834616E-4   1.770947128534317E-4  
 2.738000000000000E10   -5.539206904359162E-4   1.285663747694343E-4  
 2.740000000000000E10    3.574441652745009E-4   5.309005500748754E-4  
 2.742000000000000E10    5.929239559918642E-4   5.037234514020383E-4  
 2.744000000000000E10   -1.386961957905442E-4   8.182257442967966E-5  
 2.746000000000000E10   -2.223754127044231E-4   6.540705799125135E-4  
 2.748000000000000E10   -1.764325133990496E-4   1.466101035475731E-3  
 2.750000000000000E10   -2.762811491265893E-4   4.349863447714597E-4  
 2.752000000000000E10   -5.371213192120194E-4   5.067565944045782E-4  
 2.754000000000000E10   -7.209091563709080E-4   5.777620244771242E-4  
 2.756000000000000E10   -1.576404465595260E-4  -6.412219954654574E-5  
