#  HZ   S   RI   R     50.00 
! Rohde & Schwarz ZVA40 4Ports - Version 3.90 - 1145.1110k42 SN: 100403
! Date: 2023-10-04 08:10:02
! Measurement: S12 
! 
 2.200000000000000E10   -3.979054454248399E-4   9.103410993702710E-4  
 2.202000000000000E10    3.999751352239400E-4   1.728622941300273E-3  
 2.204000000000000E10    6.717232172377408E-4   4.893321311101317E-4  
 2.206000000000000E10   -4.462182696443051E-4  -4.943849053233862E-4  
 2.208000000000000E10   -3.066902747377753E-3   2.416052448097616E-4  
 2.210000000000000E10   -8.790639112703502E-4   1.572716864757240E-3  
 2.212000000000000E10    9.181178756989539E-4   1.175575307570398E-3  
 2.214000000000000E10    5.942528950981796E-4  -1.559741911478341E-3  
 2.216000000000000E10   -7.572447066195309E-4  -1.321635907515883E-3  
 2.218000000000000E10   -7.813377887941897E-4   7.447872194461525E-4  
 2.220000000000000E10    6.319149979390204E-4   1.430292380973697E-3  
 2.222000000000000E10    1.170018920674920E-3   5.422583199106157E-4  
 2.224000000000000E10    7.839959289412946E-5  -5.537359902518801E-5  
 2.226000000000000E10   -4.873370926361531E-4  -6.504658813355491E-5  
 2.228000000000000E10   -9.249117574654520E-4   2.786857658065856E-4  
 2.230000000000000E10   -5.000005476176739E-4   5.325882812030613E-4  
 2.232000000000000E10    5.423690890893340E-4   2.941047423519194E-4  
 2.234000000000000E10    1.054545631632209E-3  -1.208775793202221E-3  
 2.236000000000000E10   -2.740862546488643E-4  -1.985436538234353E-3  
 2.238000000000000E10   -1.156358281150460E-3  -1.017811009660363E-3  
 2.240000000000000E10    4.007014504168183E-4   1.189152244478464E-3  
 2.242000000000000E10    1.878168084658682E-3  -2.400422272330616E-5  
 2.244000000000000E10    9.163087815977633E-4  -1.715663936920464E-3  
 2.246000000000000E10   -9.422620641998947E-4  -7.023279904387891E-4  
 2.248000000000000E10   -4.049459239467979E-4   4.919484490528703E-4  
 2.250000000000000E10    1.288979110540822E-4   2.901746775023639E-4  
 2.252000000000000E10    2.502339193597436E-4  -7.096899207681418E-4  
 2.254000000000000E10   -1.923632080433890E-4  -3.033672692254186E-4  
 2.256000000000000E10   -6.150389090180397E-4  -1.539211836643517E-3  
 2.258000000000000E10   -4.883105284534395E-4  -7.791534881107509E-4  
 2.260000000000000E10   -5.567762418650091E-4  -1.631499435461592E-5  
 2.262000000000000E10    9.595240117050707E-4  -9.260843944502994E-5  
 2.264000000000000E10    6.135988514870405E-4  -1.278339070267975E-3  
 2.266000000000000E10   -6.125117652118206E-4  -1.571550499647856E-3  
 2.268000000000000E10   -1.797829172573984E-3   6.322984118014574E-4  
 2.270000000000000E10   -1.068538476829417E-4   6.729156011715531E-4  
 2.272000000000000E10    1.348673482425511E-3  -7.308195199584588E-5  
 2.274000000000000E10   -8.013854967430234E-4  -1.457606558687985E-3  
 2.276000000000000E10   -1.162180909886956E-3  -6.675938493572176E-4  
 2.278000000000000E10   -9.398346301168203E-4   6.012442172504962E-4  
 2.280000000000000E10   -1.345677883364260E-4   2.779933856800199E-4  
 2.282000000000000E10    1.348452060483396E-4  -1.936496264534071E-4  
 2.284000000000000E10    4.737221752293408E-4  -8.498615352436900E-4  
 2.286000000000000E10   -6.778695387765765E-4  -3.190399438608438E-4  
 2.288000000000000E10   -7.819434977136552E-4  -6.049867370165885E-4  
 2.290000000000000E10   -3.421716201046365E-6   1.476109842769802E-3  
 2.292000000000000E10    1.045466517098248E-3   6.634892197325826E-4  
 2.294000000000000E10    1.413024263456464E-3  -5.467386799864471E-4  
 2.296000000000000E10   -1.379247172735632E-3  -8.723398786969483E-5  
 2.298000000000000E10   -8.818875066936016E-4   1.187205663882196E-3  
 2.300000000000000E10    7.148697040975094E-4   1.719517400488257E-3  
 2.302000000000000E10    1.062920549884439E-3   1.359985799354035E-5  
 2.304000000000000E10   -2.392096939729527E-4  -6.466975319199264E-4  
 2.306000000000000E10   -4.589234013110399E-4  -5.720883491449058E-4  
 2.308000000000000E10    3.714609774760902E-4   5.781794316135347E-4  
 2.310000000000000E10    2.367796696489677E-4   2.410885936114937E-4  
 2.312000000000000E10    1.317462883889675E-3   7.080594514263794E-5  
 2.314000000000000E10    9.677604539319873E-4   6.710243906127289E-5  
 2.316000000000000E10    1.863129582488909E-4  -8.468203595839441E-4  
 2.318000000000000E10   -3.642571682576090E-4   4.520168586168438E-4  
 2.320000000000000E10   -2.372996677877381E-4   1.180470222607255E-3  
 2.322000000000000E10    9.752169717103243E-4   5.207543727010489E-4  
 2.324000000000000E10    1.126794377341867E-4  -6.874303217045963E-4  
 2.326000000000000E10   -7.493091979995370E-4  -3.115638101007789E-4  
 2.328000000000000E10   -3.300695098005235E-4   2.433410409139469E-4  
 2.330000000000000E10    5.175325204618275E-4  -2.501309500075877E-4  
 2.332000000000000E10    3.106032090727240E-4  -2.480389375705272E-4  
 2.334000000000000E10    3.496751305647194E-4  -3.097605367656797E-4  
 2.336000000000000E10    3.708531730808318E-4   4.161707765888423E-4  
 2.338000000000000E10   -1.043458323692903E-4   8.191274537239224E-5  
 2.340000000000000E10   -2.913761418312788E-4   3.672229358926415E-4  
 2.342000000000000E10   -4.615375655703247E-4   7.638583192601800E-4  
 2.344000000000000E10   -5.141416913829744E-4  -2.813266182783991E-4  
 2.346000000000000E10   -1.042824704200029E-3  -2.862974943127483E-4  
 2.348000000000000E10   -1.087619923055172E-3   2.354330063099042E-4  
 2.350000000000000E10   -1.737022648740094E-5   9.285603300668299E-5  
 2.352000000000000E10    6.234886823222041E-4  -5.345114623196423E-4  
 2.354000000000000E10    1.151212272816338E-4  -6.048466311767697E-4  
 2.356000000000000E10   -1.025079982355237E-4  -1.186490553664044E-4  
 2.358000000000000E10    3.089761303272098E-4   8.522730786353350E-4  
 2.360000000000000E10    2.957564429380000E-4   8.469892200082541E-4  
 2.362000000000000E10    7.828254601918161E-4   4.812892293557525E-4  
 2.364000000000000E10    8.383328531635925E-5   1.553742768010125E-4  
 2.366000000000000E10   -9.354559588246048E-4  -2.473812492098659E-4  
 2.368000000000000E10   -7.541076629422605E-4  -1.633560314076021E-4  
 2.370000000000000E10   -3.711747121997178E-4   4.913397715426981E-4  
 2.372000000000000E10    8.704689680598676E-4  -4.045379755552858E-4  
 2.374000000000000E10    6.305890856310725E-4  -1.206372398883104E-3  
 2.376000000000000E10    1.637517852941528E-4  -1.369777601212263E-3  
 2.378000000000000E10   -5.556225660257042E-4   2.920624974649400E-4  
 2.380000000000000E10    3.527016378939152E-4   8.107233443297446E-4  
 2.382000000000000E10    1.379485242068768E-3   6.107134977355599E-4  
 2.384000000000000E10   -1.965929113794118E-4  -5.613697576336563E-4  
 2.386000000000000E10   -8.066064328886569E-4  -8.598124841228128E-4  
 2.388000000000000E10   -1.294364104978740E-3   1.831434201449156E-4  
 2.390000000000000E10   -4.089748254045844E-4  -1.014867521007545E-4  
 2.392000000000000E10    2.107661275658757E-4  -4.781653406098485E-4  
 2.394000000000000E10    3.239272627979517E-4  -1.474838005378842E-3  
 2.396000000000000E10   -4.837630967813311E-6  -1.440889784134924E-3  
 2.398000000000000E10   -3.218165948055685E-4  -4.942655214108527E-4  
 2.400000000000000E10   -8.240048919105902E-5   3.916244022548199E-4  
 2.402000000000000E10    5.250890390016139E-4   2.732486063905526E-5  
 2.404000000000000E10    4.945010296069086E-4  -8.640746818855405E-4  
 2.406000000000000E10   -6.320574902929366E-4  -3.875475085806102E-4  
 2.408000000000000E10   -9.072408429346979E-4   2.370724105276167E-4  
 2.410000000000000E10   -3.443151363171637E-4   2.286112867295742E-4  
 2.412000000000000E10   -4.695138777606189E-4  -1.495556643931195E-4  
 2.414000000000000E10   -3.356392262503505E-4  -1.502091763541102E-4  
 2.416000000000000E10   -4.134028276894242E-4  -3.670068108476698E-4  
 2.418000000000000E10   -9.213243902195245E-5  -3.135965962428600E-4  
 2.420000000000000E10   -2.376185439061374E-4   2.222860057372600E-4  
 2.422000000000000E10    5.021018441766501E-4  -2.665533975232393E-4  
 2.424000000000000E10    7.184081914601848E-5   6.011118530295789E-4  
 2.426000000000000E10   -1.794068812159821E-4  -9.102910553338006E-5  
 2.428000000000000E10    3.562392375897616E-4   7.605170594615629E-6  
 2.430000000000000E10    3.967059892602265E-4   3.760320760193281E-5  
 2.432000000000000E10    7.149038719944656E-5  -2.595869773358572E-5  
 2.434000000000000E10   -1.586925936862826E-4  -2.421767421765253E-4  
 2.436000000000000E10    2.224984491476789E-4   2.940644917543978E-4  
 2.438000000000000E10   -1.168096860055812E-4   3.398374537937343E-4  
 2.440000000000000E10    2.091916830977425E-4  -2.550581411924213E-4  
 2.442000000000000E10    3.147921815980226E-4   1.699255954008550E-4  
 2.444000000000000E10    6.326690781861544E-4  -3.651995575637557E-5  
 2.446000000000000E10    6.989585817791522E-4  -2.836085041053593E-4  
 2.448000000000000E10    6.524138152599335E-4   1.681033754721284E-4  
 2.450000000000000E10    5.776140023954213E-4   5.292923306114972E-4  
 2.452000000000000E10    1.228135311976075E-3  -1.015852249111049E-4  
 2.454000000000000E10    1.048029633238912E-3  -1.929072896018624E-4  
 2.456000000000000E10    2.671449037734419E-4  -6.785640143789351E-4  
 2.458000000000000E10    2.720832417253405E-4  -1.647285680519417E-4  
 2.460000000000000E10    3.330817853566259E-4  -1.222739083459601E-4  
 2.462000000000000E10    6.168640684336424E-4  -1.712608209345490E-4  
 2.464000000000000E10    1.061346731148660E-3  -7.810544921085239E-4  
 2.466000000000000E10    8.864629780873656E-4  -1.156487618573010E-3  
 2.468000000000000E10   -2.255697763757780E-4  -1.018333481624723E-3  
 2.470000000000000E10    2.219673915533349E-4   2.399126969976351E-5  
 2.472000000000000E10    5.726562230847776E-4   6.374614895321429E-4  
 2.474000000000000E10    1.056192442774773E-3  -1.243406732100993E-4  
 2.476000000000000E10    6.673054303973913E-5  -9.038342395797372E-4  
 2.478000000000000E10   -9.849000489339232E-4  -8.022559923119843E-4  
 2.480000000000000E10   -7.387324003502727E-4   8.278289460577071E-4  
 2.482000000000000E10   -2.082629798678681E-4   3.915289998985827E-4  
 2.484000000000000E10    4.047187394462526E-4  -3.724624693859369E-4  
 2.486000000000000E10   -4.346525238361210E-4  -7.515741162933409E-4  
 2.488000000000000E10   -1.035497407428920E-3  -7.456224993802607E-4  
 2.490000000000000E10   -6.323913694359362E-4   1.838826574385166E-4  
 2.492000000000000E10   -6.146210944280028E-5   8.695530705153942E-4  
 2.494000000000000E10    2.538599655963481E-4   3.626844845712185E-4  
 2.496000000000000E10    1.900918432511389E-4  -7.400882313959301E-4  
 2.498000000000000E10   -1.255216891877353E-3   3.121758927591145E-4  
 2.500000000000000E10   -1.438710023649037E-3   5.806422559544444E-4  
 2.502000000000000E10    5.561599755310454E-5   7.416883599944413E-4  
 2.504000000000000E10    2.072723436867818E-4   5.188586146687158E-5  
 2.506000000000000E10   -5.797318881377578E-4  -6.689401343464851E-4  
 2.508000000000000E10   -6.720868987031281E-4  -1.333500695182011E-4  
 2.510000000000000E10   -5.822300954605453E-5   1.147651113569737E-3  
 2.512000000000000E10    1.304820179939270E-4   4.136384523008019E-4  
 2.514000000000000E10    5.625932244583964E-4  -6.205976242199540E-4  
 2.516000000000000E10    1.303631142945960E-4   5.424855771707371E-5  
 2.518000000000000E10   -6.130927940830588E-4   1.686840187176131E-5  
 2.520000000000000E10    1.828606327762827E-4   6.620279746130109E-4  
 2.522000000000000E10    2.219630114268512E-4   7.273782975971699E-4  
 2.524000000000000E10    3.403245937079191E-4  -4.814590211026371E-4  
 2.526000000000000E10   -9.956319991033524E-5  -8.425388950854540E-4  
 2.528000000000000E10   -1.195176038891077E-3  -1.584661658853293E-4  
 2.530000000000000E10   -4.971458110958338E-4   4.058510821778327E-4  
 2.532000000000000E10    8.786177495494485E-4  -7.397876470349729E-5  
 2.534000000000000E10    5.911487969569862E-4  -1.051130471751094E-3  
 2.536000000000000E10   -6.963245687074959E-4  -9.165947558358312E-4  
 2.538000000000000E10   -4.204680735711008E-4  -2.676866643014364E-5  
 2.540000000000000E10    6.589272525161505E-4   3.885757469106466E-4  
 2.542000000000000E10    6.290108431130648E-4  -9.448367200093344E-5  
 2.544000000000000E10    1.064312295056880E-3  -2.139914722647518E-4  
 2.546000000000000E10    4.894466837868094E-5   1.146152790170163E-4  
 2.548000000000000E10   -4.108937282580882E-4  -4.840797337237746E-4  
 2.550000000000000E10   -2.885158173739910E-4   6.041841115802527E-4  
 2.552000000000000E10    1.576892100274563E-4   3.055428969673812E-4  
 2.554000000000000E10    8.219600422307849E-4  -8.337731705978513E-4  
 2.556000000000000E10    1.252790571015794E-5  -9.816689416766167E-4  
 2.558000000000000E10   -2.968449261970818E-4  -2.340066421311349E-4  
 2.560000000000000E10    6.516759749501944E-4   4.648102039936930E-4  
 2.562000000000000E10    1.002689939923585E-3   2.672659175004810E-4  
 2.564000000000000E10    8.565760799683631E-4  -7.565176929347217E-4  
 2.566000000000000E10    5.458376253955066E-4  -7.329865184146911E-5  
 2.568000000000000E10   -1.372678234474734E-4   1.173291748273186E-4  
 2.570000000000000E10    4.655681841541082E-4   4.114070616196841E-4  
 2.572000000000000E10    3.279832890257239E-4   5.867576692253351E-4  
 2.574000000000000E10    7.873690919950604E-4  -2.514677180442959E-4  
 2.576000000000000E10    3.975221770815551E-4  -5.466325092129409E-4  
 2.578000000000000E10   -5.783117376267910E-4  -1.408342504873872E-4  
 2.580000000000000E10   -1.838597818277776E-4   6.765580619685352E-4  
 2.582000000000000E10    7.875735173001885E-4   3.475232224445790E-4  
 2.584000000000000E10    6.239512586034834E-4  -2.919961116276681E-4  
 2.586000000000000E10   -4.460161435417831E-4  -3.409107157494873E-4  
 2.588000000000000E10   -3.645916876848787E-4   6.222371011972427E-4  
 2.590000000000000E10    1.798517478164285E-4   1.005771104246378E-3  
 2.592000000000000E10    5.122745642438531E-4   5.009040469303727E-4  
 2.594000000000000E10    5.346160614863038E-4  -1.591715090398793E-6  
 2.596000000000000E10   -5.602557794190943E-4   1.033232401823625E-4  
 2.598000000000000E10   -7.797903963364661E-4   1.265115424757823E-4  
 2.600000000000000E10    1.123999827541411E-4   1.039204536937177E-3  
 2.602000000000000E10    1.567482977407053E-4   7.055880851112306E-4  
 2.604000000000000E10    4.551603342406452E-4  -3.730647440534085E-4  
 2.606000000000000E10   -2.865902206394821E-4  -3.421198052819818E-4  
 2.608000000000000E10   -8.625467307865620E-4   4.794182314071804E-4  
 2.610000000000000E10   -2.816985070239753E-4   9.623144287616015E-4  
 2.612000000000000E10    8.260639733634889E-4   5.850463639944792E-4  
 2.614000000000000E10    4.348369839135557E-4  -2.481514820829034E-4  
 2.616000000000000E10   -6.139000761322677E-4  -2.834604238159955E-4  
 2.618000000000000E10   -1.031429390423000E-3   9.137204033322632E-4  
 2.620000000000000E10   -2.565988397691399E-4   1.014070585370064E-3  
 2.622000000000000E10    3.215704346075654E-4   6.402384606190026E-4  
 2.624000000000000E10   -2.777006884571165E-4  -4.194173088762909E-4  
 2.626000000000000E10   -6.681054364889860E-4  -6.260577938519418E-4  
 2.628000000000000E10   -1.242490718141198E-3  -1.262017176486552E-4  
 2.630000000000000E10    5.537291144719347E-6   6.405255990102887E-4  
 2.632000000000000E10    5.762640503235161E-4   3.904340264853090E-4  
 2.634000000000000E10    6.197758484631777E-4  -6.988544482737780E-4  
 2.636000000000000E10   -7.253700168803334E-4  -2.751638239715248E-4  
 2.638000000000000E10   -1.142398803494871E-3   3.054538392461836E-4  
 2.640000000000000E10    8.166714542312548E-5   1.020950963720679E-3  
 2.642000000000000E10   -3.511498216539621E-4  -2.095615636790171E-4  
 2.644000000000000E10   -4.880123597104102E-4  -7.994033512659371E-4  
 2.646000000000000E10   -1.047358033247292E-3  -2.276337327202782E-4  
 2.648000000000000E10   -5.783151718787849E-4   1.529572327854112E-4  
 2.650000000000000E10   -2.486422308720648E-4   8.707510460226331E-6  
 2.652000000000000E10    6.745950668118894E-4  -4.876248422078788E-4  
 2.654000000000000E10    3.387287142686546E-4  -3.919282753486186E-4  
 2.656000000000000E10   -3.687319403979927E-4  -3.101077163591981E-4  
 2.658000000000000E10   -5.000781966373324E-4   1.070148777216673E-3  
 2.660000000000000E10    9.884004612104036E-6   3.607870603445917E-4  
 2.662000000000000E10    2.533867373131216E-4  -2.964618033729494E-4  
 2.664000000000000E10   -7.066319813020527E-4  -5.507789319381118E-4  
 2.666000000000000E10   -6.929704104550183E-4  -2.470378240104765E-4  
 2.668000000000000E10    4.230116610415280E-5  -1.691649522399530E-4  
 2.670000000000000E10    8.330838172696531E-4  -2.528564364183694E-4  
 2.672000000000000E10    4.135188064537942E-4  -5.022053373977542E-4  
 2.674000000000000E10    2.952152572106570E-4  -4.906388348899782E-4  
 2.676000000000000E10    2.176783018512651E-4   1.674030063441023E-4  
 2.678000000000000E10    1.175612487713806E-4   3.908819635398686E-4  
 2.680000000000000E10    8.122542931232601E-5   3.830807108897716E-4  
 2.682000000000000E10    1.398973690811545E-4   6.703747931169346E-5  
 2.684000000000000E10   -1.240639103343710E-4  -1.815391806303524E-5  
 2.686000000000000E10   -1.695504179224372E-4  -2.829485747497529E-4  
 2.688000000000000E10   -1.203747669933364E-4   9.149968536803499E-5  
 2.690000000000000E10    5.392302409745753E-4  -1.704368187347427E-4  
 2.692000000000000E10    6.393801886588335E-4   9.388088801642880E-5  
 2.694000000000000E10    6.889788783155382E-4  -1.126553106587380E-4  
 2.696000000000000E10    8.707186789251864E-4   4.920437349937856E-4  
 2.698000000000000E10    3.161386121064425E-4   3.929931262973696E-4  
 2.700000000000000E10    3.367647877894342E-4   4.802703915629536E-4  
 2.702000000000000E10   -1.084255491150543E-4   6.700698286294937E-4  
 2.704000000000000E10    5.051858024671674E-4   1.308603823417798E-4  
 2.706000000000000E10   -1.284454920096323E-4   2.010131538554560E-5  
 2.708000000000000E10   -5.173709942027926E-4  -4.286763432901353E-4  
 2.710000000000000E10   -2.034634526353329E-4   2.801303053274751E-4  
 2.712000000000000E10    4.534620093181729E-4   1.813808048609644E-4  
 2.714000000000000E10    2.270382829010487E-4   1.606879668543115E-4  
 2.716000000000000E10   -2.654569398146123E-4  -1.282973244087771E-4  
 2.718000000000000E10    3.416559193283320E-4   7.427840027958155E-4  
 2.720000000000000E10   -1.609709870535880E-4   1.735878031468019E-4  
 2.722000000000000E10   -3.654645406641066E-4  -4.361279934528284E-5  
 2.724000000000000E10   -6.311748293228447E-4   5.923464195802808E-4  
 2.726000000000000E10   -1.872946450021118E-5   3.578937903512269E-4  
 2.728000000000000E10   -1.956585037987679E-4   8.871949830790982E-5  
 2.730000000000000E10   -5.014304770156741E-4  -3.509410016704351E-4  
 2.732000000000000E10   -4.469982523005456E-4   1.699397544143722E-4  
 2.734000000000000E10    5.128347766003572E-5  -3.776323501369916E-5  
 2.736000000000000E10   -2.802820563374553E-5  -2.207602847192902E-5  
 2.738000000000000E10   -3.411638608668000E-4   2.985330356750637E-4  
 2.740000000000000E10   -1.101991510950029E-4   2.065020526060835E-4  
 2.742000000000000E10    2.080927079077810E-4  -1.665609452174977E-4  
 2.744000000000000E10   -1.038210466504097E-3   3.215238393750042E-4  
 2.746000000000000E10   -7.638971437700093E-4   2.861531102098525E-4  
 2.748000000000000E10    1.267968327738345E-4   2.620418963488191E-4  
 2.750000000000000E10   -6.342116394080222E-4  -5.620055017061532E-4  
 2.752000000000000E10   -7.314776303246617E-4  -4.181321128271520E-4  
 2.754000000000000E10   -6.795242079533637E-4   2.338556078029797E-4  
 2.756000000000000E10   -8.418577635893598E-5   1.385049654345494E-5  
