#  HZ   S   RI   R     50.00 
! Rohde & Schwarz ZVA40 4Ports - Version 3.90 - 1145.1110k42 SN: 100403
! Date: 2023-10-04 08:08:33
! Measurement: S12 
! 
 2.200000000000000E10   -2.889548777602613E-4  -8.724694489501417E-4  
 2.202000000000000E10   -1.313027925789356E-3  -3.915787601727061E-5  
 2.204000000000000E10   -1.126531162299216E-3   4.176189831923693E-4  
 2.206000000000000E10   -8.595534600317478E-4   4.184859863016754E-4  
 2.208000000000000E10   -8.114065858535469E-4  -1.085295662051067E-4  
 2.210000000000000E10    2.379046927671880E-4  -4.976032141712494E-5  
 2.212000000000000E10   -4.618638777174056E-4  -1.232293550856412E-3  
 2.214000000000000E10   -1.118161133490503E-3  -5.188770592212677E-4  
 2.216000000000000E10   -5.630614468827844E-4   1.287449616938829E-3  
 2.218000000000000E10    1.081977738067508E-3   1.165142864920199E-3  
 2.220000000000000E10    1.064011594280601E-3  -9.492720128037036E-4  
 2.222000000000000E10   -1.199511927552521E-3  -1.014381879940629E-3  
 2.224000000000000E10   -1.788340858183801E-3   1.161225256510079E-3  
 2.226000000000000E10    1.924511307151988E-4   1.349550089798868E-3  
 2.228000000000000E10    1.046236837282777E-3  -1.695860919426195E-5  
 2.230000000000000E10   -3.934516371373320E-6  -7.531687733717263E-4  
 2.232000000000000E10   -2.766413672361523E-4  -3.775784862227738E-4  
 2.234000000000000E10   -1.884658558992669E-5   3.288104780949652E-4  
 2.236000000000000E10    2.994209644384682E-4   4.299107531551272E-4  
 2.238000000000000E10    6.557097658514977E-4  -1.419358159182593E-5  
 2.240000000000000E10    1.227119588293135E-3  -1.130943928728811E-4  
 2.242000000000000E10    2.680593752302229E-4  -7.685134187340736E-4  
 2.244000000000000E10   -3.055745037272573E-4  -3.796884266193956E-4  
 2.246000000000000E10    3.039885486941785E-4   9.971315739676356E-4  
 2.248000000000000E10    1.604171353392303E-3   1.760564482538030E-4  
 2.250000000000000E10    1.365852775052190E-3  -1.871561980806291E-3  
 2.252000000000000E10   -8.444398990832269E-4  -1.479901955462992E-3  
 2.254000000000000E10   -5.978451226837933E-4   6.984036881476641E-4  
 2.256000000000000E10    1.097610453143716E-3   7.298621931113303E-4  
 2.258000000000000E10    1.286067301407456E-3  -7.725018076598644E-4  
 2.260000000000000E10    1.909415004774928E-4  -7.478617480956018E-4  
 2.262000000000000E10   -3.516516007948667E-4  -5.364380776882172E-4  
 2.264000000000000E10   -1.678442786214873E-4  -2.844119153451175E-4  
 2.266000000000000E10   -1.649226760491729E-4   1.755568519001827E-4  
 2.268000000000000E10    5.917834932915866E-4   4.630446201190352E-4  
 2.270000000000000E10    7.116267806850374E-4  -1.002913923002780E-3  
 2.272000000000000E10    3.353675419930369E-4  -1.336488639935851E-3  
 2.274000000000000E10   -8.353390730917454E-4   1.050675055012107E-4  
 2.276000000000000E10    3.753294586203992E-4   7.104029646143317E-4  
 2.278000000000000E10    1.223587314598262E-3   1.540768862469122E-4  
 2.280000000000000E10    1.649798796279356E-4  -1.029891544021666E-3  
 2.282000000000000E10   -4.238758992869407E-4  -9.044067119248211E-4  
 2.284000000000000E10   -1.376926520606503E-4   2.785445249173790E-4  
 2.286000000000000E10    3.422381123527885E-4   1.256444811588153E-4  
 2.288000000000000E10    3.304741112515330E-4  -7.777998689562082E-4  
 2.290000000000000E10    5.896990187466145E-4  -2.969836350530386E-4  
 2.292000000000000E10   -2.526276803109795E-4  -1.470610441174358E-4  
 2.294000000000000E10   -4.045917376060970E-5   2.676922013051808E-4  
 2.296000000000000E10    1.846544037107378E-4   1.094597391784191E-3  
 2.298000000000000E10    6.514028063975275E-4   4.836406442336738E-4  
 2.300000000000000E10    1.115272243623622E-4  -2.021966502070427E-4  
 2.302000000000000E10   -1.110502867959440E-3  -1.914479435072281E-5  
 2.304000000000000E10   -7.943151867948473E-4   8.324781665578485E-4  
 2.306000000000000E10    3.506512730382383E-4   5.247221561148763E-4  
 2.308000000000000E10    4.213064676150680E-4  -1.374430576106533E-4  
 2.310000000000000E10   -3.941197064705193E-4  -6.799401016905904E-4  
 2.312000000000000E10   -3.696780477184802E-4   2.437374932924286E-4  
 2.314000000000000E10    2.737074973993003E-4   7.209905306808651E-4  
 2.316000000000000E10    2.206866192864254E-4   3.117451560683549E-4  
 2.318000000000000E10    5.777737242169678E-4   2.219324669567868E-4  
 2.320000000000000E10   -5.691431215382181E-5   2.150339132640511E-4  
 2.322000000000000E10   -1.367865188512951E-4  -5.282988695398672E-6  
 2.324000000000000E10   -1.918446214403957E-4   5.952895735390484E-4  
 2.326000000000000E10   -2.813603496178985E-4   5.575048853643239E-4  
 2.328000000000000E10    6.276791100390256E-4   1.067287666955963E-4  
 2.330000000000000E10    3.000093856826425E-4  -6.099112215451896E-4  
 2.332000000000000E10   -5.287700914777815E-4  -3.610881976783276E-4  
 2.334000000000000E10   -3.673254977911711E-4   3.400856512598693E-4  
 2.336000000000000E10    5.990531062707305E-4   7.687124307267368E-4  
 2.338000000000000E10    3.900954325217754E-4   3.574264410417527E-4  
 2.340000000000000E10   -1.632564817555249E-4  -3.280150122009218E-4  
 2.342000000000000E10   -4.422646306920797E-4   8.843373507261276E-5  
 2.344000000000000E10   -1.217831624671817E-3  -9.193474397761747E-5  
 2.346000000000000E10   -6.368297035805881E-4   1.196712764794938E-4  
 2.348000000000000E10   -7.690356869716197E-5   7.672604406252503E-4  
 2.350000000000000E10    3.515807911753655E-4  -2.293145371368155E-4  
 2.352000000000000E10    2.656364231370390E-4  -9.363668505102396E-4  
 2.354000000000000E10   -9.036418632604182E-4   7.791497773723677E-5  
 2.356000000000000E10   -2.155941474484280E-4   1.256387680768967E-3  
 2.358000000000000E10    8.509480976499617E-4   8.243180345743895E-4  
 2.360000000000000E10    5.449831951409578E-4  -1.410380937159061E-4  
 2.362000000000000E10   -3.210808208677918E-4  -5.961621718597598E-5  
 2.364000000000000E10   -2.114505186909810E-4  -1.113840789912501E-5  
 2.366000000000000E10   -6.944495253264904E-4   5.474763456732035E-4  
 2.368000000000000E10    1.231029600603506E-4   3.152176213916391E-4  
 2.370000000000000E10    9.715693304315209E-4  -1.805764331948012E-4  
 2.372000000000000E10    4.941832157783210E-4  -1.130788819864392E-3  
 2.374000000000000E10    1.600020332261920E-4  -4.863298672717065E-4  
 2.376000000000000E10    6.355813820846379E-4   2.307533723069355E-4  
 2.378000000000000E10    9.872247464954853E-4   5.355544853955507E-4  
 2.380000000000000E10    7.402301416732371E-4  -2.580977743491530E-4  
 2.382000000000000E10    2.085140440613031E-4  -2.276679297210649E-4  
 2.384000000000000E10   -9.051321540027857E-4  -4.085512046003714E-5  
 2.386000000000000E10   -1.150091848103330E-4   2.706478990148753E-4  
 2.388000000000000E10    5.458591112983413E-5  -3.744738933164626E-4  
 2.390000000000000E10    9.193516598315910E-5  -1.397159183397889E-3  
 2.392000000000000E10   -5.421945825219154E-4  -1.168000278994441E-3  
 2.394000000000000E10   -1.574370980961248E-4  -6.449320353567600E-4  
 2.396000000000000E10    7.424608920700848E-4   2.173544635297731E-4  
 2.398000000000000E10    7.315292605198920E-4  -3.992760030087084E-4  
 2.400000000000000E10    4.615306970663369E-4  -9.580036858096719E-4  
 2.402000000000000E10   -6.445834296755493E-4  -2.062980347545818E-4  
 2.404000000000000E10   -6.614600424654782E-4   4.307573835831136E-4  
 2.406000000000000E10    2.831124584190548E-4   2.576333063188940E-4  
 2.408000000000000E10    9.253204189008102E-5  -9.159602632280439E-5  
 2.410000000000000E10   -3.662694361992180E-4  -1.021960750222206E-3  
 2.412000000000000E10   -1.025737030431628E-3  -5.822901730425656E-4  
 2.414000000000000E10   -6.065664347261190E-4  -9.514403063803911E-5  
 2.416000000000000E10    3.181874344591051E-4   3.331426123622805E-4  
 2.418000000000000E10    8.914869977161288E-4  -4.766820929944515E-4  
 2.420000000000000E10    5.042773555032909E-4  -4.002137866336852E-4  
 2.422000000000000E10   -3.290682798251510E-4  -4.487646801862866E-4  
 2.424000000000000E10   -9.327221050625667E-5   1.015343586914241E-3  
 2.426000000000000E10   -7.389984239125624E-5   1.157670281827450E-3  
 2.428000000000000E10    9.676816407591105E-4   2.915311197284609E-4  
 2.430000000000000E10    1.621006085770205E-4  -2.375969779677689E-4  
 2.432000000000000E10   -6.400821730494499E-4  -3.932911495212466E-4  
 2.434000000000000E10   -6.497562862932682E-4   3.574048751033843E-4  
 2.436000000000000E10    2.862701949197799E-4   1.023543416522443E-3  
 2.438000000000000E10    4.303987952880561E-4   3.930677485186607E-4  
 2.440000000000000E10    1.140982145443559E-3  -4.520237271208316E-4  
 2.442000000000000E10    6.596218445338309E-4   9.495560516370460E-5  
 2.444000000000000E10   -7.945255492813885E-5   3.608484985306859E-4  
 2.446000000000000E10    3.924735356122255E-4   9.817188838496804E-4  
 2.448000000000000E10    6.788214668631554E-4   1.683632959611714E-3  
 2.450000000000000E10    9.439155692234635E-4   6.711531896144152E-4  
 2.452000000000000E10    3.623274678830057E-4  -6.417682743631303E-4  
 2.454000000000000E10   -2.933974901679903E-4  -6.831403152318671E-5  
 2.456000000000000E10   -1.278302806895226E-4   5.882383557036519E-4  
 2.458000000000000E10    1.024290337227285E-3   1.950985606526956E-4  
 2.460000000000000E10    1.196408178657293E-3  -3.141636261716485E-4  
 2.462000000000000E10    3.032003587577492E-4  -7.091400912031531E-4  
 2.464000000000000E10    5.487924790941179E-4  -1.964075636351481E-4  
 2.466000000000000E10    5.812119925394654E-4   4.495913162827492E-4  
 2.468000000000000E10    5.921854171901941E-4   2.634087286423892E-4  
 2.470000000000000E10    6.412934744730592E-4   5.831873859278858E-4  
 2.472000000000000E10    5.644133125315420E-5  -1.215339871123433E-4  
 2.474000000000000E10   -3.506703360471875E-4  -2.358986967010424E-5  
 2.476000000000000E10   -8.566214819438756E-4   2.891902113333345E-4  
 2.478000000000000E10    3.827044565696269E-4   2.193500404246151E-4  
 2.480000000000000E10    2.255170402349904E-4  -7.394239655695856E-4  
 2.482000000000000E10   -3.512669645715505E-4  -1.206119311973453E-3  
 2.484000000000000E10   -5.964773008599877E-4   1.000018819468096E-4  
 2.486000000000000E10    1.764683547662571E-4   5.701403715647757E-4  
 2.488000000000000E10    7.690280908718705E-4   1.306185295106843E-4  
 2.490000000000000E10   -6.305409624474123E-5  -5.209841183386743E-4  
 2.492000000000000E10   -8.182938327081502E-4  -4.460882337298244E-5  
 2.494000000000000E10   -8.703130879439414E-4   6.185236270539463E-4  
 2.496000000000000E10   -5.651596584357321E-4   5.219332524575293E-4  
 2.498000000000000E10   -1.144564230344258E-4   8.831835293676704E-5  
 2.500000000000000E10   -3.454220131970942E-4  -8.447631844319403E-4  
 2.502000000000000E10   -2.712381829041988E-4  -1.172548043541610E-3  
 2.504000000000000E10   -8.208947256207466E-4  -1.449652190785855E-4  
 2.506000000000000E10   -2.026399597525597E-4   5.676127038896084E-4  
 2.508000000000000E10    1.137293525971472E-3   6.800090777687728E-4  
 2.510000000000000E10    7.349569350481033E-4  -3.652942250482738E-4  
 2.512000000000000E10   -6.144281942397356E-4  -5.009946180507541E-4  
 2.514000000000000E10   -7.412584382109344E-4   5.565421306528151E-4  
 2.516000000000000E10   -8.090640767477453E-5   1.120353001169860E-3  
 2.518000000000000E10    5.663274205289781E-4  -2.616453275550157E-5  
 2.520000000000000E10    3.882294113282114E-4  -7.388971280306578E-4  
 2.522000000000000E10   -8.923579589463770E-4  -3.754000645130873E-4  
 2.524000000000000E10   -2.696972223930061E-4  -6.535284774145111E-5  
 2.526000000000000E10    1.186032532132231E-4   9.127549856202677E-5  
 2.528000000000000E10    4.231074417475611E-4  -1.327492063865066E-4  
 2.530000000000000E10    1.837784948293120E-4  -5.239525926299393E-4  
 2.532000000000000E10    4.051112682645908E-6  -5.342849763110280E-4  
 2.534000000000000E10   -5.257571465335786E-4   3.074747510254383E-4  
 2.536000000000000E10   -1.930788275785744E-4   1.773763942765072E-4  
 2.538000000000000E10    9.039805736392736E-4   1.430611300747842E-4  
 2.540000000000000E10    1.434869191143662E-4  -3.734388155862689E-4  
 2.542000000000000E10   -3.605687234085053E-4  -5.168904899619520E-4  
 2.544000000000000E10   -3.104672650806606E-4   9.403217118233442E-4  
 2.546000000000000E10    1.956190826604143E-4   9.223032975569367E-4  
 2.548000000000000E10    2.348318375879899E-4  -3.849902423098683E-4  
 2.550000000000000E10   -3.691989695653319E-4  -4.481701471377164E-4  
 2.552000000000000E10   -4.644445143640041E-4   2.646763168741018E-4  
 2.554000000000000E10   -1.185725050163455E-4  -4.601846449077129E-4  
 2.556000000000000E10    3.928291844204068E-4   1.220484045916237E-4  
 2.558000000000000E10    5.120598943904042E-4   5.190593656152487E-4  
 2.560000000000000E10    8.533162181265652E-4  -2.753859153017402E-4  
 2.562000000000000E10    2.599293657112867E-4  -1.117227438953705E-4  
 2.564000000000000E10   -5.324698213371448E-5   6.765326834283769E-4  
 2.566000000000000E10    5.244911299087107E-4   1.378982211463153E-3  
 2.568000000000000E10    6.912270910106599E-4   6.167118554003537E-4  
 2.570000000000000E10    1.841947378125042E-4   2.221201430074871E-5  
 2.572000000000000E10   -7.530128350481391E-4   2.793239254970104E-4  
 2.574000000000000E10   -5.576398107223213E-4   8.695260039530695E-4  
 2.576000000000000E10    3.876695336657576E-5   1.467186230001971E-4  
 2.578000000000000E10    9.503457113169134E-4  -1.307295460719615E-4  
 2.580000000000000E10    1.673559163464233E-4  -2.540227724239230E-4  
 2.582000000000000E10    4.102062084712088E-4  -4.308099742047489E-4  
 2.584000000000000E10   -1.252715737791732E-4   7.998429937288165E-4  
 2.586000000000000E10    1.226609456352890E-4   1.220592064782977E-3  
 2.588000000000000E10    9.319255477748811E-4   1.171972835436463E-3  
 2.590000000000000E10    3.062258474528790E-4  -1.507982233306393E-4  
 2.592000000000000E10   -9.186870884150267E-4   1.187318994197995E-4  
 2.594000000000000E10   -1.015605404973030E-3   6.011966615915299E-4  
 2.596000000000000E10    7.640408875886351E-5   7.586071151308715E-4  
 2.598000000000000E10    1.871136046247557E-4  -6.701509846607223E-5  
 2.600000000000000E10   -8.747849642531946E-5  -6.629896233789623E-4  
 2.602000000000000E10   -1.002649660222232E-3  -3.561981429811567E-4  
 2.604000000000000E10   -4.589350428432226E-4   3.668460994958878E-4  
 2.606000000000000E10   -2.430077438475564E-4   1.004226622171700E-3  
 2.608000000000000E10    4.866923554800451E-4   1.362566399620846E-4  
 2.610000000000000E10   -7.189328607637435E-5  -2.211942919529975E-4  
 2.612000000000000E10   -9.407206671312451E-4  -3.218600468244404E-4  
 2.614000000000000E10   -8.731360430829227E-4   1.065587392076850E-3  
 2.616000000000000E10   -4.673094372265041E-4   8.309034747071564E-4  
 2.618000000000000E10    5.070420447736979E-4  -1.877333706943318E-4  
 2.620000000000000E10   -4.656396340578795E-4  -6.503023323602974E-4  
 2.622000000000000E10   -1.193923992104828E-3  -2.113429654855281E-4  
 2.624000000000000E10   -7.896108436398208E-4   4.589814343489707E-4  
 2.626000000000000E10    1.910579303512350E-4  -1.148702940554358E-4  
 2.628000000000000E10    3.816794487647712E-4  -6.096811848692596E-4  
 2.630000000000000E10   -5.544198211282492E-4  -7.956055924296379E-4  
 2.632000000000000E10   -6.823461735621095E-4  -2.515484520699829E-4  
 2.634000000000000E10   -1.728819916024804E-4   4.584384732879698E-4  
 2.636000000000000E10    3.327190643176436E-4   2.310431591467932E-4  
 2.638000000000000E10    2.873126359190792E-4  -6.396006210707128E-4  
 2.640000000000000E10   -4.794069682247937E-4  -1.153331599198282E-3  
 2.642000000000000E10   -1.191082177683711E-3  -4.060506471432746E-4  
 2.644000000000000E10   -4.301376175135374E-4   4.963697283528745E-4  
 2.646000000000000E10    2.335556491743773E-4   1.381553647661349E-5  
 2.648000000000000E10   -8.667815563967452E-5  -1.109330682083964E-3  
 2.650000000000000E10   -5.896232905797660E-4  -8.007520809769630E-4  
 2.652000000000000E10   -4.216588858980686E-4   2.209372323704884E-4  
 2.654000000000000E10   -1.263796002604067E-4   1.186882000183687E-4  
 2.656000000000000E10    4.761032469104976E-4  -3.137434541713446E-4  
 2.658000000000000E10    6.882181423861766E-6  -1.821307814680040E-4  
 2.660000000000000E10   -2.124649763572961E-4  -5.978703266009688E-4  
 2.662000000000000E10    8.388842616113834E-6   5.547276032302762E-6  
 2.664000000000000E10   -1.284086902160198E-4   1.120541783166118E-4  
 2.666000000000000E10    7.702025468461216E-4   9.224948007613421E-5  
 2.668000000000000E10    2.884519926737994E-4  -7.097832858562470E-4  
 2.670000000000000E10   -4.499185524764471E-5  -2.957304241135716E-4  
 2.672000000000000E10   -2.859725500456989E-4   2.874055935535580E-4  
 2.674000000000000E10    4.784300981555134E-4   1.065209944499657E-4  
 2.676000000000000E10    2.677718293853104E-4  -1.686828036326915E-4  
 2.678000000000000E10    6.253534229472280E-5  -6.569190882146359E-4  
 2.680000000000000E10   -2.687955275177956E-4   1.581600226927549E-4  
 2.682000000000000E10    1.176797159132548E-4   2.842958201654255E-5  
 2.684000000000000E10    5.516136297956109E-4   1.687109033809975E-4  
 2.686000000000000E10   -1.846832165028900E-4   8.278214227175340E-5  
 2.688000000000000E10    1.324968616245315E-4   2.051042101811618E-4  
 2.690000000000000E10   -6.580231274710968E-5   1.036162939271890E-4  
 2.692000000000000E10    2.488511672709137E-4   4.593481426127255E-4  
 2.694000000000000E10    1.225812302436680E-4   3.746871370822191E-4  
 2.696000000000000E10    3.645335673354566E-4   3.915310371667147E-4  
 2.698000000000000E10    1.445560919819400E-4  -4.203049757052213E-4  
 2.700000000000000E10    1.039103881339543E-4  -4.901771171716973E-5  
 2.702000000000000E10   -1.905716053443030E-4   5.536741227842867E-4  
 2.704000000000000E10    8.975904784165323E-4  -8.913023339118809E-5  
 2.706000000000000E10    6.086368230171502E-4  -9.772340854397044E-5  
 2.708000000000000E10   -3.976847219746560E-4   8.454879571218044E-5  
 2.710000000000000E10   -4.375863645691425E-4   6.903501925989986E-4  
 2.712000000000000E10   -2.931073249783367E-4   3.381121496204287E-4  
 2.714000000000000E10   -2.817456843331456E-4   2.516799140721560E-4  
 2.716000000000000E10   -7.798981387168169E-4  -1.388512173434719E-4  
 2.718000000000000E10   -4.572760371956974E-4   1.127358482335694E-4  
 2.720000000000000E10   -2.407593419775367E-4  -2.418239309918135E-4  
 2.722000000000000E10   -1.711101940600202E-4   8.477769370074384E-6  
 2.724000000000000E10   -2.316659520147368E-4   5.115204257890582E-4  
 2.726000000000000E10    3.153049037791789E-4   3.442673187237233E-4  
 2.728000000000000E10   -3.248403081670404E-4   8.473056368529797E-5  
 2.730000000000000E10   -9.289875015383586E-5   3.916200948879123E-4  
 2.732000000000000E10   -1.253350637853146E-4   8.392758900299668E-4  
 2.734000000000000E10    2.058204700006172E-4  -3.839964338112623E-4  
 2.736000000000000E10   -4.929117858409882E-4   1.163517154054716E-4  
 2.738000000000000E10   -8.185158367268741E-4  -2.637579164002091E-4  
 2.740000000000000E10    3.375432570464909E-4  -1.850044209277257E-4  
 2.742000000000000E10    1.086161428247578E-4  -6.223918753676117E-4  
 2.744000000000000E10   -1.195350123452954E-4  -6.398863042704761E-4  
 2.746000000000000E10   -2.417120558675379E-4  -2.675189462024719E-4  
 2.748000000000000E10    5.453418707475066E-4   2.182087628170848E-4  
 2.750000000000000E10   -2.032976954069454E-5  -3.251263478887267E-5  
 2.752000000000000E10    1.006959701044252E-5  -2.127164480043575E-4  
 2.754000000000000E10   -2.366346598137170E-4  -2.762889780569822E-4  
 2.756000000000000E10   -7.135823252610862E-4  -4.871941928286105E-4  
