#  HZ   S   RI   R     50.00 
! Rohde & Schwarz ZVA40 4Ports - Version 3.90 - 1145.1110k42 SN: 100403
! Date: 2023-10-04 08:06:03
! Measurement: S12 
! 
 2.200000000000000E10   -1.620480761630461E-4   1.231662317877635E-4  
 2.202000000000000E10    7.694077212363482E-4   3.553332353476435E-4  
 2.204000000000000E10    1.483418862335384E-3  -6.074577104300261E-4  
 2.206000000000000E10    2.210933162132278E-4  -1.229826244525611E-3  
 2.208000000000000E10   -1.473186304792762E-3  -3.477286372799426E-4  
 2.210000000000000E10    3.643859818112105E-4   1.199168618768454E-3  
 2.212000000000000E10    1.207973342388868E-3   1.877270115073770E-4  
 2.214000000000000E10    1.778432779246941E-4  -1.579153584316373E-3  
 2.216000000000000E10   -1.152369193732739E-3  -1.155842095613480E-3  
 2.218000000000000E10   -3.911349340341985E-4   3.169369883835316E-4  
 2.220000000000000E10    4.907702095806599E-4  -4.938034107908607E-4  
 2.222000000000000E10    5.369745194911957E-4  -5.669720121659339E-4  
 2.224000000000000E10   -1.792251423466951E-4  -3.138965985272080E-4  
 2.226000000000000E10    4.608821182046086E-4  -5.457625375129283E-4  
 2.228000000000000E10   -5.840584635734558E-4  -2.769747516140342E-4  
 2.230000000000000E10   -1.089487341232598E-3   7.550470763817430E-4  
 2.232000000000000E10    3.804794105235487E-4   1.012708875350654E-3  
 2.234000000000000E10    9.334985952591524E-5  -7.858842145651579E-4  
 2.236000000000000E10   -1.619939692318440E-3  -9.624621015973389E-4  
 2.238000000000000E10   -1.862630131654441E-3   4.009448748547584E-4  
 2.240000000000000E10   -2.196956047555432E-4   9.861964499577880E-4  
 2.242000000000000E10    3.962747869081795E-4   9.164850052911788E-5  
 2.244000000000000E10   -4.455940506886691E-4  -2.672311675269157E-4  
 2.246000000000000E10   -4.067500412929803E-4   4.369190719444305E-4  
 2.248000000000000E10   -1.773159019649029E-4   1.160595915280283E-3  
 2.250000000000000E10    1.496879413025454E-4   4.696067771874368E-4  
 2.252000000000000E10    2.422596480755601E-5   9.374595829285681E-4  
 2.254000000000000E10   -9.120383037952706E-5   5.991868092678487E-4  
 2.256000000000000E10   -1.285252656089142E-4  -7.127493881853297E-5  
 2.258000000000000E10   -7.753504905849695E-4   3.354359068907797E-4  
 2.260000000000000E10   -1.305607729591429E-4   7.862407364882529E-4  
 2.262000000000000E10    2.803438983391970E-4   9.015013929456472E-4  
 2.264000000000000E10    5.953405634500086E-4  -3.408114134799689E-4  
 2.266000000000000E10   -4.320665902923793E-4  -2.230678655905649E-4  
 2.268000000000000E10   -4.611130279954523E-4   9.824455482885242E-4  
 2.270000000000000E10    4.335512930992991E-4   1.015215762890875E-3  
 2.272000000000000E10    4.570648598019034E-4   3.768090100493282E-4  
 2.274000000000000E10   -5.373323801904917E-4   4.924779641442001E-4  
 2.276000000000000E10   -1.903939846670255E-5   4.423093632794917E-4  
 2.278000000000000E10    4.408283566590399E-4   7.157809450291097E-4  
 2.280000000000000E10   -3.031901433132589E-4  -1.237262040376663E-4  
 2.282000000000000E10   -8.438286022283137E-5   3.764339489862323E-4  
 2.284000000000000E10    3.144739894196391E-4   2.608232025522739E-4  
 2.286000000000000E10    3.418234700802714E-4  -3.122017078567296E-4  
 2.288000000000000E10   -3.110190154984593E-4   2.206887875217944E-4  
 2.290000000000000E10    1.764126409398159E-6   2.213728439528495E-4  
 2.292000000000000E10    1.984828995773569E-4   1.099043147405610E-4  
 2.294000000000000E10   -1.419684704160318E-4  -1.002881326712668E-3  
 2.296000000000000E10   -6.593076977878809E-4  -1.786700158845633E-4  
 2.298000000000000E10   -3.561000339686871E-4  -1.414741709595546E-4  
 2.300000000000000E10    6.610493874177337E-4  -4.661124257836491E-4  
 2.302000000000000E10    5.017029252485372E-5  -6.363365100696683E-4  
 2.304000000000000E10   -1.076376938726753E-4  -5.346934194676578E-4  
 2.306000000000000E10    2.636347489897162E-4  -3.313008055556566E-4  
 2.308000000000000E10   -4.847407690249383E-4  -4.796481225639582E-4  
 2.310000000000000E10   -3.184205270372331E-4   4.066560650244355E-4  
 2.312000000000000E10   -7.819246093276888E-5  -5.326384416548535E-5  
 2.314000000000000E10    2.453617635183036E-4  -4.074186435900629E-4  
 2.316000000000000E10   -6.717620999552310E-4  -7.315785624086857E-4  
 2.318000000000000E10   -1.007541432045400E-3  -4.556334461085498E-4  
 2.320000000000000E10   -1.849326654337347E-4   5.814944161102176E-4  
 2.322000000000000E10    5.530075286515057E-4  -4.214755608700216E-4  
 2.324000000000000E10   -2.698817297641654E-5  -5.266289808787406E-4  
 2.326000000000000E10   -2.905651926994324E-4  -3.806744643952698E-4  
 2.328000000000000E10    3.629128332249820E-4  -2.989328932017088E-4  
 2.330000000000000E10   -3.194779565092176E-4  -4.841847839998081E-5  
 2.332000000000000E10    1.394520368194208E-4   4.015218873973936E-4  
 2.334000000000000E10    7.451964193023741E-4   7.851632835809141E-5  
 2.336000000000000E10    9.452971426071599E-5  -1.013886416330934E-3  
 2.338000000000000E10   -1.001286087557674E-3  -8.063791319727898E-4  
 2.340000000000000E10   -1.168016227893531E-3   2.778716443572193E-4  
 2.342000000000000E10    3.396205429453403E-4   3.034028923138976E-4  
 2.344000000000000E10    3.884042671415955E-4  -9.546162909828126E-4  
 2.346000000000000E10   -1.240541168954223E-4  -1.144574605859816E-3  
 2.348000000000000E10   -7.783392211422324E-4  -1.836323208408430E-4  
 2.350000000000000E10   -6.032589008100331E-4   5.235709249973297E-5  
 2.352000000000000E10    3.347215533722192E-4   3.738645755220205E-4  
 2.354000000000000E10   -2.261898771394044E-5  -2.262603957206011E-4  
 2.356000000000000E10    5.932908970862627E-4  -6.097924197092652E-4  
 2.358000000000000E10   -4.877442261204124E-4  -3.150295815430582E-4  
 2.360000000000000E10   -5.207349313423038E-4  -3.013091045431793E-4  
 2.362000000000000E10    1.127802024711855E-4   9.911111555993557E-4  
 2.364000000000000E10    2.519244153518230E-4  -8.343556692125276E-5  
 2.366000000000000E10   -1.222400460392237E-4  -4.945144755765796E-4  
 2.368000000000000E10   -9.029085049405694E-4  -4.673434013966471E-4  
 2.370000000000000E10   -1.787860528565943E-4   7.099569193087518E-4  
 2.372000000000000E10    3.507660294417292E-4  -8.662130858283490E-5  
 2.374000000000000E10    3.301158722024411E-4  -2.887598529923707E-4  
 2.376000000000000E10   -6.940590683370829E-4   1.970135053852573E-4  
 2.378000000000000E10    6.445833423640579E-5   4.040016210637987E-4  
 2.380000000000000E10    1.652047649258748E-4   4.609563620761037E-4  
 2.382000000000000E10    5.549028282985091E-4   2.359176723985001E-4  
 2.384000000000000E10    6.135926814749837E-4   2.183949400205165E-4  
 2.386000000000000E10    5.844218685524538E-5  -2.958250406663865E-4  
 2.388000000000000E10    9.034226968651637E-5   2.814127074088901E-4  
 2.390000000000000E10    2.241556212538853E-4   8.220659219659865E-4  
 2.392000000000000E10    1.376834698021412E-3   4.073421005159617E-4  
 2.394000000000000E10    4.231802013237029E-4  -8.367660338990390E-4  
 2.396000000000000E10   -4.269847413524985E-4  -8.033820777200162E-4  
 2.398000000000000E10   -2.331432624487206E-4   1.009838655591011E-3  
 2.400000000000000E10    5.453006597235799E-4   6.560256006196141E-4  
 2.402000000000000E10    1.510389964096248E-3  -7.232486386783421E-4  
 2.404000000000000E10    2.492453786544502E-4  -1.024561468511820E-3  
 2.406000000000000E10   -1.176058722194284E-4  -5.515982629731298E-4  
 2.408000000000000E10   -2.937995013780892E-4   4.860181361436844E-4  
 2.410000000000000E10    4.440445918589830E-4   4.825078067369759E-4  
 2.412000000000000E10    1.170080970041454E-3   4.239377158228308E-4  
 2.414000000000000E10    8.384367101825774E-4  -8.524216827936471E-4  
 2.416000000000000E10   -4.926838446408510E-4  -9.406757308170199E-4  
 2.418000000000000E10   -1.184509950689971E-3   3.046101192012429E-4  
 2.420000000000000E10    4.170544561930001E-4   9.838260011747479E-4  
 2.422000000000000E10    1.050469232723117E-3  -5.568764172494412E-4  
 2.424000000000000E10    5.754368612542749E-4  -1.252909190952778E-3  
 2.426000000000000E10   -1.079898676835001E-3  -8.406674023717642E-4  
 2.428000000000000E10   -3.853896341752261E-4   1.862496865214780E-4  
 2.430000000000000E10    6.305700662778691E-5   5.263242055661976E-4  
 2.432000000000000E10    2.728734107222408E-4  -1.034349770634435E-4  
 2.434000000000000E10   -1.804664643714204E-4  -6.427078624255955E-4  
 2.436000000000000E10   -6.166691891849041E-4  -6.830028723925352E-4  
 2.438000000000000E10   -1.220827223733068E-3  -1.334574790234910E-5  
 2.440000000000000E10   -7.290338398888707E-4   5.278090829961002E-4  
 2.442000000000000E10    1.825613435357809E-4   3.222090308554471E-4  
 2.444000000000000E10    1.756062265485525E-4  -8.274368592537940E-4  
 2.446000000000000E10   -7.685870514251292E-4  -9.310460882261396E-4  
 2.448000000000000E10   -8.301110938191414E-4   2.295649173902348E-4  
 2.450000000000000E10    2.880897663999349E-4   6.130150286480784E-4  
 2.452000000000000E10    9.412472136318684E-4  -2.170306470361538E-5  
 2.454000000000000E10   -1.415714214090258E-4  -2.883068809751421E-4  
 2.456000000000000E10   -7.430578698404133E-4   4.054085002280772E-5  
 2.458000000000000E10   -4.183836572337896E-4   7.220658590085805E-4  
 2.460000000000000E10   -9.775131184142083E-5   1.358387235086411E-4  
 2.462000000000000E10   -4.922123043797910E-4  -4.813672858290374E-4  
 2.464000000000000E10   -3.898867871612310E-4  -3.808379406109452E-4  
 2.466000000000000E10   -3.287140862084925E-4  -7.682573777856305E-5  
 2.468000000000000E10   -3.614148590713739E-4  -8.415542106376961E-5  
 2.470000000000000E10    1.649167970754206E-4   5.610041553154588E-4  
 2.472000000000000E10    4.613850032910705E-4   1.991418394027278E-4  
 2.474000000000000E10    1.923683303175494E-4  -4.140939854551107E-4  
 2.476000000000000E10   -8.636312559247017E-4   6.324878631858155E-5  
 2.478000000000000E10   -2.158702118322253E-4   1.065982389263809E-3  
 2.480000000000000E10    1.122763846069574E-3   8.357480983249843E-4  
 2.482000000000000E10    5.619546864181757E-4  -6.233016611076891E-4  
 2.484000000000000E10   -4.969466826878488E-4  -6.185597740113735E-4  
 2.486000000000000E10   -8.989172056317329E-4   2.143436577171087E-4  
 2.488000000000000E10    8.642618195153773E-5   1.367651129839942E-4  
 2.490000000000000E10    7.950589060783386E-4  -2.859382657334209E-4  
 2.492000000000000E10    6.156040471978486E-4  -3.095217107329518E-4  
 2.494000000000000E10    7.998247747309506E-4  -4.507562553044409E-4  
 2.496000000000000E10    1.646353630349040E-4  -3.441206936258823E-4  
 2.498000000000000E10    2.345249777135905E-5   5.916946684010327E-4  
 2.500000000000000E10    6.666519329883158E-4   1.020009745843709E-3  
 2.502000000000000E10    1.525461440905929E-3  -2.649167436175048E-4  
 2.504000000000000E10    4.320550651755184E-4  -8.620913140475750E-4  
 2.506000000000000E10   -8.228134829550982E-4  -1.928723067976534E-4  
 2.508000000000000E10    3.715164202731103E-4   3.981622576247901E-4  
 2.510000000000000E10    1.015118323266506E-3   5.259579484118149E-5  
 2.512000000000000E10    4.454112204257399E-4  -1.001394819468260E-3  
 2.514000000000000E10    4.148270527366549E-4  -5.580426659435034E-4  
 2.516000000000000E10    5.358394701033831E-4   2.302926004631445E-4  
 2.518000000000000E10    5.937227397225797E-4  -5.992427395540290E-5  
 2.520000000000000E10    6.097584264352918E-4   3.469712974037975E-4  
 2.522000000000000E10    4.749933141283691E-4   7.640820695087314E-4  
 2.524000000000000E10    6.574313738383353E-4  -2.340408973395824E-4  
 2.526000000000000E10   -2.339538623346016E-4  -2.306435926584527E-4  
 2.528000000000000E10   -4.043644585181028E-4   8.638920844532549E-4  
 2.530000000000000E10    3.257613861933351E-4   5.333553417585790E-4  
 2.532000000000000E10    7.957563502714038E-4  -6.052638636901975E-4  
 2.534000000000000E10    1.507593788119266E-5  -6.348379538394511E-4  
 2.536000000000000E10   -4.923836095258594E-4   1.326840865658596E-4  
 2.538000000000000E10    7.764373440295458E-4   4.307169874664396E-4  
 2.540000000000000E10    6.566039519384503E-4   4.172181797912344E-5  
 2.542000000000000E10   -5.415028499555774E-5  -4.565018462017179E-4  
 2.544000000000000E10    1.442093343939632E-4   4.094309115316719E-4  
 2.546000000000000E10   -9.549787500873208E-5   5.907043814659119E-4  
 2.548000000000000E10    6.107316585257649E-5   8.620610606158152E-5  
 2.550000000000000E10    2.934343319793697E-5   5.712068523280323E-4  
 2.552000000000000E10   -4.444984824658604E-6   6.006761104799807E-4  
 2.554000000000000E10   -1.631602208362892E-4  -4.394373972900212E-4  
 2.556000000000000E10   -6.020174478180707E-4  -3.182384534738958E-4  
 2.558000000000000E10   -2.921142731793225E-4   5.619766889140010E-4  
 2.560000000000000E10    2.246043004561216E-4   2.735351736191660E-4  
 2.562000000000000E10    2.406034946034197E-5  -5.296641611494124E-4  
 2.564000000000000E10   -7.106553530320525E-4  -5.141159635968506E-4  
 2.566000000000000E10   -7.428060634993017E-4   2.334218443138525E-4  
 2.568000000000000E10   -7.742879097349942E-5   2.565905742812902E-4  
 2.570000000000000E10   -5.600457734544762E-5  -7.578515942441300E-5  
 2.572000000000000E10   -1.831746485549957E-4  -3.114092105533928E-4  
 2.574000000000000E10    5.546305328607559E-5  -2.199253358412534E-4  
 2.576000000000000E10   -7.379049784503877E-4   4.673700095736422E-5  
 2.578000000000000E10   -5.593944806605578E-4   6.384525913745165E-4  
 2.580000000000000E10   -9.796275116968900E-5   6.090029492042959E-4  
 2.582000000000000E10    2.094952069455758E-4  -4.013300640508533E-4  
 2.584000000000000E10   -5.960234557278454E-4  -4.611167823895812E-4  
 2.586000000000000E10   -9.153967839665711E-4   5.445591523312032E-5  
 2.588000000000000E10   -2.358821511734277E-4   9.745566057972610E-4  
 2.590000000000000E10    4.098673525732011E-4  -1.655999367358163E-4  
 2.592000000000000E10    2.342364023206756E-4  -5.005218554288149E-4  
 2.594000000000000E10   -5.782233201898634E-4  -4.472203727345914E-4  
 2.596000000000000E10   -2.820830786731676E-6   3.712931647896767E-4  
 2.598000000000000E10    1.438596227671951E-4   3.235607800888829E-5  
 2.600000000000000E10    2.518495894037187E-4  -2.147465602320153E-5  
 2.602000000000000E10   -1.774328702595085E-4  -3.126889641862363E-4  
 2.604000000000000E10    3.791126073338091E-5  -9.278946672566235E-4  
 2.606000000000000E10   -3.666781121864915E-4  -9.984813368646428E-5  
 2.608000000000000E10    1.471083960495889E-4   2.899870451074094E-4  
 2.610000000000000E10    7.849583635106683E-4  -1.371396065223962E-4  
 2.612000000000000E10    2.911709270847496E-5  -1.403128262609243E-3  
 2.614000000000000E10   -3.600713389459997E-4  -6.031839293427765E-4  
 2.616000000000000E10   -4.290785873308778E-4   3.843569720629603E-4  
 2.618000000000000E10    4.082188534084708E-4   1.507605775259435E-4  
 2.620000000000000E10    5.056579830124974E-4  -5.758168990723789E-4  
 2.622000000000000E10   -1.296862174058333E-4  -3.789150214288384E-4  
 2.624000000000000E10   -3.074217529501766E-4  -9.743959526531398E-5  
 2.626000000000000E10    3.704686532728374E-4   2.004441339522600E-4  
 2.628000000000000E10    5.788306589238346E-4   3.178475308232009E-4  
 2.630000000000000E10    8.631240925751627E-4   1.943722309079021E-4  
 2.632000000000000E10    4.980788216926158E-4  -4.570420132949948E-4  
 2.634000000000000E10   -1.311043743044138E-4  -2.216782304458320E-4  
 2.636000000000000E10   -2.270497934659943E-4   3.302784461993724E-4  
 2.638000000000000E10    1.014927634969354E-3   5.655590794049203E-4  
 2.640000000000000E10    9.291144669987261E-4  -5.007692379876971E-4  
 2.642000000000000E10    2.330534880456980E-5  -6.331970216706395E-4  
 2.644000000000000E10   -1.300031872233376E-4   3.436125116422772E-4  
 2.646000000000000E10    5.976281827315688E-4   3.926810750272125E-4  
 2.648000000000000E10    7.595330826006830E-4   4.819213645532727E-4  
 2.650000000000000E10    4.114191106054932E-4  -1.303412864217535E-4  
 2.652000000000000E10    7.356950663961470E-4   2.450355968903750E-4  
 2.654000000000000E10   -1.599641254870221E-4   3.935213608201593E-4  
 2.656000000000000E10    2.079720870824531E-4   6.010521319694817E-4  
 2.658000000000000E10    3.993371501564980E-4   9.844150627031922E-4  
 2.660000000000000E10    7.414246792905033E-4  -2.362531377002597E-4  
 2.662000000000000E10    6.628475966863334E-5  -2.138553682016209E-4  
 2.664000000000000E10   -4.256812680978328E-4   1.064258322003298E-4  
 2.666000000000000E10    6.998407770879567E-4   6.670749862678349E-4  
 2.668000000000000E10    8.466554572805762E-4  -2.201150928158313E-4  
 2.670000000000000E10    6.911657401360571E-4  -2.295033627888188E-4  
 2.672000000000000E10   -4.273815720807761E-4   2.916863595601171E-4  
 2.674000000000000E10    1.050525097525679E-4   5.677535664290190E-4  
 2.676000000000000E10   -5.830655936733820E-5   3.442161541897804E-4  
 2.678000000000000E10   -1.473300653742626E-4  -1.534436742076650E-4  
 2.680000000000000E10   -5.559351993724704E-4   2.237020526081324E-4  
 2.682000000000000E10   -4.210867336951196E-5  -2.763634547591209E-4  
 2.684000000000000E10   -5.698203458450735E-4   3.033267275895923E-4  
 2.686000000000000E10   -3.455448604654521E-4   8.593939855927602E-5  
 2.688000000000000E10    3.580105840228498E-4   5.180583102628589E-4  
 2.690000000000000E10   -1.206384840770625E-4  -3.677989589050412E-4  
 2.692000000000000E10   -2.574046084191650E-4  -1.195203585666604E-4  
 2.694000000000000E10   -3.928086953237653E-4   3.387787146493793E-4  
 2.696000000000000E10    3.317235386930406E-4   5.783999222330749E-4  
 2.698000000000000E10   -3.206647525075823E-4  -1.982107496587560E-4  
 2.700000000000000E10   -4.125341074541211E-4  -4.445448284968734E-4  
 2.702000000000000E10   -9.127139346674085E-4   1.181413972517476E-4  
 2.704000000000000E10   -1.727554918034002E-4  -7.492369622923434E-4  
 2.706000000000000E10   -3.180166531819850E-4  -1.834022405091673E-4  
 2.708000000000000E10   -6.261295056901872E-4  -8.107431349344552E-4  
 2.710000000000000E10    2.047237940132618E-4  -2.590974327176809E-4  
 2.712000000000000E10   -3.576107556000352E-4  -3.755022480618209E-4  
 2.714000000000000E10   -5.956976674497128E-4  -8.145708852680400E-5  
 2.716000000000000E10   -3.901049785781652E-4   3.036754787899554E-4  
 2.718000000000000E10   -3.224655520170927E-4   3.781184786930680E-4  
 2.720000000000000E10   -7.330101216211915E-4  -1.467519177822396E-4  
 2.722000000000000E10   -7.480814820155501E-4  -1.057819317793474E-4  
 2.724000000000000E10   -8.233702974393964E-4   3.694449551403523E-4  
 2.726000000000000E10   -2.267088129883632E-4  -1.344402844551951E-4  
 2.728000000000000E10   -1.378062588628382E-4  -4.658145189750940E-4  
 2.730000000000000E10   -2.671981055755168E-4  -3.112254780717194E-4  
 2.732000000000000E10   -3.785739536397159E-4  -1.641964190639556E-4  
 2.734000000000000E10    4.498831985983998E-4  -1.694259117357433E-4  
 2.736000000000000E10    2.860911772586405E-4   3.457931161392480E-4  
 2.738000000000000E10   -3.474286932032555E-4   1.211437411257066E-4  
 2.740000000000000E10   -1.883994409581646E-4   2.865226415451616E-4  
 2.742000000000000E10   -4.758284921990708E-5   2.334028104087338E-4  
 2.744000000000000E10   -3.918745787814260E-4   2.501870621927083E-4  
 2.746000000000000E10   -2.856054343283176E-4   2.075149131997023E-5  
 2.748000000000000E10    7.629288302268833E-5  -1.361978793283925E-4  
 2.750000000000000E10   -2.679964818526059E-4  -4.707685438916087E-4  
 2.752000000000000E10    3.381881688255817E-4   1.987668947549537E-4  
 2.754000000000000E10    5.408129654824734E-4   3.127971431240439E-4  
 2.756000000000000E10    9.652151493355632E-4  -2.843222173396498E-4  
