#  HZ   S   RI   R     50.00 
! Rohde & Schwarz ZVA40 4Ports - Version 3.90 - 1145.1110k42 SN: 100403
! Date: 2023-10-04 08:05:43
! Measurement: S12 
! 
 2.200000000000000E10    5.015656934119761E-4  -5.125153111293912E-4  
 2.202000000000000E10    1.559379306854680E-4   3.397479013074189E-4  
 2.204000000000000E10    6.293823826126754E-4   6.270566373132169E-4  
 2.206000000000000E10   -6.310773460427299E-5   6.139997858554125E-4  
 2.208000000000000E10    7.648833707207814E-5   5.241591134108603E-4  
 2.210000000000000E10    6.971617112867534E-4   5.456117796711624E-4  
 2.212000000000000E10    3.179894411005080E-4  -4.069098504260182E-4  
 2.214000000000000E10   -4.846907395403832E-4  -5.328630795702338E-4  
 2.216000000000000E10   -1.410074310115306E-5   3.944352210965008E-4  
 2.218000000000000E10    1.537486445158720E-3   4.416786832734942E-4  
 2.220000000000000E10    1.219197059981525E-3  -1.172444201074541E-3  
 2.222000000000000E10    1.158976156148128E-4  -1.002176315523684E-3  
 2.224000000000000E10   -7.348640356212854E-4   7.422257913276553E-4  
 2.226000000000000E10    9.907977655529976E-4   5.171413649804890E-4  
 2.228000000000000E10    1.338207279331982E-3  -3.302760596852750E-4  
 2.230000000000000E10   -4.685830499511212E-4  -5.430311430245638E-4  
 2.232000000000000E10   -1.920399372465909E-4   1.424939400749281E-4  
 2.234000000000000E10    5.048549501225352E-4  -5.537978140637279E-4  
 2.236000000000000E10   -4.920876817777753E-4  -3.958173037972301E-4  
 2.238000000000000E10   -5.621182499453425E-4  -4.566156130749732E-4  
 2.240000000000000E10    6.518668960779905E-4  -7.391341932816431E-5  
 2.242000000000000E10   -6.274508778005838E-4  -8.519854745827615E-4  
 2.244000000000000E10   -9.526757639832795E-4  -3.949916281271726E-4  
 2.246000000000000E10   -3.299289091955870E-4   9.783725254237652E-4  
 2.248000000000000E10    4.536650667432696E-4  -5.828125722473487E-5  
 2.250000000000000E10   -3.741055843420327E-4  -8.827954297885299E-4  
 2.252000000000000E10   -1.499787322245538E-3  -9.618229523766786E-5  
 2.254000000000000E10   -5.630136583931744E-4   1.138802501372993E-3  
 2.256000000000000E10    1.508964778622612E-4   3.987379604950547E-4  
 2.258000000000000E10   -3.090295067522675E-4  -1.046009856509045E-4  
 2.260000000000000E10   -7.010878180153668E-4   6.204146193340421E-4  
 2.262000000000000E10   -5.157171399332583E-4   4.082651284988970E-4  
 2.264000000000000E10   -3.392058133613318E-4  -4.855406295973808E-4  
 2.266000000000000E10   -6.015097023919225E-4   2.191824314650148E-4  
 2.268000000000000E10   -2.613076649140567E-4   5.925101577304304E-4  
 2.270000000000000E10    5.599381984211505E-4   6.557955930475146E-5  
 2.272000000000000E10    4.160584921919508E-6  -3.750412724912167E-4  
 2.274000000000000E10   -5.551456706598401E-4   3.339743416290730E-4  
 2.276000000000000E10   -7.515438483096659E-5   9.651781292632222E-4  
 2.278000000000000E10    6.873773527331650E-4   6.093878764659166E-4  
 2.280000000000000E10   -2.423494879622012E-4  -1.957851054612547E-4  
 2.282000000000000E10   -2.023849374381825E-4  -2.746120153460652E-4  
 2.284000000000000E10   -4.864168204221642E-6   3.854240349028260E-4  
 2.286000000000000E10   -4.731698718387634E-4  -4.950912552885711E-4  
 2.288000000000000E10   -3.146626404486597E-4  -1.736998965498060E-4  
 2.290000000000000E10    3.253680188208818E-4  -6.796434172429144E-5  
 2.292000000000000E10    5.238577141426504E-4  -9.193737641908228E-4  
 2.294000000000000E10   -9.564875654177740E-5  -1.063324976712465E-3  
 2.296000000000000E10    2.029437200690154E-5  -8.820352377370000E-5  
 2.298000000000000E10    7.269402267411351E-4   5.986785981804133E-4  
 2.300000000000000E10    1.106084440834820E-3  -1.799046585801989E-4  
 2.302000000000000E10   -9.514681732980534E-5  -3.774509532377124E-4  
 2.304000000000000E10   -5.610520602203906E-4  -9.271264570998028E-5  
 2.306000000000000E10   -1.537665957584977E-5   4.196318041067570E-4  
 2.308000000000000E10   -8.065503061516210E-5  -2.468548773322254E-4  
 2.310000000000000E10   -2.602295171527658E-5  -4.628943861462176E-4  
 2.312000000000000E10    1.906491379486397E-4  -3.490142698865384E-4  
 2.314000000000000E10    3.873416862916201E-4  -9.876426775008440E-4  
 2.316000000000000E10   -1.379678869852796E-4  -2.942536375485361E-4  
 2.318000000000000E10    3.944044874515384E-4   3.266379644628614E-4  
 2.320000000000000E10    1.006436883471906E-3   2.827020944096148E-4  
 2.322000000000000E10    8.335378370247781E-4  -2.234816784039140E-4  
 2.324000000000000E10   -2.339087077416480E-4  -1.227173197548837E-4  
 2.326000000000000E10   -8.824551332509145E-5   4.492039734032005E-4  
 2.328000000000000E10    5.034676287323237E-4   3.819836128968746E-4  
 2.330000000000000E10    4.586980794556439E-4  -4.369798116385937E-4  
 2.332000000000000E10   -5.138128763064742E-4  -4.050648421980441E-4  
 2.334000000000000E10    1.430472093488788E-5   3.363858240845730E-7  
 2.336000000000000E10    7.812749827280641E-4  -2.623151231091470E-4  
 2.338000000000000E10    2.025252033490688E-4  -5.902075790800154E-4  
 2.340000000000000E10    3.924422780983150E-4  -1.780019811121747E-4  
 2.342000000000000E10    5.030372412875295E-4  -4.773859691340476E-4  
 2.344000000000000E10    9.177823085337877E-5  -3.917650028597564E-4  
 2.346000000000000E10   -9.939587471308187E-5   2.949219197034836E-4  
 2.348000000000000E10    7.894567679613829E-4   6.691947346553206E-4  
 2.350000000000000E10    7.471780409105122E-4  -6.232555606402457E-4  
 2.352000000000000E10    1.668244949541986E-4  -9.887577034533024E-4  
 2.354000000000000E10   -4.890906275250018E-4   2.067158202407882E-4  
 2.356000000000000E10    5.845099221915007E-4   5.134048988111317E-4  
 2.358000000000000E10    1.165086985565722E-3  -5.182777022127993E-5  
 2.360000000000000E10    5.647329380735755E-4  -1.020368654280901E-3  
 2.362000000000000E10   -2.787443518172950E-4  -2.670655085239559E-4  
 2.364000000000000E10   -6.751621258445084E-4  -3.056879795622081E-4  
 2.366000000000000E10   -2.208633086411282E-4   3.033088287338615E-4  
 2.368000000000000E10    3.861820368911140E-5   8.014096238184720E-5  
 2.370000000000000E10    8.967194007709622E-4  -3.060293965972960E-4  
 2.372000000000000E10   -3.623513039201498E-4  -1.251920475624502E-3  
 2.374000000000000E10   -8.223912445828319E-4  -5.197703139856458E-4  
 2.376000000000000E10   -7.806508801877499E-4   1.156263053417206E-3  
 2.378000000000000E10    8.142807055264711E-4   6.155584123916924E-4  
 2.380000000000000E10    7.188781164586544E-4   1.165534122264944E-4  
 2.382000000000000E10   -5.941249546594918E-4  -5.894317291676998E-4  
 2.384000000000000E10   -1.110270386561751E-3   1.041498151607812E-3  
 2.386000000000000E10   -6.626079557463527E-4   1.233921037055552E-3  
 2.388000000000000E10    5.999909481033683E-4   7.077966001816094E-4  
 2.390000000000000E10    4.780492963618599E-5  -2.128392370650545E-4  
 2.392000000000000E10   -2.367582055740058E-4  -5.868924199603498E-4  
 2.394000000000000E10   -4.241676942910999E-4   2.183513606723864E-5  
 2.396000000000000E10   -3.380201524123550E-4   1.114431070163846E-3  
 2.398000000000000E10    8.762931101955473E-4   1.173129654489458E-3  
 2.400000000000000E10    1.368855009786785E-3   7.838901365175843E-5  
 2.402000000000000E10   -2.217087057942990E-5   1.266049366677180E-4  
 2.404000000000000E10   -6.332644261419773E-4   6.000695866532624E-4  
 2.406000000000000E10    9.494110709056258E-4   1.584051875397563E-3  
 2.408000000000000E10    8.433425682596862E-4   7.656430243514478E-4  
 2.410000000000000E10    4.064016684424132E-4  -6.565078510902822E-4  
 2.412000000000000E10   -1.619866670807824E-4   3.876357804983854E-4  
 2.414000000000000E10    3.124154754914343E-4   6.581267225556076E-4  
 2.416000000000000E10    8.025901624932885E-4   3.034054243471474E-4  
 2.418000000000000E10    9.667850099503994E-4  -3.309298190288246E-4  
 2.420000000000000E10    9.121748153120279E-4   1.207191598950885E-4  
 2.422000000000000E10   -4.765109770232812E-5  -3.002291487064213E-4  
 2.424000000000000E10    2.416462521068752E-4   8.946821326389909E-4  
 2.426000000000000E10    3.647719568107277E-4   8.049510070122778E-4  
 2.428000000000000E10    1.118588144890964E-3  -2.269300457555801E-4  
 2.430000000000000E10   -2.993044909089804E-4  -1.211570575833321E-3  
 2.432000000000000E10   -1.568121602758765E-3  -9.283520630560815E-4  
 2.434000000000000E10    1.612331834621728E-4   2.885122084990144E-4  
 2.436000000000000E10    1.316796406172216E-3  -2.705766564758960E-5  
 2.438000000000000E10    6.230836734175682E-4  -1.528486376628280E-3  
 2.440000000000000E10   -7.217769598355517E-5  -1.325994031503797E-3  
 2.442000000000000E10   -5.263769999146462E-4   8.061366315814667E-6  
 2.444000000000000E10   -6.375793600454927E-5   2.314339071745053E-4  
 2.446000000000000E10    4.337721911724657E-4  -1.848351821536198E-4  
 2.448000000000000E10    1.930346625158563E-4  -2.015463542193174E-5  
 2.450000000000000E10   -5.644056363962591E-4  -6.420455174520612E-4  
 2.452000000000000E10   -8.664245833642781E-4  -8.825431577861309E-4  
 2.454000000000000E10   -1.234468305483460E-3   5.741384229622781E-4  
 2.456000000000000E10   -1.572618348291144E-4   2.645074855536223E-4  
 2.458000000000000E10    8.276349399238825E-4  -6.201296928338707E-4  
 2.460000000000000E10   -3.231191076338291E-4  -1.646805903874338E-3  
 2.462000000000000E10   -1.117009087465704E-3  -3.166907408740372E-4  
 2.464000000000000E10   -4.262710281182081E-4   6.244676769711077E-4  
 2.466000000000000E10    1.088244956918061E-3   5.851796595379710E-4  
 2.468000000000000E10   -4.092663948540576E-5  -3.714534104801714E-4  
 2.470000000000000E10   -3.006980987265706E-4  -4.497863992583007E-4  
 2.472000000000000E10   -9.686432895250619E-4   4.282609152141959E-4  
 2.474000000000000E10   -6.961795152164996E-4   3.321739204693586E-4  
 2.476000000000000E10   -2.378952776780352E-4   4.920204519294202E-4  
 2.478000000000000E10   -1.503316598245874E-4  -3.868660714942962E-4  
 2.480000000000000E10   -1.842252531787381E-4  -3.298371739219874E-4  
 2.482000000000000E10   -4.857535241171718E-4  -3.300043754279614E-4  
 2.484000000000000E10   -6.949890521354973E-4   7.281926227733493E-4  
 2.486000000000000E10    2.394640468992293E-4   7.614317582920194E-4  
 2.488000000000000E10    1.015253830701113E-3   1.657686516409740E-4  
 2.490000000000000E10   -1.364333729725331E-4  -5.153378151590005E-5  
 2.492000000000000E10   -4.431453126017004E-4   5.948949255980551E-4  
 2.494000000000000E10   -8.439390512648970E-5   1.224808394908905E-3  
 2.496000000000000E10    6.215659086592495E-4   2.712651039473712E-4  
 2.498000000000000E10   -9.548970410833135E-5   6.454082904383540E-5  
 2.500000000000000E10   -4.646458255592734E-4   3.640038485173136E-4  
 2.502000000000000E10    5.312828579917550E-4   5.039275274612010E-4  
 2.504000000000000E10    4.187501908745617E-4   3.327138256281614E-4  
 2.506000000000000E10    3.602540236897767E-4   4.702898149844259E-4  
 2.508000000000000E10    8.574583916924894E-4   4.555178456939757E-4  
 2.510000000000000E10    3.498203877825290E-4  -7.276241376530379E-5  
 2.512000000000000E10   -7.033556175883859E-5   5.393272731453180E-4  
 2.514000000000000E10    8.989121852209792E-5   1.274981535971165E-3  
 2.516000000000000E10    1.044398522935808E-3   1.083937007933855E-3  
 2.518000000000000E10    4.563001566566527E-4  -7.352681859629229E-5  
 2.520000000000000E10   -7.348249782808125E-4  -7.115861080819741E-5  
 2.522000000000000E10   -6.690861191600561E-4   1.039189053699374E-3  
 2.524000000000000E10    5.253017297945917E-4   6.674188771285117E-4  
 2.526000000000000E10    2.477880916558206E-4   1.294796675210819E-4  
 2.528000000000000E10   -4.344264743849635E-4   8.797866030363366E-5  
 2.530000000000000E10    1.092476231860928E-4   2.433540066704154E-4  
 2.532000000000000E10   -2.565103045526485E-7   2.032502088695765E-4  
 2.534000000000000E10   -1.667277247179300E-4   3.555820439942181E-4  
 2.536000000000000E10    2.331355208298191E-4   6.269967416301370E-4  
 2.538000000000000E10    5.007389700040221E-4   4.835755971726030E-4  
 2.540000000000000E10    6.473103712778539E-5  -7.513534510508180E-4  
 2.542000000000000E10   -7.012372370809317E-4   3.833199443761259E-4  
 2.544000000000000E10   -4.102870007045567E-4   1.313309068791568E-3  
 2.546000000000000E10    4.113828181289136E-4   5.966420285403729E-4  
 2.548000000000000E10   -1.614470820641145E-4  -4.463639634195715E-4  
 2.550000000000000E10   -1.106480951420963E-3   3.716861465363763E-5  
 2.552000000000000E10   -7.808093214407563E-4   7.128178258426487E-4  
 2.554000000000000E10   -1.885447454696987E-5  -1.559417578391731E-4  
 2.556000000000000E10    8.039607928367332E-5  -5.567778716795147E-4  
 2.558000000000000E10   -7.379049202427268E-5   1.253779628314078E-4  
 2.560000000000000E10   -1.392989797750488E-4  -5.001309327781200E-4  
 2.562000000000000E10   -1.235104427905753E-4  -3.872096422128379E-4  
 2.564000000000000E10   -6.494730478152633E-4   3.152113276883028E-5  
 2.566000000000000E10    8.779860945651308E-5   2.208109217463061E-4  
 2.568000000000000E10    4.607933078659698E-6  -5.409822915680707E-4  
 2.570000000000000E10   -6.228390848264098E-4  -8.121352875605226E-4  
 2.572000000000000E10   -1.050975988619030E-3   4.323887696955353E-4  
 2.574000000000000E10   -4.322564054746181E-4   2.268491953145713E-4  
 2.576000000000000E10   -2.798676359816454E-5  -5.670227692462504E-4  
 2.578000000000000E10   -8.441383833996952E-4  -9.684712858870626E-4  
 2.580000000000000E10   -6.807553581893444E-4  -1.625528529984877E-4  
 2.582000000000000E10    6.070979725336656E-5  -9.999492613133043E-5  
 2.584000000000000E10    3.961751062888652E-4  -1.942578091984615E-4  
 2.586000000000000E10   -1.149897943832912E-4  -6.669653521385044E-5  
 2.588000000000000E10    4.864815127803013E-5   1.423922512913123E-4  
 2.590000000000000E10   -6.597201718250290E-5  -2.104009618051350E-4  
 2.592000000000000E10   -4.772723768837750E-4   1.465895184082910E-4  
 2.594000000000000E10   -2.930101472884417E-4   3.662068047560751E-4  
 2.596000000000000E10    5.372848245315254E-4  -2.475852088537067E-4  
 2.598000000000000E10   -1.337463327217847E-4  -8.152952068485320E-4  
 2.600000000000000E10   -7.109012803994119E-4  -5.886445869691670E-4  
 2.602000000000000E10    7.269004981935723E-6   3.482197062112391E-4  
 2.604000000000000E10    9.525317000225186E-4   4.862259447691031E-5  
 2.606000000000000E10    3.646348486654460E-4  -4.469070408958942E-4  
 2.608000000000000E10    4.207155143376440E-4  -4.586259310599417E-4  
 2.610000000000000E10    2.133405505446717E-4   3.021825104951859E-4  
 2.612000000000000E10    1.396766165271401E-4  -1.903372321976349E-4  
 2.614000000000000E10    2.379351499257609E-4   2.208297955803573E-4  
 2.616000000000000E10    1.166842193924822E-4   1.989776937989518E-4  
 2.618000000000000E10    2.598622813820839E-4  -4.340821469668299E-4  
 2.620000000000000E10   -1.011191416182555E-4  -5.205924389883876E-4  
 2.622000000000000E10   -2.414624032098800E-4   5.338648334145546E-4  
 2.624000000000000E10    2.808381104841828E-4   9.031363879330456E-5  
 2.626000000000000E10    9.230519062839449E-4   3.507875226205215E-5  
 2.628000000000000E10   -3.804035368375480E-4  -3.797443059738725E-5  
 2.630000000000000E10   -1.346014760201797E-4   3.517268924042583E-4  
 2.632000000000000E10    1.105975388782099E-4   6.217636982910335E-4  
 2.634000000000000E10    6.969795213080943E-4  -1.103666545532178E-5  
 2.636000000000000E10    1.832818816183135E-4  -6.496572314063087E-5  
 2.638000000000000E10    1.069970094249584E-4   1.565242200740613E-5  
 2.640000000000000E10    1.859449257608503E-4   3.704362898133695E-4  
 2.642000000000000E10   -1.484865206293762E-4   6.888878124300391E-5  
 2.644000000000000E10    2.391286107013002E-4   9.061690652742982E-4  
 2.646000000000000E10   -4.235948654240929E-5   2.017879451159388E-4  
 2.648000000000000E10   -1.174623321276158E-4  -3.847006155410782E-5  
 2.650000000000000E10   -9.278801735490561E-4   9.727389551699162E-4  
 2.652000000000000E10   -1.544170809211209E-4   8.205635240301490E-4  
 2.654000000000000E10    3.743255001609214E-5   2.068701578537002E-4  
 2.656000000000000E10   -2.718734031077474E-4  -3.231808077543974E-4  
 2.658000000000000E10   -4.478060000110418E-4   3.598157200030983E-4  
 2.660000000000000E10   -4.202887794235721E-5   4.828669480048120E-4  
 2.662000000000000E10    2.180568553740159E-4   7.769439253024757E-4  
 2.664000000000000E10    1.298141251027118E-5   9.852070070337504E-5  
 2.666000000000000E10    1.762201281962916E-4   3.793262585531920E-4  
 2.668000000000000E10   -4.946389817632735E-4   2.225287753390148E-4  
 2.670000000000000E10   -4.150421591475606E-4   3.671770391520113E-4  
 2.672000000000000E10   -7.580388337373734E-4   6.296446663327515E-4  
 2.674000000000000E10    1.899471099022776E-4  -1.440552878193557E-4  
 2.676000000000000E10   -3.223342064302415E-4  -4.609250172507018E-4  
 2.678000000000000E10   -3.034494584426284E-4  -3.896880371030420E-4  
 2.680000000000000E10   -2.879082749132067E-4   6.369967595674098E-4  
 2.682000000000000E10    3.662336675915867E-4   8.833163155941293E-5  
 2.684000000000000E10    4.103453829884529E-4   2.300311462022364E-4  
 2.686000000000000E10   -5.707798409275711E-4  -1.237576943822205E-4  
 2.688000000000000E10   -2.172007079934701E-4   3.456572012510151E-4  
 2.690000000000000E10   -2.152049710275605E-4  -3.621278301579878E-5  
 2.692000000000000E10    2.244794595753774E-4  -1.309894141741097E-4  
 2.694000000000000E10   -1.561651297379285E-4  -2.892283082474023E-4  
 2.696000000000000E10    2.395817136857659E-4  -5.896947113797069E-4  
 2.698000000000000E10   -9.667612175690010E-6  -7.921832730062306E-4  
 2.700000000000000E10    5.319190677255392E-4  -5.310467677190900E-4  
 2.702000000000000E10    1.882547949207947E-4  -1.855719747254625E-4  
 2.704000000000000E10    6.677819765172899E-4  -9.567878441885114E-4  
 2.706000000000000E10    2.989718923345208E-4  -1.903592201415449E-4  
 2.708000000000000E10   -4.831185506191105E-4  -2.090642519760877E-4  
 2.710000000000000E10    4.851330595556647E-5   2.942438586615026E-4  
 2.712000000000000E10   -1.890667917905375E-4  -8.780334028415382E-4  
 2.714000000000000E10   -2.997590054292232E-4  -5.561328143812716E-4  
 2.716000000000000E10   -8.930001058615744E-4  -8.772818837314844E-4  
 2.718000000000000E10    2.179722796427086E-4  -5.805385881103575E-4  
 2.720000000000000E10   -8.027448348002508E-5  -6.852924707345665E-4  
 2.722000000000000E10    3.154123260173947E-4  -7.132020546123385E-4  
 2.724000000000000E10    2.031598705798388E-4  -2.438188384985551E-4  
 2.726000000000000E10    8.024938870221376E-5  -6.628270493820310E-4  
 2.728000000000000E10   -2.426372375339270E-4  -6.815092638134956E-5  
 2.730000000000000E10    9.675994806457311E-5  -8.662135769554880E-6  
 2.732000000000000E10    2.979885321110487E-4   6.840102287242189E-5  
 2.734000000000000E10   -2.170590742025524E-4  -6.923009641468525E-4  
 2.736000000000000E10   -4.612735938280821E-4  -4.116403870284557E-4  
 2.738000000000000E10   -5.971136270090938E-4  -4.275115861673839E-5  
 2.740000000000000E10    1.014043591567315E-4   2.234593375760596E-5  
 2.742000000000000E10   -2.006188151426613E-5  -4.598391533363611E-4  
 2.744000000000000E10    1.987191644730046E-4  -4.560035886242986E-4  
 2.746000000000000E10   -2.092211652779952E-4  -2.999034477397800E-4  
 2.748000000000000E10    1.192164636449888E-4   3.186658141203225E-4  
 2.750000000000000E10   -1.005667945719324E-4   6.496877758763731E-4  
 2.752000000000000E10    1.786251232260838E-4   4.363470361568034E-4  
 2.754000000000000E10   -1.770719391060993E-4   2.309331030119211E-4  
 2.756000000000000E10   -5.001482204534113E-4  -9.221358050126582E-5  
