#  HZ   S   RI   R     50.00 
! Rohde & Schwarz ZVA40 4Ports - Version 3.90 - 1145.1110k42 SN: 100403
! Date: 2023-10-04 08:05:21
! Measurement: S12 
! 
 2.200000000000000E10   -1.449210103601217E-3   2.249350072816014E-4  
 2.202000000000000E10   -2.136258844984695E-4   1.747637754306197E-3  
 2.204000000000000E10    1.022862154059112E-3   1.300004951190203E-4  
 2.206000000000000E10   -4.358220612630248E-4  -6.346857408061624E-4  
 2.208000000000000E10   -2.255940111353993E-3   6.637772894464433E-4  
 2.210000000000000E10    2.517787834221963E-6   2.001659478992224E-3  
 2.212000000000000E10    6.880094879306853E-4   6.675078766420484E-4  
 2.214000000000000E10   -4.864749207627028E-4  -5.105719319544733E-4  
 2.216000000000000E10   -1.028819126076996E-3   6.919616134837270E-4  
 2.218000000000000E10    2.124299644492567E-4   9.452753583900631E-4  
 2.220000000000000E10    3.853644593618810E-4   1.177465965156443E-4  
 2.222000000000000E10   -1.447057729819790E-4   3.745653666555882E-4  
 2.224000000000000E10   -6.797617243137211E-5   1.330508850514889E-3  
 2.226000000000000E10    3.250364679843187E-4   5.126989562995732E-4  
 2.228000000000000E10   -2.648623485583812E-4   3.057571011595428E-4  
 2.230000000000000E10   -6.957813748158515E-4   1.188922789879143E-3  
 2.232000000000000E10    3.436568367760629E-4   1.240390934981406E-3  
 2.234000000000000E10    6.667757988907397E-4  -2.023730048676953E-4  
 2.236000000000000E10   -5.961597780697048E-4  -7.138308137655258E-4  
 2.238000000000000E10   -1.108222641050816E-3   4.077457997482270E-4  
 2.240000000000000E10    7.614837377332151E-4   6.791554042138159E-4  
 2.242000000000000E10    5.109570920467377E-4  -8.894863422028720E-4  
 2.244000000000000E10   -5.860838573426008E-4  -6.110576214268804E-4  
 2.246000000000000E10   -4.274191451258957E-5   3.232960298191756E-4  
 2.248000000000000E10    6.569548859260976E-4  -9.044279431691393E-5  
 2.250000000000000E10   -2.361262304475531E-4  -7.922565564513207E-4  
 2.252000000000000E10   -7.116018678061664E-4  -4.684927625930868E-5  
 2.254000000000000E10   -3.184782690368593E-4   1.198246260173619E-3  
 2.256000000000000E10    1.936603366630152E-4  -5.925719742663205E-4  
 2.258000000000000E10   -9.202079381793737E-4  -8.708846289664507E-4  
 2.260000000000000E10   -1.258179428987205E-3   1.852498680818826E-4  
 2.262000000000000E10    3.284997073933482E-4   3.640163340605795E-4  
 2.264000000000000E10    3.861000004690141E-4  -7.663588621653616E-4  
 2.266000000000000E10   -7.503546657972038E-5  -1.332940009888262E-4  
 2.268000000000000E10    1.392700214637443E-4   9.810266783460975E-4  
 2.270000000000000E10    6.263230461627245E-4  -8.249935490312055E-5  
 2.272000000000000E10   -2.058193495031446E-4   3.736456565093249E-4  
 2.274000000000000E10   -8.517925161868334E-4   7.604945567436516E-4  
 2.276000000000000E10    6.592188146896660E-4   5.859791999682784E-4  
 2.278000000000000E10    3.823098668362945E-4  -7.098601781763136E-4  
 2.280000000000000E10   -8.353735320270062E-4  -6.534417625516653E-4  
 2.282000000000000E10   -6.068984512239695E-4   3.567438398022205E-6  
 2.284000000000000E10    1.260277000255883E-3   3.521167964208871E-4  
 2.286000000000000E10    8.474678616039455E-4  -1.346125151030719E-3  
 2.288000000000000E10    2.048715214186814E-5  -8.801301592029631E-4  
 2.290000000000000E10   -2.007621951634064E-4   4.701486614067107E-4  
 2.292000000000000E10    6.258686771616340E-4  -4.611864369508112E-6  
 2.294000000000000E10    4.611564800143242E-4  -2.252247941214591E-4  
 2.296000000000000E10   -6.199180497787893E-4   2.116101095452905E-4  
 2.298000000000000E10   -7.146206189645454E-5   1.847070234362036E-4  
 2.300000000000000E10   -2.114402886945754E-4  -3.746402508113533E-4  
 2.302000000000000E10   -6.742260302416980E-4  -3.293724148534238E-4  
 2.304000000000000E10   -3.005248145200312E-4   2.079881960526109E-4  
 2.306000000000000E10    5.043959245085716E-4  -5.156000261195004E-4  
 2.308000000000000E10   -6.884495815029368E-5  -4.933099262416363E-4  
 2.310000000000000E10   -4.623331187758595E-4   3.535997821018100E-4  
 2.312000000000000E10    2.667655644472688E-4   1.043375348672271E-3  
 2.314000000000000E10    8.430306916125119E-4   3.527795197442174E-4  
 2.316000000000000E10   -2.164581965189427E-4  -3.082150651607662E-4  
 2.318000000000000E10   -1.136146718636155E-3   8.091041818261147E-4  
 2.320000000000000E10   -3.879153518937528E-4   1.051075756549835E-3  
 2.322000000000000E10    2.981350990012288E-4   2.446178405079991E-4  
 2.324000000000000E10   -5.765150999650359E-4  -1.805032516131178E-4  
 2.326000000000000E10   -3.512592520564795E-4   2.571560253272764E-5  
 2.328000000000000E10    9.202914225170389E-5   1.397244632244110E-4  
 2.330000000000000E10   -1.677199907135218E-4   8.321665518451482E-5  
 2.332000000000000E10    1.015498346532695E-4   7.595486240461469E-4  
 2.334000000000000E10    7.286078180186451E-4   7.711827056482434E-4  
 2.336000000000000E10    3.207412373740226E-4   1.552589528728277E-4  
 2.338000000000000E10   -5.943616270087659E-4   2.107309264829382E-4  
 2.340000000000000E10   -4.535128828138113E-4   1.327240606769919E-3  
 2.342000000000000E10    8.717550663277507E-4   1.076031592674553E-3  
 2.344000000000000E10    7.647851598449051E-4  -3.710398450493813E-4  
 2.346000000000000E10   -6.194452871568501E-4  -1.708078780211508E-4  
 2.348000000000000E10   -5.206976202316582E-4   5.725810187868774E-4  
 2.350000000000000E10    4.215450899209827E-4   3.791989001911134E-4  
 2.352000000000000E10    2.398313954472542E-4   1.687986950855702E-4  
 2.354000000000000E10    4.363077459856868E-4   3.089611709583551E-4  
 2.356000000000000E10    9.635876631364226E-4  -4.559985827654600E-4  
 2.358000000000000E10    1.399802713422105E-4  -1.629388425499201E-4  
 2.360000000000000E10   -8.664434426464140E-4  -1.181051702587865E-4  
 2.362000000000000E10    4.002164641860873E-4   1.206543180160224E-3  
 2.364000000000000E10    9.937653085216880E-4   1.160720639745705E-4  
 2.366000000000000E10    3.497635480016470E-4  -1.155327423475683E-3  
 2.368000000000000E10   -9.416286484338343E-4  -4.655863158404827E-4  
 2.370000000000000E10    1.845884253270924E-5   5.709297256544232E-4  
 2.372000000000000E10    4.025546659249812E-4   1.626627054065466E-4  
 2.374000000000000E10    4.667650209739804E-4  -8.410738082602620E-4  
 2.376000000000000E10   -2.224654017481953E-4  -5.036092479713261E-4  
 2.378000000000000E10   -5.883010453544557E-4  -5.702064954675734E-4  
 2.380000000000000E10   -6.383134750649333E-4  -4.181484982836992E-4  
 2.382000000000000E10   -4.820316680707037E-4  -5.877371950191446E-5  
 2.384000000000000E10   -2.945846972579602E-6  -5.895408776268596E-6  
 2.386000000000000E10   -2.610858646221459E-4  -1.042691059410572E-3  
 2.388000000000000E10   -9.886473417282105E-4  -7.219560793600977E-4  
 2.390000000000000E10   -1.231637899763882E-3   2.744705707300454E-4  
 2.392000000000000E10   -2.101489517372102E-4   3.210505819879472E-4  
 2.394000000000000E10   -2.187032368965447E-4  -6.406371539924294E-5  
 2.396000000000000E10   -1.521978061646223E-3  -7.492477889172733E-4  
 2.398000000000000E10   -1.386380637995899E-3   7.205474539659917E-4  
 2.400000000000000E10   -6.576689193025231E-4   1.059036818332970E-3  
 2.402000000000000E10   -1.413442078046501E-4  -9.599453187547624E-5  
 2.404000000000000E10   -5.857843207195401E-4  -5.871267640031874E-4  
 2.406000000000000E10   -8.950331248342991E-4   3.596158931031823E-4  
 2.408000000000000E10   -8.807344129309058E-4   1.295932917855680E-3  
 2.410000000000000E10    1.666626194491983E-4   9.482413297519088E-4  
 2.412000000000000E10    3.208844864275307E-4   9.599301847629249E-4  
 2.414000000000000E10    1.566143146192189E-5   1.196647863253020E-4  
 2.416000000000000E10   -9.947753278538585E-4   3.505014756228775E-4  
 2.418000000000000E10   -1.418886939063668E-3   1.517836935818195E-3  
 2.420000000000000E10    1.629852486075833E-4   2.059841062873602E-3  
 2.422000000000000E10    1.336857094429433E-3  -2.462944830767810E-4  
 2.424000000000000E10   -1.881790085462853E-4  -9.093771805055440E-4  
 2.426000000000000E10   -1.566525315865874E-3  -2.343085361644626E-5  
 2.428000000000000E10    2.652920084074140E-4   1.315759145654738E-3  
 2.430000000000000E10    1.607871730811894E-3   9.525895002298057E-4  
 2.432000000000000E10    1.384302275255323E-3  -7.953051826916635E-4  
 2.434000000000000E10    2.862701367121190E-4  -3.819348348770291E-4  
 2.436000000000000E10    1.775988639565185E-4   6.412875372916460E-4  
 2.438000000000000E10   -1.151853866758756E-4   6.126283551566303E-4  
 2.440000000000000E10    3.884783363901079E-4   7.044270751066506E-4  
 2.442000000000000E10    1.101615838706493E-3  -1.047474779625190E-5  
 2.444000000000000E10    5.012804758735001E-4  -1.463695080019534E-3  
 2.446000000000000E10   -7.275207899510860E-4  -1.074787462130189E-3  
 2.448000000000000E10   -2.147298800991848E-4   3.679977089632303E-4  
 2.450000000000000E10    1.545422594062984E-3   2.455923240631819E-4  
 2.452000000000000E10    1.417659455910325E-3  -1.536678988486528E-3  
 2.454000000000000E10   -5.693898856407031E-6  -1.178763690404594E-3  
 2.456000000000000E10   -4.566107236314565E-4  -1.081368609447964E-4  
 2.458000000000000E10    6.261674570851028E-4   3.952367114834487E-4  
 2.460000000000000E10    4.693849477916956E-4  -7.741479203104973E-4  
 2.462000000000000E10   -4.066037945449352E-4  -7.174238562583923E-4  
 2.464000000000000E10   -2.203125477535650E-4  -3.233311581425369E-4  
 2.466000000000000E10    2.329194248886779E-4  -5.614654510281980E-4  
 2.468000000000000E10   -7.886457751737908E-5  -1.027353806421161E-3  
 2.470000000000000E10    1.808113738661632E-4  -2.065993176074699E-4  
 2.472000000000000E10    3.667723794933409E-4  -5.178824649192393E-4  
 2.474000000000000E10   -1.273957313969731E-4  -1.041556824930012E-3  
 2.476000000000000E10   -7.807090296410024E-4  -1.095664047170430E-4  
 2.478000000000000E10    2.644663036335260E-4   3.586339880712330E-4  
 2.480000000000000E10    4.225075535941869E-4  -3.198338890797459E-5  
 2.482000000000000E10   -5.688340752385557E-4  -9.839722188189626E-4  
 2.484000000000000E10   -1.160584506578744E-3   2.040103208855726E-5  
 2.486000000000000E10   -8.860166417434812E-4   5.772037548013032E-4  
 2.488000000000000E10    7.842706691008061E-5   6.256038614083082E-5  
 2.490000000000000E10   -2.346579130971804E-4  -3.600092895794660E-4  
 2.492000000000000E10   -2.074228250421584E-4  -3.892195527441800E-4  
 2.494000000000000E10   -1.096107225748710E-4   2.802318776957691E-4  
 2.496000000000000E10   -2.130550128640607E-4   2.518561586839496E-6  
 2.498000000000000E10   -2.103455772157759E-4   3.656590415630490E-4  
 2.500000000000000E10   -6.464746093115537E-6   4.099852812942118E-4  
 2.502000000000000E10    3.739308158401400E-4  -7.881622877903283E-5  
 2.504000000000000E10   -7.460854831151664E-4  -3.835771931335330E-4  
 2.506000000000000E10   -1.081046881154180E-3  -1.310112129431218E-4  
 2.508000000000000E10   -1.485003158450127E-4   9.415484964847565E-4  
 2.510000000000000E10    3.367524477653205E-4  -1.006445454549976E-4  
 2.512000000000000E10   -4.221653216518462E-4  -8.713626884855330E-4  
 2.514000000000000E10   -8.116620592772961E-4   2.864223788492382E-4  
 2.516000000000000E10   -2.867795410566032E-4   6.852636579424143E-4  
 2.518000000000000E10   -6.535759166581556E-5  -1.724943722365424E-4  
 2.520000000000000E10    6.299298547673971E-5   2.579910142230801E-5  
 2.522000000000000E10   -5.644758930429816E-4   1.192805721075274E-4  
 2.524000000000000E10   -1.858193281805143E-4  -3.929606464225799E-4  
 2.526000000000000E10   -8.415934280492365E-4  -1.388921227771789E-4  
 2.528000000000000E10   -8.952116477303207E-4   4.224259755574167E-4  
 2.530000000000000E10   -3.988691241829656E-5   6.215348839759827E-4  
 2.532000000000000E10   -2.918436948675662E-4  -6.171714630909264E-4  
 2.534000000000000E10   -8.323480142280459E-4  -3.704340197145939E-4  
 2.536000000000000E10   -8.700211183167994E-4   6.460295990109444E-4  
 2.538000000000000E10   -1.729450741549954E-4   3.357453388161957E-4  
 2.540000000000000E10    3.569111868273467E-4  -4.611025506164879E-4  
 2.542000000000000E10   -4.336783313192427E-4  -2.022125263465568E-4  
 2.544000000000000E10   -1.564511330798268E-4   6.137365126051009E-4  
 2.546000000000000E10    7.015122682787478E-4   4.538828216027468E-4  
 2.548000000000000E10    5.915149085922167E-5  -2.701308985706419E-4  
 2.550000000000000E10   -3.002418670803309E-4   1.918499037856236E-4  
 2.552000000000000E10    2.454437781125307E-4   1.231006463058293E-4  
 2.554000000000000E10    1.051937579177320E-4  -2.217977598775178E-4  
 2.556000000000000E10   -8.636375423520804E-5  -5.064139841124415E-4  
 2.558000000000000E10    5.565077881328762E-4   3.681476518977433E-4  
 2.560000000000000E10    7.014920120127499E-4  -2.129456261172891E-4  
 2.562000000000000E10    3.831401409115642E-4  -1.034758752211928E-3  
 2.564000000000000E10   -1.971447200048715E-4  -2.024618734139949E-4  
 2.566000000000000E10    5.981010035611689E-4   1.656078966334462E-4  
 2.568000000000000E10    8.167186751961708E-4  -3.072232939302921E-4  
 2.570000000000000E10    4.456962342374027E-4  -7.181522087194026E-4  
 2.572000000000000E10   -1.575884671183303E-4  -6.336681690299884E-5  
 2.574000000000000E10    4.578405350912362E-4  -1.834085560403764E-4  
 2.576000000000000E10    8.275525760836899E-4  -3.638641210272908E-4  
 2.578000000000000E10    1.771476527210325E-4  -5.124247982166708E-4  
 2.580000000000000E10    6.027143099345267E-4   2.126431936630979E-4  
 2.582000000000000E10    8.363633533008397E-4  -2.391150919720531E-4  
 2.584000000000000E10    2.168633218389005E-4  -4.245687741786242E-4  
 2.586000000000000E10    1.888918632175773E-4  -1.253237132914364E-4  
 2.588000000000000E10    7.073344895616174E-4   4.149757442064583E-4  
 2.590000000000000E10    4.984193365089595E-4  -5.924281431362033E-4  
 2.592000000000000E10    2.914419455919415E-4  -6.399038247764111E-4  
 2.594000000000000E10   -2.635128330439329E-4  -2.462479096720927E-5  
 2.596000000000000E10    3.119032189715654E-4  -2.926449233200401E-4  
 2.598000000000000E10    2.740980708040297E-4  -4.336825513746589E-4  
 2.600000000000000E10    1.330491650151089E-4  -4.845189687330276E-5  
 2.602000000000000E10   -9.127200610237196E-5   3.234127943869680E-4  
 2.604000000000000E10    7.364712655544281E-4  -1.363866613246501E-4  
 2.606000000000000E10   -4.647849418688566E-4   2.517368120606989E-4  
 2.608000000000000E10   -3.467450151219964E-4   5.903907003812492E-4  
 2.610000000000000E10    3.596140304580331E-4   5.230925744399428E-4  
 2.612000000000000E10    1.579110175953247E-6  -5.983187002129853E-4  
 2.614000000000000E10   -4.271769430488348E-4   4.837215237785131E-5  
 2.616000000000000E10   -4.189261817373335E-4   1.964607654372230E-4  
 2.618000000000000E10    2.272417041240260E-4   3.774740325752646E-4  
 2.620000000000000E10    2.962381113320589E-4  -3.742182889254764E-5  
 2.622000000000000E10   -9.991425031330437E-5   5.639229784719646E-4  
 2.624000000000000E10   -5.403705290518701E-4   5.755645688623190E-4  
 2.626000000000000E10   -4.610407813743223E-6   5.606865743175149E-4  
 2.628000000000000E10   -4.047825641464442E-4   7.385131902992725E-4  
 2.630000000000000E10   -3.210801514796913E-4   1.557917566969991E-4  
 2.632000000000000E10   -3.281553290435113E-5   3.201364015694708E-4  
 2.634000000000000E10   -3.376113309059292E-4   1.317328424192965E-4  
 2.636000000000000E10   -1.396065345034003E-4   5.695553845725954E-4  
 2.638000000000000E10    4.449882908375002E-5   2.998372365254909E-4  
 2.640000000000000E10   -1.481114595662803E-4   9.434262028662488E-5  
 2.642000000000000E10   -6.588174146600068E-4  -5.262541526462883E-5  
 2.644000000000000E10   -1.423270350642270E-5   2.509810437913984E-4  
 2.646000000000000E10   -5.234013660810888E-4   5.538656841963530E-4  
 2.648000000000000E10    1.088574354071170E-4   1.534684633952566E-5  
 2.650000000000000E10   -2.964561863336712E-4   4.416360388859175E-5  
 2.652000000000000E10   -4.220785340294242E-4  -1.829284738050774E-4  
 2.654000000000000E10   -1.988411677302793E-4   2.425607235636562E-4  
 2.656000000000000E10    1.801180478651077E-4   3.141033812426031E-5  
 2.658000000000000E10   -6.992677663220093E-5   2.335322205908597E-4  
 2.660000000000000E10   -4.196267982479185E-4  -3.132249985355884E-4  
 2.662000000000000E10   -2.251386467833072E-5  -1.831490808399394E-4  
 2.664000000000000E10   -8.161332807503641E-4  -1.471225987188518E-4  
 2.666000000000000E10    2.142868033843115E-4  -3.848996129818261E-4  
 2.668000000000000E10    1.591493492014706E-5  -5.401830421760678E-4  
 2.670000000000000E10    2.230736135970801E-4  -9.984924690797925E-4  
 2.672000000000000E10   -4.122889658901840E-4  -6.440829019993544E-5  
 2.674000000000000E10   -2.118680131388828E-4  -1.813378476072103E-4  
 2.676000000000000E10   -8.813205568003468E-6   9.555908036418259E-5  
 2.678000000000000E10   -2.744322409853339E-4  -4.053376324009150E-4  
 2.680000000000000E10   -4.819461901206523E-4  -8.239121598307975E-6  
 2.682000000000000E10   -5.713930586352944E-4  -4.038797924295068E-4  
 2.684000000000000E10   -3.296868526376784E-4   1.397156447637826E-4  
 2.686000000000000E10   -3.198092454113066E-4  -1.036859830492176E-4  
 2.688000000000000E10    3.764062421396375E-4  -1.855368172982708E-4  
 2.690000000000000E10   -2.169738145312294E-4  -3.307791776023805E-4  
 2.692000000000000E10    1.526574196759611E-4   1.729463547235355E-4  
 2.694000000000000E10    1.231499627465382E-4   5.682618939317763E-4  
 2.696000000000000E10    8.562549483031035E-4   2.534273371566087E-4  
 2.698000000000000E10   -2.634049451444298E-4  -1.346657663816586E-4  
 2.700000000000000E10   -3.655305772554129E-4   3.260725643485785E-4  
 2.702000000000000E10   -3.657021443359554E-4   9.857022669166327E-4  
 2.704000000000000E10    2.679924946278334E-4  -4.259052511770278E-4  
 2.706000000000000E10    1.138193038059399E-4  -9.711323218652979E-5  
 2.708000000000000E10   -1.732730161165819E-4  -1.916467590490356E-4  
 2.710000000000000E10    4.968858556821942E-4   1.574793859617785E-4  
 2.712000000000000E10    3.857802657876164E-4   2.819431538227946E-4  
 2.714000000000000E10    5.805933033116162E-4   8.397226920351386E-4  
 2.716000000000000E10    4.976542550139129E-4   5.666943034157157E-4  
 2.718000000000000E10    6.543270428664982E-4   2.934755757451057E-4  
 2.720000000000000E10   -4.945577820762992E-4   3.441620501689613E-4  
 2.722000000000000E10   -2.636249992065132E-4   3.811067726928741E-4  
 2.724000000000000E10    4.250476777087897E-4   5.787878180854023E-4  
 2.726000000000000E10    8.054184145294130E-4  -1.741214364301413E-4  
 2.728000000000000E10   -8.502350829076022E-5  -5.470814066939056E-4  
 2.730000000000000E10    3.082585753872991E-4  -7.777154678478837E-5  
 2.732000000000000E10    6.080557359382510E-4   2.438477822579444E-4  
 2.734000000000000E10    5.640843301080167E-4  -1.620839175302535E-4  
 2.736000000000000E10    5.525569431483746E-4   3.766597365029156E-4  
 2.738000000000000E10    6.360838597174734E-5  -9.084025077754632E-5  
 2.740000000000000E10    9.585787665855605E-6  -2.564328897278756E-4  
 2.742000000000000E10   -5.152361700311303E-4  -2.665507508936571E-6  
 2.744000000000000E10    6.858594133518636E-5  -5.664368018187815E-6  
 2.746000000000000E10   -8.056360820773989E-5  -5.227535148151219E-4  
 2.748000000000000E10    5.887759471079335E-5  -8.395685581490398E-4  
 2.750000000000000E10   -5.249566165730357E-4  -2.328292466700077E-4  
 2.752000000000000E10    4.395018186187372E-5  -2.357109333388507E-4  
 2.754000000000000E10    2.231965045211837E-4  -3.333763288537739E-6  
 2.756000000000000E10   -4.672220966313034E-4  -4.739325086120516E-4  
