#  HZ   S   RI   R     50.00 
! Rohde & Schwarz ZVA40 4Ports - Version 3.90 - 1145.1110k42 SN: 100403
! Date: 2023-10-04 08:02:35
! Measurements: S11 S21 S12 S22 
! 
 2.200000000000000E10    0.000000000000000   0.000000000000000   0.000000000000000   0.000000000000000  -5.265659419819713E-4  -1.179754268378019E-3   0.000000000000000   0.000000000000000  
 2.202000000000000E10    0.000000000000000   0.000000000000000   0.000000000000000   0.000000000000000  -5.456379149109125E-4   7.750277873128653E-4   0.000000000000000   0.000000000000000  
 2.204000000000000E10    0.000000000000000   0.000000000000000   0.000000000000000   0.000000000000000   6.625724490731955E-4   1.338672300335020E-4   0.000000000000000   0.000000000000000  
 2.206000000000000E10    0.000000000000000   0.000000000000000   0.000000000000000   0.000000000000000  -2.944980224128813E-4  -6.525838398374617E-4   0.000000000000000   0.000000000000000  
 2.208000000000000E10    0.000000000000000   0.000000000000000   0.000000000000000   0.000000000000000  -1.217002631165087E-3  -5.522665451280773E-4   0.000000000000000   0.000000000000000  
 2.210000000000000E10    0.000000000000000   0.000000000000000   0.000000000000000   0.000000000000000  -6.867101183161140E-4   4.789984959643334E-4   0.000000000000000   0.000000000000000  
 2.212000000000000E10    0.000000000000000   0.000000000000000   0.000000000000000   0.000000000000000  -4.941149381920695E-4  -7.602671394124627E-4   0.000000000000000   0.000000000000000  
 2.214000000000000E10    0.000000000000000   0.000000000000000   0.000000000000000   0.000000000000000  -7.856870070099831E-4  -8.921058033592999E-4   0.000000000000000   0.000000000000000  
 2.216000000000000E10    0.000000000000000   0.000000000000000   0.000000000000000   0.000000000000000  -1.212323317304254E-3   2.571740515122656E-5   0.000000000000000   0.000000000000000  
 2.218000000000000E10    0.000000000000000   0.000000000000000   0.000000000000000   0.000000000000000   9.374600485898554E-4   1.574946072651073E-4   0.000000000000000   0.000000000000000  
 2.220000000000000E10    0.000000000000000   0.000000000000000   0.000000000000000   0.000000000000000  -1.478577905800194E-4  -1.142793684266508E-3   0.000000000000000   0.000000000000000  
 2.222000000000000E10    0.000000000000000   0.000000000000000   0.000000000000000   0.000000000000000  -1.001353026367724E-3  -6.464916514232755E-4   0.000000000000000   0.000000000000000  
 2.224000000000000E10    0.000000000000000   0.000000000000000   0.000000000000000   0.000000000000000  -1.104666735045612E-3   1.111540826968849E-3   0.000000000000000   0.000000000000000  
 2.226000000000000E10    0.000000000000000   0.000000000000000   0.000000000000000   0.000000000000000   1.203575884574093E-4  -1.057929403032176E-4   0.000000000000000   0.000000000000000  
 2.228000000000000E10    0.000000000000000   0.000000000000000   0.000000000000000   0.000000000000000  -2.172212116420269E-4  -1.055066473782063E-3   0.000000000000000   0.000000000000000  
 2.230000000000000E10    0.000000000000000   0.000000000000000   0.000000000000000   0.000000000000000  -1.415357342921197E-3  -2.514184743631631E-4   0.000000000000000   0.000000000000000  
 2.232000000000000E10    0.000000000000000   0.000000000000000   0.000000000000000   0.000000000000000   5.925243385718204E-5   3.358555841259658E-4   0.000000000000000   0.000000000000000  
 2.234000000000000E10    0.000000000000000   0.000000000000000   0.000000000000000   0.000000000000000   4.639727121684700E-4  -4.343511827755719E-4   0.000000000000000   0.000000000000000  
 2.236000000000000E10    0.000000000000000   0.000000000000000   0.000000000000000   0.000000000000000  -6.167997489683330E-4  -7.282813312485814E-4   0.000000000000000   0.000000000000000  
 2.238000000000000E10    0.000000000000000   0.000000000000000   0.000000000000000   0.000000000000000  -3.671297745313495E-4   1.183542772196233E-4   0.000000000000000   0.000000000000000  
 2.240000000000000E10    0.000000000000000   0.000000000000000   0.000000000000000   0.000000000000000   7.532091694884002E-4   4.404447681736201E-4   0.000000000000000   0.000000000000000  
 2.242000000000000E10    0.000000000000000   0.000000000000000   0.000000000000000   0.000000000000000   1.490987779106945E-4  -5.054911598563194E-4   0.000000000000000   0.000000000000000  
 2.244000000000000E10    0.000000000000000   0.000000000000000   0.000000000000000   0.000000000000000  -5.424948758445680E-4  -4.158294468652457E-4   0.000000000000000   0.000000000000000  
 2.246000000000000E10    0.000000000000000   0.000000000000000   0.000000000000000   0.000000000000000  -3.341021656524390E-4   4.850266850553453E-4   0.000000000000000   0.000000000000000  
 2.248000000000000E10    0.000000000000000   0.000000000000000   0.000000000000000   0.000000000000000   5.536724929697812E-4  -2.106757165165618E-4   0.000000000000000   0.000000000000000  
 2.250000000000000E10    0.000000000000000   0.000000000000000   0.000000000000000   0.000000000000000   4.412255748320604E-6  -1.236207783222199E-3   0.000000000000000   0.000000000000000  
 2.252000000000000E10    0.000000000000000   0.000000000000000   0.000000000000000   0.000000000000000  -6.358848186209798E-4  -1.004872028715909E-3   0.000000000000000   0.000000000000000  
 2.254000000000000E10    0.000000000000000   0.000000000000000   0.000000000000000   0.000000000000000   1.033789303619415E-4  -3.129624383291230E-5   0.000000000000000   0.000000000000000  
 2.256000000000000E10    0.000000000000000   0.000000000000000   0.000000000000000   0.000000000000000   5.964715383015573E-4  -7.436373271048069E-4   0.000000000000000   0.000000000000000  
 2.258000000000000E10    0.000000000000000   0.000000000000000   0.000000000000000   0.000000000000000   4.299046413507313E-4  -5.522095598280430E-4   0.000000000000000   0.000000000000000  
 2.260000000000000E10    0.000000000000000   0.000000000000000   0.000000000000000   0.000000000000000   4.527412602328695E-5   9.499691805103794E-5   0.000000000000000   0.000000000000000  
 2.262000000000000E10    0.000000000000000   0.000000000000000   0.000000000000000   0.000000000000000   8.627899223938584E-4   1.595369685674086E-4   0.000000000000000   0.000000000000000  
 2.264000000000000E10    0.000000000000000   0.000000000000000   0.000000000000000   0.000000000000000   4.504490061663091E-4  -6.716212956234813E-4   0.000000000000000   0.000000000000000  
 2.266000000000000E10    0.000000000000000   0.000000000000000   0.000000000000000   0.000000000000000  -5.364966928027570E-4   1.112246391130611E-4   0.000000000000000   0.000000000000000  
 2.268000000000000E10    0.000000000000000   0.000000000000000   0.000000000000000   0.000000000000000  -1.537073258077726E-4   7.752146921120584E-4   0.000000000000000   0.000000000000000  
 2.270000000000000E10    0.000000000000000   0.000000000000000   0.000000000000000   0.000000000000000   8.599478751420975E-4  -3.333722706884146E-4   0.000000000000000   0.000000000000000  
 2.272000000000000E10    0.000000000000000   0.000000000000000   0.000000000000000   0.000000000000000   4.770839950651862E-5  -1.089549623429775E-3   0.000000000000000   0.000000000000000  
 2.274000000000000E10    0.000000000000000   0.000000000000000   0.000000000000000   0.000000000000000  -7.886010571382940E-4  -4.145773127675057E-4   0.000000000000000   0.000000000000000  
 2.276000000000000E10    0.000000000000000   0.000000000000000   0.000000000000000   0.000000000000000   7.079014903865755E-4   6.537886802107096E-4   0.000000000000000   0.000000000000000  
 2.278000000000000E10    0.000000000000000   0.000000000000000   0.000000000000000   0.000000000000000   1.383260125294328E-3  -1.382411137456074E-4   0.000000000000000   0.000000000000000  
 2.280000000000000E10    0.000000000000000   0.000000000000000   0.000000000000000   0.000000000000000   1.657400134718046E-4  -9.425213793292642E-4   0.000000000000000   0.000000000000000  
 2.282000000000000E10    0.000000000000000   0.000000000000000   0.000000000000000   0.000000000000000  -3.126655356027186E-4   6.093145930208266E-5   0.000000000000000   0.000000000000000  
 2.284000000000000E10    0.000000000000000   0.000000000000000   0.000000000000000   0.000000000000000   2.306979440618306E-4   9.801674168556929E-4   0.000000000000000   0.000000000000000  
 2.286000000000000E10    0.000000000000000   0.000000000000000   0.000000000000000   0.000000000000000   4.754373221658170E-4  -2.281694905832410E-4   0.000000000000000   0.000000000000000  
 2.288000000000000E10    0.000000000000000   0.000000000000000   0.000000000000000   0.000000000000000   2.828903780027758E-5  -3.674869367387146E-5   0.000000000000000   0.000000000000000  
 2.290000000000000E10    0.000000000000000   0.000000000000000   0.000000000000000   0.000000000000000   7.367194484686479E-5  -2.572793164290488E-4   0.000000000000000   0.000000000000000  
 2.292000000000000E10    0.000000000000000   0.000000000000000   0.000000000000000   0.000000000000000   1.167657756013796E-4  -2.107130130752921E-4   0.000000000000000   0.000000000000000  
 2.294000000000000E10    0.000000000000000   0.000000000000000   0.000000000000000   0.000000000000000  -2.281675260746852E-4  -5.616392591036856E-4   0.000000000000000   0.000000000000000  
 2.296000000000000E10    0.000000000000000   0.000000000000000   0.000000000000000   0.000000000000000   3.235693438909948E-4   6.725357961840928E-4   0.000000000000000   0.000000000000000  
 2.298000000000000E10    0.000000000000000   0.000000000000000   0.000000000000000   0.000000000000000   7.914710440672934E-4   4.174472705926746E-4   0.000000000000000   0.000000000000000  
 2.300000000000000E10    0.000000000000000   0.000000000000000   0.000000000000000   0.000000000000000   9.715206688269973E-4  -3.354224318172783E-4   0.000000000000000   0.000000000000000  
 2.302000000000000E10    0.000000000000000   0.000000000000000   0.000000000000000   0.000000000000000  -7.622219272889197E-4  -6.301887333393097E-4   0.000000000000000   0.000000000000000  
 2.304000000000000E10    0.000000000000000   0.000000000000000   0.000000000000000   0.000000000000000  -6.162989884614945E-4   6.374298245646060E-4   0.000000000000000   0.000000000000000  
 2.306000000000000E10    0.000000000000000   0.000000000000000   0.000000000000000   0.000000000000000   5.923407734371722E-4   9.677145280875266E-4   0.000000000000000   0.000000000000000  
 2.308000000000000E10    0.000000000000000   0.000000000000000   0.000000000000000   0.000000000000000   7.699650595895946E-4  -4.911771393381059E-4   0.000000000000000   0.000000000000000  
 2.310000000000000E10    0.000000000000000   0.000000000000000   0.000000000000000   0.000000000000000  -1.909967832034454E-4  -1.031007501296699E-3   0.000000000000000   0.000000000000000  
 2.312000000000000E10    0.000000000000000   0.000000000000000   0.000000000000000   0.000000000000000  -6.053044344298542E-4   9.651667642174289E-5   0.000000000000000   0.000000000000000  
 2.314000000000000E10    0.000000000000000   0.000000000000000   0.000000000000000   0.000000000000000  -6.126398511696607E-5   2.405078412266448E-4   0.000000000000000   0.000000000000000  
 2.316000000000000E10    0.000000000000000   0.000000000000000   0.000000000000000   0.000000000000000   2.460927935317159E-4  -3.008064522873610E-4   0.000000000000000   0.000000000000000  
 2.318000000000000E10    0.000000000000000   0.000000000000000   0.000000000000000   0.000000000000000   1.844420912675560E-4  -3.685012925416231E-4   0.000000000000000   0.000000000000000  
 2.320000000000000E10    0.000000000000000   0.000000000000000   0.000000000000000   0.000000000000000   2.717568349908106E-5  -5.763568915426731E-4   0.000000000000000   0.000000000000000  
 2.322000000000000E10    0.000000000000000   0.000000000000000   0.000000000000000   0.000000000000000  -6.310958997346461E-5  -8.263404015451670E-4   0.000000000000000   0.000000000000000  
 2.324000000000000E10    0.000000000000000   0.000000000000000   0.000000000000000   0.000000000000000  -5.674619460478425E-4  -7.903397636255249E-5   0.000000000000000   0.000000000000000  
 2.326000000000000E10    0.000000000000000   0.000000000000000   0.000000000000000   0.000000000000000  -2.155322144972161E-4   2.784308744594455E-4   0.000000000000000   0.000000000000000  
 2.328000000000000E10    0.000000000000000   0.000000000000000   0.000000000000000   0.000000000000000   7.294642855413258E-4   4.410542605910450E-4   0.000000000000000   0.000000000000000  
 2.330000000000000E10    0.000000000000000   0.000000000000000   0.000000000000000   0.000000000000000  -1.076661937986501E-4  -7.770785014145076E-4   0.000000000000000   0.000000000000000  
 2.332000000000000E10    0.000000000000000   0.000000000000000   0.000000000000000   0.000000000000000  -1.152098295278847E-3  -2.576393308117986E-4   0.000000000000000   0.000000000000000  
 2.334000000000000E10    0.000000000000000   0.000000000000000   0.000000000000000   0.000000000000000  -5.751962889917195E-4   8.618817082606256E-4   0.000000000000000   0.000000000000000  
 2.336000000000000E10    0.000000000000000   0.000000000000000   0.000000000000000   0.000000000000000   2.581543230917305E-5   3.410057397559285E-4   0.000000000000000   0.000000000000000  
 2.338000000000000E10    0.000000000000000   0.000000000000000   0.000000000000000   0.000000000000000  -4.193068307358772E-4   9.703279647510499E-5   0.000000000000000   0.000000000000000  
 2.340000000000000E10    0.000000000000000   0.000000000000000   0.000000000000000   0.000000000000000  -3.187641268596053E-4   4.993201582692564E-4   0.000000000000000   0.000000000000000  
 2.342000000000000E10    0.000000000000000   0.000000000000000   0.000000000000000   0.000000000000000  -2.629151276778430E-4   1.329197402810678E-4   0.000000000000000   0.000000000000000  
 2.344000000000000E10    0.000000000000000   0.000000000000000   0.000000000000000   0.000000000000000  -5.666327779181302E-4  -3.351275518070906E-4   0.000000000000000   0.000000000000000  
 2.346000000000000E10    0.000000000000000   0.000000000000000   0.000000000000000   0.000000000000000  -4.065575194545090E-4   6.924167973920703E-4   0.000000000000000   0.000000000000000  
 2.348000000000000E10    0.000000000000000   0.000000000000000   0.000000000000000   0.000000000000000   3.131452249363065E-4   4.343734763097018E-4   0.000000000000000   0.000000000000000  
 2.350000000000000E10    0.000000000000000   0.000000000000000   0.000000000000000   0.000000000000000   7.571784663014114E-4  -3.658009809441865E-4   0.000000000000000   0.000000000000000  
 2.352000000000000E10    0.000000000000000   0.000000000000000   0.000000000000000   0.000000000000000   3.993890713900328E-4  -4.982076352462173E-4   0.000000000000000   0.000000000000000  
 2.354000000000000E10    0.000000000000000   0.000000000000000   0.000000000000000   0.000000000000000   1.376992295263335E-4   8.665728382766247E-4   0.000000000000000   0.000000000000000  
 2.356000000000000E10    0.000000000000000   0.000000000000000   0.000000000000000   0.000000000000000   7.934427121654153E-4   1.090833218768239E-3   0.000000000000000   0.000000000000000  
 2.358000000000000E10    0.000000000000000   0.000000000000000   0.000000000000000   0.000000000000000   7.625020225532353E-4   2.482861746102572E-4   0.000000000000000   0.000000000000000  
 2.360000000000000E10    0.000000000000000   0.000000000000000   0.000000000000000   0.000000000000000  -5.849713925272226E-4  -1.323642645729706E-4   0.000000000000000   0.000000000000000  
 2.362000000000000E10    0.000000000000000   0.000000000000000   0.000000000000000   0.000000000000000  -2.128203195752576E-4   2.770515566226095E-4   0.000000000000000   0.000000000000000  
 2.364000000000000E10    0.000000000000000   0.000000000000000   0.000000000000000   0.000000000000000  -1.925522228702903E-4   8.953797077992931E-5   0.000000000000000   0.000000000000000  
 2.366000000000000E10    0.000000000000000   0.000000000000000   0.000000000000000   0.000000000000000   4.421165795065463E-4  -5.275038420222700E-4   0.000000000000000   0.000000000000000  
 2.368000000000000E10    0.000000000000000   0.000000000000000   0.000000000000000   0.000000000000000   3.069188387598842E-4  -3.121661429759115E-4   0.000000000000000   0.000000000000000  
 2.370000000000000E10    0.000000000000000   0.000000000000000   0.000000000000000   0.000000000000000   1.555103954160586E-4  -4.229748737998307E-4   0.000000000000000   0.000000000000000  
 2.372000000000000E10    0.000000000000000   0.000000000000000   0.000000000000000   0.000000000000000   3.145787923131138E-4  -6.891951197758317E-4   0.000000000000000   0.000000000000000  
 2.374000000000000E10    0.000000000000000   0.000000000000000   0.000000000000000   0.000000000000000   3.114631690550596E-4   5.495140794664621E-5   0.000000000000000   0.000000000000000  
 2.376000000000000E10    0.000000000000000   0.000000000000000   0.000000000000000   0.000000000000000   9.037943091243506E-4   6.950947572477162E-4   0.000000000000000   0.000000000000000  
 2.378000000000000E10    0.000000000000000   0.000000000000000   0.000000000000000   0.000000000000000   1.197086297906935E-3  -2.679271565284580E-4   0.000000000000000   0.000000000000000  
 2.380000000000000E10    0.000000000000000   0.000000000000000   0.000000000000000   0.000000000000000   1.523161699878983E-6  -4.873875004705042E-4   0.000000000000000   0.000000000000000  
 2.382000000000000E10    0.000000000000000   0.000000000000000   0.000000000000000   0.000000000000000  -1.109852339141071E-3   5.776878679171205E-4   0.000000000000000   0.000000000000000  
 2.384000000000000E10    0.000000000000000   0.000000000000000   0.000000000000000   0.000000000000000  -1.190005568787456E-4   1.241547171957791E-3   0.000000000000000   0.000000000000000  
 2.386000000000000E10    0.000000000000000   0.000000000000000   0.000000000000000   0.000000000000000   8.265118231065571E-4  -3.591303247958422E-4   0.000000000000000   0.000000000000000  
 2.388000000000000E10    0.000000000000000   0.000000000000000   0.000000000000000   0.000000000000000   1.392217527609319E-4  -1.590334461070597E-3   0.000000000000000   0.000000000000000  
 2.390000000000000E10    0.000000000000000   0.000000000000000   0.000000000000000   0.000000000000000  -1.199839869514108E-3  -1.220078091137111E-3   0.000000000000000   0.000000000000000  
 2.392000000000000E10    0.000000000000000   0.000000000000000   0.000000000000000   0.000000000000000  -5.758992629125714E-4  -1.398577151121572E-4   0.000000000000000   0.000000000000000  
 2.394000000000000E10    0.000000000000000   0.000000000000000   0.000000000000000   0.000000000000000   5.773730808869004E-4   9.824216249398887E-5   0.000000000000000   0.000000000000000  
 2.396000000000000E10    0.000000000000000   0.000000000000000   0.000000000000000   0.000000000000000   9.894610848277807E-4  -4.593275662045926E-4   0.000000000000000   0.000000000000000  
 2.398000000000000E10    0.000000000000000   0.000000000000000   0.000000000000000   0.000000000000000   5.297384923323989E-4  -1.166591537185013E-3   0.000000000000000   0.000000000000000  
 2.400000000000000E10    0.000000000000000   0.000000000000000   0.000000000000000   0.000000000000000  -3.750136529561132E-4  -2.857422223314643E-4   0.000000000000000   0.000000000000000  
 2.402000000000000E10    0.000000000000000   0.000000000000000   0.000000000000000   0.000000000000000  -9.644100209698081E-4   3.642104857135564E-4   0.000000000000000   0.000000000000000  
 2.404000000000000E10    0.000000000000000   0.000000000000000   0.000000000000000   0.000000000000000  -6.372546340571716E-5   7.563672843389213E-4   0.000000000000000   0.000000000000000  
