#  HZ   S   RI   R     50.00 
! Rohde & Schwarz ZVA40 4Ports - Version 3.90 - 1145.1110k42 SN: 100403
! Date: 2023-10-04 08:04:57
! Measurement: S12 
! 
 2.200000000000000E10   -6.716807547491044E-5  -1.194426091387868E-3  
 2.202000000000000E10   -7.733793463557959E-4   4.682141880039126E-4  
 2.204000000000000E10    7.285692845471203E-4   1.166256606666138E-5  
 2.206000000000000E10   -2.099831035593525E-4  -5.231826216913760E-4  
 2.208000000000000E10   -1.127447932958603E-3  -5.968404002487660E-4  
 2.210000000000000E10   -4.303769674152136E-4   6.320030661299825E-4  
 2.212000000000000E10   -6.224220269359648E-4  -8.789970888756216E-4  
 2.214000000000000E10   -5.921568372286856E-4  -9.085677447728813E-4  
 2.216000000000000E10   -1.533132512122393E-3   2.174247201764956E-4  
 2.218000000000000E10    1.078437082469463E-3   7.502111111534759E-5  
 2.220000000000000E10    2.726483580772765E-5  -8.916055667214096E-4  
 2.222000000000000E10   -9.917431743815541E-4  -9.795383084565401E-4  
 2.224000000000000E10   -1.154267694801092E-3   1.213221112266183E-3  
 2.226000000000000E10   -7.063527300488204E-5  -2.368774439673871E-4  
 2.228000000000000E10    3.592396387830377E-5  -9.224917157553136E-4  
 2.230000000000000E10   -1.496920129284263E-3  -2.610028896015137E-4  
 2.232000000000000E10    2.045947476290166E-4   1.832716661738232E-4  
 2.234000000000000E10    3.570950357243419E-4  -4.168435116298497E-4  
 2.236000000000000E10   -5.614400724880397E-4  -6.542860646732152E-4  
 2.238000000000000E10   -6.247894489206374E-4   1.688893389655277E-4  
 2.240000000000000E10    6.921566673554480E-4   4.442101053427905E-4  
 2.242000000000000E10    1.236292591784149E-4  -4.757494025398046E-4  
 2.244000000000000E10   -5.708750686608255E-4  -5.812167655676603E-4  
 2.246000000000000E10   -3.460822335910052E-4   2.489359467290342E-4  
 2.248000000000000E10    5.988893099129200E-4  -1.858732284745202E-4  
 2.250000000000000E10    7.408020610455424E-5  -1.098307548090816E-3  
 2.252000000000000E10   -3.373769868630916E-4  -1.060987589880824E-3  
 2.254000000000000E10    2.178762952098623E-4   1.528388092992827E-4  
 2.256000000000000E10    5.260253674350679E-4  -7.278607808984816E-4  
 2.258000000000000E10    5.873616901226342E-4  -4.676560347434133E-4  
 2.260000000000000E10   -1.285001926589757E-4   1.486354594817385E-4  
 2.262000000000000E10    8.341903449036181E-4   1.942264934768900E-4  
 2.264000000000000E10    3.617120382841677E-4  -6.101914332248271E-4  
 2.266000000000000E10   -6.937365396879613E-4  -5.710876939701848E-5  
 2.268000000000000E10   -2.505355805624276E-4   9.309321758337319E-4  
 2.270000000000000E10    8.043014677241445E-4  -3.445717738941312E-4  
 2.272000000000000E10    2.242954942630604E-4  -1.014512381516397E-3  
 2.274000000000000E10   -1.089386176317930E-3  -5.965727614238858E-4  
 2.276000000000000E10    5.381432711146772E-4   6.153236608952284E-4  
 2.278000000000000E10    1.313915941864252E-3   2.915033473982476E-5  
 2.280000000000000E10    5.828394787386060E-4  -8.687403169460595E-4  
 2.282000000000000E10   -3.980793117079884E-4  -8.006582356756553E-5  
 2.284000000000000E10    2.821089001372457E-4   6.974880234338343E-4  
 2.286000000000000E10    2.789223508443683E-4   4.827883822144941E-5  
 2.288000000000000E10    5.792824595118873E-5  -2.540002460591495E-4  
 2.290000000000000E10    5.328881670720875E-4   6.933139957254753E-5  
 2.292000000000000E10    9.393566870130599E-5  -6.064397748559713E-4  
 2.294000000000000E10   -5.322235301719047E-5  -6.054827244952321E-4  
 2.296000000000000E10   -6.001596557325684E-5   7.485016831196845E-4  
 2.298000000000000E10    9.290871676057577E-4   5.250367685221136E-4  
 2.300000000000000E10    1.207409775815904E-3  -1.660698471823707E-4  
 2.302000000000000E10   -4.289536445867270E-4  -1.058424706570804E-3  
 2.304000000000000E10   -7.003241335041821E-4   4.363523039501160E-4  
 2.306000000000000E10    2.659492020029575E-4   9.133761632256210E-4  
 2.308000000000000E10    6.953131523914635E-4  -2.965968742500991E-4  
 2.310000000000000E10    4.859990804106928E-5  -8.119315025396645E-4  
 2.312000000000000E10   -6.211461732164025E-4  -3.451324882917106E-4  
 2.314000000000000E10   -1.145268834079616E-4   1.397706091665896E-5  
 2.316000000000000E10   -6.577110616490245E-5  -2.309374976903200E-4  
 2.318000000000000E10    1.699843269307166E-4  -1.931583392433822E-4  
 2.320000000000000E10    3.857046831399202E-4  -4.003326175734401E-4  
 2.322000000000000E10    1.572491164552048E-4  -1.075331354513764E-3  
 2.324000000000000E10   -5.665112403221428E-4  -2.728163963183761E-4  
 2.326000000000000E10   -5.167219787836075E-4   2.253117563668639E-4  
 2.328000000000000E10    5.313966539688408E-4   6.602823268622160E-4  
 2.330000000000000E10    7.128611468942836E-5  -5.294959992170334E-4  
 2.332000000000000E10   -1.090861274860799E-3  -4.892969154752791E-4  
 2.334000000000000E10   -7.103579118847847E-4   3.814427764154971E-4  
 2.336000000000000E10   -9.591273555997759E-5   2.093618095386773E-4  
 2.338000000000000E10   -6.108927191235125E-4   6.357105303322896E-5  
 2.340000000000000E10   -4.103007959201932E-4   3.870280925184488E-4  
 2.342000000000000E10   -1.293653185712174E-4   8.080311090452597E-5  
 2.344000000000000E10   -4.772484244313091E-4  -3.831116191577166E-4  
 2.346000000000000E10   -5.561488214880228E-4   4.804223135579377E-4  
 2.348000000000000E10    3.307548759039491E-4   4.565547278616577E-4  
 2.350000000000000E10    8.359727798961103E-4  -1.322751340921968E-4  
 2.352000000000000E10    4.510829166974872E-4  -5.147096817381680E-4  
 2.354000000000000E10    8.936966332839802E-5   7.909011328592897E-4  
 2.356000000000000E10    5.496541853062809E-4   1.097146421670914E-3  
 2.358000000000000E10    6.245661643333733E-4   3.725306014530361E-4  
 2.360000000000000E10   -4.580468521453440E-4  -1.007710525300354E-4  
 2.362000000000000E10   -2.630920498631895E-4   1.635742955841124E-4  
 2.364000000000000E10   -3.207535191904753E-4   8.332994912052527E-5  
 2.366000000000000E10    3.828070766758174E-4  -4.165675491094589E-4  
 2.368000000000000E10    4.931690637022257E-4  -2.669352979864925E-4  
 2.370000000000000E10    4.354314587544650E-4  -5.720815388485789E-4  
 2.372000000000000E10    2.218317968072370E-4  -8.658397709950805E-4  
 2.374000000000000E10    1.801577163860202E-4   4.324240217101760E-5  
 2.376000000000000E10    8.077010861597955E-4   9.903013706207275E-4  
 2.378000000000000E10    1.414336031302810E-3  -2.532759972382337E-4  
 2.380000000000000E10    2.515974338166416E-4  -7.142260437831283E-4  
 2.382000000000000E10   -1.209712936542928E-3   1.421068445779383E-4  
 2.384000000000000E10   -3.460338630247861E-4   1.361855189315975E-3  
 2.386000000000000E10    6.913797697052360E-4   2.351399234612472E-5  
 2.388000000000000E10    7.010813569650054E-4  -1.348301884718239E-3  
 2.390000000000000E10   -8.820582879707217E-4  -1.399915316142142E-3  
 2.392000000000000E10   -6.828196928836405E-4  -8.353458251804113E-4  
 2.394000000000000E10    1.000705378828570E-4   3.153838042635471E-4  
 2.396000000000000E10    8.449707529507577E-4  -7.336556882364675E-5  
 2.398000000000000E10    1.077101682312787E-3  -8.629824733361602E-4  
 2.400000000000000E10   -3.261849924456328E-4  -6.515788263641298E-4  
 2.402000000000000E10   -1.092832419089973E-3  -2.133874222636223E-4  
 2.404000000000000E10   -6.942382315173745E-4   8.558357367292047E-4  
 2.406000000000000E10    4.816736618522555E-4   4.800057504326105E-4  
 2.408000000000000E10    2.305645466549322E-4  -9.666491532698274E-4  
 2.410000000000000E10   -1.051316503435373E-3  -1.592657179571688E-3  
 2.412000000000000E10   -1.185907516628504E-3  -1.224115549121052E-4  
 2.414000000000000E10   -3.072191029787064E-4   4.189621831756085E-4  
 2.416000000000000E10    1.092470600269735E-3  -3.385056625120342E-4  
 2.418000000000000E10    3.712193865794689E-4  -9.566449443809688E-4  
 2.420000000000000E10   -7.642160053364933E-4  -4.055542231071740E-4  
 2.422000000000000E10   -7.328561623580754E-4   2.802557719405741E-4  
 2.424000000000000E10   -1.485029788454995E-4   1.024340861476958E-3  
 2.426000000000000E10   -3.081522008869797E-4  -1.526780542917550E-4  
 2.428000000000000E10    3.398378248675726E-5  -7.072926964610815E-4  
 2.430000000000000E10   -1.386854681186378E-3  -3.948867379222065E-4  
 2.432000000000000E10   -8.806918631307781E-4  -7.988555807969533E-6  
 2.434000000000000E10    2.876060316339135E-4   5.151129444129765E-4  
 2.436000000000000E10    6.519894232042134E-4  -1.123668880609330E-5  
 2.438000000000000E10   -2.362781197007280E-5  -8.218924049288034E-4  
 2.440000000000000E10   -6.242519593797624E-4  -5.985990355839022E-5  
 2.442000000000000E10   -3.272974572610110E-4   1.365341595374048E-3  
 2.444000000000000E10    6.972212577238679E-4   5.174280959181488E-4  
 2.446000000000000E10    2.414684859104455E-4  -1.259409327758476E-4  
 2.448000000000000E10   -1.128682284615934E-3   2.373744646320120E-4  
 2.450000000000000E10   -8.331895805895329E-4   9.400209528394043E-4  
 2.452000000000000E10    2.636312274262309E-4   8.531163330189884E-4  
 2.454000000000000E10    2.934534859377891E-4  -3.570845001377165E-5  
 2.456000000000000E10    2.608680224511772E-4  -1.646575692575425E-4  
 2.458000000000000E10    1.705817558104172E-4   1.662839931668714E-4  
 2.460000000000000E10   -1.796998403733596E-4   3.904470067936927E-4  
 2.462000000000000E10    2.699001342989504E-4   1.102114445529878E-3  
 2.464000000000000E10    1.535608782432973E-3   1.148525159806013E-3  
 2.466000000000000E10    1.148552400991321E-3  -2.683081256691366E-4  
 2.468000000000000E10   -5.226445500738919E-4  -4.841733898501843E-4  
 2.470000000000000E10   -6.586022209376097E-4   7.888378459028900E-4  
 2.472000000000000E10    5.666764918714762E-4   1.293024630285800E-3  
 2.474000000000000E10    1.105180825106800E-3  -4.579425731208175E-4  
 2.476000000000000E10    1.460640050936490E-4  -1.008213963359594E-3  
 2.478000000000000E10   -5.163915921002626E-4  -1.357464934699237E-4  
 2.480000000000000E10    4.740777076222003E-4   1.757196587277576E-4  
 2.482000000000000E10    3.135831502731890E-4  -9.994281572289765E-5  
 2.484000000000000E10    4.769366641994566E-4   4.774968692800030E-5  
 2.486000000000000E10    5.614446126855910E-4   1.873134460765868E-4  
 2.488000000000000E10    1.742314489092678E-4  -4.879598272964358E-4  
 2.490000000000000E10   -5.774847231805325E-4   2.249502431368455E-4  
 2.492000000000000E10   -4.647142195608467E-4   8.605684270150960E-4  
 2.494000000000000E10    4.266488540451974E-4   5.144958777236752E-5  
 2.496000000000000E10    1.071233637048863E-4  -1.132801757194102E-3  
 2.498000000000000E10   -7.790729869157076E-4  -5.300634074956179E-4  
 2.500000000000000E10   -3.997691383119673E-4   5.990449790260755E-5  
 2.502000000000000E10    8.185054757632315E-4  -5.630071609630249E-5  
 2.504000000000000E10    4.785588826052845E-4  -6.664507673121989E-4  
 2.506000000000000E10    1.670173951424658E-4  -4.380774335004389E-4  
 2.508000000000000E10   -1.288588973693550E-4   7.792845281073824E-5  
 2.510000000000000E10    2.116158429998905E-4  -1.739943400025368E-4  
 2.512000000000000E10   -1.875173620646820E-4  -2.983583253808320E-4  
 2.514000000000000E10   -2.611562667880207E-4   4.846632509725168E-5  
 2.516000000000000E10    3.619288327172399E-5  -4.225579905323684E-4  
 2.518000000000000E10   -2.355215983698145E-4  -8.300616173073649E-4  
 2.520000000000000E10   -2.827584685292095E-4  -2.779247006401420E-4  
 2.522000000000000E10   -2.128142841684166E-5  -3.046364872716367E-4  
 2.524000000000000E10    6.954122218303382E-4  -7.970496662892401E-4  
 2.526000000000000E10   -4.011644923593849E-4  -8.794335299171507E-4  
 2.528000000000000E10   -6.034339312463999E-4  -6.287736468948424E-4  
 2.530000000000000E10    2.275948500027880E-4   3.721039392985404E-4  
 2.532000000000000E10    7.116347114788368E-5  -4.884513327851892E-4  
 2.534000000000000E10   -3.713600453920662E-4  -1.194498501718044E-3  
 2.536000000000000E10   -6.613569566980004E-4  -1.621562551008537E-4  
 2.538000000000000E10   -4.859815235249698E-4  -1.075325126294047E-4  
 2.540000000000000E10   -7.816850120434538E-5  -4.783599288202822E-4  
 2.542000000000000E10   -2.859961532521993E-4   4.444759906618856E-5  
 2.544000000000000E10   -6.342604174278677E-4   4.553720355033875E-4  
 2.546000000000000E10   -2.414902555756271E-4  -3.571888955775648E-4  
 2.548000000000000E10   -4.304132016841322E-4  -1.640396221773699E-4  
 2.550000000000000E10   -1.171623240225017E-3   1.188825626741163E-4  
 2.552000000000000E10    2.324149681953713E-4   1.506881817476824E-4  
 2.554000000000000E10    3.234058094676584E-4  -3.134041908197105E-4  
 2.556000000000000E10   -7.013669819571078E-4   5.522559513337910E-5  
 2.558000000000000E10   -3.136119339615107E-4   8.002693648450077E-4  
 2.560000000000000E10    6.417761906050146E-4   3.306688158772886E-4  
 2.562000000000000E10    1.756296842359006E-4   3.269325534347445E-4  
 2.564000000000000E10   -5.416858475655317E-4   4.115429474040866E-4  
 2.566000000000000E10    2.675199066288769E-4   1.228754292242229E-3  
 2.568000000000000E10    2.933436189778149E-4   7.152966572903097E-4  
 2.570000000000000E10   -2.060741098830476E-5   3.653222520370036E-4  
 2.572000000000000E10   -3.531422116793692E-4   8.735597948543727E-4  
 2.574000000000000E10    5.683238268829882E-4   6.946788053028286E-4  
 2.576000000000000E10    5.976027459837496E-4   1.729301002342254E-4  
 2.578000000000000E10    1.978062355192378E-4   4.050329152960330E-4  
 2.580000000000000E10    3.863800666294992E-4   6.233392050489783E-4  
 2.582000000000000E10    8.500181720592082E-4   7.410342805087566E-4  
 2.584000000000000E10    3.658073837868869E-4   4.263421869836748E-4  
 2.586000000000000E10   -1.092636157409288E-4   2.703036007005721E-4  
 2.588000000000000E10    3.164776426274329E-4   6.888149655424058E-4  
 2.590000000000000E10    4.780035815201700E-4  -2.663823834154755E-4  
 2.592000000000000E10   -7.832935807527974E-5  -6.192672299221158E-5  
 2.594000000000000E10   -2.144592726835981E-4   1.652966602705419E-4  
 2.596000000000000E10    7.573216571472585E-4   2.673816052265465E-4  
 2.598000000000000E10    1.678472908679396E-4  -3.250071022193879E-4  
 2.600000000000000E10   -1.103082540794276E-4  -1.025005694827996E-4  
 2.602000000000000E10   -6.274663610383868E-4   5.247138324193656E-4  
 2.604000000000000E10    2.591623342595995E-4  -3.691301681101322E-4  
 2.606000000000000E10   -1.325004704995081E-4  -2.432716428302229E-4  
 2.608000000000000E10   -3.826764004770666E-4  -7.626988808624446E-4  
 2.610000000000000E10    9.760016837390140E-5  -9.125171345658600E-5  
 2.612000000000000E10   -8.262514711532276E-6  -6.603780784644187E-4  
 2.614000000000000E10    4.598729719873518E-5  -3.618319751694799E-4  
 2.616000000000000E10   -2.586527843959630E-4  -2.542182628531009E-4  
 2.618000000000000E10    2.179215662181377E-4  -1.494644093327224E-4  
 2.620000000000000E10   -4.886368406005204E-4   2.676912299648393E-5  
 2.622000000000000E10   -5.564054590649903E-4  -1.748862996464595E-4  
 2.624000000000000E10   -6.898138090036809E-4   3.115366416750476E-5  
 2.626000000000000E10   -2.974141971208155E-4  -8.458963711746037E-4  
 2.628000000000000E10   -6.673030438832939E-4  -6.953783449716866E-4  
 2.630000000000000E10   -3.501964965835214E-4  -8.923202985897660E-4  
 2.632000000000000E10    3.128523239865899E-4  -3.361086128279567E-4  
 2.634000000000000E10    3.174562516505830E-5  -5.572826485149562E-4  
 2.636000000000000E10    1.377192711515818E-5  -4.600343236234039E-4  
 2.638000000000000E10   -1.301115844398737E-4  -4.585747956298292E-4  
 2.640000000000000E10   -3.129609103780240E-4  -3.036250709556043E-4  
 2.642000000000000E10   -6.549396202899516E-4  -4.055971221532673E-4  
 2.644000000000000E10   -3.779518010560423E-4  -3.631039871834219E-4  
 2.646000000000000E10   -5.666231736540794E-4  -5.710893892683089E-4  
 2.648000000000000E10   -4.135297494940460E-4  -7.117989007383585E-4  
 2.650000000000000E10   -3.473001997917891E-4  -1.376855925627751E-5  
 2.652000000000000E10    2.677269512787461E-4  -4.701573343481869E-4  
 2.654000000000000E10    4.515023465501145E-5  -4.160684475209564E-4  
 2.656000000000000E10    2.074449439533055E-4  -4.898848783341236E-5  
 2.658000000000000E10    1.598311209818348E-4   4.776365531142801E-4  
 2.660000000000000E10   -3.755068610189483E-5  -1.508093846496195E-4  
 2.662000000000000E10    2.682422928046435E-4   2.909064278355800E-5  
 2.664000000000000E10   -6.442039739340544E-5  -7.670665218029171E-5  
 2.666000000000000E10    2.657700970303267E-4  -1.952071615960449E-4  
 2.668000000000000E10    5.888302621315233E-5  -2.315621095476672E-4  
 2.670000000000000E10    5.609693471342325E-4  -5.417565116658807E-4  
 2.672000000000000E10    3.826755855698139E-4  -1.470081479055807E-4  
 2.674000000000000E10    5.087049212306738E-4  -5.106708849780262E-4  
 2.676000000000000E10    3.456307604210451E-5  -1.671394711593166E-4  
 2.678000000000000E10    3.478066064417362E-4   1.038640984916128E-4  
 2.680000000000000E10    3.407269541639835E-4   2.954072842840105E-4  
 2.682000000000000E10    3.721923712873831E-5  -4.347797948867083E-4  
 2.684000000000000E10   -3.004476020578295E-4   1.940306683536619E-4  
 2.686000000000000E10   -6.296474020928145E-4  -7.879655458964407E-5  
 2.688000000000000E10    5.886555300094187E-4   6.826312164776027E-5  
 2.690000000000000E10   -2.676341864571441E-5  -2.543856971897185E-4  
 2.692000000000000E10    1.570691092638299E-4  -3.391355276107788E-4  
 2.694000000000000E10    9.786877490114421E-5   3.079729212913662E-4  
 2.696000000000000E10    5.483143613673747E-4  -2.155443798983470E-4  
 2.698000000000000E10    6.928852235432714E-5   3.393054430489428E-5  
 2.700000000000000E10    2.630985109135509E-4  -7.484296656912193E-5  
 2.702000000000000E10    2.578300773166120E-4   1.436087331967428E-4  
 2.704000000000000E10    1.067730700015090E-4  -3.469864022918046E-4  
 2.706000000000000E10   -5.119407796883024E-5   5.178198916837573E-4  
 2.708000000000000E10   -5.565264727920294E-4   3.001013246830553E-4  
 2.710000000000000E10    2.773424203041941E-4  -2.925174885604065E-5  
 2.712000000000000E10   -3.527305379975587E-4  -2.862873370759189E-4  
 2.714000000000000E10   -6.597395404241979E-4   1.802890765247867E-4  
 2.716000000000000E10   -1.957679633051157E-4   1.921659859362990E-4  
 2.718000000000000E10    5.636292626149952E-4  -6.824268439231673E-6  
 2.720000000000000E10   -1.581148244440556E-4   1.700222783256322E-4  
 2.722000000000000E10   -4.620703293767292E-6   4.062712832819670E-4  
 2.724000000000000E10   -4.957584678777494E-5   5.295473965816200E-4  
 2.726000000000000E10    7.844098581699655E-5   8.221995085477829E-5  
 2.728000000000000E10   -2.813622704707086E-4   3.065679920837283E-4  
 2.730000000000000E10   -1.770629896782339E-4   3.178892366122454E-4  
 2.732000000000000E10   -1.418323809048161E-4   1.157996084657498E-4  
 2.734000000000000E10   -1.240252749994397E-4  -3.749660681933165E-4  
 2.736000000000000E10   -1.975168415810913E-4   2.647436922416091E-4  
 2.738000000000000E10    2.879254752770066E-4  -3.589471816667356E-5  
 2.740000000000000E10    7.505999528802931E-4  -3.618855844251812E-4  
 2.742000000000000E10   -7.848424502299167E-6  -1.388329983456060E-4  
 2.744000000000000E10    1.656754466239363E-4   4.688469634857029E-4  
 2.746000000000000E10    6.373203359544277E-4   3.986764058936387E-4  
 2.748000000000000E10    5.253326962701976E-4  -1.565582206239924E-4  
 2.750000000000000E10   -4.472353612072766E-4  -3.560740442480892E-4  
 2.752000000000000E10    2.465862489771098E-4  -2.359611971769482E-4  
 2.754000000000000E10    3.240974328946322E-4  -5.256554140942171E-5  
 2.756000000000000E10    3.903954930137843E-4  -7.767524803057313E-4  
