#  HZ   S   RI   R     50.00 
! Rohde & Schwarz ZVA40 4Ports - Version 3.90 - 1145.1110k42 SN: 100403
! Date: 2023-10-04 08:02:11
! Measurement: S12 
! 
 2.200000000000000E10   -6.653906166320667E-5  -1.702393929008395E-4  
 2.202000000000000E10    1.134444901254028E-4   1.176451914943755E-3  
 2.204000000000000E10    1.024412806145847E-3   3.729831660166383E-4  
 2.206000000000000E10    3.831620560958982E-4  -1.013182991300710E-4  
 2.208000000000000E10   -6.394102820195258E-4   3.219636564608663E-4  
 2.210000000000000E10    6.523816846311092E-4   9.584971703588963E-4  
 2.212000000000000E10    8.926050504669547E-4   1.753980759531260E-4  
 2.214000000000000E10   -2.627434412261209E-7  -7.244198350235820E-4  
 2.216000000000000E10   -5.860112723894417E-4   1.859580661403015E-4  
 2.218000000000000E10    8.567782933823764E-4   4.136504430789501E-4  
 2.220000000000000E10    8.407413843087852E-4  -4.977953503839672E-4  
 2.222000000000000E10   -9.634211892262101E-5  -6.321542896330357E-4  
 2.224000000000000E10   -2.352801093365997E-4   8.759685442782939E-4  
 2.226000000000000E10    9.105506469495595E-4   3.459889558143914E-5  
 2.228000000000000E10    4.425248771440238E-4  -3.501063038129360E-4  
 2.230000000000000E10   -8.239436428993940E-4   3.136963641736656E-4  
 2.232000000000000E10    8.052652992773801E-5   8.350472198799253E-4  
 2.234000000000000E10    9.558593155816197E-4   8.104624430416152E-5  
 2.236000000000000E10   -3.923112526535988E-4  -7.143710972741246E-4  
 2.238000000000000E10   -8.064437424764037E-4   5.221572355367243E-4  
 2.240000000000000E10    6.234751199372113E-4   8.687521331012249E-4  
 2.242000000000000E10    4.870612756349146E-4  -6.047464557923377E-5  
 2.244000000000000E10   -2.187056816183031E-4  -4.323047760408372E-4  
 2.246000000000000E10    9.221900108968839E-5   1.159750157967210E-3  
 2.248000000000000E10    7.848881650716066E-4   2.713647263590246E-4  
 2.250000000000000E10    5.824368563480675E-4   1.068661731551401E-4  
 2.252000000000000E10   -3.760387189686298E-4   2.415284252492711E-4  
 2.254000000000000E10    2.648474765010178E-4   1.220883685164154E-3  
 2.256000000000000E10    1.628946338314563E-4   3.204023523721844E-4  
 2.258000000000000E10    5.998074266244657E-5   4.629191826097667E-4  
 2.260000000000000E10   -2.578914572950453E-4   9.443753515370190E-4  
 2.262000000000000E10    4.504008102230728E-4   8.942333515733481E-4  
 2.264000000000000E10    3.097011940553784E-4   2.288533869432285E-4  
 2.266000000000000E10   -6.574898143298924E-4   7.735733379377052E-5  
 2.268000000000000E10   -2.922242856584489E-4   1.438301871530712E-3  
 2.270000000000000E10    5.768503760918975E-4   7.667684112675488E-4  
 2.272000000000000E10    6.456668488681316E-4   1.840879995143041E-4  
 2.274000000000000E10   -6.335972575470805E-4   1.869883126346394E-4  
 2.276000000000000E10    3.627156547736377E-4   8.978513651527464E-4  
 2.278000000000000E10    2.351177099626511E-4   4.587750008795410E-4  
 2.280000000000000E10    3.386532480362803E-4   9.802525892155245E-5  
 2.282000000000000E10   -1.239834546140628E-5   5.333363151294179E-5  
 2.284000000000000E10    6.776481168344617E-4   1.090656514861621E-4  
 2.286000000000000E10   -3.488632792141289E-4  -3.176146128680557E-4  
 2.288000000000000E10   -6.798926624469459E-4   5.169536962057464E-5  
 2.290000000000000E10    2.305291272932664E-4   7.005956140346825E-4  
 2.292000000000000E10    2.705274382606149E-4  -3.918810689356178E-4  
 2.294000000000000E10   -4.753260582219809E-4  -1.405377639457583E-3  
 2.296000000000000E10   -1.558701158501208E-3  -1.882408250821754E-4  
 2.298000000000000E10   -3.174005541950464E-4   3.515060234349221E-4  
 2.300000000000000E10    2.004381531151012E-4  -1.231312926393002E-4  
 2.302000000000000E10   -2.622890460770577E-4  -9.940221207216382E-4  
 2.304000000000000E10   -6.100151804275811E-4  -1.026308382279240E-5  
 2.306000000000000E10   -5.568116830545478E-5   2.235971769550815E-4  
 2.308000000000000E10   -6.066035130061209E-4   8.699062891537324E-5  
 2.310000000000000E10   -4.136669158469886E-4   5.614646943286061E-4  
 2.312000000000000E10   -3.549717657733709E-4   5.374369211494923E-4  
 2.314000000000000E10   -1.859003969002515E-4  -2.532614453230053E-4  
 2.316000000000000E10   -7.623968995176256E-4  -5.399643559940159E-4  
 2.318000000000000E10   -4.867034731432796E-4   4.371741961222142E-4  
 2.320000000000000E10    4.509148420765996E-4   4.005172522738576E-4  
 2.322000000000000E10    5.859952070750296E-4  -2.315819292562082E-4  
 2.324000000000000E10   -3.969420504290611E-4  -3.601225034799427E-4  
 2.326000000000000E10   -3.891751985065639E-4   3.309440799057484E-4  
 2.328000000000000E10   -1.330380910076201E-4   5.745430826209486E-4  
 2.330000000000000E10   -7.851917325751856E-5  -3.182934015057981E-4  
 2.332000000000000E10   -3.033540269825608E-4  -2.817900967784226E-4  
 2.334000000000000E10   -6.173520232550800E-4  -6.556218431796879E-5  
 2.336000000000000E10   -2.684151404537261E-4  -1.746992638800293E-4  
 2.338000000000000E10   -2.527065225876868E-4  -2.784110547509044E-4  
 2.340000000000000E10   -1.040440838551149E-4   5.093185973237269E-5  
 2.342000000000000E10    5.734824662795290E-5  -1.231864298461005E-4  
 2.344000000000000E10    2.499218098819256E-4  -2.930090122390539E-4  
 2.346000000000000E10   -3.418999840505421E-4   3.286041610408574E-4  
 2.348000000000000E10   -9.887122587315389E-7   5.943338619545102E-4  
 2.350000000000000E10    3.917275462299585E-4   2.129090134985745E-4  
 2.352000000000000E10   -5.340347415767610E-4  -4.547050630208105E-4  
 2.354000000000000E10   -7.451368146575987E-4  -1.102299429476261E-4  
 2.356000000000000E10   -1.893635198939592E-4   3.223249950679019E-5  
 2.358000000000000E10    6.441550212912262E-4  -3.284572740085423E-4  
 2.360000000000000E10    7.252649083966389E-5  -7.235661614686251E-4  
 2.362000000000000E10    3.046208585146815E-4  -3.776375961024314E-4  
 2.364000000000000E10    3.847590505756671E-6  -2.283634676132351E-4  
 2.366000000000000E10   -3.933838452212513E-4   9.123711788561195E-5  
 2.368000000000000E10    2.316577047167812E-5   8.202359313145280E-4  
 2.370000000000000E10    2.466342702973634E-4   1.236686803167686E-4  
 2.372000000000000E10   -6.578861211892217E-5  -5.767621914856136E-4  
 2.374000000000000E10   -1.040844013914466E-3  -7.323227473534644E-4  
 2.376000000000000E10   -1.264264690689743E-3   3.640130162239075E-4  
 2.378000000000000E10    2.479960385244340E-4   9.561378828948364E-5  
 2.380000000000000E10    8.831218583509326E-4  -5.298141040839255E-4  
 2.382000000000000E10   -1.600192335899919E-4  -1.346425851806998E-3  
 2.384000000000000E10   -7.213208009488881E-4  -1.360209571430460E-4  
 2.386000000000000E10   -4.093864990863949E-4   9.635286405682564E-4  
 2.388000000000000E10    6.304230191744864E-4   5.592195666395128E-4  
 2.390000000000000E10    3.663977258838713E-4  -3.747867231140845E-5  
 2.392000000000000E10   -3.058362926822156E-4  -7.330624503083527E-4  
 2.394000000000000E10   -8.182978490367532E-4  -4.528515273705125E-4  
 2.396000000000000E10   -8.795394678600133E-4   4.710265493486077E-4  
 2.398000000000000E10    4.811642866116017E-4   9.447062620893121E-4  
 2.400000000000000E10    1.042992109432817E-3  -5.194887635298073E-4  
 2.402000000000000E10    3.997760722995736E-5  -1.097994507290423E-3  
 2.404000000000000E10   -6.820718408562243E-4   8.206115307984874E-5  
 2.406000000000000E10   -6.755493814125657E-5   1.499636331573129E-3  
 2.408000000000000E10    1.477355835959315E-3   4.389596870169044E-4  
 2.410000000000000E10    6.267054122872651E-4  -2.783832896966487E-4  
 2.412000000000000E10   -4.642010026145726E-4  -3.582085482776165E-4  
 2.414000000000000E10   -5.283558857627213E-4   4.410714318510145E-4  
 2.416000000000000E10    7.465286180377007E-4   7.405011274386197E-5  
 2.418000000000000E10    5.548200570046902E-4  -7.348812505370006E-5  
 2.420000000000000E10    6.497000576928258E-4  -7.226220914162695E-4  
 2.422000000000000E10    3.199802595190704E-4  -1.234035444213077E-4  
 2.424000000000000E10    4.668676992878318E-4   4.120917292311788E-4  
 2.426000000000000E10    7.986177806742489E-4   8.986967150121927E-4  
 2.428000000000000E10    1.375249586999416E-3   3.492516771075316E-5  
 2.430000000000000E10    3.728941373992711E-4  -4.806696088053286E-4  
 2.432000000000000E10   -8.649805095046759E-4  -2.788907731883228E-4  
 2.434000000000000E10   -1.394063438056037E-4   4.591453471221030E-4  
 2.436000000000000E10    1.034797634929419E-3  -4.633857170119882E-4  
 2.438000000000000E10    5.037519149482250E-4  -1.367632532492280E-3  
 2.440000000000000E10    1.524527469882742E-4  -1.285276026464999E-3  
 2.442000000000000E10   -1.341292081633583E-4  -2.916013472713530E-4  
 2.444000000000000E10    5.725151859223843E-4   4.912086296826601E-5  
 2.446000000000000E10    6.711747264489532E-4  -3.426514740567654E-4  
 2.448000000000000E10    4.874272854067385E-4  -6.841164431534708E-4  
 2.450000000000000E10   -7.361785392276943E-4  -5.906920414417982E-4  
 2.452000000000000E10   -1.045594224706292E-3  -4.201158662908711E-5  
 2.454000000000000E10   -4.096624907106161E-4   6.829974008724093E-4  
 2.456000000000000E10    3.285657148808241E-4  -1.094483450287953E-4  
 2.458000000000000E10   -8.682392217451707E-5  -1.326296711340547E-3  
 2.460000000000000E10   -8.070585317909718E-4  -8.551814826205373E-4  
 2.462000000000000E10   -9.737632353790104E-4   2.404219558229670E-4  
 2.464000000000000E10    4.034908197354525E-4   5.530577618628740E-4  
 2.466000000000000E10    7.079312345013022E-4   1.221510865434539E-5  
 2.468000000000000E10   -3.490897943265736E-4  -2.385964762652293E-4  
 2.470000000000000E10   -1.028392231091857E-3  -1.208789399242960E-4  
 2.472000000000000E10   -7.596354116685689E-4   1.149474759586155E-3  
 2.474000000000000E10   -4.078481288161129E-4   2.064258151222020E-4  
 2.476000000000000E10   -9.794470679480583E-5  -1.237246906384826E-4  
 2.478000000000000E10   -4.512417363002896E-4  -2.629486261866987E-4  
 2.480000000000000E10   -1.250770146725699E-4  -1.223930012201890E-4  
 2.482000000000000E10   -3.913867112714797E-4  -1.392171270708786E-5  
 2.484000000000000E10    1.514459145255387E-4   7.125459960661829E-4  
 2.486000000000000E10    4.881571512669325E-4   7.701854920014739E-4  
 2.488000000000000E10    3.575814189389348E-4  -1.512357266619802E-4  
 2.490000000000000E10   -7.753271347610280E-5   1.071066581062041E-4  
 2.492000000000000E10   -4.521654336713255E-4   7.188011077232659E-4  
 2.494000000000000E10    3.694056649692357E-4   4.234495281707496E-4  
 2.496000000000000E10    5.195265403017402E-4  -1.830599940149114E-4  
 2.498000000000000E10   -3.588734252844006E-4  -2.561825676821172E-4  
 2.500000000000000E10   -2.323006774531677E-4   3.198729828000069E-4  
 2.502000000000000E10    4.818259913008660E-4   6.143602658994496E-4  
 2.504000000000000E10    2.384515100857243E-4  -2.853823825716972E-4  
 2.506000000000000E10    8.490972686558962E-5   4.420671029947698E-5  
 2.508000000000000E10    1.515213662059978E-4   4.242706927470863E-4  
 2.510000000000000E10    3.826003230642527E-4   1.996107603190467E-4  
 2.512000000000000E10    7.889866537880153E-5  -5.786686597275548E-5  
 2.514000000000000E10    5.803825333714485E-4   6.134710274636746E-4  
 2.516000000000000E10    7.155102794058621E-4  -1.663031434873119E-4  
 2.518000000000000E10    2.459420938976109E-4  -3.362911229487509E-4  
 2.520000000000000E10   -4.288232594262809E-4   1.612477353774011E-4  
 2.522000000000000E10    3.394667292013764E-4   5.784861859865487E-4  
 2.524000000000000E10    8.363566012121737E-4  -2.362941595492885E-4  
 2.526000000000000E10   -3.035376539628487E-5  -2.951574570033699E-4  
 2.528000000000000E10   -5.084095173515379E-4   1.043435186147690E-4  
 2.530000000000000E10    4.499678034335375E-4   6.990321562625468E-4  
 2.532000000000000E10    4.946779226884246E-4   2.672636474017054E-4  
 2.534000000000000E10    1.425937662133947E-4  -2.294771838933229E-4  
 2.536000000000000E10    4.196626250632107E-4   6.846947944723070E-4  
 2.538000000000000E10   -4.951347364112735E-5   3.293175250291824E-4  
 2.540000000000000E10    4.992012400180101E-4  -1.288261555600911E-4  
 2.542000000000000E10   -6.241047231014818E-5   4.200174298603088E-4  
 2.544000000000000E10    2.823954273480922E-4   1.060070571838878E-4  
 2.546000000000000E10    5.360149079933763E-4  -4.741182201541960E-4  
 2.548000000000000E10    1.529659930383787E-4  -1.951928570633754E-4  
 2.550000000000000E10   -9.085288183996454E-6   3.026858903467655E-4  
 2.552000000000000E10    8.298222674056888E-4   1.148722803918645E-4  
 2.554000000000000E10    6.300032255239785E-4  -3.155913436785340E-4  
 2.556000000000000E10   -7.986919808899984E-5  -3.592908615246415E-5  
 2.558000000000000E10   -2.001513348659501E-4   5.431966274045408E-4  
 2.560000000000000E10    3.508948429953307E-4   1.339812006335706E-4  
 2.562000000000000E10   -8.396615885430947E-5  -4.270247591193765E-4  
 2.564000000000000E10   -5.849758745171130E-4  -4.010034026578069E-4  
 2.566000000000000E10   -1.877767645055428E-4  -3.200867213308811E-4  
 2.568000000000000E10    1.498132332926616E-4  -6.278116488829255E-4  
 2.570000000000000E10    1.506717671873048E-4  -1.014647306874394E-3  
 2.572000000000000E10   -3.447331546340138E-4  -7.734162500128150E-5  
 2.574000000000000E10   -2.607407441246323E-5  -2.258698368677869E-4  
 2.576000000000000E10    9.221951040672138E-5   9.664468234404922E-5  
 2.578000000000000E10   -3.249920846428722E-4  -1.979742373805493E-4  
 2.580000000000000E10   -1.093350147129968E-4   3.654070314951241E-5  
 2.582000000000000E10   -9.516995487501845E-5  -3.271004243288189E-4  
 2.584000000000000E10   -6.101239123381674E-4  -3.323221171740443E-4  
 2.586000000000000E10   -9.363107383251190E-4  -1.242302823811770E-4  
 2.588000000000000E10    3.123537317151204E-5   9.551175753585994E-5  
 2.590000000000000E10   -1.914067797770258E-5  -6.357172969728708E-4  
 2.592000000000000E10   -2.507045282982290E-4  -6.059649749659002E-4  
 2.594000000000000E10   -7.193734636530280E-4   3.341417177580297E-4  
 2.596000000000000E10    2.173749671783298E-4   1.324867189396173E-4  
 2.598000000000000E10    2.656431461218745E-4  -5.930807310505770E-5  
 2.600000000000000E10   -3.131764824502170E-4  -3.072968393098563E-4  
 2.602000000000000E10   -4.265101160854101E-4   2.297745959367603E-4  
 2.604000000000000E10   -2.688656095415354E-4   1.547664141980931E-4  
 2.606000000000000E10   -3.379309491720051E-4   1.745455811033025E-4  
 2.608000000000000E10   -3.909012011718005E-4  -1.677524996921420E-4  
 2.610000000000000E10   -1.183150961878710E-4   1.130023956648074E-4  
 2.612000000000000E10   -5.498918471857905E-4  -5.264002174953930E-5  
 2.614000000000000E10   -1.217341850860976E-4   4.934449098072946E-4  
 2.616000000000000E10   -1.408335083397105E-4   5.988101111142896E-5  
 2.618000000000000E10   -5.853678885614499E-5  -2.402565087322728E-6  
 2.620000000000000E10   -3.249101864639670E-4   8.338241605088115E-5  
 2.622000000000000E10    1.463245134800673E-4   2.752449363470078E-4  
 2.624000000000000E10   -2.047787274932489E-4   6.726058782078326E-4  
 2.626000000000000E10    2.091367059620097E-4   6.129523389972746E-4  
 2.628000000000000E10    3.850026041618548E-5   9.851976064965129E-4  
 2.630000000000000E10   -1.841932535171509E-4   1.414607104379684E-4  
 2.632000000000000E10   -1.732946257106960E-4   7.681742426939309E-4  
 2.634000000000000E10   -1.429922267561778E-4   5.286694504320622E-4  
 2.636000000000000E10    5.101204151287675E-4   6.144349463284016E-4  
 2.638000000000000E10    4.950032453052700E-4  -7.698059926042333E-5  
 2.640000000000000E10    3.877431445289403E-4   2.749603299889714E-4  
 2.642000000000000E10    3.273817128501833E-4   4.763463512063026E-4  
 2.644000000000000E10    1.018636627122760E-3   4.505816323217005E-4  
 2.646000000000000E10    2.334935416001827E-4   5.470003234222531E-4  
 2.648000000000000E10    2.757419133558869E-4   5.737868486903608E-4  
 2.650000000000000E10    8.421448728768155E-5   6.613425794057548E-4  
 2.652000000000000E10   -9.203004083246924E-6   2.335008321097121E-4  
 2.654000000000000E10   -3.071583050768822E-4   5.722100613638759E-4  
 2.656000000000000E10    2.079189871437848E-4  -5.132498245075112E-6  
 2.658000000000000E10    5.305354134179652E-4   6.162709905765951E-5  
 2.660000000000000E10    2.371352020418271E-4  -3.167955146636814E-4  
 2.662000000000000E10    5.165615002624691E-4   4.675233794841915E-4  
 2.664000000000000E10    4.379237361717969E-4   4.425709485076368E-4  
 2.666000000000000E10    1.222552731633186E-3   1.500941434642300E-4  
 2.668000000000000E10   -1.128893272834830E-4   3.820396668743342E-4  
 2.670000000000000E10   -1.314221881330013E-4  -1.069687186827650E-5  
 2.672000000000000E10   -2.791686565615237E-4   2.887131995521486E-5  
 2.674000000000000E10   -8.524127042619512E-5  -5.992943770252168E-4  
 2.676000000000000E10   -2.905465662479401E-4  -8.604235481470823E-4  
 2.678000000000000E10   -1.374517451040447E-4  -6.125757354311645E-4  
 2.680000000000000E10   -4.073276795679703E-5  -2.620929735712707E-4  
 2.682000000000000E10    4.662534629460424E-4  -4.954721080139279E-4  
 2.684000000000000E10   -1.777304132701829E-4   1.678814442129806E-4  
 2.686000000000000E10   -1.149765521404333E-4  -1.217857352457941E-4  
 2.688000000000000E10    4.813947452930734E-5  -1.078402128769085E-4  
 2.690000000000000E10   -4.978405195288360E-4  -5.112379440106452E-4  
 2.692000000000000E10   -6.689291330985725E-4  -1.750371011439711E-4  
 2.694000000000000E10   -5.831120652146637E-4  -5.050639738328755E-4  
 2.696000000000000E10    3.646563072834397E-6  -9.112198604270816E-4  
 2.698000000000000E10   -4.771669337060303E-4  -5.297243478707969E-4  
 2.700000000000000E10   -1.533547219878528E-5  -1.558885851409286E-4  
 2.702000000000000E10    1.631863415241242E-4   4.160398384556174E-4  
 2.704000000000000E10    1.303596509387717E-4  -7.170665194280446E-4  
 2.706000000000000E10   -3.589268599171192E-4   3.851768851745874E-4  
 2.708000000000000E10   -8.094772929325700E-4   3.016490081790835E-4  
 2.710000000000000E10   -7.615531103510875E-6   2.409360022284091E-4  
 2.712000000000000E10   -6.117792800068855E-4  -4.816521250177175E-4  
 2.714000000000000E10   -5.612516542896628E-4   4.838649692828767E-5  
 2.716000000000000E10   -6.188750558067113E-5  -5.359375500120223E-4  
 2.718000000000000E10    3.255944757256657E-4  -4.640453553292900E-4  
 2.720000000000000E10   -5.946329110884108E-5  -3.195264725945890E-4  
 2.722000000000000E10    2.287798852194101E-4   1.440885098418221E-4  
 2.724000000000000E10    1.480846258345991E-4   6.057283026166260E-4  
 2.726000000000000E10   -3.656492481241003E-5   1.580794341862202E-4  
 2.728000000000000E10   -1.142327455454506E-4   4.184025165159255E-4  
 2.730000000000000E10   -1.353788247797638E-4   4.234321531839669E-4  
 2.732000000000000E10    3.137966559734196E-4  -7.517314952565357E-5  
 2.734000000000000E10   -5.177705897949636E-4  -3.466583148110658E-4  
 2.736000000000000E10   -2.518050605431199E-4   6.956121651455760E-4  
 2.738000000000000E10    1.563617406645790E-4   1.726481277728453E-4  
 2.740000000000000E10    5.337173934094608E-4  -2.780434733722359E-4  
 2.742000000000000E10   -3.920104354619980E-4   1.569919368193951E-5  
 2.744000000000000E10    8.343304216396064E-5   5.492533673532307E-4  
 2.746000000000000E10    5.310884444043040E-4   3.864079772029072E-4  
 2.748000000000000E10    5.385215627029538E-4   2.674650459084660E-4  
 2.750000000000000E10   -2.972822985611856E-4   1.117615684051998E-4  
 2.752000000000000E10   -5.912550113862380E-5   4.676104290410876E-4  
 2.754000000000000E10   -2.159714058507234E-4   4.311748198233545E-4  
 2.756000000000000E10    6.409327033907175E-5  -5.477766171679832E-5  
