#  HZ   S   RI   R     50.00 
! Rohde & Schwarz ZVA40 4Ports - Version 3.90 - 1145.1110k42 SN: 100403
! Date: 2023-10-04 08:01:50
! Measurement: S12 
! 
 2.200000000000000E10   -4.524258256424218E-4  -1.397696360072587E-5  
 2.202000000000000E10   -3.756923542823643E-4   9.786000009626150E-4  
 2.204000000000000E10   -2.267860836582258E-4  -2.775037683022674E-5  
 2.206000000000000E10   -3.409929631743580E-4  -2.340795981581323E-5  
 2.208000000000000E10   -1.014142879284918E-3   2.363286475883797E-4  
 2.210000000000000E10    4.132776521146298E-4   2.406956336926669E-4  
 2.212000000000000E10    1.482110528741032E-4  -9.863160812528804E-5  
 2.214000000000000E10   -5.276529464026680E-6  -4.436036688275635E-4  
 2.216000000000000E10   -3.403342998353764E-5   7.226201123557985E-4  
 2.218000000000000E10    8.786284015513957E-4   7.794760167598724E-4  
 2.220000000000000E10    3.137981111649424E-4  -9.674999455455691E-5  
 2.222000000000000E10   -2.207402430940419E-4  -1.947752025444061E-4  
 2.224000000000000E10   -7.110414444468916E-4   8.278635214082897E-4  
 2.226000000000000E10    3.663257812149823E-4   4.081900988239795E-4  
 2.228000000000000E10    2.407466672593728E-4  -2.949784975498915E-4  
 2.230000000000000E10   -7.115629850886762E-4  -3.287461877334863E-4  
 2.232000000000000E10   -2.425639395369217E-4   1.228497858392075E-4  
 2.234000000000000E10    8.097379468381405E-4   8.503874414600432E-5  
 2.236000000000000E10    1.177865051431581E-4  -4.566709103528410E-4  
 2.238000000000000E10   -5.484840949065983E-5  -1.762722386047244E-4  
 2.240000000000000E10    3.761502157431096E-4   6.120051257312298E-4  
 2.242000000000000E10   -7.463926158379763E-5  -7.014721632003784E-5  
 2.244000000000000E10   -5.588228814303875E-4  -2.754385350272059E-4  
 2.246000000000000E10   -4.383357008919120E-4   8.443231927230954E-4  
 2.248000000000000E10    9.041540761245415E-5   1.642156275920570E-4  
 2.250000000000000E10   -2.096565440297127E-4  -8.945317240431905E-4  
 2.252000000000000E10   -1.133615383878350E-3  -3.554538998287171E-4  
 2.254000000000000E10   -3.699913795571774E-4   5.266541847959161E-4  
 2.256000000000000E10    8.347287803189829E-5   1.481212348153349E-5  
 2.258000000000000E10   -3.197072655893862E-4  -6.400030106306076E-4  
 2.260000000000000E10   -1.043360214680433E-3  -1.141930915764533E-4  
 2.262000000000000E10   -3.898098657373339E-4   2.359849022468552E-4  
 2.264000000000000E10   -9.006727486848831E-5  -1.301274187426316E-5  
 2.266000000000000E10   -6.714474293403328E-4  -5.331612774170935E-4  
 2.268000000000000E10   -5.229566013440490E-4   3.231986484024674E-4  
 2.270000000000000E10    1.501398401160259E-5  -7.773612014716491E-5  
 2.272000000000000E10   -8.858450019033626E-5  -2.867304101528134E-5  
 2.274000000000000E10   -7.243466679938138E-4   1.725683832773939E-4  
 2.276000000000000E10    1.664354058448225E-4   8.664884371683002E-4  
 2.278000000000000E10    3.813824878307059E-5   1.443745713913813E-5  
 2.280000000000000E10   -2.867792500182986E-4  -3.629822167567909E-4  
 2.282000000000000E10   -6.670766742900014E-4  -7.228602044051513E-5  
 2.284000000000000E10    1.452146243536845E-4   2.013326302403584E-4  
 2.286000000000000E10    1.081610389519483E-4  -7.678211550228298E-4  
 2.288000000000000E10    3.139162572551868E-6  -7.641799747943878E-4  
 2.290000000000000E10   -4.751650849357247E-4   3.393053193576634E-4  
 2.292000000000000E10    7.788531365804374E-4  -6.969224778003991E-4  
 2.294000000000000E10    3.666715929284692E-4  -6.133708520792425E-4  
 2.296000000000000E10   -2.656499564182013E-4  -4.342663451097906E-4  
 2.298000000000000E10   -5.941288327449001E-5   3.478052385617048E-4  
 2.300000000000000E10    7.746811752440408E-5  -4.242270661052316E-4  
 2.302000000000000E10   -1.514454488642514E-4  -4.222885472700000E-4  
 2.304000000000000E10   -5.031732143834233E-4  -1.235402014572173E-4  
 2.306000000000000E10    3.309955645818263E-4  -2.128782216459513E-4  
 2.308000000000000E10   -4.379784222692251E-4  -8.287263917736709E-4  
 2.310000000000000E10   -1.234319497598335E-4  -5.903604323975742E-4  
 2.312000000000000E10   -8.583349699620158E-5   3.936159191653132E-4  
 2.314000000000000E10    9.292300092056394E-4  -1.609627797733992E-4  
 2.316000000000000E10    4.003476060461253E-4  -3.179406630806625E-4  
 2.318000000000000E10   -3.178083570674062E-4  -7.119114161469042E-5  
 2.320000000000000E10    2.197050198446959E-4   6.467056809924543E-4  
 2.322000000000000E10   -8.292575512314215E-5   6.276074418565258E-5  
 2.324000000000000E10   -3.242326783947647E-4   7.521861698478460E-5  
 2.326000000000000E10   -1.340339804301038E-4  -2.560639986768365E-4  
 2.328000000000000E10    5.781156942248344E-4  -6.212660227902234E-4  
 2.330000000000000E10   -4.726461484096944E-4  -7.601555553264916E-4  
 2.332000000000000E10    3.604251105571166E-5  -1.016501773847267E-4  
 2.334000000000000E10    5.403757095336914E-4   8.048384333960712E-4  
 2.336000000000000E10    9.002909646369517E-4  -1.089619763661176E-4  
 2.338000000000000E10   -8.717804303159937E-5  -3.923138137906790E-4  
 2.340000000000000E10   -4.299703286960721E-4   7.057767652440816E-5  
 2.342000000000000E10   -2.679419121704996E-4   5.791229777969420E-4  
 2.344000000000000E10    7.744110189378262E-5   2.820208610501140E-4  
 2.346000000000000E10    3.398873668629676E-4  -1.561299577588216E-4  
 2.348000000000000E10   -2.406140265520662E-4  -3.991102857980877E-4  
 2.350000000000000E10    1.227976099471562E-5  -6.281793466769159E-4  
 2.352000000000000E10    2.393537433817983E-4  -7.857456512283534E-5  
 2.354000000000000E10    3.733134071808308E-4   1.411270059179515E-4  
 2.356000000000000E10    1.134883146733046E-3   2.558806445449591E-4  
 2.358000000000000E10    8.707972592674196E-4  -1.198098616441712E-4  
 2.360000000000000E10   -3.993512655142695E-4  -9.554417920298874E-5  
 2.362000000000000E10   -3.735512145794928E-4   5.211014649830759E-4  
 2.364000000000000E10    4.572584875859320E-4   6.752287736162543E-4  
 2.366000000000000E10    6.572833517566323E-4  -7.477875333279371E-4  
 2.368000000000000E10    2.076788805425167E-4  -6.800469709560275E-4  
 2.370000000000000E10   -2.006076538236812E-4  -3.347265010233969E-4  
 2.372000000000000E10    5.935839144513011E-4  -2.371147274971008E-4  
 2.374000000000000E10    4.844609356950969E-4  -5.615776535705663E-5  
 2.376000000000000E10    9.376492234878242E-4  -2.673831768333912E-4  
 2.378000000000000E10    3.059080918319523E-4  -5.356742185540497E-4  
 2.380000000000000E10   -2.021955442614853E-4  -3.150318225380033E-4  
 2.382000000000000E10   -7.424275972880423E-4   3.933809057343751E-4  
 2.384000000000000E10   -2.803993993438780E-5   2.531215141061693E-4  
 2.386000000000000E10   -2.191094608861022E-5  -6.245705881156027E-4  
 2.388000000000000E10   -4.157744406256825E-4  -1.189955975860357E-3  
 2.390000000000000E10   -5.737676401622593E-4  -3.294518101029098E-4  
 2.392000000000000E10    6.769438041374087E-4   6.087446818128228E-4  
 2.394000000000000E10    9.956967551261187E-4  -1.204147483804263E-4  
 2.396000000000000E10   -8.087076275842264E-5  -4.003789217676967E-4  
 2.398000000000000E10   -6.355328368954361E-4   6.695772171951830E-4  
 2.400000000000000E10   -2.338966151000932E-4   1.354627544060350E-3  
 2.402000000000000E10   -2.799261346808635E-5   5.327844410203397E-4  
 2.404000000000000E10   -9.788572060642764E-5  -2.836292260326445E-4  
 2.406000000000000E10   -6.496950518339872E-4  -3.313496126793325E-4  
 2.408000000000000E10   -6.415654788725078E-4   2.167642524000257E-4  
 2.410000000000000E10   -2.270359545946121E-4   2.812428865581751E-4  
 2.412000000000000E10    6.304813432507217E-4   4.412980342749506E-4  
 2.414000000000000E10    7.366153877228499E-4   1.344748452538624E-4  
 2.416000000000000E10    4.367659857962281E-4   4.689711931860074E-5  
 2.418000000000000E10   -7.066720863804221E-4   1.092202845029533E-3  
 2.420000000000000E10   -1.528665452497080E-4   1.801944687031210E-3  
 2.422000000000000E10    6.243867101147771E-4   1.339194830507040E-3  
 2.424000000000000E10    2.103678998537362E-4  -1.643650321057066E-4  
 2.426000000000000E10   -1.331819570623338E-3  -2.855033671949059E-4  
 2.428000000000000E10   -1.010520034469664E-3   6.380974082276225E-4  
 2.430000000000000E10    5.558158154599369E-4   6.350536714307964E-4  
 2.432000000000000E10    1.447729067876935E-3  -3.583332872949541E-4  
 2.434000000000000E10    7.307027117349207E-4  -5.855535855516791E-4  
 2.436000000000000E10    4.638547834474593E-4   4.318303399486467E-5  
 2.438000000000000E10    5.325803067535162E-4   7.772653480060399E-4  
 2.440000000000000E10    2.356580080231652E-4   1.285092323087156E-3  
 2.442000000000000E10    6.582046626135707E-4   8.487807936035097E-4  
 2.444000000000000E10    1.156831713160500E-4  -2.878272207453847E-4  
 2.446000000000000E10   -9.149851393885911E-4  -4.242477589286864E-4  
 2.448000000000000E10   -9.402431896887720E-4   3.588329127524048E-4  
 2.450000000000000E10    5.004164995625615E-4  -1.447401518817060E-5  
 2.452000000000000E10    8.711580885574222E-4  -8.462362457066774E-4  
 2.454000000000000E10    4.145165730733424E-4  -7.176949875429273E-4  
 2.456000000000000E10    4.407216038089246E-4  -1.216321688843891E-4  
 2.458000000000000E10    6.934279226697981E-4   5.726949893869460E-4  
 2.460000000000000E10    2.943729923572391E-4   3.270169545430690E-4  
 2.462000000000000E10    2.065195585601032E-4   9.464470349485055E-5  
 2.464000000000000E10   -4.976363852620125E-4  -3.845705577987246E-5  
 2.466000000000000E10   -6.721211830154061E-4  -3.884383186232299E-4  
 2.468000000000000E10   -6.756719085387886E-4  -3.818878321908414E-4  
 2.470000000000000E10   -1.732832170091569E-4  -6.334066856652498E-4  
 2.472000000000000E10    1.459642080590129E-4  -1.349808648228645E-3  
 2.474000000000000E10   -2.817503118421882E-4  -8.837944478727877E-4  
 2.476000000000000E10   -9.114870772464201E-5  -1.890997809823602E-4  
 2.478000000000000E10    8.065652218647301E-4  -1.205891203426290E-5  
 2.480000000000000E10    4.031913413200527E-4   9.325685823569074E-7  
 2.482000000000000E10   -3.933166153728962E-4  -3.181878128089011E-4  
 2.484000000000000E10   -1.154840807430446E-3   3.606640093494207E-4  
 2.486000000000000E10   -9.364435682073236E-4   5.351451691240072E-4  
 2.488000000000000E10   -2.593400422483683E-4  -2.102581056533381E-4  
 2.490000000000000E10   -5.219227168709040E-4  -5.811775918118656E-4  
 2.492000000000000E10   -4.008024407085031E-4  -8.307218085974455E-4  
 2.494000000000000E10    1.524449908174574E-5  -3.030268126167357E-4  
 2.496000000000000E10   -1.899113267427310E-4  -1.206926026497968E-4  
 2.498000000000000E10    4.364374326542020E-4   1.084688992705196E-4  
 2.500000000000000E10    3.766794106923044E-4   1.725720649119467E-4  
 2.502000000000000E10    3.149335389025509E-4   1.905412646010518E-4  
 2.504000000000000E10   -6.649610004387796E-4   4.649825859814882E-4  
 2.506000000000000E10   -3.616955073084682E-4   6.264373660087585E-4  
 2.508000000000000E10    2.018433151533827E-4   5.836002528667450E-4  
 2.510000000000000E10   -4.078785786987282E-5  -4.827850261790445E-6  
 2.512000000000000E10   -1.733948447508737E-4  -5.271727568469942E-4  
 2.514000000000000E10   -3.131349803879857E-4   2.624048793222755E-4  
 2.516000000000000E10    2.079939295072109E-4   1.306624908465892E-4  
 2.518000000000000E10    6.637030746787787E-4  -9.962842887034640E-5  
 2.520000000000000E10    1.874480076367036E-4  -3.009095962624997E-4  
 2.522000000000000E10    5.427184078143910E-5   2.921390987467021E-4  
 2.524000000000000E10    3.489244772936218E-5  -1.676493993727490E-4  
 2.526000000000000E10    8.412638635491021E-6   5.980451169307344E-5  
 2.528000000000000E10   -6.751432083547115E-4   2.735535672400147E-4  
 2.530000000000000E10   -1.705807226244360E-4   1.324023469351232E-4  
 2.532000000000000E10   -6.023676833137870E-4  -6.925827619852498E-5  
 2.534000000000000E10   -5.960321868769825E-4  -1.717994455248117E-4  
 2.536000000000000E10   -8.602351299487054E-4   4.088091081939638E-4  
 2.538000000000000E10   -5.351952859200537E-5  -1.351603132206947E-4  
 2.540000000000000E10   -1.187508096336387E-4  -1.695519167697057E-4  
 2.542000000000000E10   -3.611730644479394E-4  -8.784032252151519E-5  
 2.544000000000000E10    2.372423477936536E-4   6.116533768363297E-4  
 2.546000000000000E10    5.367575213313103E-4   1.817001029849052E-4  
 2.548000000000000E10    9.990924445446581E-5   3.031436644960195E-4  
 2.550000000000000E10   -4.679376725107431E-4   3.591843124013394E-4  
 2.552000000000000E10    4.418053431436420E-4   6.512279505841434E-4  
 2.554000000000000E10   -2.212936233263463E-4   2.608092036098242E-4  
 2.556000000000000E10   -3.144560032524169E-4  -3.202444058842957E-4  
 2.558000000000000E10   -1.406913506798446E-4  -2.457695663906634E-4  
 2.560000000000000E10   -2.275002771057189E-5  -3.837065014522523E-4  
 2.562000000000000E10    3.647779521998018E-5  -4.071546718478203E-4  
 2.564000000000000E10    2.563418529462069E-4  -3.034785622730851E-4  
 2.566000000000000E10    8.566613541916013E-4  -1.837177660490852E-5  
 2.568000000000000E10    4.987310385331512E-4  -1.470822644478176E-5  
 2.570000000000000E10    1.042894946294837E-4   4.265744937583804E-4  
 2.572000000000000E10   -3.037936266991892E-6   7.329048239625990E-4  
 2.574000000000000E10    1.598708768142387E-4   3.140798798995093E-5  
 2.576000000000000E10   -2.334454766241834E-4  -1.523462269688025E-4  
 2.578000000000000E10   -4.450308042578399E-4  -2.075260126730427E-4  
 2.580000000000000E10    3.216843833797611E-5  -8.107273606583476E-5  
 2.582000000000000E10    2.813294122461230E-4  -4.751975939143449E-4  
 2.584000000000000E10    6.196412141434848E-4  -5.954335210844874E-4  
 2.586000000000000E10    3.352925705257803E-4  -7.709107594564557E-4  
 2.588000000000000E10    9.765063296072185E-4   3.614923625718802E-4  
 2.590000000000000E10    2.182056778110564E-4   7.797243597451598E-5  
 2.592000000000000E10    7.141334936022759E-4  -1.450439140171511E-5  
 2.594000000000000E10   -2.683341735973954E-4   3.820611746050417E-4  
 2.596000000000000E10    1.346578756056260E-5  -2.980444405693561E-4  
 2.598000000000000E10   -2.214026026194915E-4  -2.950076304841787E-5  
 2.600000000000000E10    2.919835969805718E-4  -6.712909089401364E-4  
 2.602000000000000E10    1.731233496684581E-4  -3.018144925590605E-4  
 2.604000000000000E10    4.379949241410941E-4  -1.091778744012117E-3  
 2.606000000000000E10    1.969352742889896E-4   2.726280072238296E-4  
 2.608000000000000E10   -3.697136344271712E-5  -3.813556686509401E-4  
 2.610000000000000E10    5.251761758700013E-4   5.044176359660924E-4  
 2.612000000000000E10   -2.368728601140901E-4  -1.767406647559255E-4  
 2.614000000000000E10   -9.209888048644643E-6  -3.925662022083998E-4  
 2.616000000000000E10   -7.465954404324293E-4  -4.419408796820790E-4  
 2.618000000000000E10   -2.038225065916777E-4  -8.870991587173194E-5  
 2.620000000000000E10    7.047764665912837E-5  -4.213334759697318E-4  
 2.622000000000000E10    4.232579085510224E-4  -5.416808417066932E-4  
 2.624000000000000E10   -9.815399243962020E-5  -3.758956445381045E-4  
 2.626000000000000E10   -8.280513429781422E-5  -4.130084125790745E-4  
 2.628000000000000E10   -9.171865531243384E-5   4.380806058179587E-4  
 2.630000000000000E10    1.118926229537465E-4   2.132990448444616E-5  
 2.632000000000000E10   -2.023914130404592E-4  -2.224125928478316E-4  
 2.634000000000000E10   -4.944718093611300E-4  -1.998862717300654E-4  
 2.636000000000000E10   -5.541990976780653E-4  -3.783028296311386E-5  
 2.638000000000000E10   -5.250162212178111E-4  -1.304198958678171E-4  
 2.640000000000000E10   -2.086115855490789E-4  -2.055126678897068E-4  
 2.642000000000000E10   -2.790254075080156E-4  -4.023121437057853E-4  
 2.644000000000000E10    2.431539469398558E-4  -3.018272691406310E-4  
 2.646000000000000E10   -7.357867434620857E-4   1.144450143328868E-4  
 2.648000000000000E10   -5.525525193661451E-4   3.415679093450308E-4  
 2.650000000000000E10    2.016760117840022E-4   7.495888858102262E-4  
 2.652000000000000E10   -4.996833376935683E-5  -2.695802540984005E-4  
 2.654000000000000E10   -1.031065825372934E-3   3.762394408113323E-5  
 2.656000000000000E10   -9.219499770551920E-4   6.437050760723651E-4  
 2.658000000000000E10    6.111721449997276E-5   8.213935070671141E-4  
 2.660000000000000E10   -2.345229149796069E-4  -4.352097166702151E-4  
 2.662000000000000E10   -4.750952357426286E-4  -5.060567855252884E-5  
 2.664000000000000E10   -7.347101927734911E-4   3.023438330274075E-4  
 2.666000000000000E10    2.113064110744745E-4   7.756373088341206E-5  
 2.668000000000000E10   -6.843227311037481E-5   1.213699943036772E-4  
 2.670000000000000E10    3.151651471853256E-4  -1.275364629691467E-4  
 2.672000000000000E10    2.144121099263430E-4   7.770483352942392E-5  
 2.674000000000000E10    4.323029424995184E-4  -2.292563440278173E-4  
 2.676000000000000E10    5.393186074797995E-5   3.938931331504136E-4  
 2.678000000000000E10   -1.076909975381568E-4   4.740958102047443E-4  
 2.680000000000000E10    4.269235942047089E-4   1.887783146230504E-4  
 2.682000000000000E10   -8.560572314308956E-5  -4.066625551786274E-4  
 2.684000000000000E10   -2.051147312158719E-4  -2.584999128885102E-5  
 2.686000000000000E10   -7.933295478323998E-7   4.000361659564078E-4  
 2.688000000000000E10    9.086898644454777E-4  -1.245016901521012E-4  
 2.690000000000000E10    4.001918423455209E-4  -3.901496820617467E-4  
 2.692000000000000E10    5.025141872465611E-4  -2.204272896051407E-4  
 2.694000000000000E10    4.904207889921963E-4   4.596834478434175E-4  
 2.696000000000000E10    8.057626546360552E-4   3.160394553560764E-4  
 2.698000000000000E10    1.757928403094411E-4   5.861369209014811E-5  
 2.700000000000000E10   -2.120756835211068E-4   4.147321160417050E-4  
 2.702000000000000E10   -7.559225196018815E-5   2.866795402951539E-4  
 2.704000000000000E10   -1.038867121678777E-4  -3.948010562453419E-4  
 2.706000000000000E10   -2.188739890698344E-4  -2.174747496610507E-4  
 2.708000000000000E10   -4.488230115384795E-5  -3.682722162920982E-4  
 2.710000000000000E10    7.838833844289184E-4  -3.888527571689338E-4  
 2.712000000000000E10    4.419705364853144E-4  -1.887566468212754E-4  
 2.714000000000000E10    5.112281651236117E-4   3.124324139207602E-4  
 2.716000000000000E10    4.662050050683320E-4   6.455748807638884E-4  
 2.718000000000000E10    4.085468535777181E-4   2.609408693388104E-4  
 2.720000000000000E10   -3.462817694526166E-4   9.950464300345630E-5  
 2.722000000000000E10   -4.570560413412750E-4   2.904632128775120E-4  
 2.724000000000000E10   -1.450511481380090E-4   3.502730396576226E-4  
 2.726000000000000E10    1.943603856489062E-4  -6.241790251806378E-4  
 2.728000000000000E10   -9.334890637546778E-5  -3.003492893185467E-4  
 2.730000000000000E10   -2.789335267152637E-4   2.847886207746342E-5  
 2.732000000000000E10    5.282476777210832E-4   9.722683171276003E-5  
 2.734000000000000E10    8.086244342848659E-4  -2.120639837812632E-4  
 2.736000000000000E10   -3.254883631598204E-5   2.081845450447872E-4  
 2.738000000000000E10   -3.778423706535250E-4   1.433432917110622E-4  
 2.740000000000000E10    2.860758395399898E-4   1.103368194890209E-4  
 2.742000000000000E10   -6.930804229341447E-4   7.167604962887708E-6  
 2.744000000000000E10   -2.323302469449118E-4   1.232083741342649E-4  
 2.746000000000000E10   -1.421084307366982E-4  -2.044387219939381E-4  
 2.748000000000000E10   -5.853431503055617E-5  -8.377628400921822E-4  
 2.750000000000000E10   -5.875956849195063E-4  -2.968072949443013E-4  
 2.752000000000000E10   -2.891256553994026E-5  -6.263658724492416E-5  
 2.754000000000000E10    3.197604382876307E-5   6.773891072953120E-5  
 2.756000000000000E10   -3.290138556621969E-4  -4.770721134264022E-4  
