#  HZ   S   RI   R     50.00 
! Rohde & Schwarz ZVA40 4Ports - Version 3.90 - 1145.1110k42 SN: 100403
! Date: 2023-10-04 08:01:35
! Measurement: S12 
! 
 2.200000000000000E10   -8.465237915515900E-4   8.542444265913218E-5  
 2.202000000000000E10    2.388821485510562E-5   1.454467710573226E-4  
 2.204000000000000E10    9.299843804910779E-4  -5.814754404127598E-4  
 2.206000000000000E10   -4.003536596428603E-4  -8.148851338773966E-4  
 2.208000000000000E10   -6.988733657635748E-4   7.745176117168739E-5  
 2.210000000000000E10    2.036312653217465E-4   1.047802390530706E-3  
 2.212000000000000E10   -8.355866043530114E-7   3.148061805404723E-4  
 2.214000000000000E10   -6.140183540992439E-4   3.555526782292873E-4  
 2.216000000000000E10   -1.170133706182241E-3   6.774856592528522E-4  
 2.218000000000000E10   -4.848857061006129E-4   5.578345153480768E-4  
 2.220000000000000E10   -8.269376703538001E-4  -2.803352545015514E-4  
 2.222000000000000E10   -5.887027946300805E-4   2.535388339310885E-4  
 2.224000000000000E10   -5.068376776762307E-4   5.738941254094243E-4  
 2.226000000000000E10    1.749734801705927E-4  -2.914039650931954E-4  
 2.228000000000000E10   -4.348774964455515E-4  -1.556566530780401E-5  
 2.230000000000000E10   -3.142452042084187E-4   9.355190559290350E-4  
 2.232000000000000E10    8.038802770897746E-4   7.286552572622895E-4  
 2.234000000000000E10    5.228606169112027E-4   2.577947161626071E-4  
 2.236000000000000E10   -8.229777449741960E-4   1.734311954351142E-4  
 2.238000000000000E10   -3.354584041517228E-4   1.144252135418356E-3  
 2.240000000000000E10    1.523919636383653E-4   8.325445814989507E-4  
 2.242000000000000E10    9.931035310728476E-5  -4.191201242065290E-6  
 2.244000000000000E10   -4.559068474918604E-4  -2.318741317139939E-4  
 2.246000000000000E10    1.121354507631622E-4   3.031433152500540E-4  
 2.248000000000000E10    1.683019509073347E-4   1.145580245065503E-4  
 2.250000000000000E10    4.897654289379716E-4  -5.725014489144087E-4  
 2.252000000000000E10    1.396182778989896E-4  -5.701587724615820E-6  
 2.254000000000000E10    9.032595698954538E-5   1.192489580716938E-4  
 2.256000000000000E10    4.789732047356665E-4  -1.536090567242354E-4  
 2.258000000000000E10    4.411990812513977E-4  -2.678865484995185E-6  
 2.260000000000000E10    1.178514503408223E-4   2.522745344322175E-4  
 2.262000000000000E10    3.951978869736195E-4  -8.449253800790757E-5  
 2.264000000000000E10    4.936444456689060E-4   9.139221219811589E-6  
 2.266000000000000E10   -1.568725710967556E-4  -2.832948230206966E-4  
 2.268000000000000E10    2.006978611461818E-4   8.439653174718842E-5  
 2.270000000000000E10    6.073021795600653E-4  -4.635401128325611E-4  
 2.272000000000000E10   -1.842968922574073E-4  -7.617545197717845E-4  
 2.274000000000000E10   -1.876340829767287E-4  -4.407176456879824E-4  
 2.276000000000000E10   -3.550077599356882E-5   8.114056254271418E-5  
 2.278000000000000E10    7.415199652314186E-4  -3.454461693763733E-4  
 2.280000000000000E10    2.280559419887140E-4  -6.116658914834261E-4  
 2.282000000000000E10   -7.955987530294806E-5  -4.026330425404012E-4  
 2.284000000000000E10    3.038273716811091E-4   2.979965065605938E-4  
 2.286000000000000E10    2.289619733346626E-4   1.929581776494160E-5  
 2.288000000000000E10   -1.476430916227400E-4  -2.967557520605624E-4  
 2.290000000000000E10    3.598346302169375E-5   1.500210928497836E-4  
 2.292000000000000E10    3.193305456079543E-4  -2.522185095585883E-4  
 2.294000000000000E10   -4.533623869065195E-4  -3.815781383309513E-4  
 2.296000000000000E10   -1.556782262923662E-5  -2.269568794872612E-4  
 2.298000000000000E10    4.536496708169580E-4  -1.905382086988539E-4  
 2.300000000000000E10    3.233628231100738E-4  -5.195566918700934E-4  
 2.302000000000000E10   -2.487060846760869E-4  -3.046506317332387E-4  
 2.304000000000000E10   -1.411119155818597E-4   1.295012916671112E-4  
 2.306000000000000E10   -9.486810449743643E-5   3.471871314104646E-4  
 2.308000000000000E10   -4.471852444112301E-4  -3.440724685788155E-5  
 2.310000000000000E10   -1.325071934843436E-4   2.221787435701117E-4  
 2.312000000000000E10   -2.001164393732324E-4   7.474335143342614E-5  
 2.314000000000000E10   -3.488828369881958E-4  -5.179434665478766E-4  
 2.316000000000000E10   -8.173891692422330E-4  -7.329612708417699E-5  
 2.318000000000000E10   -3.721076063811779E-4   1.750793162500486E-4  
 2.320000000000000E10   -6.908335490152240E-5   8.895567589206621E-5  
 2.322000000000000E10    4.398571618366987E-4  -4.405581275932491E-4  
 2.324000000000000E10   -1.009342740871944E-4  -4.235757223796099E-4  
 2.326000000000000E10   -1.069466452463530E-4   2.255610743304715E-4  
 2.328000000000000E10    2.183477045036852E-4   8.181289304047823E-4  
 2.330000000000000E10    1.248104963451624E-4   2.036308869719505E-4  
 2.332000000000000E10   -5.953033178229816E-5   1.655010578360816E-6  
 2.334000000000000E10   -4.558126092888415E-4   6.298082007560879E-5  
 2.336000000000000E10   -4.233334329910576E-4   1.526492610537389E-6  
 2.338000000000000E10   -4.633706994354725E-4  -1.160564788733609E-4  
 2.340000000000000E10   -8.687703666510060E-5   2.424031699774787E-4  
 2.342000000000000E10    3.243639366701245E-4  -3.836328105535358E-4  
 2.344000000000000E10    9.486351336818188E-5  -5.427591386251152E-4  
 2.346000000000000E10   -6.806299788877368E-4  -1.629229373065755E-4  
 2.348000000000000E10    6.249954935810820E-7   4.467780527193099E-4  
 2.350000000000000E10    2.223526098532602E-4  -1.238905970240012E-4  
 2.352000000000000E10    7.722133887000382E-5  -2.184036275139079E-4  
 2.354000000000000E10   -5.024505080655217E-4   1.537237549200654E-4  
 2.356000000000000E10    1.781548962753732E-5   7.535752956755459E-4  
 2.358000000000000E10   -1.686557952780277E-4   5.405556876212359E-4  
 2.360000000000000E10   -1.603290875209495E-4  -1.490792328695534E-6  
 2.362000000000000E10   -4.397917946334928E-4   3.617454203777015E-4  
 2.364000000000000E10   -8.004129631444812E-5   7.613230991410092E-5  
 2.366000000000000E10    4.499320857576095E-5   2.788346027955413E-4  
 2.368000000000000E10    6.944156211829977E-6   2.084749430650845E-4  
 2.370000000000000E10    7.395154534606263E-5   2.004717243835330E-4  
 2.372000000000000E10    5.497080564964563E-5  -7.581859244965017E-4  
 2.374000000000000E10   -9.732172475196421E-5   1.962095411727205E-4  
 2.376000000000000E10    2.944326552096754E-4   1.923814852489159E-4  
 2.378000000000000E10    1.335175940766931E-3   1.412695128237829E-4  
 2.380000000000000E10    4.638590617105365E-4  -1.558728399686515E-4  
 2.382000000000000E10   -4.199540126137435E-4   2.815772313624620E-4  
 2.384000000000000E10   -3.698885557241738E-4   1.067576813511550E-3  
 2.386000000000000E10    2.319999766768888E-4   8.675499702803791E-4  
 2.388000000000000E10    6.963077612454072E-5  -3.432934172451496E-4  
 2.390000000000000E10   -3.545343643054366E-4  -3.572065907064825E-4  
 2.392000000000000E10   -7.291779038496316E-4  -5.218760925345123E-4  
 2.394000000000000E10   -3.369358601048589E-4  -2.377318305661902E-4  
 2.396000000000000E10    2.972634101752192E-4   5.280120240058750E-5  
 2.398000000000000E10    1.377796987071633E-3  -7.888568216003478E-4  
 2.400000000000000E10    3.187677357345820E-4  -9.211048018187285E-4  
 2.402000000000000E10   -3.818906843662262E-4   1.026388490572572E-4  
 2.404000000000000E10   -6.362749991239980E-5   1.293650013394654E-3  
 2.406000000000000E10    7.656262605451047E-4   5.558050470426679E-4  
 2.408000000000000E10    3.687011485453695E-4  -2.917620877269656E-4  
 2.410000000000000E10   -1.008916296996176E-3  -7.356825517490506E-4  
 2.412000000000000E10   -1.204693689942360E-3  -3.003001911565661E-4  
 2.414000000000000E10   -3.540973120834678E-4  -1.389413955621421E-4  
 2.416000000000000E10    4.404607461765409E-4  -4.536357300821692E-4  
 2.418000000000000E10    5.800062208436430E-4  -1.091909478418529E-3  
 2.420000000000000E10   -1.315022818744183E-4  -8.342309738509357E-4  
 2.422000000000000E10   -2.353270247112960E-4  -5.465321373776533E-5  
 2.424000000000000E10    1.684837479842827E-4   6.984632345847786E-4  
 2.426000000000000E10    2.204741467721760E-4   3.669137659016997E-4  
 2.428000000000000E10   -1.781616010703147E-4  -3.622826188802719E-4  
 2.430000000000000E10   -9.888423373922706E-4  -1.087748023564927E-4  
 2.432000000000000E10   -1.064169919118285E-3  -6.032954388501821E-6  
 2.434000000000000E10   -3.915912820957601E-4   6.682695675408468E-5  
 2.436000000000000E10   -2.464941935613751E-4  -6.038626888766885E-4  
 2.438000000000000E10   -3.567187377484515E-5  -9.818841936066747E-4  
 2.440000000000000E10    1.582984696142376E-4  -3.997621242888272E-4  
 2.442000000000000E10   -9.367325401399285E-5  -2.571170170995174E-6  
 2.444000000000000E10    6.507990183308721E-4   2.700493787415326E-4  
 2.446000000000000E10    4.396238364279270E-4   1.186565714306198E-4  
 2.448000000000000E10   -1.975164050236344E-4   2.910840848926455E-4  
 2.450000000000000E10   -1.020466443151236E-3   3.702749090734869E-4  
 2.452000000000000E10   -2.146048645954579E-4   3.882093878928572E-4  
 2.454000000000000E10   -2.805618569254875E-4  -1.171579206129536E-4  
 2.456000000000000E10   -5.159148713573813E-4  -5.400843801908195E-4  
 2.458000000000000E10   -2.626309578772634E-4  -1.981336536118761E-4  
 2.460000000000000E10   -1.127080759033561E-5   1.996446080738679E-4  
 2.462000000000000E10    3.988998942077160E-4   2.147095801774412E-4  
 2.464000000000000E10    9.660374489612877E-4   3.771268238779157E-4  
 2.466000000000000E10    6.387414177879691E-4   2.853310434147716E-4  
 2.468000000000000E10   -3.575031878426671E-4   3.859701391775161E-4  
 2.470000000000000E10   -1.649355253903195E-4   1.096614869311452E-3  
 2.472000000000000E10    1.749194634612650E-4   7.902728393673897E-4  
 2.474000000000000E10    4.366095236036927E-4   1.078658460755833E-4  
 2.476000000000000E10   -1.588168961461633E-4  -4.312765668146312E-4  
 2.478000000000000E10   -2.148314524674788E-4   1.885065430542454E-4  
 2.480000000000000E10    5.753295845352113E-4   2.454347268212587E-4  
 2.482000000000000E10    6.078446167521179E-4   2.270207187393680E-5  
 2.484000000000000E10    9.343520505353808E-4  -2.547588374000043E-4  
 2.486000000000000E10    9.832186624407768E-4   3.055318957194686E-4  
 2.488000000000000E10    2.981307916343212E-4   3.309947351226583E-5  
 2.490000000000000E10    2.684917417354882E-4   8.143841987475753E-4  
 2.492000000000000E10    1.191069677588530E-4   7.321863668039441E-4  
 2.494000000000000E10    4.803074698429555E-4   5.314591180649586E-5  
 2.496000000000000E10   -2.243187336716801E-4  -5.278295138850808E-4  
 2.498000000000000E10   -5.891293403692544E-4   9.187843534164131E-5  
 2.500000000000000E10    2.852953330148011E-4  -9.488283103564754E-5  
 2.502000000000000E10    4.126770654693246E-4  -1.182810228783637E-4  
 2.504000000000000E10    5.271577392704785E-4  -3.012275556102395E-4  
 2.506000000000000E10    1.535873889224604E-4   1.692740916041657E-4  
 2.508000000000000E10    3.500718739815056E-4   3.262968384660780E-4  
 2.510000000000000E10    5.591492517851293E-4   1.306628546444699E-4  
 2.512000000000000E10   -4.990950692445040E-4   4.051625437568873E-4  
 2.514000000000000E10    7.769211515551433E-5   5.309296539053321E-4  
 2.516000000000000E10   -3.734353522304446E-4  -2.261221379740164E-4  
 2.518000000000000E10   -3.261427045799792E-4  -4.404298670124263E-4  
 2.520000000000000E10   -6.213433225639164E-4  -2.239797177026048E-4  
 2.522000000000000E10    4.229205660521984E-4  -6.174623267725110E-4  
 2.524000000000000E10    2.170373918488622E-4  -5.586320767179132E-4  
 2.526000000000000E10    2.220833121100441E-4  -6.054260884411633E-4  
 2.528000000000000E10    1.804953208193183E-4   2.000476088142023E-4  
 2.530000000000000E10    5.303414654918015E-4   1.032330910675228E-4  
 2.532000000000000E10    1.887809958134312E-5   9.101826435653493E-5  
 2.534000000000000E10   -2.894456265494227E-4  -1.699346466921270E-4  
 2.536000000000000E10   -3.984817885793746E-4   4.095601907465607E-4  
 2.538000000000000E10   -1.188776004710235E-4  -2.213063853560016E-4  
 2.540000000000000E10    2.841119749064092E-5  -4.140034434385598E-4  
 2.542000000000000E10   -3.017403068952262E-4  -1.721799199003726E-4  
 2.544000000000000E10   -3.139739565085620E-4  -2.690896508283913E-4  
 2.546000000000000E10   -1.772724062902853E-4  -3.429393982514739E-4  
 2.548000000000000E10   -2.308852126589045E-4  -1.343144504062366E-5  
 2.550000000000000E10    6.773667701054364E-5   9.051341476151720E-5  
 2.552000000000000E10   -9.984066309698392E-6  -2.965790336020291E-4  
 2.554000000000000E10    6.697414210066199E-5   4.300579021219164E-4  
 2.556000000000000E10   -3.302536497358233E-4   2.362986997468397E-4  
 2.558000000000000E10    2.758549526333809E-4   3.934661799576134E-4  
 2.560000000000000E10    5.753715231548995E-5   2.529696503188461E-4  
 2.562000000000000E10   -5.359457281883806E-5   1.750879600876942E-4  
 2.564000000000000E10   -4.560878442134708E-4   3.401259018573910E-4  
 2.566000000000000E10   -2.007944931392558E-5   4.237047978676856E-4  
 2.568000000000000E10    6.392953218892217E-5  -2.584668400231749E-4  
 2.570000000000000E10   -4.087620181962848E-4   1.028323094942607E-5  
 2.572000000000000E10   -2.365468681091443E-4   5.200104715186171E-5  
 2.574000000000000E10    3.002873563673347E-4  -4.024288136861287E-5  
 2.576000000000000E10    1.853422436397523E-4  -1.428557006875053E-4  
 2.578000000000000E10   -2.448923769406974E-4   1.497832417953759E-4  
 2.580000000000000E10    8.175021503120661E-5   4.095460171811283E-4  
 2.582000000000000E10   -9.777256491361186E-5   6.696121417917311E-4  
 2.584000000000000E10   -6.259343936108053E-4   3.873487585224211E-4  
 2.586000000000000E10   -6.621523789362982E-5   4.632579220924527E-4  
 2.588000000000000E10   -4.606853181030601E-4   2.079922560369596E-4  
 2.590000000000000E10   -4.369142116047442E-4  -5.381712107919157E-4  
 2.592000000000000E10   -3.474495315458626E-4   2.718950963753741E-5  
 2.594000000000000E10    4.551326856017113E-4   1.632694911677390E-4  
 2.596000000000000E10    2.947513130493462E-4  -1.851261476986110E-4  
 2.598000000000000E10    3.872691013384610E-4  -1.015730449580587E-4  
 2.600000000000000E10   -2.232221158919856E-4   7.525707478635013E-4  
 2.602000000000000E10    1.466622779844329E-4   4.508054116740823E-4  
 2.604000000000000E10   -2.815453626681119E-4   3.726843860931695E-4  
 2.606000000000000E10   -1.978341315407306E-4   7.776442362228409E-5  
 2.608000000000000E10   -3.683543473016471E-4  -2.647342917043716E-4  
 2.610000000000000E10   -1.462409709347412E-4  -1.921047223731875E-4  
 2.612000000000000E10   -3.081828181166202E-4   8.824907854432240E-5  
 2.614000000000000E10    4.086225817445666E-4   6.056653000996448E-5  
 2.616000000000000E10    6.155425799079239E-4  -9.004759340314195E-5  
 2.618000000000000E10   -8.805461402516812E-5  -2.833322505466640E-4  
 2.620000000000000E10   -4.033592704217881E-4   5.477640661410987E-4  
 2.622000000000000E10   -7.707126496825367E-5   7.795986603014171E-4  
 2.624000000000000E10   -2.837296924553812E-4   1.123973634094000E-4  
 2.626000000000000E10   -6.399585981853306E-4  -2.246271469630301E-4  
 2.628000000000000E10   -4.494883760344237E-4   1.005518788588233E-4  
 2.630000000000000E10   -1.381991314701736E-4   4.842270936933346E-5  
 2.632000000000000E10    4.086314875166863E-4   1.217638491652906E-4  
 2.634000000000000E10    1.048230682499707E-3  -1.222582504851744E-4  
 2.636000000000000E10    5.170394433662295E-4   1.578783412696794E-4  
 2.638000000000000E10    2.023620472755283E-4   3.629351558629423E-4  
 2.640000000000000E10   -1.576797076268122E-4   8.692718110978603E-4  
 2.642000000000000E10   -2.042832420556806E-5   5.040425457991660E-4  
 2.644000000000000E10    6.086225039325655E-4   2.476309600751847E-4  
 2.646000000000000E10   -4.393915878608823E-4  -7.372132968157530E-4  
 2.648000000000000E10   -5.560014396905899E-4  -5.137654370628297E-4  
 2.650000000000000E10    1.081981245079078E-4  -2.588827337604016E-4  
 2.652000000000000E10    9.296754142269492E-4  -3.196955076418817E-4  
 2.654000000000000E10    4.159784875810146E-4  -9.966740617528558E-4  
 2.656000000000000E10    1.432118588127196E-4  -2.183840988436714E-4  
 2.658000000000000E10    8.623625035397708E-5   3.515124553814530E-4  
 2.660000000000000E10    4.469807608984411E-4   3.212754090782255E-4  
 2.662000000000000E10    3.942533221561462E-4   2.821888774633408E-4  
 2.664000000000000E10   -4.941583611071110E-4  -3.931712708435953E-4  
 2.666000000000000E10    9.885587496683002E-5   2.272326819365844E-4  
 2.668000000000000E10   -1.857836905401200E-4  -5.413233302533627E-4  
 2.670000000000000E10    3.333836502861232E-4  -2.104675513692200E-4  
 2.672000000000000E10    3.067900543101132E-4  -5.087889730930328E-4  
 2.674000000000000E10    6.883960450068116E-4  -3.246121632400900E-4  
 2.676000000000000E10   -1.066529293893836E-4  -6.340648396871984E-4  
 2.678000000000000E10    4.105554398847744E-5   6.229006685316563E-4  
 2.680000000000000E10    2.747635298874229E-4   1.540305675007403E-4  
 2.682000000000000E10   -1.721270527923480E-4  -2.230908430647105E-4  
 2.684000000000000E10   -9.399947593919933E-4  -5.664848722517490E-4  
 2.686000000000000E10   -9.687786223366857E-4  -1.207843615702586E-5  
 2.688000000000000E10   -8.944306318880990E-5   6.431587098632008E-5  
 2.690000000000000E10   -1.622964045964181E-4  -6.189011619426310E-4  
 2.692000000000000E10   -2.237453882116824E-4  -4.729419888462871E-4  
 2.694000000000000E10   -5.445917486213148E-4  -1.976852072402835E-4  
 2.696000000000000E10    8.365454050363042E-6   1.201687264256179E-4  
 2.698000000000000E10   -4.999758093617857E-4  -1.237303949892521E-4  
 2.700000000000000E10   -1.594213827047497E-4   1.472539006499574E-4  
 2.702000000000000E10   -1.898433692986146E-4  -2.495264343451709E-4  
 2.704000000000000E10   -1.059588685166091E-4   2.491926716174930E-5  
 2.706000000000000E10   -8.234701817855239E-4   3.067470097448677E-4  
 2.708000000000000E10   -3.880568838212639E-4   3.462237073108554E-4  
 2.710000000000000E10    2.121021825587377E-4   1.135653146775439E-4  
 2.712000000000000E10   -4.776363202836365E-4  -4.919388447888196E-4  
 2.714000000000000E10   -5.915003130212426E-4  -3.045499906875193E-4  
 2.716000000000000E10   -6.799090770073235E-4   4.894127487204969E-4  
 2.718000000000000E10    1.308059145230800E-4   1.482416846556589E-4  
 2.720000000000000E10    5.589185093413107E-5  -1.633220235817134E-4  
 2.722000000000000E10   -3.658139321487397E-4  -1.764830230968073E-4  
 2.724000000000000E10   -6.908125360496342E-4   5.872233305126429E-5  
 2.726000000000000E10    1.758120779413730E-4   4.135971830692142E-4  
 2.728000000000000E10   -1.092982301997836E-6   4.583158297464252E-4  
 2.730000000000000E10   -1.072891609510407E-4   9.844444866757840E-5  
 2.732000000000000E10   -3.505978966131806E-4   1.145505593740381E-4  
 2.734000000000000E10   -8.346244430867955E-5   2.193806576542556E-4  
 2.736000000000000E10   -3.276822972111404E-4   4.308065108489245E-4  
 2.738000000000000E10    3.228842979297042E-4   9.479294385528192E-5  
 2.740000000000000E10    2.448709274176508E-4   1.537813950562850E-4  
 2.742000000000000E10    1.506383559899405E-4  -1.716683327686042E-4  
 2.744000000000000E10    5.239923484623432E-4   4.485478857532144E-4  
 2.746000000000000E10    1.088087228708901E-4   3.000628785230219E-4  
 2.748000000000000E10    7.694476516917348E-4   6.610037962673232E-5  
 2.750000000000000E10    1.187267480418086E-4   2.473314234521240E-4  
 2.752000000000000E10    6.286146526690573E-5  -8.877099389792420E-6  
 2.754000000000000E10    2.703065692912787E-4   2.528067852836102E-4  
 2.756000000000000E10    8.047998999245465E-4  -2.220566530013457E-4  
