#  HZ   S   RI   R     50.00 
! Rohde & Schwarz ZVA40 4Ports - Version 3.90 - 1145.1110k42 SN: 100403
! Date: 2023-10-04 08:01:10
! Measurement: S12 
! 
 2.200000000000000E10    5.170548683963716E-5  -8.360428619198501E-4  
 2.202000000000000E10    1.299069117521867E-4  -7.210440526250750E-5  
 2.204000000000000E10    5.277355667203665E-4  -2.698179741855711E-4  
 2.206000000000000E10    2.026752626989037E-4  -1.803903141990304E-4  
 2.208000000000000E10   -5.292576970532537E-4  -1.903031952679157E-4  
 2.210000000000000E10   -2.143834353773855E-5  -2.905694709625095E-4  
 2.212000000000000E10   -9.860612917691469E-4  -1.217451179400086E-3  
 2.214000000000000E10   -9.943264303728938E-4  -8.468593005090952E-4  
 2.216000000000000E10   -5.662400508299470E-4  -1.626642188057303E-4  
 2.218000000000000E10    5.060088005848229E-4  -8.164080791175365E-4  
 2.220000000000000E10    7.656102388864383E-5  -1.613024389371276E-3  
 2.222000000000000E10   -4.245758464094251E-4  -4.602844419423491E-4  
 2.224000000000000E10   -4.652232746593654E-4   3.163221408613026E-4  
 2.226000000000000E10    6.227086414583027E-4  -1.826829829951748E-4  
 2.228000000000000E10   -4.236651584506035E-4  -6.553331040777266E-4  
 2.230000000000000E10   -1.115980907343328E-3  -1.718414860079065E-4  
 2.232000000000000E10   -4.551362362690270E-4   3.673426399473101E-4  
 2.234000000000000E10   -1.990877208299935E-4  -5.650875973515213E-4  
 2.236000000000000E10   -7.326318300329149E-4  -7.682873401790857E-4  
 2.238000000000000E10   -4.674966621678323E-4  -2.401295787421987E-4  
 2.240000000000000E10    1.740079169394448E-4  -3.133479913230985E-4  
 2.242000000000000E10   -7.361563621088862E-5  -7.530516013503075E-4  
 2.244000000000000E10   -3.243368410039693E-4   4.048335904371925E-5  
 2.246000000000000E10    1.178587626782246E-4   8.033423218876123E-4  
 2.248000000000000E10    3.990752738900483E-4  -4.346559289842844E-4  
 2.250000000000000E10   -3.367066965438426E-4  -4.155548522248864E-4  
 2.252000000000000E10   -1.040867646224797E-3   6.358762038871646E-4  
 2.254000000000000E10    2.844753616955131E-4   7.624223944731057E-4  
 2.256000000000000E10    4.285879258532077E-4   2.295485319336876E-5  
 2.258000000000000E10   -4.978569922968745E-4  -6.431273068301380E-4  
 2.260000000000000E10   -1.753516262397170E-4   2.319390187039971E-4  
 2.262000000000000E10    3.420989669393748E-4   3.832310321740806E-4  
 2.264000000000000E10    4.514682223089039E-4   1.880543859442696E-4  
 2.266000000000000E10   -3.778442533075577E-6   9.095496352529153E-5  
 2.268000000000000E10    5.005236598663032E-4   6.114672287367284E-4  
 2.270000000000000E10    4.793822299689055E-4   1.215535376104526E-4  
 2.272000000000000E10    2.658235898707062E-4   3.837279509752989E-4  
 2.274000000000000E10   -2.385397820034996E-4   6.116251461207867E-4  
 2.276000000000000E10    8.194806869141758E-4   6.027241470292211E-4  
 2.278000000000000E10    7.783850742271170E-5   7.699523121118546E-5  
 2.280000000000000E10   -1.196265566250077E-5  -7.869204273447394E-5  
 2.282000000000000E10   -3.168127732351422E-4   1.655035011935979E-4  
 2.284000000000000E10    5.463802954182029E-4  -3.843693411909044E-4  
 2.286000000000000E10    4.045209789182991E-4  -5.233511910773814E-4  
 2.288000000000000E10    1.072521772584878E-4  -2.108254411723465E-4  
 2.290000000000000E10    7.056918693706393E-4   6.022191373631358E-4  
 2.292000000000000E10    7.865036604925990E-4  -1.316794223384932E-4  
 2.294000000000000E10    3.986573428846896E-4   1.884044031612575E-4  
 2.296000000000000E10    1.498119527241215E-4   8.212580578401685E-4  
 2.298000000000000E10    7.197937229648233E-4   7.043792284093797E-4  
 2.300000000000000E10    3.895234258379787E-4  -2.893564815167338E-4  
 2.302000000000000E10   -4.271280777174979E-4  -5.915210349485278E-4  
 2.304000000000000E10   -1.337884168606252E-4   3.189864801242948E-4  
 2.306000000000000E10    3.137065214104950E-4  -3.603819932322949E-4  
 2.308000000000000E10    4.435932205524296E-4  -6.641017389483750E-4  
 2.310000000000000E10    1.211787239299156E-4  -9.136868175119162E-5  
 2.312000000000000E10    4.676425014622510E-4  -6.345280417008326E-5  
 2.314000000000000E10    4.927433328703046E-4  -1.424891670467332E-4  
 2.316000000000000E10   -1.905221579363570E-4   8.701965998625383E-5  
 2.318000000000000E10    2.029184834100306E-4   2.634291013237089E-4  
 2.320000000000000E10    4.151960893068463E-4  -6.287240466917865E-6  
 2.322000000000000E10   -8.284401701530442E-5  -2.892577613238245E-4  
 2.324000000000000E10   -5.749810952693224E-4   5.040564064984210E-5  
 2.326000000000000E10    1.763974287314341E-4   5.186994676478207E-4  
 2.328000000000000E10    5.161021545063704E-5  -1.148469018517062E-4  
 2.330000000000000E10   -1.660894777160138E-4  -4.163835837971419E-4  
 2.332000000000000E10    7.039737829472870E-5   2.132499357685447E-4  
 2.334000000000000E10    6.141567719168961E-4   3.787951427511871E-4  
 2.336000000000000E10    4.187789454590529E-4   1.854078982432839E-5  
 2.338000000000000E10   -4.832230624742806E-4  -2.345754037378356E-4  
 2.340000000000000E10   -3.278992080595344E-4   5.450210301205516E-4  
 2.342000000000000E10    1.505737018305808E-4   3.373039944563061E-4  
 2.344000000000000E10    5.127998301759362E-4  -3.393497609067708E-4  
 2.346000000000000E10    7.029884727671742E-5  -4.312284581828862E-4  
 2.348000000000000E10   -7.024554361123592E-5  -3.437942650634795E-4  
 2.350000000000000E10    3.098029119428247E-4   1.400341570843011E-4  
 2.352000000000000E10    4.022812645416707E-4   3.466350026428700E-4  
 2.354000000000000E10   -5.194251934881322E-5   2.337846235604957E-4  
 2.356000000000000E10    3.744436544366181E-4   1.510511938249692E-4  
 2.358000000000000E10   -4.883061628788710E-4  -4.806620418094099E-4  
 2.360000000000000E10   -8.438673685304821E-4   9.177122410619631E-5  
 2.362000000000000E10   -9.070286614587531E-5   7.181303808465600E-4  
 2.364000000000000E10    4.538204811979085E-4  -2.143465098924935E-4  
 2.366000000000000E10    3.696322164614685E-5  -6.811270141042769E-4  
 2.368000000000000E10   -7.160103996284306E-4  -4.681711143348366E-4  
 2.370000000000000E10   -3.244548279326409E-4   1.055523171089590E-4  
 2.372000000000000E10    5.972156068310142E-4   5.523675354197621E-4  
 2.374000000000000E10    2.192913962062448E-4   2.900710569520015E-5  
 2.376000000000000E10   -4.171865293756127E-4  -3.693216785904951E-5  
 2.378000000000000E10   -3.524873463902623E-4   3.196952457074076E-4  
 2.380000000000000E10   -1.226527267135680E-3   2.751560823526233E-4  
 2.382000000000000E10   -8.564396412111819E-4   3.706156858243048E-4  
 2.384000000000000E10    3.473818360362202E-4   1.670438941800967E-4  
 2.386000000000000E10   -1.985206035897136E-4  -6.735419738106430E-4  
 2.388000000000000E10   -4.818330344278365E-4  -7.946009282022715E-4  
 2.390000000000000E10   -3.763784479815513E-4   6.167158717289567E-4  
 2.392000000000000E10    2.567615010775626E-4   8.135833195410669E-4  
 2.394000000000000E10    7.474019075743854E-4   1.491781586082652E-4  
 2.396000000000000E10   -1.340042217634618E-4  -3.577651295927353E-5  
 2.398000000000000E10   -3.630330320447683E-4   7.344555342569947E-4  
 2.400000000000000E10   -3.604880184866488E-4   8.311925921589136E-4  
 2.402000000000000E10   -1.182090854854323E-4   1.409367250744253E-4  
 2.404000000000000E10   -5.711981793865562E-4  -1.954543840838596E-4  
 2.406000000000000E10   -3.606515820138156E-4  -2.173256361857057E-4  
 2.408000000000000E10    1.379641762468964E-4   8.408434950979427E-5  
 2.410000000000000E10    5.739314365200698E-4  -3.335009678266943E-4  
 2.412000000000000E10    9.280644007958472E-4   5.349319544620812E-4  
 2.414000000000000E10    7.580887759104371E-4  -1.420358603354543E-4  
 2.416000000000000E10    3.864429017994553E-4   3.683258546516299E-4  
 2.418000000000000E10   -2.780349750537425E-4   8.507965831086040E-4  
 2.420000000000000E10    4.203840508125722E-4   7.188367890194058E-4  
 2.422000000000000E10    2.897091908380389E-4  -3.565398219507188E-4  
 2.424000000000000E10   -3.201769141014665E-4  -6.722892867401242E-4  
 2.426000000000000E10   -5.389728466980159E-4   7.515832839999348E-5  
 2.428000000000000E10    8.563626906834543E-4   5.108635741635226E-5  
 2.430000000000000E10    1.260353252291679E-3  -8.946567540988326E-4  
 2.432000000000000E10    7.343157194554806E-4  -6.912039243616164E-4  
 2.434000000000000E10    3.738613158930093E-4  -3.371882776264101E-4  
 2.436000000000000E10    4.500176873989403E-4   1.915926259243861E-4  
 2.438000000000000E10    4.296717524994165E-4   4.271982179488987E-4  
 2.440000000000000E10    2.669449895620346E-4   1.431214477634057E-4  
 2.442000000000000E10    4.854685539612547E-5  -2.589341020211577E-4  
 2.444000000000000E10   -6.451754597947002E-4  -1.069513615220785E-3  
 2.446000000000000E10   -8.714484865777195E-4  -5.699808825738728E-4  
 2.448000000000000E10    2.437059156363830E-4  -1.205244116135873E-4  
 2.450000000000000E10    1.118702930398285E-3  -9.249853319488466E-4  
 2.452000000000000E10    2.708693500608206E-4  -1.141789834946394E-3  
 2.454000000000000E10   -8.343654917553067E-5  -1.566287537571043E-4  
 2.456000000000000E10    2.302224165759981E-4   4.598927043844014E-4  
 2.458000000000000E10    6.224975368240848E-5   7.516651530750096E-4  
 2.460000000000000E10   -6.323153502307832E-5   2.542588117648847E-5  
 2.462000000000000E10   -6.068875663913786E-4  -4.614307181327604E-5  
 2.464000000000000E10   -7.880463963374496E-4  -3.332760534249246E-4  
 2.466000000000000E10   -9.809286566451192E-4  -3.702099493239075E-4  
 2.468000000000000E10   -6.508603109978139E-4  -5.131015204824507E-4  
 2.470000000000000E10    3.180185449309647E-4  -5.078884423710406E-4  
 2.472000000000000E10   -2.216367283836007E-4  -4.675789969041944E-4  
 2.474000000000000E10   -4.054044838994741E-4  -3.526892978698015E-4  
 2.476000000000000E10   -2.965921885333955E-4   5.392777966335416E-4  
 2.478000000000000E10   -2.940564882010222E-4   5.733122234232724E-4  
 2.480000000000000E10   -2.232355909654871E-4   4.288268100935966E-4  
 2.482000000000000E10   -1.012565451674163E-3   4.807519144378603E-4  
 2.484000000000000E10   -8.057261002250016E-4   3.972905105911195E-4  
 2.486000000000000E10   -5.357128684408963E-4   2.842701214831322E-4  
 2.488000000000000E10   -5.766535177826881E-4  -1.777355500962585E-4  
 2.490000000000000E10   -3.996767627540976E-4  -1.744440087350085E-4  
 2.492000000000000E10   -1.141441243817098E-4  -5.948187026660889E-5  
 2.494000000000000E10    4.469586128834635E-4   2.916604280471802E-4  
 2.496000000000000E10    2.023336128331721E-4   1.657128450460732E-4  
 2.498000000000000E10    2.220961141574662E-5   4.766342754010111E-4  
 2.500000000000000E10    3.838256816379726E-5   6.748873274773359E-4  
 2.502000000000000E10   -5.798693746328354E-5   6.804040167480707E-4  
 2.504000000000000E10   -8.824965334497392E-4   2.241570036858320E-4  
 2.506000000000000E10   -1.117754654842429E-4   1.443859655410051E-4  
 2.508000000000000E10   -8.871933096088469E-5   2.299835032317787E-4  
 2.510000000000000E10   -5.449273521662690E-5  -3.951625258196145E-4  
 2.512000000000000E10   -4.327973147155717E-5  -8.226044155890122E-5  
 2.514000000000000E10    4.151639295741916E-4   2.460274845361710E-5  
 2.516000000000000E10    7.702796719968319E-4   2.163824101444334E-4  
 2.518000000000000E10    4.018003819510341E-4  -8.666514622746036E-5  
 2.520000000000000E10    3.755610086955130E-4   2.052675408776850E-4  
 2.522000000000000E10    3.446879782131873E-5   6.531075923703611E-4  
 2.524000000000000E10    2.353892195969820E-4   1.894181332318112E-4  
 2.526000000000000E10   -3.062957839574665E-4   2.610359515529126E-4  
 2.528000000000000E10   -3.518859739415348E-4  -6.409135949070333E-6  
 2.530000000000000E10    1.496343465987593E-4  -2.596529957372695E-4  
 2.532000000000000E10   -4.764090408571065E-4  -5.739894113503397E-4  
 2.534000000000000E10    4.176412858214462E-6  -2.080974954878911E-4  
 2.536000000000000E10    5.053561180830002E-4   3.090349491685629E-4  
 2.538000000000000E10    7.181948749348521E-4  -2.259223983855918E-4  
 2.540000000000000E10    1.140358217526227E-4  -1.359380403300747E-4  
 2.542000000000000E10    9.947664511855692E-5   3.485045453999192E-4  
 2.544000000000000E10    2.817263884935528E-4   3.179407794959843E-4  
 2.546000000000000E10    2.560182474553585E-4  -1.694232487352565E-4  
 2.548000000000000E10   -1.545664708828554E-4  -2.170872903661802E-4  
 2.550000000000000E10   -3.694852057378739E-4  -2.796427288558334E-4  
 2.552000000000000E10    2.512226346880198E-4  -1.390197721775621E-4  
 2.554000000000000E10    4.107081622350961E-5  -7.317299023270607E-4  
 2.556000000000000E10    1.229918962053489E-5  -2.555947867222130E-4  
 2.558000000000000E10    1.881214993773028E-4   2.055137010756880E-4  
 2.560000000000000E10    4.527309793047607E-4  -2.369456778978929E-4  
 2.562000000000000E10    8.796478505246341E-5   8.741677447687835E-5  
 2.564000000000000E10   -1.858745381468907E-4  -2.887790105887689E-5  
 2.566000000000000E10    1.084571152887293E-7   3.998194370069541E-5  
 2.568000000000000E10   -4.842151829507202E-4  -3.092942060902715E-4  
 2.570000000000000E10   -2.574989339336753E-4   1.795460557332262E-4  
 2.572000000000000E10   -6.947735528228805E-5  -1.287215709453449E-4  
 2.574000000000000E10    1.752465468598530E-4  -6.820435519330204E-4  
 2.576000000000000E10   -2.888095914386213E-4  -4.623320419341326E-4  
 2.578000000000000E10    5.389624493545853E-5  -2.167780912714079E-4  
 2.580000000000000E10    1.341513852821663E-4   1.349666563328356E-4  
 2.582000000000000E10    8.956249803304672E-5  -4.717144765891135E-4  
 2.584000000000000E10   -1.898368500405923E-4  -1.872569555416703E-4  
 2.586000000000000E10   -9.748373122420162E-5  -4.442953013494844E-6  
 2.588000000000000E10   -7.816312063368969E-6   3.261021629441530E-4  
 2.590000000000000E10   -1.535485207568854E-4  -3.459265280980617E-4  
 2.592000000000000E10   -9.859845886239782E-5   4.876376624451950E-5  
 2.594000000000000E10   -3.963468188885599E-4  -2.924748405348510E-4  
 2.596000000000000E10    1.785449603630696E-5  -2.947844041045755E-4  
 2.598000000000000E10   -4.452495195437223E-4  -7.717534026596695E-5  
 2.600000000000000E10    1.945979747688398E-4   1.051504077622667E-4  
 2.602000000000000E10    3.410100471228361E-4   2.224378658866044E-5  
 2.604000000000000E10   -4.976374475518242E-5  -2.884789137169719E-4  
 2.606000000000000E10   -4.735566035378724E-4   3.949936362914741E-4  
 2.608000000000000E10    2.180635638069361E-4   2.384969266131520E-4  
 2.610000000000000E10    3.213101008441299E-4   1.160179162980057E-4  
 2.612000000000000E10   -3.556751471478492E-4  -6.518251029774547E-4  
 2.614000000000000E10   -2.070970222121105E-4   2.758999180514365E-4  
 2.616000000000000E10   -1.220660706167109E-4  -3.984824797953479E-5  
 2.618000000000000E10    4.145069106016308E-4  -2.932673378381878E-4  
 2.620000000000000E10   -3.517787263263017E-5  -2.440236421534792E-4  
 2.622000000000000E10    2.925403241533786E-4  -1.621582050574943E-4  
 2.624000000000000E10    1.077747874660417E-4  -5.845821942784824E-5  
 2.626000000000000E10    2.987119078170508E-4   4.754624023917131E-5  
 2.628000000000000E10    3.724542693817057E-6   8.148188935592771E-4  
 2.630000000000000E10    2.726271632127464E-4  -1.584247074788436E-4  
 2.632000000000000E10   -3.281583485659212E-4  -1.067487573891413E-5  
 2.634000000000000E10   -8.039637468755245E-4   1.752720418153331E-4  
 2.636000000000000E10    1.952063175849617E-4   4.461327043827623E-4  
 2.638000000000000E10    2.119575801771134E-4  -4.978843498975039E-4  
 2.640000000000000E10    1.639577239984646E-4  -6.578358006663621E-4  
 2.642000000000000E10   -4.931272633257322E-5  -2.623154141474515E-4  
 2.644000000000000E10    2.914424694608897E-4   6.345869624055922E-4  
 2.646000000000000E10    1.187755988212302E-4   4.142644174862653E-4  
 2.648000000000000E10    7.789912633597851E-4  -1.417449384462088E-4  
 2.650000000000000E10   -4.113495815545321E-4   1.150654425146058E-4  
 2.652000000000000E10   -5.949922488071024E-4   2.777259169306490E-6  
 2.654000000000000E10   -4.836244625039399E-4   4.861772467847914E-4  
 2.656000000000000E10    8.490601612720639E-5  -3.799389814957976E-4  
 2.658000000000000E10   -7.073218876030296E-5  -2.703651844058186E-4  
 2.660000000000000E10   -1.600059622433037E-4  -7.622268167324364E-4  
 2.662000000000000E10    1.193668213090859E-4   1.338772271992639E-4  
 2.664000000000000E10    2.395292394794524E-4   2.757907786872238E-4  
 2.666000000000000E10    9.543751948513091E-4   2.304373047081754E-4  
 2.668000000000000E10   -2.840724191628397E-4   2.475440560374409E-4  
 2.670000000000000E10   -2.125850442098454E-4   3.044384939130396E-4  
 2.672000000000000E10   -4.491120052989572E-4   8.438671939074993E-4  
 2.674000000000000E10   -9.559641330270097E-5   7.004032522672787E-5  
 2.676000000000000E10    1.545265695312992E-4  -3.014219983015209E-4  
 2.678000000000000E10   -2.077802637359127E-4  -8.083310676738620E-4  
 2.680000000000000E10   -1.451711141271517E-4  -3.374950028955936E-4  
 2.682000000000000E10    3.203580272383988E-4   2.988601772813126E-5  
 2.684000000000000E10    7.732363883405924E-4   2.125719038303942E-4  
 2.686000000000000E10    2.214608393842354E-4   5.014167254557833E-5  
 2.688000000000000E10    7.111189188435674E-5  -7.523072417825460E-5  
 2.690000000000000E10   -4.275223473086953E-4   2.082712744595483E-4  
 2.692000000000000E10   -4.915631725452840E-4   3.939487796742469E-4  
 2.694000000000000E10   -2.481268020346761E-4   6.252372259041295E-6  
 2.696000000000000E10    2.790979924611747E-4  -6.545039359480143E-4  
 2.698000000000000E10   -6.804244912927970E-5  -1.719588763080537E-4  
 2.700000000000000E10    2.935829797934275E-5  -1.705831527942792E-4  
 2.702000000000000E10    4.986773710697889E-4   3.342620329931378E-4  
 2.704000000000000E10    8.054695208556950E-4   2.890709729399532E-4  
 2.706000000000000E10    6.068624788895249E-4   3.210057620890439E-4  
 2.708000000000000E10   -1.911828876473010E-4  -6.195344758452848E-5  
 2.710000000000000E10   -1.274108217330650E-4   6.344700814224780E-4  
 2.712000000000000E10   -1.420218031853437E-4   3.389364865142852E-4  
 2.714000000000000E10    2.676231670193374E-4  -4.536980704870075E-4  
 2.716000000000000E10   -2.790886792354286E-4  -6.011040532030165E-4  
 2.718000000000000E10    1.625839795451611E-4  -6.629641866311431E-4  
 2.720000000000000E10    4.804164054803550E-4  -2.462305710650981E-4  
 2.722000000000000E10    5.005387356504798E-4  -2.091305359499529E-4  
 2.724000000000000E10    4.702685982920229E-4   8.427042484981939E-5  
 2.726000000000000E10    6.086605135351419E-4  -1.521670346846804E-4  
 2.728000000000000E10   -1.098702341550961E-5   2.898390812333673E-4  
 2.730000000000000E10   -4.412159905768931E-4   1.724358007777482E-4  
 2.732000000000000E10    3.523013729136437E-4   1.679543056525290E-4  
 2.734000000000000E10    1.936502667376772E-4  -6.900397711433470E-4  
 2.736000000000000E10   -2.751234569586813E-4  -7.360842428170145E-4  
 2.738000000000000E10   -6.290934397839010E-4   1.415747101418674E-4  
 2.740000000000000E10    5.805801483802497E-4   2.337702608201653E-4  
 2.742000000000000E10    5.652311374433339E-4  -3.950842947233468E-4  
 2.744000000000000E10   -4.649932816391811E-5  -4.273916420061141E-4  
 2.746000000000000E10   -3.091549151577056E-4   9.856441465672106E-5  
 2.748000000000000E10   -3.196135003236122E-5   3.200580540578812E-4  
 2.750000000000000E10    7.956806803122163E-5   2.849533047992736E-4  
 2.752000000000000E10   -9.949377272278070E-5  -3.267365391366184E-4  
 2.754000000000000E10   -4.224274016451091E-4  -3.661842492874712E-4  
 2.756000000000000E10   -8.288362878374755E-4  -2.357453777221963E-4  
