#  HZ   S   RI   R     50.00 
! Rohde & Schwarz ZVA40 4Ports - Version 3.90 - 1145.1110k42 SN: 100403
! Date: 2023-10-04 08:00:51
! Measurement: S12 
! 
 2.200000000000000E10   -6.575430161319673E-4   2.819663495756686E-4  
 2.202000000000000E10    8.487531449645758E-4   1.628229161724448E-3  
 2.204000000000000E10    1.164982561022043E-3   4.357607976999134E-4  
 2.206000000000000E10    2.372886956436560E-4  -7.318427087739110E-4  
 2.208000000000000E10   -6.913213292136788E-4   2.815952211676631E-5  
 2.210000000000000E10    6.401198916137219E-4   7.157280924730003E-4  
 2.212000000000000E10    1.109542325139046E-3  -1.553902693558484E-4  
 2.214000000000000E10    9.013076778501272E-4  -7.669904734939337E-4  
 2.216000000000000E10    2.762190706562251E-4   3.254035837017000E-4  
 2.218000000000000E10    8.126651518978179E-4   5.973681691102684E-4  
 2.220000000000000E10    7.730349316261709E-4   2.630634699016810E-4  
 2.222000000000000E10    1.132304169004783E-4   4.770290106534958E-4  
 2.224000000000000E10    1.658363762544468E-4   9.453057427890599E-4  
 2.226000000000000E10    5.192301468923688E-4  -1.019681803882122E-4  
 2.228000000000000E10    1.818129094317555E-4  -4.468622501008213E-4  
 2.230000000000000E10   -2.251899422844872E-4   2.301203785464168E-4  
 2.232000000000000E10    1.082386937923729E-3   7.664008444407955E-5  
 2.234000000000000E10    1.365072210319340E-3  -4.991550231352449E-4  
 2.236000000000000E10    1.883353106677532E-4  -7.463706424459815E-4  
 2.238000000000000E10    3.507921646814793E-4   5.184440524317324E-4  
 2.240000000000000E10    8.383763488382101E-4   6.695011979900301E-4  
 2.242000000000000E10    9.179927874356508E-4  -3.893963876180351E-4  
 2.244000000000000E10   -2.773715532384813E-4  -1.132073157350533E-4  
 2.246000000000000E10   -3.126484807580710E-4   2.677186857908964E-4  
 2.248000000000000E10    5.483545246534050E-4   4.269154669600539E-5  
 2.250000000000000E10    1.371131802443415E-4  -8.158638374879956E-4  
 2.252000000000000E10   -3.863956953864545E-4  -1.537613279651851E-4  
 2.254000000000000E10    2.937833778560162E-4   2.501678536646068E-4  
 2.256000000000000E10    5.957049434073269E-4  -6.627619150094688E-4  
 2.258000000000000E10   -3.722072287928313E-4  -4.264510644134134E-4  
 2.260000000000000E10   -1.135986167355441E-4   6.371751660481095E-4  
 2.262000000000000E10    5.715190782211721E-4   2.278947795275599E-4  
 2.264000000000000E10   -1.984434202313423E-4  -4.227698664180934E-4  
 2.266000000000000E10   -1.172114163637161E-3   3.081192699028179E-5  
 2.268000000000000E10   -6.009831558912993E-4   6.795797962695360E-4  
 2.270000000000000E10    3.196018224116415E-4  -2.590300573501736E-5  
 2.272000000000000E10   -4.045092500746250E-4  -7.338366704061627E-4  
 2.274000000000000E10   -1.312129781581461E-3  -3.522328042890877E-4  
 2.276000000000000E10    8.569275814807043E-5   6.587801617570221E-4  
 2.278000000000000E10    1.458906917832792E-4  -2.594005200080574E-4  
 2.280000000000000E10   -2.772471634671092E-4  -6.998488097451627E-4  
 2.282000000000000E10   -6.869055214338005E-4   9.390040213475004E-5  
 2.284000000000000E10    4.320540465414524E-4   3.894320980180055E-4  
 2.286000000000000E10   -7.929606363177300E-5   5.844221595907584E-5  
 2.288000000000000E10   -7.661031559109688E-4   5.189665534999222E-5  
 2.290000000000000E10   -3.518193261697888E-4   8.701910846866667E-4  
 2.292000000000000E10   -2.562581212259829E-4   3.487749199848622E-4  
 2.294000000000000E10   -6.411740905605257E-4  -2.635867567732930E-4  
 2.296000000000000E10   -8.292661514133215E-4   7.370890671154484E-5  
 2.298000000000000E10   -1.574789057485759E-4   4.797489964403212E-4  
 2.300000000000000E10    2.246956864837557E-4  -7.740010187262669E-5  
 2.302000000000000E10    1.201471823151223E-4  -3.107173833996058E-4  
 2.304000000000000E10   -1.063110394170508E-4   5.706808296963573E-4  
 2.306000000000000E10    3.945480275433511E-4   3.629645507317036E-4  
 2.308000000000000E10    1.203396550408797E-5  -1.866089296527207E-4  
 2.310000000000000E10   -7.660717819817364E-4   6.777945673093200E-4  
 2.312000000000000E10    6.841754657216370E-5   9.164615767076612E-4  
 2.314000000000000E10    2.671033726073802E-4   6.796271918574348E-5  
 2.316000000000000E10   -7.305653416551650E-4  -5.901016993448138E-4  
 2.318000000000000E10   -7.077703485265374E-4   3.795658412855119E-4  
 2.320000000000000E10    2.592098608147353E-4   4.957112250849605E-4  
 2.322000000000000E10    6.392142386175692E-4  -2.529721823520958E-4  
 2.324000000000000E10   -2.732419525273144E-4  -4.138649965170771E-4  
 2.326000000000000E10   -1.759049046086147E-4   3.420169814489782E-4  
 2.328000000000000E10    9.240400686394423E-5   6.194007582962513E-4  
 2.330000000000000E10    2.550177159719169E-4   7.710371573921293E-5  
 2.332000000000000E10   -1.711855875328183E-4   6.185474339872599E-4  
 2.334000000000000E10   -3.589248444768600E-5   2.595184196252376E-4  
 2.336000000000000E10    1.259974233107641E-4  -3.660579095594585E-4  
 2.338000000000000E10   -8.628132636658847E-4  -1.219984114868566E-4  
 2.340000000000000E10   -4.287261108402163E-4   5.310942069627345E-4  
 2.342000000000000E10    1.051213475875557E-3  -1.653718354646117E-4  
 2.344000000000000E10    1.225745836563874E-5  -8.132116636261344E-4  
 2.346000000000000E10   -7.340055890381336E-4  -1.083183233276941E-4  
 2.348000000000000E10   -5.887845691177063E-5   7.697769906371832E-4  
 2.350000000000000E10    4.355218843556941E-4   2.871422038879246E-4  
 2.352000000000000E10    9.380982373841107E-5  -2.796200569719076E-4  
 2.354000000000000E10   -2.513510989956558E-4   8.150409848894924E-5  
 2.356000000000000E10    1.133308978751302E-4   3.025282640010119E-4  
 2.358000000000000E10    2.414509217487648E-4   2.161484444513917E-4  
 2.360000000000000E10    1.818756572902203E-4   1.025877427309752E-4  
 2.362000000000000E10   -2.743162913247943E-4   2.848459698725492E-4  
 2.364000000000000E10    1.692125224508345E-4  -2.218699810327962E-4  
 2.366000000000000E10    1.086671691155061E-4  -3.331500629428774E-4  
 2.368000000000000E10   -1.324906188528985E-4   1.389570243190974E-4  
 2.370000000000000E10    6.473587127402425E-4  -1.078280620276928E-4  
 2.372000000000000E10    7.317672134377062E-4  -7.307542255148292E-4  
 2.374000000000000E10   -1.085003968910314E-4  -6.057904101908207E-4  
 2.376000000000000E10    1.748511131154373E-4  -4.044681845698506E-4  
 2.378000000000000E10    8.411270682699978E-4  -2.072548377327621E-4  
 2.380000000000000E10    1.151282122009434E-4  -6.763408891856670E-4  
 2.382000000000000E10   -8.095276825770270E-6  -9.487308561801910E-4  
 2.384000000000000E10   -2.477891976013780E-4   4.419025208335370E-4  
 2.386000000000000E10   -6.888943607918918E-5  -6.544288044096902E-5  
 2.388000000000000E10    2.062814892269671E-4  -5.840579397045076E-4  
 2.390000000000000E10   -5.376364570111036E-4  -8.892135811038315E-4  
 2.392000000000000E10   -3.218543715775013E-4  -8.804355165921152E-4  
 2.394000000000000E10   -4.747144703287631E-4  -3.944878699257970E-4  
 2.396000000000000E10    5.753795267082751E-5  -2.691850240807980E-4  
 2.398000000000000E10    5.878927768208087E-4   3.480841769487597E-5  
 2.400000000000000E10    2.059088437817991E-4  -5.512911011464894E-4  
 2.402000000000000E10   -5.514202639460564E-4  -5.694116116501391E-4  
 2.404000000000000E10   -8.095879456959665E-4   2.484915894456208E-4  
 2.406000000000000E10    2.912825148086995E-4   6.046572234481573E-4  
 2.408000000000000E10    1.663706352701411E-4  -6.429341738112271E-5  
 2.410000000000000E10   -7.973432657308877E-4  -7.573997136205435E-4  
 2.412000000000000E10   -1.259765354916453E-3   3.854899114230648E-5  
 2.414000000000000E10   -6.137883756309748E-4   3.018574207089841E-4  
 2.416000000000000E10    3.695461200550199E-4   2.531956706661731E-4  
 2.418000000000000E10    3.503648331388831E-4  -6.714590708725154E-4  
 2.420000000000000E10   -5.741955465055071E-5  -1.181094849016517E-4  
 2.422000000000000E10   -4.867293173447251E-4   1.690123317530379E-4  
 2.424000000000000E10   -1.228044566232711E-4   1.179848564788699E-3  
 2.426000000000000E10   -1.287776976823807E-4   1.228256733156741E-3  
 2.428000000000000E10    1.664242299739271E-4   3.308780142106116E-4  
 2.430000000000000E10   -6.200221832841635E-4   2.567014889791608E-4  
 2.432000000000000E10   -8.836491615511477E-4   1.578268711455166E-4  
 2.434000000000000E10   -2.688090899027884E-4   1.048845006152988E-3  
 2.436000000000000E10    7.659949478693306E-4  -1.012785287457518E-4  
 2.438000000000000E10    3.946919750887901E-4  -2.218701556557789E-4  
 2.440000000000000E10   -6.260633381316438E-5   1.558878429932520E-4  
 2.442000000000000E10    3.689568256959319E-4   4.799345042556524E-4  
 2.444000000000000E10    9.408402256667614E-4   1.014533685520291E-3  
 2.446000000000000E10    6.799118709750474E-4   4.254964296706021E-4  
 2.448000000000000E10   -3.595092493924312E-5   4.844540089834482E-4  
 2.450000000000000E10   -2.361970255151391E-4   3.980531182605773E-4  
 2.452000000000000E10    3.748727322090417E-4   3.883656463585794E-4  
 2.454000000000000E10   -4.817665612790734E-4  -1.766031346051022E-4  
 2.456000000000000E10    2.245107170892879E-4  -2.328429109184071E-4  
 2.458000000000000E10    4.971254966221750E-4  -3.889765939675272E-4  
 2.460000000000000E10    1.918023335747421E-4  -7.704513263888657E-4  
 2.462000000000000E10    4.655481316149235E-4   3.227545530535281E-4  
 2.464000000000000E10    9.387814207002521E-4   2.359150239499286E-4  
 2.466000000000000E10    6.373081705532968E-4   8.784514648141339E-6  
 2.468000000000000E10   -1.913679298013449E-4  -3.042802563868463E-4  
 2.470000000000000E10   -2.498225658200681E-4   5.168513162061572E-4  
 2.472000000000000E10    1.145870919572190E-5   2.800785878207535E-4  
 2.474000000000000E10    2.051611809292808E-4  -5.241303588263691E-4  
 2.476000000000000E10   -3.868562926072627E-4  -1.062670373357832E-3  
 2.478000000000000E10    9.905154001899064E-6  -5.443869740702212E-4  
 2.480000000000000E10    2.189102087868378E-4  -7.067358237691224E-4  
 2.482000000000000E10    4.135539347771555E-4  -7.601280231028795E-4  
 2.484000000000000E10    4.895058227702975E-4  -2.400181110715494E-4  
 2.486000000000000E10    4.133259062655270E-4  -3.180054482072592E-4  
 2.488000000000000E10    2.742740616668016E-4  -3.818972909357399E-4  
 2.490000000000000E10   -5.100355483591557E-4   7.863337145863625E-7  
 2.492000000000000E10   -5.767778493463993E-4   1.321229356108233E-4  
 2.494000000000000E10   -3.282591933384538E-5  -1.468389236833900E-4  
 2.496000000000000E10   -6.799803813919425E-4  -7.692413055337966E-4  
 2.498000000000000E10   -7.091709994710982E-4  -6.032512756064534E-4  
 2.500000000000000E10   -3.947778604924679E-4  -3.635390312410891E-4  
 2.502000000000000E10    3.613796725403518E-4  -2.977519761770964E-4  
 2.504000000000000E10   -8.803957462077960E-5  -5.767154507339001E-4  
 2.506000000000000E10    3.096346626989543E-4  -1.440692140022293E-4  
 2.508000000000000E10    1.754839177010581E-4   3.407691256143153E-4  
 2.510000000000000E10   -1.639880247239489E-5  -1.099945984606165E-5  
 2.512000000000000E10   -3.406984615139663E-4   5.155622493475676E-4  
 2.514000000000000E10   -1.115213672164828E-4   4.599451203830540E-4  
 2.516000000000000E10    7.416422249661991E-6   1.222409337060526E-4  
 2.518000000000000E10   -6.595983286388218E-4  -5.576578550972045E-4  
 2.520000000000000E10   -3.582073259167373E-4  -6.235827459022403E-5  
 2.522000000000000E10   -3.111618862021714E-4  -9.488873911323026E-5  
 2.524000000000000E10    1.108270007534884E-4  -3.800348786171526E-4  
 2.526000000000000E10   -1.863250508904457E-4  -4.126129788346589E-4  
 2.528000000000000E10    4.550352241494693E-5  -2.643503830768168E-5  
 2.530000000000000E10    2.210811653640121E-4   4.134281189180911E-4  
 2.532000000000000E10    5.899723691982217E-5   1.720105501590297E-4  
 2.534000000000000E10   -1.596661895746365E-4   4.769707156810910E-4  
 2.536000000000000E10   -6.257881759665906E-4   2.220397145720199E-4  
 2.538000000000000E10   -1.479330239817500E-4   8.611776138423011E-5  
 2.540000000000000E10   -6.561247282661498E-4   5.520052945939824E-5  
 2.542000000000000E10   -2.867677540052682E-4  -8.779090421739966E-5  
 2.544000000000000E10   -1.738580758683384E-4  -1.036516841850244E-4  
 2.546000000000000E10    2.879502135328949E-4  -5.182650056667626E-4  
 2.548000000000000E10   -3.053948603337631E-5   2.447043952997774E-4  
 2.550000000000000E10    1.702324952930212E-4   6.555650179507211E-5  
 2.552000000000000E10    6.399446283467114E-4   4.435279115568847E-4  
 2.554000000000000E10   -3.338254755362868E-4   1.857709430623800E-4  
 2.556000000000000E10   -1.648780453251675E-4   4.767143109347671E-4  
 2.558000000000000E10   -5.260882317088544E-4   8.448261651210487E-4  
 2.560000000000000E10    2.685317595023662E-4   8.765900565776974E-5  
 2.562000000000000E10   -2.973234513774514E-4  -2.463296987116337E-4  
 2.564000000000000E10   -2.949486661236733E-4  -2.635580312926322E-4  
 2.566000000000000E10    2.671927795745432E-4   3.155668091494590E-4  
 2.568000000000000E10    6.889215437695384E-4  -2.765386598184705E-4  
 2.570000000000000E10    4.239932750351727E-4  -2.388602151768282E-4  
 2.572000000000000E10   -2.593974841147428E-6  -1.131621902459301E-4  
 2.574000000000000E10    7.228160393424332E-4   4.183553683105856E-4  
 2.576000000000000E10    3.013223467860371E-4  -1.467374386265874E-4  
 2.578000000000000E10    3.650210564956069E-4  -3.245516272727400E-4  
 2.580000000000000E10   -1.022321812342852E-4   7.173134508775547E-5  
 2.582000000000000E10    4.010947886854410E-4  -3.660784859675914E-4  
 2.584000000000000E10   -5.088876059744507E-5   1.738368300721049E-4  
 2.586000000000000E10    3.520146710798144E-4  -1.254945818800479E-4  
 2.588000000000000E10    6.150433910079300E-4  -6.122291233623400E-5  
 2.590000000000000E10    3.820099664153531E-5  -5.032914923503995E-4  
 2.592000000000000E10   -9.393179789185524E-5   3.255604824516922E-4  
 2.594000000000000E10    8.224404882639647E-5   1.552501489641145E-4  
 2.596000000000000E10    7.355315028689802E-4  -1.885789242805913E-4  
 2.598000000000000E10   -2.528004115447402E-4  -4.072609590366483E-4  
 2.600000000000000E10   -2.609105722513050E-4  -5.868564767297357E-5  
 2.602000000000000E10   -1.580475072842091E-4   3.420442517381162E-4  
 2.604000000000000E10    7.278746343217790E-4  -2.935805532615632E-4  
 2.606000000000000E10   -3.944107447750866E-5  -4.635689838323742E-4  
 2.608000000000000E10   -2.028056769631803E-4  -3.861194418277592E-4  
 2.610000000000000E10   -1.397699670633301E-4   3.896003472618759E-4  
 2.612000000000000E10    5.613279063254595E-5  -4.431150955497287E-5  
 2.614000000000000E10   -4.592587720253505E-5   2.176789566874504E-4  
 2.616000000000000E10   -2.415136405033991E-4  -1.623470452614129E-4  
 2.618000000000000E10   -6.221438525244594E-5  -1.970591110875830E-4  
 2.620000000000000E10   -1.037573092617095E-3   1.370806603517849E-5  
 2.622000000000000E10    7.061625365167856E-5   6.055413396097720E-4  
 2.624000000000000E10    2.313581207999960E-4   2.130658249370754E-4  
 2.626000000000000E10   -5.924343895458151E-6  -4.908184055238962E-4  
 2.628000000000000E10   -6.566187948919833E-4  -9.531985415378586E-5  
 2.630000000000000E10   -2.502991992514581E-4   6.319737876765430E-4  
 2.632000000000000E10    3.473890537861735E-4   3.762948326766491E-4  
 2.634000000000000E10    4.781984898727387E-4  -3.982475318480283E-4  
 2.636000000000000E10   -3.588064573705196E-4   1.289531937800348E-4  
 2.638000000000000E10   -2.838310610968620E-4   3.713911864906550E-4  
 2.640000000000000E10    1.073618332156912E-4   5.817886558361352E-4  
 2.642000000000000E10   -6.281414971454069E-5  -4.228870238875970E-5  
 2.644000000000000E10   -1.487565459683538E-4   1.249655033461750E-4  
 2.646000000000000E10   -4.296246333979070E-4  -2.777231857180595E-4  
 2.648000000000000E10    2.200663147959858E-4  -1.940705697052181E-4  
 2.650000000000000E10    3.098416345892474E-5   1.710746582830325E-4  
 2.652000000000000E10    7.528514252044261E-4  -2.340021310374141E-4  
 2.654000000000000E10    1.780909951776266E-4  -2.869993913918734E-4  
 2.656000000000000E10    5.396506094257347E-5  -2.896270598284900E-4  
 2.658000000000000E10   -3.217794874217361E-4   9.883505990728736E-4  
 2.660000000000000E10    1.549240841995925E-4   4.286041948944330E-4  
 2.662000000000000E10    2.225091011496261E-4   2.749981067609042E-4  
 2.664000000000000E10   -6.815543165430427E-4  -5.426272982731462E-4  
 2.666000000000000E10   -5.217273719608784E-4   4.215811350150034E-5  
 2.668000000000000E10   -1.589382154634222E-4  -1.260509743588045E-4  
 2.670000000000000E10    7.937969057820737E-4  -2.613296092022210E-4  
 2.672000000000000E10    1.780079037416726E-4  -4.572129982989281E-4  
 2.674000000000000E10    7.374756387434900E-4  -2.344156964682043E-4  
 2.676000000000000E10    2.332079166080803E-4   6.150815170258284E-4  
 2.678000000000000E10    3.476491256151348E-4   2.684818755369633E-4  
 2.680000000000000E10    4.020703199785203E-4   3.696123312693089E-4  
 2.682000000000000E10   -1.855387818068266E-4  -3.926147765014321E-4  
 2.684000000000000E10   -4.479411290958524E-4   1.264343154616654E-4  
 2.686000000000000E10   -4.133121983613819E-4  -1.623125426704064E-4  
 2.688000000000000E10    4.105950647499412E-4  -5.049785831943154E-4  
 2.690000000000000E10    3.347102028783411E-4  -6.376189412549138E-4  
 2.692000000000000E10    3.994646540377289E-4  -8.333806181326509E-4  
 2.694000000000000E10   -2.511423954274505E-4  -2.798001514747739E-4  
 2.696000000000000E10    2.992850786540657E-4   3.983968344982714E-4  
 2.698000000000000E10    1.146258364315145E-4   4.802060138899833E-4  
 2.700000000000000E10   -3.214410098735243E-4  -2.341165236430243E-4  
 2.702000000000000E10   -7.230402552522719E-4   5.328136830939911E-5  
 2.704000000000000E10   -1.080257003195584E-3   2.288004725414794E-5  
 2.706000000000000E10   -4.357493307907134E-4   3.160466076224111E-5  
 2.708000000000000E10    5.884349593543448E-5  -4.702189762610942E-4  
 2.710000000000000E10    2.487692654540297E-5  -7.478814222849906E-4  
 2.712000000000000E10   -1.450996060157195E-4  -4.743307945318520E-4  
 2.714000000000000E10    1.611303014215082E-4   3.490148228593171E-4  
 2.716000000000000E10    1.546101557323709E-4   4.734939429908991E-4  
 2.718000000000000E10    3.008196945302188E-4   3.382182330824435E-4  
 2.720000000000000E10   -1.745197369018570E-4   3.846212930511683E-4  
 2.722000000000000E10   -6.062340107746422E-4  -7.733720121905208E-5  
 2.724000000000000E10   -9.486447670497000E-4   2.138374256901443E-4  
 2.726000000000000E10   -1.664734445512295E-4   5.672167753800750E-4  
 2.728000000000000E10    8.896212420950178E-6  -1.513051975052804E-4  
 2.730000000000000E10   -2.163162862416357E-4  -7.513640448451042E-4  
 2.732000000000000E10   -1.723735185805708E-4   1.446184178348631E-4  
 2.734000000000000E10   -2.453402157698292E-5   5.616596317850053E-4  
 2.736000000000000E10    6.272887112572789E-4   6.729548331350088E-4  
 2.738000000000000E10    3.887587517965585E-4   1.203629944939166E-4  
 2.740000000000000E10   -1.150926327682100E-4   3.902386742993258E-5  
 2.742000000000000E10   -2.140555734513328E-4   6.837990949861705E-4  
 2.744000000000000E10    1.286151673411951E-4   4.286452603992075E-4  
 2.746000000000000E10    2.386939595453441E-4   1.971572492038831E-4  
 2.748000000000000E10    5.816885968670249E-4   1.317959395237267E-4  
 2.750000000000000E10    7.915634341770783E-5  -2.734230947680771E-4  
 2.752000000000000E10    1.497146877227351E-4  -9.654248424340040E-5  
 2.754000000000000E10    3.185998357366771E-4   3.626515390351415E-4  
 2.756000000000000E10    6.534095155075193E-4   2.375803887844086E-4  
