#  HZ   S   RI   R     50.00 
! Rohde & Schwarz ZVA40 4Ports - Version 3.90 - 1145.1110k42 SN: 100403
! Date: 2023-10-04 08:00:31
! Measurement: S12 
! 
 2.200000000000000E10   -7.010410772636533E-4  -5.288455868139863E-4  
 2.202000000000000E10   -9.246948175132275E-4   3.372706123627722E-4  
 2.204000000000000E10   -2.885340945795178E-4  -3.141290799248964E-4  
 2.206000000000000E10   -6.320857210084796E-4  -1.146652735769749E-3  
 2.208000000000000E10   -1.027466496452689E-3  -1.166311631095596E-4  
 2.210000000000000E10    9.145215153694153E-5   2.995484101120383E-4  
 2.212000000000000E10    3.755859870580025E-5  -1.161558204330504E-3  
 2.214000000000000E10   -1.081237103790045E-3  -5.479200626723468E-4  
 2.216000000000000E10   -1.162677654065192E-3   8.861745009198785E-4  
 2.218000000000000E10    2.687330706976354E-4  -1.953610626515001E-4  
 2.220000000000000E10   -8.756614406593144E-4  -9.617912583053112E-4  
 2.222000000000000E10   -1.917424029670656E-3  -7.080788491293788E-4  
 2.224000000000000E10   -1.086117932572961E-3   1.069513964466751E-3  
 2.226000000000000E10    8.231006358982995E-5   7.217079837573692E-5  
 2.228000000000000E10   -5.931368796154857E-4  -1.311752712354064E-3  
 2.230000000000000E10   -1.524914870969951E-3  -1.314018445555121E-4  
 2.232000000000000E10   -4.637431411538273E-4   8.018060470931232E-4  
 2.234000000000000E10    1.830808469094336E-4   9.158073953585699E-5  
 2.236000000000000E10   -4.300047294236720E-4  -4.212893836665899E-4  
 2.238000000000000E10   -8.227686630561948E-4   7.506610127165914E-4  
 2.240000000000000E10   -2.300584128533956E-6   4.814325075130910E-4  
 2.242000000000000E10    5.576375042437576E-5  -3.415052487980574E-4  
 2.244000000000000E10   -8.801346994005144E-4   6.093545234762132E-4  
 2.246000000000000E10    1.076019761967473E-4   6.887755589559674E-4  
 2.248000000000000E10    6.414706003852189E-4  -1.525314582977444E-4  
 2.250000000000000E10   -2.664947533048689E-4  -3.138120810035616E-4  
 2.252000000000000E10   -8.635339909233153E-4   3.413683443795890E-4  
 2.254000000000000E10    3.852226654998958E-4   8.737791213206947E-4  
 2.256000000000000E10    5.495803197845817E-4   5.939528273302130E-5  
 2.258000000000000E10   -3.934476626454853E-5  -6.295649800449610E-4  
 2.260000000000000E10   -4.130883899051696E-4   6.205195677466691E-4  
 2.262000000000000E10    5.675158463418484E-4   5.399156361818314E-4  
 2.264000000000000E10    8.060885593295097E-4  -6.075805285945535E-4  
 2.266000000000000E10   -2.366136322962120E-4  -9.316851355833933E-5  
 2.268000000000000E10    5.872236215509474E-4   6.980972830206156E-4  
 2.270000000000000E10    9.327579755336046E-4  -4.458449620869942E-5  
 2.272000000000000E10    2.249000972369686E-4  -4.573846817947924E-4  
 2.274000000000000E10   -6.606223178096116E-4   3.351355262566358E-4  
 2.276000000000000E10    8.360306383110583E-4   6.496290443465114E-4  
 2.278000000000000E10    8.760443306528032E-4  -5.174197722226381E-4  
 2.280000000000000E10    7.188372546806932E-5  -8.612357196398079E-4  
 2.282000000000000E10   -4.530011501628906E-4   1.727974886307493E-4  
 2.284000000000000E10    8.974184165708721E-4   2.109605993609875E-4  
 2.286000000000000E10    5.790577852167189E-4  -4.938749480061233E-4  
 2.288000000000000E10   -3.276048228144646E-4  -4.359567828942090E-4  
 2.290000000000000E10    6.240504444576800E-4   7.300717988982797E-4  
 2.292000000000000E10    7.538775098510087E-4  -3.872993402183056E-4  
 2.294000000000000E10    2.612847310956568E-4  -9.245396358892322E-4  
 2.296000000000000E10   -7.095390465110540E-4   3.385701857041568E-4  
 2.298000000000000E10    7.281529251486063E-4   4.597564402502030E-4  
 2.300000000000000E10    6.658674683421850E-4  -4.864967486355454E-4  
 2.302000000000000E10   -4.099512880202383E-4  -1.009985455311835E-3  
 2.304000000000000E10   -4.443971847649664E-4   5.883894627913833E-4  
 2.306000000000000E10    7.331960368901491E-4   7.383758202195168E-5  
 2.308000000000000E10    5.377213819883764E-4  -6.824741140007973E-4  
 2.310000000000000E10   -4.079770878888667E-4  -7.419943722197786E-5  
 2.312000000000000E10    1.904725213535130E-4   3.344270517118275E-4  
 2.314000000000000E10    4.424232756718993E-4   9.931602835422382E-5  
 2.316000000000000E10   -3.167322138324380E-4  -6.182400393299758E-4  
 2.318000000000000E10   -1.427758834324777E-4   6.274659244809300E-5  
 2.320000000000000E10    9.659514034865424E-5  -1.073081439244561E-4  
 2.322000000000000E10    5.715986480936408E-5  -5.608008359558880E-4  
 2.324000000000000E10   -2.324411179870367E-4   5.078361937194131E-5  
 2.326000000000000E10    1.762228930601850E-4   4.122823302168399E-4  
 2.328000000000000E10    2.929820038843900E-4  -6.346157169900835E-5  
 2.330000000000000E10   -1.158747982117347E-4  -4.642325802706182E-4  
 2.332000000000000E10   -4.533940227702260E-4   4.797826695721597E-4  
 2.334000000000000E10    1.653961808187887E-4   5.825160187669098E-4  
 2.336000000000000E10    4.889914416708052E-4  -7.344569166889414E-5  
 2.338000000000000E10   -4.149380256421864E-4  -4.112457681912929E-4  
 2.340000000000000E10   -4.097879864275456E-4   1.372946571791545E-4  
 2.342000000000000E10    2.481370465829969E-4   1.701213477645069E-4  
 2.344000000000000E10    4.782103060279042E-4  -2.462423872202635E-4  
 2.346000000000000E10    1.904771488625556E-4  -5.718651227653027E-4  
 2.348000000000000E10    2.820472873281688E-4  -9.146197407972068E-5  
 2.350000000000000E10    2.975388488266617E-4  -2.088837027258705E-5  
 2.352000000000000E10    4.943398016621359E-5  -1.251805588253774E-5  
 2.354000000000000E10   -2.154814574168995E-4   5.326523096300662E-4  
 2.356000000000000E10    3.127183881588280E-4   1.614192005945370E-4  
 2.358000000000000E10   -4.818586749024689E-4  -4.475919413380325E-4  
 2.360000000000000E10   -1.347569283097982E-3  -2.559186032158323E-5  
 2.362000000000000E10   -6.975451251491904E-4   6.724236882291734E-4  
 2.364000000000000E10    7.030834676697850E-4  -8.156946569215506E-5  
 2.366000000000000E10    7.097210618667305E-5  -6.231002043932676E-4  
 2.368000000000000E10   -5.626664496958256E-4  -2.763688680715859E-4  
 2.370000000000000E10    1.817870725062676E-5   9.769919561222196E-4  
 2.372000000000000E10    5.723308422602713E-4   8.900358225218952E-4  
 2.374000000000000E10    3.859514545183629E-4   6.394921801984310E-4  
 2.376000000000000E10    1.634095133340452E-5   4.036257450934500E-4  
 2.378000000000000E10   -2.663428895175457E-4   4.075624165125191E-4  
 2.380000000000000E10   -8.318978943862021E-4   4.741689772345126E-4  
 2.382000000000000E10   -4.023529618280008E-5   5.581165896728635E-4  
 2.384000000000000E10    6.916967686265707E-5   6.468428182415664E-4  
 2.386000000000000E10    3.945275384467095E-4  -6.032569799572229E-4  
 2.388000000000000E10   -3.111428522970527E-4  -1.419005129719153E-4  
 2.390000000000000E10   -6.005573668517172E-4   1.072824466973543E-3  
 2.392000000000000E10    9.604535880498588E-4   1.055859960615635E-3  
 2.394000000000000E10    7.095453911460936E-4   1.381537585984916E-4  
 2.396000000000000E10   -2.287286915816367E-4  -1.933129969984293E-4  
 2.398000000000000E10   -7.719368441030383E-4   7.228704635053873E-4  
 2.400000000000000E10   -1.851502893259749E-4   6.516732391901314E-4  
 2.402000000000000E10    4.990458255633712E-4   6.593659054487944E-5  
 2.404000000000000E10    2.901917468989268E-5  -9.837653487920761E-5  
 2.406000000000000E10    1.849192485678941E-4  -2.796854241751134E-4  
 2.408000000000000E10    3.983990754932165E-4   2.831308229360730E-4  
 2.410000000000000E10    5.798782221972942E-4   2.911210467573255E-4  
 2.412000000000000E10    4.995175986550748E-4   2.979523560497910E-4  
 2.414000000000000E10    4.942996311001480E-4  -3.233724273741245E-4  
 2.416000000000000E10   -8.554606029065326E-5   2.345362154301256E-4  
 2.418000000000000E10   -4.411530389916152E-4   1.598004600964487E-4  
 2.420000000000000E10    3.512713010422885E-4   1.568590814713389E-4  
 2.422000000000000E10    2.687910455279052E-4  -9.242589585483074E-4  
 2.424000000000000E10   -1.273241796297953E-4  -1.050407998263836E-3  
 2.426000000000000E10   -7.144262781366706E-4  -7.537822239100933E-5  
 2.428000000000000E10    6.867218762636185E-4  -1.114203259930946E-4  
 2.430000000000000E10    7.282798178493977E-4  -2.904548309743404E-4  
 2.432000000000000E10    6.987042434047908E-5  -7.103345124050975E-4  
 2.434000000000000E10   -3.961308102589101E-4   1.763116160873324E-4  
 2.436000000000000E10   -4.219318361720070E-5   1.372246624669060E-4  
 2.438000000000000E10    4.245414747856557E-4   2.452391781844199E-4  
 2.440000000000000E10   -6.692563329124823E-5  -2.417282521491870E-4  
 2.442000000000000E10   -4.981511665391736E-6  -7.358529255725443E-4  
 2.444000000000000E10   -4.960831720381975E-4  -6.033062236383557E-4  
 2.446000000000000E10   -2.949571644421667E-4  -4.496107867453247E-4  
 2.448000000000000E10    3.365625452715904E-4   4.107769345864654E-4  
 2.450000000000000E10    7.819159654900432E-4  -5.332988221198320E-4  
 2.452000000000000E10    1.323311444139108E-4  -1.221572980284691E-3  
 2.454000000000000E10   -7.942011579871178E-4  -6.317255156318424E-6  
 2.456000000000000E10   -1.557461946504191E-4   5.001566023565829E-4  
 2.458000000000000E10   -3.408344855415635E-5   5.030535248806700E-5  
 2.460000000000000E10   -1.077560809790157E-4  -5.061640986241400E-4  
 2.462000000000000E10   -7.673939107917249E-4  -2.058343088719994E-4  
 2.464000000000000E10   -5.449169548228383E-4  -2.472634660080075E-4  
 2.466000000000000E10   -1.965779374586418E-4  -5.407144635682926E-5  
 2.468000000000000E10   -2.277490420965478E-4  -2.833632170222700E-4  
 2.470000000000000E10    2.466242585796863E-4   3.476314304862171E-5  
 2.472000000000000E10   -2.708046522457153E-4  -1.668877521296963E-4  
 2.474000000000000E10   -1.800372701836750E-4  -1.012198990792967E-4  
 2.476000000000000E10   -4.087240959051997E-4   7.789778173901141E-4  
 2.478000000000000E10    6.349117029458284E-5   5.132193909958005E-4  
 2.480000000000000E10    7.077086047502235E-5  -2.102201397065073E-4  
 2.482000000000000E10   -4.581605026032776E-4  -3.109283861704171E-4  
 2.484000000000000E10   -2.489808248355985E-4   3.977417363785207E-4  
 2.486000000000000E10    3.617461770772934E-4   2.488156023900956E-4  
 2.488000000000000E10    3.928989463020116E-4  -3.003024612553418E-4  
 2.490000000000000E10    1.119073858717457E-4   1.516287884442136E-4  
 2.492000000000000E10    2.109526103595272E-4   2.338402555324137E-4  
 2.494000000000000E10    1.884159428300336E-4   2.637362049426884E-4  
 2.496000000000000E10   -1.667370815994218E-4  -1.232524373335764E-4  
 2.498000000000000E10   -7.747648487566039E-5   3.065683995373547E-4  
 2.500000000000000E10   -1.987591676879674E-4   4.453947185538709E-4  
 2.502000000000000E10    3.815302043221891E-4  -9.630304703023285E-5  
 2.504000000000000E10   -1.381585607305169E-4   1.421671186108142E-4  
 2.506000000000000E10   -2.508410761947744E-5   1.437497412553057E-4  
 2.508000000000000E10    3.028512874152511E-4   4.560848465189338E-4  
 2.510000000000000E10    2.979801793117076E-4  -2.617370628286153E-4  
 2.512000000000000E10   -2.727682294789702E-4   1.451939606340602E-4  
 2.514000000000000E10   -2.900692052207887E-4   5.201429012231529E-4  
 2.516000000000000E10    5.300240591168404E-4   4.313976096455008E-4  
 2.518000000000000E10   -6.032572491676547E-5  -3.525479987729341E-4  
 2.520000000000000E10    2.250761754112318E-4  -2.493892388883978E-4  
 2.522000000000000E10   -4.790864841197617E-5   2.160628500860184E-4  
 2.524000000000000E10    4.621180414687842E-4  -3.504335109028034E-5  
 2.526000000000000E10    3.800247504841536E-4  -1.792796501831617E-5  
 2.528000000000000E10    3.989121469203383E-4  -6.004725219099782E-5  
 2.530000000000000E10    4.670698253903538E-4   3.406638861633837E-4  
 2.532000000000000E10    8.771533612161875E-5  -1.782512481440790E-5  
 2.534000000000000E10    3.625128883868456E-4   2.347138070035726E-4  
 2.536000000000000E10    2.543836308177561E-4   1.038407935993746E-4  
 2.538000000000000E10    5.733353900723159E-4  -3.871282970067114E-4  
 2.540000000000000E10   -2.903467684518546E-4  -4.586714785546064E-4  
 2.542000000000000E10    6.008999844198115E-5  -1.581953838467598E-4  
 2.544000000000000E10    3.648195706773549E-4   2.045115688815713E-4  
 2.546000000000000E10    5.742675275541842E-4  -6.336480146273971E-4  
 2.548000000000000E10    3.696688509080559E-5  -4.617082595359534E-4  
 2.550000000000000E10   -2.766977995634079E-4  -3.685090632643551E-4  
 2.552000000000000E10    5.884909187443554E-4   1.441715285181999E-4  
 2.554000000000000E10    5.057174348621629E-5  -2.878516388591379E-4  
 2.556000000000000E10    1.052664447342977E-4  -1.541104138595983E-4  
 2.558000000000000E10   -2.347191330045462E-4   8.669695671414957E-5  
 2.560000000000000E10    2.426825521979481E-4  -2.315064484719187E-4  
 2.562000000000000E10   -2.257341257063672E-4   2.827913885994349E-5  
 2.564000000000000E10   -4.027315590064973E-4  -3.493406693451107E-4  
 2.566000000000000E10    1.274046080652624E-4   4.109798101126216E-5  
 2.568000000000000E10   -1.032599720929284E-5  -3.019076248165220E-4  
 2.570000000000000E10   -1.381778565701097E-4  -1.741447777021676E-4  
 2.572000000000000E10    1.683368172962219E-4  -9.928997315000743E-5  
 2.574000000000000E10    4.747932835016400E-4  -8.335814345628023E-5  
 2.576000000000000E10   -2.127907500835136E-4  -6.156231393106282E-5  
 2.578000000000000E10    5.938725735177286E-5   4.188561579212546E-4  
 2.580000000000000E10    4.206392077321652E-6   5.495552904903889E-4  
 2.582000000000000E10    1.384643983328715E-4  -3.950576683564577E-6  
 2.584000000000000E10   -9.336523944512010E-4   1.982507674256340E-4  
 2.586000000000000E10   -8.370727882720530E-4   3.181751817464829E-4  
 2.588000000000000E10   -9.031195077113807E-6   2.975395473185927E-4  
 2.590000000000000E10    1.519543438917026E-4  -6.634267629124224E-4  
 2.592000000000000E10   -6.139509787317365E-5  -3.726646536961198E-4  
 2.594000000000000E10   -5.925733421463519E-5   2.119202690664679E-4  
 2.596000000000000E10    4.657113749999553E-4   6.288436125032604E-4  
 2.598000000000000E10    2.361575607210398E-4   5.478331586346030E-4  
 2.600000000000000E10    1.134735703089973E-5   7.649455801583827E-4  
 2.602000000000000E10   -5.045366706326604E-4   4.805955977644771E-4  
 2.604000000000000E10   -4.614086064975709E-4   2.938865800388157E-4  
 2.606000000000000E10   -6.314539932645857E-4   3.872601664625108E-4  
 2.608000000000000E10    1.221169513883069E-4   5.788584894617088E-5  
 2.610000000000000E10    3.703318070620298E-4  -4.493672458920628E-4  
 2.612000000000000E10    1.743752654874697E-4  -4.990926245227456E-4  
 2.614000000000000E10    1.570731255924329E-4   1.164368659374304E-4  
 2.616000000000000E10    9.321677498519421E-4   4.905942478217185E-4  
 2.618000000000000E10    9.862247388809919E-4   5.821494269184768E-4  
 2.620000000000000E10    8.574637467972934E-5  -1.244989834958687E-5  
 2.622000000000000E10   -3.157466999255121E-4   5.775328027084470E-4  
 2.624000000000000E10   -2.730105479713529E-4   9.230760042555630E-4  
 2.626000000000000E10    1.561146054882556E-4  -1.144337948062457E-4  
 2.628000000000000E10   -1.482660882174969E-4  -6.967135122977197E-4  
 2.630000000000000E10    1.007035680231638E-4  -5.235283751972020E-4  
 2.632000000000000E10    3.521983308019117E-5  -3.547195810824633E-4  
 2.634000000000000E10    6.960725877434015E-4   3.283395199105144E-5  
 2.636000000000000E10    6.432961672544479E-4   4.703441518358886E-4  
 2.638000000000000E10    4.627391172107309E-4  -1.342669420409948E-4  
 2.640000000000000E10   -9.797054372029379E-5   3.013451350852847E-4  
 2.642000000000000E10   -5.302762729115784E-4   2.828278811648488E-4  
 2.644000000000000E10    1.392575504723936E-4   4.104385152459145E-4  
 2.646000000000000E10   -1.166724687209353E-4  -5.206868518143892E-4  
 2.648000000000000E10    1.140499298344366E-4  -1.026795362122357E-3  
 2.650000000000000E10   -5.980216665193439E-4  -6.289802840910852E-4  
 2.652000000000000E10    3.094512503594160E-4  -4.366420398582704E-5  
 2.654000000000000E10    7.117702043615282E-4   1.229526969837025E-4  
 2.656000000000000E10    6.800945266149938E-4  -6.382945575751364E-4  
 2.658000000000000E10   -2.386085398029536E-4  -1.276042748941109E-4  
 2.660000000000000E10   -5.173409590497613E-4   2.425808488624170E-4  
 2.662000000000000E10    1.094261242542416E-4   6.367851165123284E-4  
 2.664000000000000E10   -3.521622784319334E-5  -2.093382063321769E-4  
 2.666000000000000E10   -1.512415474280715E-4  -5.391366430558264E-4  
 2.668000000000000E10   -7.021016208454967E-4  -2.767197147477418E-4  
 2.670000000000000E10   -1.745199915603735E-5  -1.408329553669319E-4  
 2.672000000000000E10    1.879494375316426E-4   2.376373304286972E-4  
 2.674000000000000E10    4.382763872854412E-4  -1.796294091036543E-4  
 2.676000000000000E10    7.469857519026846E-5   1.110678476834437E-5  
 2.678000000000000E10   -1.987516588997096E-4  -8.997280929179397E-6  
 2.680000000000000E10   -3.997537132818252E-4   5.540183628909290E-4  
 2.682000000000000E10   -1.435321610188112E-4   2.070973423542455E-4  
 2.684000000000000E10    4.737636845675297E-5  -2.165762680306216E-6  
 2.686000000000000E10   -6.029473152011633E-4  -5.895394133403897E-4  
 2.688000000000000E10   -5.393316387198865E-4  -3.487012872938067E-5  
 2.690000000000000E10   -1.794880081433803E-4   6.297907093539834E-4  
 2.692000000000000E10    3.050063096452504E-4  -1.328270736848936E-4  
 2.694000000000000E10    1.163744746008888E-4  -3.613957378547639E-4  
 2.696000000000000E10   -3.662970266304910E-4   6.352492346195504E-5  
 2.698000000000000E10   -3.017624258063734E-4   4.555217165034264E-4  
 2.700000000000000E10    1.963315880857408E-4   2.940798294730485E-4  
 2.702000000000000E10    3.357268869876862E-4   2.194649860030040E-4  
 2.704000000000000E10   -1.733754324959591E-4   4.097025885130279E-5  
 2.706000000000000E10   -2.587613416835666E-4   2.846857241820544E-4  
 2.708000000000000E10    1.925659744301811E-4   3.503175394143909E-4  
 2.710000000000000E10    2.427205181447789E-4   3.815219388343394E-4  
 2.712000000000000E10   -3.019892756128684E-5   1.112239551730454E-4  
 2.714000000000000E10    2.663882150955033E-5  -2.225399948656559E-4  
 2.716000000000000E10   -2.525305026210845E-4   1.272154349862831E-6  
 2.718000000000000E10    3.822756989393383E-4   3.775851801037788E-4  
 2.720000000000000E10    1.989021548070014E-4   2.353830677748192E-5  
 2.722000000000000E10   -5.543519728234969E-5  -4.472121654544026E-4  
 2.724000000000000E10   -1.115586419473402E-4   1.958454231498763E-4  
 2.726000000000000E10   -1.941552909556776E-4  -6.004359534017567E-7  
 2.728000000000000E10   -1.294144894927740E-4   4.231487400829792E-4  
 2.730000000000000E10    1.102938404073939E-4  -3.483222099021077E-5  
 2.732000000000000E10    1.792807161109522E-4  -4.143162223044783E-4  
 2.734000000000000E10   -5.416690837591887E-4   9.621201024856418E-5  
 2.736000000000000E10   -2.061551058432087E-4   8.799344504950568E-5  
 2.738000000000000E10    3.727111325133592E-4   2.677977317944169E-4  
 2.740000000000000E10    1.520747755421326E-4  -4.129392618779093E-4  
 2.742000000000000E10    1.032954387483187E-4  -3.077804867643863E-4  
 2.744000000000000E10   -4.022048669867218E-4   5.268877794151194E-5  
 2.746000000000000E10   -1.564046106068417E-4   4.764739715028554E-4  
 2.748000000000000E10    1.075377003871836E-4   2.018448285525665E-4  
 2.750000000000000E10    6.323860725387931E-5  -5.600175354629755E-4  
 2.752000000000000E10   -2.354602329432964E-4  -1.113327962229960E-4  
 2.754000000000000E10   -3.544800856616348E-4  -1.699096901575103E-4  
 2.756000000000000E10    1.362941256957129E-4  -4.198108217678964E-5  
