#  HZ   S   RI   R     50.00 
! Rohde & Schwarz ZVA40 4Ports - Version 3.90 - 1145.1110k42 SN: 100403
! Date: 2023-10-04 08:00:06
! Measurement: S12 
! 
 2.200000000000000E10   -4.807755758520216E-4  -1.432142889825627E-4  
 2.202000000000000E10    4.799689922947437E-4   4.748539358843118E-4  
 2.204000000000000E10    1.465538050979376E-3  -2.839249500539154E-4  
 2.206000000000000E10    2.460897667333484E-4  -1.147282193414867E-3  
 2.208000000000000E10   -1.325388730037957E-4   4.607085429597646E-4  
 2.210000000000000E10    7.180736865848303E-4   7.585110142827034E-4  
 2.212000000000000E10    1.171693555079401E-3  -4.956048214808106E-4  
 2.214000000000000E10   -5.018771626055241E-4  -9.374555665999651E-4  
 2.216000000000000E10   -5.555271054618061E-4  -6.008563650539145E-5  
 2.218000000000000E10    1.083204871974886E-3   1.444973459001631E-4  
 2.220000000000000E10    4.726372426375747E-4  -1.152666052803397E-3  
 2.222000000000000E10   -6.101130275055766E-4  -7.373318076133728E-4  
 2.224000000000000E10    3.861730510834605E-5   4.153952759224922E-4  
 2.226000000000000E10    1.249607768841088E-3  -2.246470103273168E-4  
 2.228000000000000E10    3.100948109402424E-10  -8.790048887021840E-4  
 2.230000000000000E10   -1.948328135767952E-4   1.752002426655963E-4  
 2.232000000000000E10    5.532973445951939E-4   5.938802496530116E-4  
 2.234000000000000E10    4.433437134139240E-4  -4.964733961969614E-4  
 2.236000000000000E10   -9.413735824637115E-4  -3.768783644773066E-4  
 2.238000000000000E10   -4.951644805260003E-4   7.061139913275838E-4  
 2.240000000000000E10    7.618077215738595E-4   7.768502109684050E-5  
 2.242000000000000E10    1.734286197461188E-4  -1.144204637967050E-3  
 2.244000000000000E10   -9.600768098607659E-4  -2.865505812224001E-4  
 2.246000000000000E10    2.395122864982113E-4   7.116310880519450E-4  
 2.248000000000000E10    1.049541868269444E-3  -2.319909690413624E-4  
 2.250000000000000E10   -3.012382949236780E-4  -1.170299132354558E-3  
 2.252000000000000E10   -8.514553774148226E-4   7.014627917669714E-4  
 2.254000000000000E10    1.837989984778687E-4   9.153251885436475E-4  
 2.256000000000000E10    5.695151048712432E-4  -3.941871691495180E-4  
 2.258000000000000E10   -9.010634385049343E-4  -5.355858593247831E-4  
 2.260000000000000E10   -7.163017289713025E-4   7.980795926414430E-4  
 2.262000000000000E10    2.214922860730439E-4   3.861285513266921E-4  
 2.264000000000000E10    1.363052142551169E-4  -5.580540746450424E-4  
 2.266000000000000E10   -1.140808104537427E-3   6.360811676131561E-5  
 2.268000000000000E10   -1.527747663203627E-4   4.255872627254576E-4  
 2.270000000000000E10    2.933677169494331E-4  -8.965959568740800E-5  
 2.272000000000000E10   -7.173562771640718E-4  -5.817889468744397E-4  
 2.274000000000000E10   -6.565167568624020E-4   4.131687164772302E-4  
 2.276000000000000E10    5.842425161972642E-4   6.813721265643835E-4  
 2.278000000000000E10   -1.151520482380875E-4  -4.081046499777585E-4  
 2.280000000000000E10   -7.030604174360633E-4  -2.943565486930311E-4  
 2.282000000000000E10   -1.108959084376693E-3   4.069205606356263E-4  
 2.284000000000000E10    2.459282404743135E-4   1.509498688392341E-4  
 2.286000000000000E10   -2.748068654909730E-4  -7.222207495942712E-4  
 2.288000000000000E10   -1.112254918552935E-3   5.214981865719892E-5  
 2.290000000000000E10   -2.399823279120028E-4   6.377973477356136E-4  
 2.292000000000000E10    6.334284553304315E-4  -6.472139502875507E-4  
 2.294000000000000E10   -3.768219321500510E-4  -7.056622416712344E-4  
 2.296000000000000E10   -6.828397163189948E-4   3.558991302270442E-4  
 2.298000000000000E10    6.093304255045950E-4   4.265514435246587E-4  
 2.300000000000000E10    5.949672777205706E-4  -4.910305724479258E-4  
 2.302000000000000E10   -7.482863729819655E-4  -5.902478587813675E-4  
 2.304000000000000E10   -6.779847899451852E-4   6.825159653089941E-4  
 2.306000000000000E10    5.569432396441698E-4   3.041456220671535E-4  
 2.308000000000000E10   -6.388765905285254E-5  -3.674025356303901E-4  
 2.310000000000000E10   -5.646749632433057E-4   3.688305878313258E-5  
 2.312000000000000E10   -1.305022306041792E-4   4.144042031839490E-4  
 2.314000000000000E10    2.409086482657585E-5  -3.534219868015498E-4  
 2.316000000000000E10   -6.740528042428196E-4  -4.923522355966270E-4  
 2.318000000000000E10   -2.099740377161652E-4   1.676196261541918E-4  
 2.320000000000000E10    6.569221150130034E-4   5.478266871250526E-7  
 2.322000000000000E10    2.826857671607286E-4  -1.021865056827664E-3  
 2.324000000000000E10   -1.030144863761962E-3   2.519558474887162E-4  
 2.326000000000000E10   -2.167652855860069E-4   8.040581014938653E-4  
 2.328000000000000E10    8.432187023572624E-4   4.797524306923151E-4  
 2.330000000000000E10   -1.149654708569869E-4  -5.431495374068618E-4  
 2.332000000000000E10   -8.585404139012098E-4   1.919476926559582E-4  
 2.334000000000000E10   -1.393674901919439E-4   5.832650349475443E-4  
 2.336000000000000E10    7.015011942712590E-5   3.870551008731127E-4  
 2.338000000000000E10   -1.408679236192256E-4  -1.644486328586936E-4  
 2.340000000000000E10    2.223665651399642E-4   1.450477720936760E-4  
 2.342000000000000E10    3.385153831914067E-4  -2.425255224807188E-4  
 2.344000000000000E10    6.271590973483399E-5   1.035076566040516E-4  
 2.346000000000000E10    1.427100360160694E-4   4.878175386693329E-4  
 2.348000000000000E10    8.228348451666534E-4   5.645100027322769E-4  
 2.350000000000000E10    6.954333512112498E-4  -3.835225652437657E-4  
 2.352000000000000E10    5.519911792362109E-5   3.787554305745289E-5  
 2.354000000000000E10   -2.141058939741924E-4   8.086498710326850E-4  
 2.356000000000000E10    7.918855990283191E-4   7.410983089357615E-4  
 2.358000000000000E10    5.466693546622992E-4  -2.356681798119098E-4  
 2.360000000000000E10   -1.566974970046431E-4  -3.996147715952247E-4  
 2.362000000000000E10    7.097758498275653E-5   1.098717912100256E-4  
 2.364000000000000E10    3.805324085988104E-4  -7.179105887189508E-5  
 2.366000000000000E10    5.362361553125083E-4  -1.122935282182880E-4  
 2.368000000000000E10    4.420146869961172E-4  -2.286342642037198E-4  
 2.370000000000000E10    2.496335946489126E-4  -5.007436848245561E-4  
 2.372000000000000E10    5.959473201073706E-4  -5.556702963076532E-4  
 2.374000000000000E10   -1.485501852585003E-4   6.715096242260188E-5  
 2.376000000000000E10    3.699385561048985E-4  -2.589706855360419E-4  
 2.378000000000000E10    7.926472462713718E-4  -4.293689562473446E-4  
 2.380000000000000E10   -3.720498934853822E-4  -9.813131764531136E-4  
 2.382000000000000E10   -4.950381116941571E-4   1.028178739943542E-4  
 2.384000000000000E10    3.091768012382090E-4  -6.042653694748879E-6  
 2.386000000000000E10    6.221130606718361E-4  -1.176373800262809E-3  
 2.388000000000000E10   -6.962684565223754E-4  -1.226684194989502E-3  
 2.390000000000000E10   -6.347085582092404E-4  -3.667506098281592E-4  
 2.392000000000000E10   -7.715497304161545E-6   4.881928543909453E-5  
 2.394000000000000E10    4.718069976661354E-4  -7.103635580278933E-4  
 2.396000000000000E10    6.316635699477047E-5  -6.115437718108296E-4  
 2.398000000000000E10   -4.199012764729559E-4  -3.302597906440496E-4  
 2.400000000000000E10   -9.535739081911743E-4  -1.498986875958508E-5  
 2.402000000000000E10   -4.446860402822495E-4   1.238992263097316E-4  
 2.404000000000000E10   -2.494464279152453E-4   1.182505075121298E-4  
 2.406000000000000E10   -3.528965753503144E-4  -7.810014067217708E-4  
 2.408000000000000E10   -5.028833402320743E-4  -4.407960223034024E-4  
 2.410000000000000E10   -9.444567258469760E-4   1.519920479040593E-4  
 2.412000000000000E10    5.947774116066285E-5   7.599742966704071E-4  
 2.414000000000000E10    6.046983180567622E-4  -1.831820700317621E-4  
 2.416000000000000E10   -4.641688428819180E-5  -7.984924595803022E-4  
 2.418000000000000E10   -9.035128168761730E-4   1.633431966183707E-4  
 2.420000000000000E10   -4.315304977353662E-4   1.186995999887586E-3  
 2.422000000000000E10    2.743073273450136E-4   6.568193784914911E-4  
 2.424000000000000E10    1.875911257229745E-4  -2.149352803826332E-4  
 2.426000000000000E10   -5.601849406957626E-4  -2.371953269175720E-5  
 2.428000000000000E10   -5.784106324426830E-4  -5.230512761045247E-5  
 2.430000000000000E10    1.355769054498524E-4   4.667364119086415E-4  
 2.432000000000000E10    4.361275059636682E-4   6.080627208575606E-4  
 2.434000000000000E10    8.136135875247419E-4   8.042869012570009E-5  
 2.436000000000000E10    3.071223327424377E-4  -4.853344944422133E-5  
 2.438000000000000E10   -5.307128303684294E-4   5.212774267420173E-4  
 2.440000000000000E10    1.942992239492014E-4   1.125787617638707E-3  
 2.442000000000000E10    5.308075924403966E-4   1.098653534427285E-3  
 2.444000000000000E10    2.810858713928610E-4  -6.645781832048670E-5  
 2.446000000000000E10   -7.034912123344839E-4  -3.964993447880261E-5  
 2.448000000000000E10   -5.068215978099033E-5   5.085603916086257E-4  
 2.450000000000000E10    5.942523712292314E-4   3.862132725771517E-4  
 2.452000000000000E10    8.110914495773614E-4  -4.492464940994978E-4  
 2.454000000000000E10    3.266411658842117E-4  -1.549706939840689E-4  
 2.456000000000000E10    7.510176510550082E-5   1.945363037521020E-4  
 2.458000000000000E10    5.039026145823300E-4   8.776676259003580E-4  
 2.460000000000000E10    4.953892785124481E-4   1.691169163677841E-4  
 2.462000000000000E10   -1.202895437018015E-4   4.787438665516675E-4  
 2.464000000000000E10    3.085382631979883E-4  -8.372325828531757E-5  
 2.466000000000000E10   -2.160588046535850E-4  -1.631429040571675E-5  
 2.468000000000000E10   -2.855961502064019E-4  -2.504032454453409E-4  
 2.470000000000000E10    6.681831437163055E-4   4.422919591888785E-4  
 2.472000000000000E10    6.046660710126162E-4  -5.275068106129766E-4  
 2.474000000000000E10    2.173894245061092E-5  -5.437752697616816E-4  
 2.476000000000000E10   -2.691716945264489E-4   1.134616613853723E-4  
 2.478000000000000E10    8.051209151744843E-4   5.676003056578338E-4  
 2.480000000000000E10    9.383924189023674E-4  -1.357978035230190E-4  
 2.482000000000000E10    1.405966031597927E-4  -4.174067289568484E-4  
 2.484000000000000E10   -5.723488284274936E-4   1.762174506438896E-4  
 2.486000000000000E10    8.632735261926428E-5   4.000414919573814E-4  
 2.488000000000000E10    1.369772508041933E-4  -6.311212200671434E-4  
 2.490000000000000E10   -6.706787826260552E-5  -2.205295168096200E-4  
 2.492000000000000E10   -6.867315096314997E-5  -5.672837141901255E-4  
 2.494000000000000E10    2.053205535048619E-4  -1.377122680423781E-4  
 2.496000000000000E10   -1.734099641907960E-4  -1.639148395042867E-4  
 2.498000000000000E10    1.496733602834866E-4   4.334429977461696E-4  
 2.500000000000000E10    1.231386995641515E-4   1.584290730534121E-4  
 2.502000000000000E10    1.030470320984023E-5  -3.890668158419430E-4  
 2.504000000000000E10   -8.119324920699000E-4   1.816737349145114E-4  
 2.506000000000000E10   -4.094071045983583E-4   7.697763794567436E-5  
 2.508000000000000E10    3.789830079767853E-4   1.215279116877355E-4  
 2.510000000000000E10   -1.347680372418836E-4  -8.418863289989531E-4  
 2.512000000000000E10   -2.925278095062822E-4  -5.540879792533815E-4  
 2.514000000000000E10   -1.445991510991007E-4  -3.982561247539707E-5  
 2.516000000000000E10    7.728323689661920E-4  -1.459063059883192E-4  
 2.518000000000000E10    3.392696380615234E-4  -4.038523766212165E-4  
 2.520000000000000E10    2.328349364688620E-4   1.677280524745584E-4  
 2.522000000000000E10   -1.777061988832429E-4   6.879969441797584E-5  
 2.524000000000000E10    2.610697447380517E-5  -1.936723856488243E-5  
 2.526000000000000E10   -7.993645849637687E-4   2.172865642933175E-4  
 2.528000000000000E10   -4.448092950042337E-4   2.536374377086759E-4  
 2.530000000000000E10   -1.868623658083379E-4  -4.095067561138421E-4  
 2.532000000000000E10   -5.143174785189331E-4  -4.145856073591858E-4  
 2.534000000000000E10   -6.113076233305037E-4  -2.115657407557592E-4  
 2.536000000000000E10    8.564131712773815E-5   1.319470757152885E-4  
 2.538000000000000E10    3.673713945318013E-4  -2.020571700995788E-4  
 2.540000000000000E10   -4.176229704171419E-4  -2.693662054298329E-6  
 2.542000000000000E10   -4.446785314939916E-4   3.008531057275832E-4  
 2.544000000000000E10   -6.620316707994789E-5   8.818922215141356E-4  
 2.546000000000000E10   -3.848946071229875E-4   2.641052997205406E-4  
 2.548000000000000E10   -3.179904888384044E-4   9.007734479382634E-5  
 2.550000000000000E10   -5.587003543041647E-4   3.477564896456897E-4  
 2.552000000000000E10   -1.898180053103715E-4  -7.854186696931720E-5  
 2.554000000000000E10   -3.668348072096705E-4   1.121052555390634E-4  
 2.556000000000000E10    1.132959878304973E-4  -1.721980224829167E-4  
 2.558000000000000E10   -6.363358988892287E-5   3.304890124127269E-4  
 2.560000000000000E10    3.926484205294401E-4   1.684548806224484E-5  
 2.562000000000000E10    8.356431499123573E-5   3.134010185021907E-4  
 2.564000000000000E10    2.932573843281716E-4   3.452669770922512E-4  
 2.566000000000000E10   -9.098973532672972E-5   6.147451349534094E-4  
 2.568000000000000E10    8.020175300771371E-6  -6.502681935671717E-5  
 2.570000000000000E10   -3.781362029258162E-4   3.972905396949500E-4  
 2.572000000000000E10   -1.035710083669983E-4   5.366533296182752E-4  
 2.574000000000000E10    3.102148475591093E-4   2.672556183824781E-5  
 2.576000000000000E10    9.035086986841634E-5  -4.929937422275543E-4  
 2.578000000000000E10    5.315497219271492E-6  -4.329563307692297E-5  
 2.580000000000000E10    9.960708121070638E-5   8.488725143251941E-5  
 2.582000000000000E10    8.614616235718131E-4  -3.525241918396205E-4  
 2.584000000000000E10   -2.285295522597153E-5  -3.433796518947929E-4  
 2.586000000000000E10    5.014019552618265E-4   2.771245090116281E-5  
 2.588000000000000E10    2.694798749871552E-4   7.348402286879718E-4  
 2.590000000000000E10    2.053994103334844E-4  -2.377178316237405E-4  
 2.592000000000000E10   -5.984900053590536E-5  -1.397882588207722E-4  
 2.594000000000000E10   -3.038476279471070E-4  -2.262905181851238E-4  
 2.596000000000000E10   -5.898008021176793E-5  -1.227074972121045E-4  
 2.598000000000000E10   -2.308151597389951E-4  -5.089181358925998E-4  
 2.600000000000000E10    1.221346901729703E-4  -3.255884803365916E-4  
 2.602000000000000E10    1.519469806225970E-4  -6.644081440754235E-4  
 2.604000000000000E10    2.341164799872786E-4  -5.417110514827073E-4  
 2.606000000000000E10   -2.950564085040242E-4   8.972638738669048E-7  
 2.608000000000000E10    1.839177275542170E-4   1.123883994296193E-4  
 2.610000000000000E10    8.987257024273276E-5   2.751752908807248E-4  
 2.612000000000000E10   -5.015150527469814E-4  -4.330584488343447E-4  
 2.614000000000000E10   -8.527190657332540E-4   1.919110800372437E-4  
 2.616000000000000E10   -3.671354788821191E-4   2.374294126639143E-4  
 2.618000000000000E10    2.012502227444202E-4  -1.225634605361847E-6  
 2.620000000000000E10    8.251941471826285E-5  -1.124382601119578E-3  
 2.622000000000000E10   -3.495992277748883E-4  -3.399763663765043E-4  
 2.624000000000000E10   -1.066457116394304E-4   1.536784402560443E-4  
 2.626000000000000E10    5.793062155134976E-4   2.867217990569770E-4  
 2.628000000000000E10    1.083021925296634E-4   2.345327666262165E-4  
 2.630000000000000E10   -1.789271918823943E-4   4.625199289876036E-5  
 2.632000000000000E10   -7.039325428195298E-4   2.727584214881063E-4  
 2.634000000000000E10   -2.740754280239344E-4   8.051702934608329E-6  
 2.636000000000000E10   -3.039305156562477E-4  -3.620924544520676E-4  
 2.638000000000000E10    3.812633440247737E-5  -6.037760176695883E-4  
 2.640000000000000E10    1.716700207907707E-4  -6.691193557344377E-4  
 2.642000000000000E10    7.941532658151118E-7  -1.065290343831293E-4  
 2.644000000000000E10   -1.107661664718762E-4   3.333419736009091E-4  
 2.646000000000000E10    8.487246814183891E-4   5.321577773429453E-4  
 2.648000000000000E10    1.378830056637526E-4   1.247502514161170E-4  
 2.650000000000000E10   -5.885770078748465E-4  -1.966130803339183E-4  
 2.652000000000000E10   -4.582538094837219E-4   3.979955217801035E-4  
 2.654000000000000E10   -2.366771950619295E-4   2.392057795077562E-4  
 2.656000000000000E10   -1.040518418449210E-5  -2.994054229930043E-4  
 2.658000000000000E10   -1.208282192237675E-4  -5.961727001704276E-4  
 2.660000000000000E10   -1.138994266511872E-4  -4.101536760572344E-4  
 2.662000000000000E10    2.217176952399313E-4   2.060388214886189E-4  
 2.664000000000000E10    7.038114126771689E-4   2.520171983633190E-4  
 2.666000000000000E10    5.527706234715879E-4   2.648890949785709E-4  
 2.668000000000000E10    5.989434066577815E-5   4.099505022168160E-4  
 2.670000000000000E10   -1.695663668215275E-4   5.938375252299011E-4  
 2.672000000000000E10   -3.149594995193183E-4   6.128100794740021E-4  
 2.674000000000000E10   -2.955274831037968E-4   2.232900988019537E-5  
 2.676000000000000E10   -1.081104528566357E-5  -3.813782823272049E-4  
 2.678000000000000E10    1.649844925850630E-4  -5.946884630247951E-4  
 2.680000000000000E10    2.521043061278760E-4  -3.442006418481469E-4  
 2.682000000000000E10    6.463493919000030E-4   2.156205737264827E-4  
 2.684000000000000E10    7.733092061243951E-4   1.612557389307767E-4  
 2.686000000000000E10    3.770196635741741E-4  -1.169409952126443E-4  
 2.688000000000000E10   -6.793102784286020E-6   4.859720065724105E-4  
 2.690000000000000E10   -1.991602039197460E-4   5.490254261530936E-4  
 2.692000000000000E10   -1.671529898885638E-4   1.080818692571484E-4  
 2.694000000000000E10   -2.457462251186371E-4  -2.796072803903371E-4  
 2.696000000000000E10   -5.623780307359994E-4  -3.910113300662488E-4  
 2.698000000000000E10   -3.273113106843084E-4  -2.000154781853780E-4  
 2.700000000000000E10   -7.207683665910736E-5   7.587525033159182E-5  
 2.702000000000000E10    4.242463037371635E-4  -3.862085577566177E-4  
 2.704000000000000E10    5.181583692319691E-4  -1.336887216893956E-4  
 2.706000000000000E10   -2.728998370002955E-4  -1.322298485320061E-4  
 2.708000000000000E10   -1.174276403617114E-4   4.962158855050802E-4  
 2.710000000000000E10    1.937924680532888E-4   6.848825723864138E-4  
 2.712000000000000E10    2.489465696271509E-4   7.362699398072437E-5  
 2.714000000000000E10   -4.476363246794790E-4  -5.086024757474661E-4  
 2.716000000000000E10   -1.586444996064529E-4  -2.346716646570712E-4  
 2.718000000000000E10   -2.802423550747335E-4  -4.877967876382172E-5  
 2.720000000000000E10    1.007501268759370E-4  -2.864144626073539E-4  
 2.722000000000000E10    1.623011776246131E-4   6.559106986969709E-5  
 2.724000000000000E10    1.435845024388982E-5  -5.762378568761051E-4  
 2.726000000000000E10   -2.906520676333457E-4  -5.258510282146744E-5  
 2.728000000000000E10   -1.478078775107861E-4   5.447416333481669E-4  
 2.730000000000000E10    4.514436586759985E-4   1.781389728421345E-4  
 2.732000000000000E10   -1.241801219293848E-4  -3.657033666968346E-4  
 2.734000000000000E10   -3.372766950633377E-4  -6.554658466484398E-5  
 2.736000000000000E10   -5.984947201795876E-4   1.778241567080841E-4  
 2.738000000000000E10    3.256554773543030E-4   2.304446825291961E-4  
 2.740000000000000E10    1.999821251956746E-4   5.665741264238022E-5  
 2.742000000000000E10   -1.946879347087815E-4  -5.722135538235307E-4  
 2.744000000000000E10   -1.387121155858040E-4   2.277983294334263E-4  
 2.746000000000000E10    2.520497364457697E-4   1.972717582248151E-4  
 2.748000000000000E10   -7.075212579366053E-6   1.216479868162423E-4  
 2.750000000000000E10    4.767904556501890E-6  -1.705665272311308E-5  
 2.752000000000000E10    1.916605106089264E-4   2.554658276494592E-4  
 2.754000000000000E10    4.832237027585506E-5   5.368112852011109E-7  
 2.756000000000000E10    3.574846050469205E-5   1.520936057204381E-4  
