#  HZ   S   RI   R     50.00 
! Rohde & Schwarz ZVA40 4Ports - Version 3.90 - 1145.1110k42 SN: 100403
! Date: 2023-10-04 07:59:42
! Measurement: S12 
! 
 2.200000000000000E10   -5.672937259078026E-4  -4.008322139270604E-4  
 2.202000000000000E10    3.028091159649193E-4   6.701261154375970E-4  
 2.204000000000000E10    7.079472416080535E-4   1.265764440177009E-4  
 2.206000000000000E10   -1.691843499429524E-4  -6.405054591596127E-4  
 2.208000000000000E10   -6.212977459654212E-4   4.844425420742482E-4  
 2.210000000000000E10    2.261875197291374E-4   6.693757022731006E-4  
 2.212000000000000E10    5.671113030984998E-4  -2.569864445831627E-4  
 2.214000000000000E10   -7.001831545494497E-4  -7.710820063948631E-4  
 2.216000000000000E10   -4.581658868119121E-4   6.937961443327367E-4  
 2.218000000000000E10    6.142192287370563E-4   4.400576872285456E-4  
 2.220000000000000E10    2.521066344343126E-4  -8.498403476551175E-4  
 2.222000000000000E10   -4.880177730228752E-4  -4.606126094586216E-5  
 2.224000000000000E10   -2.025994326686487E-4   8.415487827733159E-4  
 2.226000000000000E10    7.612563204020262E-4   3.144613583572209E-5  
 2.228000000000000E10   -2.356826735194773E-4  -7.141364621929824E-4  
 2.230000000000000E10   -8.083226857706904E-4   1.828228560043499E-4  
 2.232000000000000E10    1.650444937695283E-5   7.726305047981441E-4  
 2.234000000000000E10    5.866434657946229E-4  -4.164742131251842E-4  
 2.236000000000000E10   -9.478088468313217E-4  -6.475177360698581E-4  
 2.238000000000000E10   -6.504554767161608E-4   5.973702063784003E-4  
 2.240000000000000E10    6.626816466450691E-4   7.005318766459823E-4  
 2.242000000000000E10    5.536449025385082E-4  -8.239125600084662E-4  
 2.244000000000000E10   -8.942830027081072E-4  -1.831280969781801E-4  
 2.246000000000000E10   -1.021561038214713E-4   3.984336799476296E-4  
 2.248000000000000E10    8.026661234907806E-4   1.227685570484027E-4  
 2.250000000000000E10   -1.550958113512024E-4  -1.115757855586708E-3  
 2.252000000000000E10   -3.895712143275887E-4   3.243648970965296E-4  
 2.254000000000000E10    2.447555889375508E-4   5.041011027060449E-4  
 2.256000000000000E10    8.681520703248680E-4  -3.348516474943608E-4  
 2.258000000000000E10   -5.803742096759379E-4  -2.077878452837467E-4  
 2.260000000000000E10   -1.536833296995610E-4   4.036678874399513E-4  
 2.262000000000000E10    4.181844706181437E-4   5.103641306050122E-4  
 2.264000000000000E10    1.729613577481359E-4  -1.001688535325229E-3  
 2.266000000000000E10   -7.889459375292063E-4  -7.269000343512744E-5  
 2.268000000000000E10   -6.584358925465494E-5   2.812474267557263E-4  
 2.270000000000000E10    9.658214403316379E-4  -1.564278209116310E-4  
 2.272000000000000E10   -4.602556509780698E-5  -8.330087875947356E-4  
 2.274000000000000E10    5.393784158513881E-5   2.013642661040649E-4  
 2.276000000000000E10    6.351026240736246E-4   5.505572189576924E-4  
 2.278000000000000E10    9.542281622998416E-4  -3.602823417168111E-4  
 2.280000000000000E10   -3.156241727992892E-4  -2.847700379788876E-4  
 2.282000000000000E10   -7.167541771195829E-4   6.408892222680152E-4  
 2.284000000000000E10    7.711305515840650E-4   7.290763896889985E-4  
 2.286000000000000E10    2.939335827250034E-4  -3.482194151729345E-4  
 2.288000000000000E10   -4.587951116263866E-4  -4.758064460474998E-5  
 2.290000000000000E10   -1.097942149499431E-4   4.948065616190434E-4  
 2.292000000000000E10    6.218296475708485E-4  -5.406152195064351E-5  
 2.294000000000000E10    1.106597046600655E-4  -5.080577102489770E-4  
 2.296000000000000E10   -1.501812075730413E-4   2.052348427241668E-4  
 2.298000000000000E10    4.844737413804978E-4   2.411839086562395E-4  
 2.300000000000000E10    4.545245028566569E-4  -3.171593562001362E-5  
 2.302000000000000E10   -3.788400208577514E-4   1.507256674813107E-4  
 2.304000000000000E10    2.591130614746362E-4   1.051438041031361E-3  
 2.306000000000000E10    2.967689943034202E-4   1.853297580964863E-4  
 2.308000000000000E10   -4.248408949933946E-4  -5.763313965871930E-4  
 2.310000000000000E10   -9.488495998084545E-4   1.151580072473735E-4  
 2.312000000000000E10   -1.085948024410754E-4   6.365521694533527E-4  
 2.314000000000000E10    6.255526095628738E-4  -3.870362124871463E-4  
 2.316000000000000E10   -2.286783710587770E-4  -7.537821657024324E-4  
 2.318000000000000E10   -4.563883121591061E-4   2.048346941592172E-4  
 2.320000000000000E10    6.520568858832121E-4   2.092305076075718E-4  
 2.322000000000000E10    3.671329177450389E-4  -3.314749919809401E-4  
 2.324000000000000E10   -4.300002765376121E-4   3.700451316035469E-6  
 2.326000000000000E10   -1.105618066503666E-4   3.583539219107479E-4  
 2.328000000000000E10    1.458314072806388E-4   5.070828483439982E-4  
 2.330000000000000E10   -5.092130741104484E-4   2.345796929148492E-5  
 2.332000000000000E10   -2.958312688861042E-4   1.636028609937057E-4  
 2.334000000000000E10    1.798556477297097E-4  -1.766343630151823E-4  
 2.336000000000000E10   -1.205627049785107E-4  -3.014035173691809E-4  
 2.338000000000000E10   -4.486339166760445E-4  -5.081015988253057E-4  
 2.340000000000000E10    5.276344745652750E-5   2.355954202357680E-4  
 2.342000000000000E10    7.360729505307972E-4  -2.476411464158446E-4  
 2.344000000000000E10    2.336629841011018E-4  -7.051770808175206E-4  
 2.346000000000000E10   -4.584046546369791E-4   7.658782851649448E-5  
 2.348000000000000E10    1.527482236269862E-4   1.987351570278406E-4  
 2.350000000000000E10    2.250247198389843E-4  -3.347452147863805E-4  
 2.352000000000000E10   -3.981327172368765E-4  -5.433699698187411E-4  
 2.354000000000000E10   -5.840313388034701E-4   1.056272667483427E-4  
 2.356000000000000E10   -2.073391988233198E-5  -1.317504356848076E-4  
 2.358000000000000E10   -1.897547917906195E-4  -1.258402335224673E-4  
 2.360000000000000E10   -1.865349331637844E-4  -3.003856982104480E-4  
 2.362000000000000E10   -9.033356764120981E-5  -2.933945215772837E-4  
 2.364000000000000E10   -3.820856218226254E-4  -4.597654624376446E-4  
 2.366000000000000E10   -7.746164337731898E-4  -1.772883842932060E-5  
 2.368000000000000E10   -2.476835215929896E-4   6.530569517053664E-4  
 2.370000000000000E10    3.632915322668850E-4   1.232616632478312E-4  
 2.372000000000000E10    9.203206718666479E-5  -6.304146954789758E-4  
 2.374000000000000E10   -9.478501160629094E-4   4.585591796057997E-6  
 2.376000000000000E10   -4.603395937010646E-4   9.100940660573542E-4  
 2.378000000000000E10    6.150524714030325E-4   4.826642689295113E-4  
 2.380000000000000E10    2.526691532693803E-4  -4.565431154333055E-4  
 2.382000000000000E10   -7.651952328160405E-4   5.545448402699549E-6  
 2.384000000000000E10   -7.244622102007270E-4   2.199841255787760E-4  
 2.386000000000000E10   -5.721853995055426E-6   8.781117503531277E-4  
 2.388000000000000E10    3.435118123888969E-4   1.340990129392594E-4  
 2.390000000000000E10    4.188875027466565E-4  -1.858461037045345E-4  
 2.392000000000000E10   -2.531054778955877E-4  -4.088795685674995E-4  
 2.394000000000000E10   -3.390677738934755E-4   2.374402392888442E-4  
 2.396000000000000E10   -2.425663842586801E-4   1.324787503108382E-3  
 2.398000000000000E10    1.136699691414833E-3   8.131456561386585E-4  
 2.400000000000000E10    5.646622739732266E-4   1.287324848817661E-4  
 2.402000000000000E10   -6.150515400804579E-4   3.935712447855622E-5  
 2.404000000000000E10   -4.158085794188082E-4   1.350342645309866E-3  
 2.406000000000000E10    6.136046140454710E-4   1.230771187692881E-3  
 2.408000000000000E10    7.625556318089366E-4   7.897233444964513E-5  
 2.410000000000000E10   -4.778525908477604E-4  -4.575384373310953E-4  
 2.412000000000000E10   -1.307701750192791E-4   4.926910041831434E-4  
 2.414000000000000E10    4.235566884744912E-4   4.267682670615614E-4  
 2.416000000000000E10    1.258371630683541E-3  -1.587294827913865E-4  
 2.418000000000000E10    6.783790886402130E-4   3.502819527057000E-5  
 2.420000000000000E10    7.262797444127500E-4  -1.960490189958364E-4  
 2.422000000000000E10    3.151868004351854E-4   2.416328061372042E-4  
 2.424000000000000E10    4.141531826462597E-4   4.324328037910163E-4  
 2.426000000000000E10    2.365077962167561E-4   5.099641275592148E-4  
 2.428000000000000E10    5.167369381524622E-4  -4.453082510735840E-4  
 2.430000000000000E10   -3.067434008698911E-4  -6.114214193075895E-4  
 2.432000000000000E10   -8.295429870486260E-4  -6.254323525354266E-4  
 2.434000000000000E10    6.282535614445806E-4  -1.495874585089041E-5  
 2.436000000000000E10    9.410618222318590E-4  -8.496784721501172E-4  
 2.438000000000000E10    1.553799957036972E-4  -1.457421341910958E-3  
 2.440000000000000E10   -1.860586635302752E-4  -3.032761742360890E-5  
 2.442000000000000E10    4.226876480970532E-4   7.818568847142160E-4  
 2.444000000000000E10    6.256937049329281E-4  -4.802412586286664E-4  
 2.446000000000000E10    7.820907921995968E-5  -4.835676518268883E-4  
 2.448000000000000E10   -8.008981822058559E-4  -1.656889617152046E-5  
 2.450000000000000E10   -5.727835232391954E-4  -3.938053559977561E-4  
 2.452000000000000E10   -2.249157696496695E-4  -8.615336992079392E-5  
 2.454000000000000E10   -4.179641837254167E-4  -8.490152540616691E-4  
 2.456000000000000E10    2.725216618273407E-4  -9.750194149091840E-4  
 2.458000000000000E10   -1.164770292234607E-4  -9.612715221010149E-4  
 2.460000000000000E10   -3.064443881157786E-4  -3.975325671490282E-4  
 2.462000000000000E10    4.332855751272291E-4   3.868185158353299E-4  
 2.464000000000000E10    6.615617894567549E-4  -1.607927151781041E-5  
 2.466000000000000E10   -4.908733535557985E-4  -4.014445876237005E-4  
 2.468000000000000E10   -9.534900309517980E-4  -1.440224150428549E-4  
 2.470000000000000E10   -8.820220245979726E-4   5.301708006300032E-4  
 2.472000000000000E10   -3.591543936636299E-4  -4.047630500281230E-5  
 2.474000000000000E10   -1.308514474658296E-4  -7.872274727560580E-4  
 2.476000000000000E10   -6.469852523878217E-4  -9.450660436414182E-4  
 2.478000000000000E10   -3.690756566356868E-4  -1.369713863823563E-4  
 2.480000000000000E10    5.056612426415086E-4   1.527553395135328E-4  
 2.482000000000000E10    2.811611047945917E-4   9.744470298755914E-5  
 2.484000000000000E10    1.920399663504213E-4   1.219699424837017E-5  
 2.486000000000000E10    7.633883069502190E-5   5.211388343013823E-4  
 2.488000000000000E10   -5.060093244537711E-4   4.157244693487883E-4  
 2.490000000000000E10   -3.880052245222032E-4   4.190632316749543E-4  
 2.492000000000000E10   -3.255663323216140E-4   2.619166916701943E-4  
 2.494000000000000E10    7.666242163395509E-5  -3.850756038445979E-4  
 2.496000000000000E10   -7.279725396074355E-4  -4.820469475816935E-4  
 2.498000000000000E10   -3.967079683206976E-4  -5.049951723776758E-4  
 2.500000000000000E10    2.549439668655396E-4   3.679270448628813E-4  
 2.502000000000000E10    6.221251096576452E-4  -8.988918852992356E-5  
 2.504000000000000E10    2.487939782440662E-4  -1.088786520995200E-4  
 2.506000000000000E10   -3.184039669577032E-4   2.700729237403721E-4  
 2.508000000000000E10    2.395344345131889E-4   8.151808870024979E-4  
 2.510000000000000E10   -3.745544818229973E-4   5.807500565424562E-4  
 2.512000000000000E10   -1.585422287462279E-4   7.278610610228498E-6  
 2.514000000000000E10   -6.637807819060981E-4   1.893350708996877E-4  
 2.516000000000000E10   -5.680532776750624E-4   1.957670247065835E-5  
 2.518000000000000E10   -3.859357675537467E-4   1.593682327438728E-6  
 2.520000000000000E10    1.521094091003761E-4  -1.552846806589514E-4  
 2.522000000000000E10    2.494875807315111E-4   5.394282197812572E-5  
 2.524000000000000E10    1.458683982491493E-4  -4.066794936079532E-4  
 2.526000000000000E10   -1.697439802228473E-5   6.862138980068266E-4  
 2.528000000000000E10   -1.616542867850512E-4   7.379068993031979E-4  
 2.530000000000000E10    6.641618092544377E-4   6.307901348918676E-4  
 2.532000000000000E10   -1.381208276143298E-4   3.241447484469973E-5  
 2.534000000000000E10   -1.141251923399977E-4   1.422874993295409E-5  
 2.536000000000000E10   -3.569000400602818E-4   6.695115007460117E-4  
 2.538000000000000E10    7.627970771864057E-4   1.151822143583559E-4  
 2.540000000000000E10    4.857715975958854E-4  -3.393304941710085E-4  
 2.542000000000000E10   -3.431709046708420E-5  -4.134142945986241E-4  
 2.544000000000000E10    4.672760842368007E-4   8.392043528147042E-4  
 2.546000000000000E10    4.776937421411276E-4   3.168344846926630E-4  
 2.548000000000000E10    5.716586601920426E-4   4.895191159448586E-5  
 2.550000000000000E10    1.109823006117949E-5   2.711982524488121E-4  
 2.552000000000000E10    1.866119855549187E-4   2.955606614705175E-4  
 2.554000000000000E10    1.772102696122602E-4   2.500240807421506E-4  
 2.556000000000000E10    1.452052092645317E-4   1.360338937956840E-4  
 2.558000000000000E10    3.418891283217818E-4   2.659916644915938E-4  
 2.560000000000000E10    6.400893325917423E-4  -4.956285702064633E-4  
 2.562000000000000E10    2.196030691266060E-4  -3.655153559520841E-4  
 2.564000000000000E10    3.307708539068699E-4  -4.430865010363050E-5  
 2.566000000000000E10    7.979841902852058E-4   1.067136690835469E-4  
 2.568000000000000E10    4.383079649414867E-4  -5.163698806427419E-4  
 2.570000000000000E10   -2.722593198996037E-4  -3.285737475380302E-4  
 2.572000000000000E10   -3.762800770346075E-5  -2.228622906841338E-5  
 2.574000000000000E10    2.994358364958316E-4  -1.410060503985733E-4  
 2.576000000000000E10    1.540711673442274E-4  -6.393510266207159E-4  
 2.578000000000000E10    2.428171283099800E-4  -6.317802472040057E-4  
 2.580000000000000E10   -1.523229439044371E-4   1.597396912984550E-4  
 2.582000000000000E10    3.121098852716386E-4  -2.926619199570268E-4  
 2.584000000000000E10    2.197406865889207E-4  -2.580549626145512E-4  
 2.586000000000000E10   -2.632232790347189E-4  -3.947490185964853E-4  
 2.588000000000000E10   -1.875026937341318E-4   2.400369157840032E-5  
 2.590000000000000E10   -1.215413285535760E-4  -3.039925068151206E-4  
 2.592000000000000E10   -2.202246832894161E-4  -3.416611434658989E-5  
 2.594000000000000E10   -2.689884859137237E-4  -4.798548470716924E-4  
 2.596000000000000E10    1.292963424930349E-4  -2.414490008959547E-4  
 2.598000000000000E10   -4.291566147003323E-4  -3.265029226895422E-4  
 2.600000000000000E10   -6.651833973592147E-5  -3.638702037278563E-4  
 2.602000000000000E10    1.376525615341961E-4   2.830707526300103E-4  
 2.604000000000000E10   -1.504472165834159E-4  -3.240250225644559E-5  
 2.606000000000000E10   -6.628641858696938E-4  -2.258434687973931E-4  
 2.608000000000000E10   -5.549510824494064E-4   5.655772401951253E-4  
 2.610000000000000E10   -5.606263875961304E-4   3.876818518619984E-4  
 2.612000000000000E10    6.339196261251345E-5  -3.648210258688778E-4  
 2.614000000000000E10   -7.017855532467365E-4  -1.141461980296299E-4  
 2.616000000000000E10   -7.952544838190079E-4  -1.866036473074928E-4  
 2.618000000000000E10    4.495704342843965E-5   3.341278061270714E-4  
 2.620000000000000E10    3.223312960471958E-4  -7.529414142481983E-5  
 2.622000000000000E10   -3.014593094121665E-4   2.816489904944319E-5  
 2.624000000000000E10   -9.856456745183095E-5  -8.938513201428577E-5  
 2.626000000000000E10   -2.620838349685073E-4   7.064961828291416E-4  
 2.628000000000000E10   -4.445883387234062E-4   1.727021735860035E-4  
 2.630000000000000E10    1.414777652826160E-4   9.672779560787603E-5  
 2.632000000000000E10   -1.525609986856580E-4  -2.368503373872954E-5  
 2.634000000000000E10   -3.295955248177052E-4   1.758492435328662E-4  
 2.636000000000000E10   -2.454749774187803E-4   5.882741534151137E-4  
 2.638000000000000E10    4.972685201209970E-5   5.448267329484224E-4  
 2.640000000000000E10    8.220643212553114E-5   1.402049820171669E-4  
 2.642000000000000E10   -2.146501356037334E-5   1.413872960256413E-4  
 2.644000000000000E10   -2.670774993021041E-4   4.613736527971923E-4  
 2.646000000000000E10    5.278159733279608E-5   7.232194766402245E-4  
 2.648000000000000E10    4.304262693040073E-4   5.669839447364211E-4  
 2.650000000000000E10    2.068117028102279E-4   7.900737546151504E-5  
 2.652000000000000E10   -5.593140303972177E-5   5.140621215105057E-5  
 2.654000000000000E10   -3.036387206520885E-4   7.343536126427352E-4  
 2.656000000000000E10    3.471619129413739E-5   6.083272164687514E-4  
 2.658000000000000E10    4.664231091737747E-4  -2.461372641846538E-4  
 2.660000000000000E10   -1.518755016149953E-4  -1.852385903475806E-4  
 2.662000000000000E10   -5.378030473366380E-4  -8.964143489720300E-6  
 2.664000000000000E10    8.085490117082372E-5   2.755379246082157E-4  
 2.666000000000000E10    3.476748825050890E-4  -1.149392119259574E-4  
 2.668000000000000E10    1.859229814726859E-4  -1.514351606601849E-4  
 2.670000000000000E10    1.572409528307617E-4  -1.945712283486500E-4  
 2.672000000000000E10    1.477676414651796E-4   1.067826087819412E-4  
 2.674000000000000E10    1.055558750522323E-4   1.343504554824904E-4  
 2.676000000000000E10    4.738156567327678E-4   6.571928679477423E-5  
 2.678000000000000E10    5.055665951658739E-6  -3.773874486796558E-4  
 2.680000000000000E10   -1.145033911598148E-5  -4.456883179955185E-4  
 2.682000000000000E10   -1.958592474693433E-4  -9.220867650583386E-5  
 2.684000000000000E10    1.255531242350116E-4  -2.192238171119243E-4  
 2.686000000000000E10    4.156803770456463E-4  -3.199322673026472E-4  
 2.688000000000000E10    1.532566093374044E-4  -6.552336271852255E-4  
 2.690000000000000E10   -1.527597778476775E-4  -1.928056299220771E-4  
 2.692000000000000E10   -1.833170972531661E-5   5.195734411245212E-5  
 2.694000000000000E10    8.968235488282517E-5  -1.684329326963052E-4  
 2.696000000000000E10   -1.096377673093230E-4  -5.555766401812434E-4  
 2.698000000000000E10   -1.235115487361327E-4  -3.518495359458029E-4  
 2.700000000000000E10   -7.046733517199755E-4  -2.076720120385289E-4  
 2.702000000000000E10    7.179036765592173E-5  -2.282615168951452E-4  
 2.704000000000000E10    2.573893871158361E-4   1.237352553289384E-4  
 2.706000000000000E10    9.663886157795787E-5  -4.122178070247173E-4  
 2.708000000000000E10    2.237953594885767E-4   8.632540811959188E-6  
 2.710000000000000E10   -1.818535238271579E-4   1.793065312085673E-4  
 2.712000000000000E10   -6.272811151575297E-5   1.555428170831874E-4  
 2.714000000000000E10   -2.677947632037103E-4   5.548374247155152E-5  
 2.716000000000000E10    9.484367183176801E-5  -8.238535519922152E-5  
 2.718000000000000E10   -2.256768348161131E-4  -2.656945725902915E-4  
 2.720000000000000E10   -9.750382014317438E-5  -1.541882375022396E-4  
 2.722000000000000E10    5.102499198983423E-5  -1.416819031874184E-5  
 2.724000000000000E10    3.611180873122066E-4  -1.572559121996164E-4  
 2.726000000000000E10    2.362832165090367E-4  -3.041088893951383E-5  
 2.728000000000000E10   -1.341934694210067E-4   1.734595280140638E-4  
 2.730000000000000E10   -6.798930553486571E-5   6.687085842713714E-4  
 2.732000000000000E10    2.377923665335402E-4   3.429542121011764E-4  
 2.734000000000000E10    1.525470870546997E-4  -2.276705490658060E-4  
 2.736000000000000E10   -5.495115183293819E-4  -7.297692354768515E-5  
 2.738000000000000E10    3.219771315343678E-5   2.667108492460102E-4  
 2.740000000000000E10    9.315524221165106E-5  -1.260173303307965E-4  
 2.742000000000000E10    2.854752528946847E-4  -7.381352770607919E-5  
 2.744000000000000E10   -5.860443343408406E-5   1.553419715492055E-4  
 2.746000000000000E10    2.067690948024392E-4   1.820467296056449E-4  
 2.748000000000000E10    2.245107316412032E-4   4.101201484445483E-4  
 2.750000000000000E10    5.624312962027034E-6   7.017254392849281E-5  
 2.752000000000000E10   -2.473688800819218E-4   2.486045414116234E-4  
 2.754000000000000E10   -2.573789606685750E-5  -8.626331691630185E-5  
 2.756000000000000E10   -5.131708458065987E-4  -2.437762013869360E-4  
