#  HZ   S   RI   R     50.00 
! Rohde & Schwarz ZVA40 4Ports - Version 3.90 - 1145.1110k42 SN: 100403
! Date: 2023-10-04 07:59:13
! Measurement: S12 
! 
 2.200000000000000E10   -4.325473491917364E-5  -1.636681990930811E-4  
 2.202000000000000E10   -2.033011551247910E-4   6.646495894528925E-4  
 2.204000000000000E10    6.194051238708198E-4   6.036501144990325E-4  
 2.206000000000000E10   -1.082443923223764E-4  -6.894853868288919E-5  
 2.208000000000000E10   -8.507582824677229E-4   3.407675249036402E-4  
 2.210000000000000E10   -2.477855305187404E-4   6.753537454642355E-4  
 2.212000000000000E10    2.043084350589197E-5  -3.369286787346937E-5  
 2.214000000000000E10   -2.189421647926793E-4  -5.402942770160735E-4  
 2.216000000000000E10   -4.153397167101502E-4   4.220069968141615E-4  
 2.218000000000000E10    2.696645387914032E-4   3.684532421175391E-4  
 2.220000000000000E10    3.973816928919405E-4  -4.297509149182588E-4  
 2.222000000000000E10   -4.067900299560279E-4  -1.319265575148165E-4  
 2.224000000000000E10    2.558773267082870E-4   8.370028808712959E-4  
 2.226000000000000E10    7.347004138864577E-4   2.396459603914991E-4  
 2.228000000000000E10   -2.085505984723568E-4  -5.229822709225118E-4  
 2.230000000000000E10   -7.353327237069607E-4   4.555806808639318E-4  
 2.232000000000000E10    1.748359354678541E-4   4.130547167733312E-4  
 2.234000000000000E10    6.771058542653918E-4  -2.415764320176095E-4  
 2.236000000000000E10   -6.878667627461255E-4  -1.225372077897191E-3  
 2.238000000000000E10   -6.364245200529695E-4   2.540739951655269E-4  
 2.240000000000000E10    2.431235916446894E-4   3.655419277492911E-4  
 2.242000000000000E10    7.952548330649734E-4  -8.831556770019233E-4  
 2.244000000000000E10   -4.325863556005061E-4  -4.339346487540752E-4  
 2.246000000000000E10   -7.232379721244797E-5   3.666066913865507E-4  
 2.248000000000000E10    8.340194472111762E-4   7.468010153388605E-5  
 2.250000000000000E10    4.076476907357574E-4  -3.300655225757510E-4  
 2.252000000000000E10   -4.498189373407513E-4   4.862963978666812E-4  
 2.254000000000000E10    3.162636130582541E-4   8.971614297479391E-4  
 2.256000000000000E10    3.062507894355804E-4   7.516460755141452E-5  
 2.258000000000000E10   -5.687438533641398E-4  -2.862989495042712E-4  
 2.260000000000000E10   -5.151649238541722E-4   5.122594302520156E-4  
 2.262000000000000E10    6.197420880198479E-4   2.441877441015095E-4  
 2.264000000000000E10    6.259309011511505E-4  -6.288140430115163E-4  
 2.266000000000000E10   -5.778943886980414E-4  -5.036639049649239E-4  
 2.268000000000000E10    2.567767805885524E-4   6.195292808115482E-4  
 2.270000000000000E10    9.549997048452497E-4   3.776547382585704E-4  
 2.272000000000000E10    4.168466839473695E-4  -4.941427032463253E-4  
 2.274000000000000E10   -4.676032986026257E-4   2.990734938066453E-4  
 2.276000000000000E10    4.797821457032114E-4   7.106536068022251E-4  
 2.278000000000000E10    5.176986451260746E-4   1.490122485847678E-5  
 2.280000000000000E10   -6.168336840346456E-4  -1.731874654069543E-4  
 2.282000000000000E10   -8.668832597322762E-4   9.523428889224306E-5  
 2.284000000000000E10    1.885135570773855E-4   9.087277430808172E-5  
 2.286000000000000E10    1.565884122101124E-5  -3.930755774490535E-4  
 2.288000000000000E10   -7.285950123332441E-4  -7.101972732925788E-5  
 2.290000000000000E10    4.597177394316532E-5   4.301933513488621E-4  
 2.292000000000000E10    6.078799488022924E-4  -2.927672467194498E-4  
 2.294000000000000E10   -2.901178959291428E-4  -4.573942860588431E-4  
 2.296000000000000E10   -4.420808982104063E-4   1.706931216176599E-4  
 2.298000000000000E10    5.666826618835330E-4   4.303042078390718E-4  
 2.300000000000000E10    3.035279587493278E-5  -2.854005142580718E-4  
 2.302000000000000E10   -7.765426998957992E-4  -2.846384886652231E-4  
 2.304000000000000E10   -3.516329161357135E-4   5.994161474518478E-4  
 2.306000000000000E10    2.699901524465531E-4   1.498559231549734E-5  
 2.308000000000000E10   -2.400208904873580E-4  -9.129981626756489E-4  
 2.310000000000000E10   -5.603409954346716E-4  -3.316219372209162E-4  
 2.312000000000000E10   -5.451145261758938E-5   3.092988335993141E-4  
 2.314000000000000E10    3.493939002510160E-4  -3.733009798452258E-4  
 2.316000000000000E10   -1.355357380816713E-4  -2.510402118787170E-4  
 2.318000000000000E10   -2.802695962600410E-4  -9.389509068569168E-5  
 2.320000000000000E10    4.109074361622334E-4  -4.358998467068886E-6  
 2.322000000000000E10   -8.807714038994163E-5  -3.814582596533001E-4  
 2.324000000000000E10   -4.992756294086576E-4   2.973323862534016E-4  
 2.326000000000000E10    4.462435026653111E-4   5.360266077332199E-4  
 2.328000000000000E10    4.785957280546427E-4  -1.698741252766922E-4  
 2.330000000000000E10   -8.721781778149307E-4  -5.495023797266185E-4  
 2.332000000000000E10   -6.197711918503046E-4   6.312091718427837E-4  
 2.334000000000000E10    3.726480063050985E-4   1.034071436151862E-3  
 2.336000000000000E10    3.205112006980926E-4  -4.797098517883569E-4  
 2.338000000000000E10   -4.561326568364166E-5  -1.360474707325921E-4  
 2.340000000000000E10   -3.771347983274609E-4   3.467428614385426E-4  
 2.342000000000000E10    5.664028576575220E-4   3.709482843987644E-4  
 2.344000000000000E10    2.127056504832581E-4   3.957206208724529E-4  
 2.346000000000000E10    3.277501964475960E-4   2.807554265018553E-4  
 2.348000000000000E10    4.533542087301612E-4   8.301544585265219E-5  
 2.350000000000000E10    4.566638672258705E-4  -3.464121255092323E-4  
 2.352000000000000E10   -1.120407541748136E-4   4.379045276436955E-4  
 2.354000000000000E10    4.733464156743139E-4   7.352209649980068E-4  
 2.356000000000000E10    8.839183137752116E-4   2.068931644316763E-4  
 2.358000000000000E10    2.564628084655851E-5  -4.752892418764532E-4  
 2.360000000000000E10   -6.935556884855032E-4   1.210210612043738E-4  
 2.362000000000000E10    4.927729023620486E-4   9.346078149974346E-4  
 2.364000000000000E10    7.380897877737880E-4  -4.067473637405783E-4  
 2.366000000000000E10    4.697535478044301E-4  -7.304297178052366E-4  
 2.368000000000000E10   -1.873862347565591E-4  -1.916454057209194E-4  
 2.370000000000000E10    2.555534301791340E-4   4.281184228602797E-4  
 2.372000000000000E10    5.889052408747375E-4  -2.023088927671779E-5  
 2.374000000000000E10    5.034080095356330E-5   4.489747516345233E-5  
 2.376000000000000E10   -1.020893978420645E-4  -4.036707105115056E-4  
 2.378000000000000E10    1.601964322617278E-4  -1.075758991646580E-4  
 2.380000000000000E10   -4.074005992151797E-4  -2.575712860561907E-4  
 2.382000000000000E10    1.123647962231189E-4  -1.447949034627527E-4  
 2.384000000000000E10    2.536216343287379E-4  -4.478507034946233E-4  
 2.386000000000000E10    1.098867214750499E-4  -9.950504172593355E-4  
 2.388000000000000E10   -8.725220104679465E-4  -5.044020363129675E-4  
 2.390000000000000E10    9.110842074733228E-5   7.303678430616856E-4  
 2.392000000000000E10    5.682159680873156E-4  -1.006098682410084E-4  
 2.394000000000000E10    1.085696931113489E-4  -1.258103526197374E-3  
 2.396000000000000E10   -1.729069976136088E-3  -2.128844062099233E-4  
 2.398000000000000E10   -9.867878397926688E-4   5.109987687319517E-4  
 2.400000000000000E10   -2.730053092818707E-4   2.362850646022707E-4  
 2.402000000000000E10   -5.425832350738347E-4  -9.899125434458256E-4  
 2.404000000000000E10   -1.079856185242534E-3  -5.569498171098530E-4  
 2.406000000000000E10   -1.140004489570856E-3  -1.401256158715114E-4  
 2.408000000000000E10    1.161984910140745E-4   2.296735910931602E-4  
 2.410000000000000E10   -2.146142214769498E-4  -9.198973202728666E-6  
 2.412000000000000E10    3.805953892879188E-4  -4.679823541664518E-5  
 2.414000000000000E10   -5.382176605053246E-4  -2.617135760374367E-5  
 2.416000000000000E10   -6.980805192142725E-4   3.221080405637622E-4  
 2.418000000000000E10   -8.625354385003448E-4   1.440291758626699E-3  
 2.420000000000000E10    3.064780903514475E-4   6.060980376787484E-4  
 2.422000000000000E10    1.503870735177770E-4  -3.669415018521249E-4  
 2.424000000000000E10   -1.268819556571543E-3  -8.238638401962817E-4  
 2.426000000000000E10   -8.343216613866389E-4   6.514370907098055E-4  
 2.428000000000000E10    5.469359457492828E-4   7.592244655825198E-4  
 2.430000000000000E10    1.058397931046784E-3  -3.888599749188870E-4  
 2.432000000000000E10   -1.825056388042867E-4  -4.652215866371989E-4  
 2.434000000000000E10   -2.196875429945067E-4   8.164296741597354E-4  
 2.436000000000000E10    2.423535479465500E-4   1.166507485322654E-3  
 2.438000000000000E10    6.071627140045166E-4   5.806158878840506E-4  
 2.440000000000000E10    1.858352479757741E-4   4.649743204936385E-4  
 2.442000000000000E10   -3.017580020241439E-4  -8.028425509110093E-5  
 2.444000000000000E10   -2.415340131847188E-4  -2.837642205122393E-5  
 2.446000000000000E10   -8.783635712461546E-5   1.842100755311549E-4  
 2.448000000000000E10    7.091586012393236E-4   2.721076307352632E-4  
 2.450000000000000E10    9.734428022056818E-4  -6.023864261806011E-4  
 2.452000000000000E10    5.079440888948739E-4  -4.845331131946296E-4  
 2.454000000000000E10   -2.882468688767403E-4   3.751952899619937E-4  
 2.456000000000000E10    8.092761854641140E-4   1.040923059917986E-3  
 2.458000000000000E10    7.415194995701313E-4   7.346325437538326E-4  
 2.460000000000000E10    1.462209002056625E-5  -5.620713927783072E-4  
 2.462000000000000E10   -5.568899214267731E-4   6.715366180287674E-5  
 2.464000000000000E10   -3.477184800431132E-4   4.837785381823778E-4  
 2.466000000000000E10    4.861425259150565E-4  -1.091962694772519E-4  
 2.468000000000000E10    4.976080381311476E-4  -6.324670393951237E-4  
 2.470000000000000E10    6.494618719443679E-5  -2.186975907534361E-4  
 2.472000000000000E10    2.486502926331013E-4  -7.193887086032191E-6  
 2.474000000000000E10    5.499485414475203E-4   3.394105006009340E-4  
 2.476000000000000E10    3.799876139964908E-4   1.904363161884248E-4  
 2.478000000000000E10    6.619100458920002E-4   4.141425306443125E-4  
 2.480000000000000E10   -3.157868923153728E-4  -8.319062544615008E-6  
 2.482000000000000E10   -3.306170401629061E-4   1.243831065949053E-4  
 2.484000000000000E10   -3.578949836082757E-4   4.816396394744515E-4  
 2.486000000000000E10    6.443397724069655E-4  -1.555510098114610E-4  
 2.488000000000000E10    1.288521452806890E-4  -7.073916494846344E-4  
 2.490000000000000E10    1.233163638971746E-4  -6.228256388567388E-4  
 2.492000000000000E10    2.581770531833172E-4   5.436997744254768E-4  
 2.494000000000000E10    7.843566709198058E-4   4.622208070941269E-4  
 2.496000000000000E10    8.162714657373726E-4   2.927383866335731E-5  
 2.498000000000000E10   -1.617272500880063E-4  -1.472021976951510E-4  
 2.500000000000000E10   -3.938083318644203E-5   3.626076795626432E-4  
 2.502000000000000E10   -9.076987771550193E-5   4.056330071762204E-4  
 2.504000000000000E10    9.865995525615290E-5  -2.518749970477074E-4  
 2.506000000000000E10    4.481330324779265E-5  -4.395742726046592E-4  
 2.508000000000000E10    2.383483952144161E-4  -5.666924407705665E-4  
 2.510000000000000E10    6.872863013995811E-5  -5.477944505400956E-4  
 2.512000000000000E10    1.375635974909528E-6  -2.461647673044354E-4  
 2.514000000000000E10    4.816011351067573E-4   6.719683733535931E-5  
 2.516000000000000E10    6.801104755140841E-4  -3.644395910669118E-4  
 2.518000000000000E10   -1.991254430322442E-5  -4.268378543201834E-4  
 2.520000000000000E10   -4.239500558469445E-4  -2.425498678348959E-4  
 2.522000000000000E10    1.382993796141818E-4   5.309284315444529E-4  
 2.524000000000000E10    1.400102337356657E-4  -5.189621588215232E-4  
 2.526000000000000E10   -1.001621494651772E-4  -6.299240631051362E-4  
 2.528000000000000E10   -7.789075607433915E-4  -4.857585299760103E-4  
 2.530000000000000E10    4.370607348391786E-5  -5.412860264186747E-5  
 2.532000000000000E10    2.046795707428828E-4  -2.034089848166332E-4  
 2.534000000000000E10    1.869160623755306E-4  -3.970119287259877E-4  
 2.536000000000000E10   -1.999206288019195E-4  -3.937226938433014E-5  
 2.538000000000000E10   -3.507741494104266E-4  -2.513561921659857E-4  
 2.540000000000000E10   -6.588140386156738E-4   4.090215370524675E-4  
 2.542000000000000E10   -3.524791391100735E-4   9.098168084165081E-5  
 2.544000000000000E10   -5.194317782297730E-4  -7.098409696482122E-5  
 2.546000000000000E10   -6.591081037186086E-4  -3.037998976651579E-4  
 2.548000000000000E10   -7.218930404633284E-4   2.795553336909507E-5  
 2.550000000000000E10   -4.959908546879888E-4   1.156420112238266E-4  
 2.552000000000000E10    2.291927812620997E-4   1.909027341753244E-4  
 2.554000000000000E10   -2.136544790118933E-4   1.686430368863512E-5  
 2.556000000000000E10   -5.462985718622804E-4   3.707165305968374E-4  
 2.558000000000000E10   -3.750967152882367E-4   9.830265771597624E-4  
 2.560000000000000E10    3.021212469320744E-4   6.107505760155618E-4  
 2.562000000000000E10   -3.517344594001770E-4   1.358238660031930E-4  
 2.564000000000000E10   -7.112197927199304E-4   2.822676033247262E-4  
 2.566000000000000E10   -5.099152913317084E-4   5.210840026848018E-4  
 2.568000000000000E10    2.745768579188734E-4   3.995611623395234E-4  
 2.570000000000000E10   -1.521180820418522E-4  -9.518636943539605E-5  
 2.572000000000000E10    1.085430703824386E-4   1.298982533626258E-4  
 2.574000000000000E10    1.897645124699920E-4   7.392202969640493E-4  
 2.576000000000000E10    4.999825032427907E-4   3.864327445626259E-4  
 2.578000000000000E10    2.477378875482827E-4   4.253957013133913E-4  
 2.580000000000000E10   -7.646463200217113E-5   5.639268201775849E-4  
 2.582000000000000E10    1.257811527466402E-4   2.818302600644529E-4  
 2.584000000000000E10    8.424487896263599E-5   5.583282327279449E-4  
 2.586000000000000E10   -6.003177259117365E-5   1.649822515901178E-4  
 2.588000000000000E10    4.087483102921397E-4   1.744110340951011E-5  
 2.590000000000000E10    4.439597832970321E-4  -2.117196563631296E-4  
 2.592000000000000E10    3.017204871866852E-4   7.109465514076874E-5  
 2.594000000000000E10    3.671012236736715E-4   1.495851029176265E-4  
 2.596000000000000E10    8.862314862199128E-4   3.741745313163847E-4  
 2.598000000000000E10    6.538362504215911E-5  -1.831336703617126E-4  
 2.600000000000000E10    8.741845522308722E-5   9.626676182961091E-5  
 2.602000000000000E10   -2.684002101887018E-4   4.807545919902623E-4  
 2.604000000000000E10    3.624915261752904E-4  -2.662545884959400E-4  
 2.606000000000000E10    1.044104137690738E-4  -7.457680185325444E-4  
 2.608000000000000E10   -2.444662677589804E-4  -2.992819354403764E-4  
 2.610000000000000E10    2.389930305071175E-4  -2.771520521491766E-4  
 2.612000000000000E10    1.004735473543406E-3  -2.754731394816190E-4  
 2.614000000000000E10    3.006542101502419E-4  -2.046527515631169E-4  
 2.616000000000000E10    3.256416239310056E-4  -4.565029812511057E-4  
 2.618000000000000E10    1.527184213045985E-4   3.068754449486733E-4  
 2.620000000000000E10   -3.273592155892402E-4   1.735666010063142E-4  
 2.622000000000000E10    1.380232424708083E-5  -2.491653140168637E-4  
 2.624000000000000E10    2.003211420742446E-6  -1.938943023560569E-4  
 2.626000000000000E10   -3.921634342987090E-4  -4.727671912405640E-4  
 2.628000000000000E10   -2.975470270030201E-4  -9.106746874749661E-4  
 2.630000000000000E10    3.471730160526931E-4   4.055748649989255E-5  
 2.632000000000000E10    3.331405750941485E-4  -3.515591670293361E-4  
 2.634000000000000E10    4.175337380729616E-4  -8.811892475932837E-4  
 2.636000000000000E10   -1.220916601596400E-4  -1.280869473703206E-4  
 2.638000000000000E10   -7.178472878877074E-5   2.896920777857304E-4  
 2.640000000000000E10   -2.529501580283977E-5  -1.134843914769590E-4  
 2.642000000000000E10   -8.448711014352739E-5  -3.824034065473825E-4  
 2.644000000000000E10   -5.879121017642319E-4  -2.909825998358429E-4  
 2.646000000000000E10   -1.374218845739961E-4  -4.464915837161243E-4  
 2.648000000000000E10   -5.738319014199078E-4  -3.477948193904012E-4  
 2.650000000000000E10   -1.585250283824280E-4  -6.021735025569797E-4  
 2.652000000000000E10   -2.205569899160764E-6  -3.598449984565377E-4  
 2.654000000000000E10    4.289110074751079E-5  -6.062542088329792E-4  
 2.656000000000000E10   -3.099424939136952E-4  -4.468281986191869E-4  
 2.658000000000000E10   -7.824128260836005E-5   1.710475885374763E-6  
 2.660000000000000E10    8.912173507269472E-5   1.468941627535969E-4  
 2.662000000000000E10   -3.139039035886526E-4  -4.156862269155681E-4  
 2.664000000000000E10   -7.138653891161084E-4  -2.866875147446990E-4  
 2.666000000000000E10   -6.205264362506568E-4   7.087678386596963E-5  
 2.668000000000000E10   -2.160975855076686E-4  -9.793178469408304E-5  
 2.670000000000000E10   -2.756902249529958E-4  -1.057544723153114E-4  
 2.672000000000000E10   -1.279114512726665E-4  -3.174631856381893E-4  
 2.674000000000000E10    1.521634385426296E-5  -1.696838080533780E-5  
 2.676000000000000E10   -1.944702671607956E-4   4.601848559104838E-5  
 2.678000000000000E10   -9.202976798405871E-5   2.141047880286351E-4  
 2.680000000000000E10    1.684104208834469E-4   1.955423213075846E-4  
 2.682000000000000E10   -7.959792856127024E-5  -4.701338912127540E-5  
 2.684000000000000E10   -4.076749901287258E-4  -6.994530849624425E-6  
 2.686000000000000E10   -3.684744588099420E-4   3.034401161130518E-4  
 2.688000000000000E10    3.345084260217845E-4   1.764456974342465E-4  
 2.690000000000000E10    1.540543744340539E-4  -2.271277335239574E-4  
 2.692000000000000E10   -2.964636078104377E-4  -2.383066748734564E-4  
 2.694000000000000E10   -6.577699423360173E-6   3.227577835787088E-4  
 2.696000000000000E10    6.797069800086319E-4   1.938613713718951E-4  
 2.698000000000000E10    1.242223079316318E-4  -9.646226681070402E-5  
 2.700000000000000E10   -1.217777171405032E-4   2.945480227936059E-4  
 2.702000000000000E10    2.184267941629514E-4   7.274615927599371E-4  
 2.704000000000000E10   -1.054165695677511E-4   5.582916783168912E-4  
 2.706000000000000E10   -2.802377857733518E-4   2.813931496348232E-4  
 2.708000000000000E10   -1.215140873682685E-4   2.548129123169929E-4  
 2.710000000000000E10    6.625011883443221E-5   9.706223499961197E-5  
 2.712000000000000E10    1.463223838982231E-6  -2.197476715082303E-4  
 2.714000000000000E10    8.637686551082879E-5   1.467434049118310E-4  
 2.716000000000000E10    3.148490213789046E-4   2.748244442045689E-4  
 2.718000000000000E10    7.476675673387945E-4  -5.863487604074180E-5  
 2.720000000000000E10    6.557017331942916E-5   3.125371295027435E-4  
 2.722000000000000E10   -6.184917583595961E-5   4.398144665174186E-4  
 2.724000000000000E10    4.456474562175572E-4   7.050635176710784E-4  
 2.726000000000000E10    1.430540287401527E-4  -6.904173233124311E-7  
 2.728000000000000E10   -2.602429885882884E-4  -2.904357679653913E-4  
 2.730000000000000E10   -9.998066525440663E-5   1.537288771942258E-4  
 2.732000000000000E10    1.122074609156698E-4  -1.949959550984204E-4  
 2.734000000000000E10    3.004830796271563E-4  -5.078447866253555E-4  
 2.736000000000000E10   -1.579548697918654E-4   3.144742004224099E-5  
 2.738000000000000E10    3.048114012926817E-4  -7.560004178230884E-6  
 2.740000000000000E10    5.789517308585346E-4  -6.880774162709713E-5  
 2.742000000000000E10   -3.347540769027546E-5  -8.631930541014299E-5  
 2.744000000000000E10   -2.612259413581342E-4   1.931913284352049E-4  
 2.746000000000000E10    1.349401427432895E-4   4.549309232970700E-5  
 2.748000000000000E10    1.454096491215751E-4  -2.397651696810499E-4  
 2.750000000000000E10   -2.780052891466767E-4  -6.008794880472124E-4  
 2.752000000000000E10    8.903929119696841E-5  -1.854905131040141E-4  
 2.754000000000000E10    1.265004830202088E-4  -9.632008732296526E-5  
 2.756000000000000E10    8.380475628655404E-5  -6.175951566547155E-4  
