#  HZ   S   RI   R     50.00 
! Rohde & Schwarz ZVA40 4Ports - Version 3.90 - 1145.1110k42 SN: 100403
! Date: 2023-10-04 07:58:47
! Measurement: S12 
! 
 2.200000000000000E10   -5.397874629124999E-4  -1.684412745817099E-5  
 2.202000000000000E10   -2.120506105711684E-4   2.560127468314022E-4  
 2.204000000000000E10   -1.640252012293786E-4   1.493954041507095E-4  
 2.206000000000000E10   -3.437830018810928E-4  -8.753039874136448E-4  
 2.208000000000000E10   -4.533048777375370E-4   1.475685567129403E-4  
 2.210000000000000E10   -1.895010937005281E-4   5.826592314406298E-5  
 2.212000000000000E10    6.243647076189518E-4  -3.659528156276792E-4  
 2.214000000000000E10   -2.231360995210707E-4  -3.880446602124721E-4  
 2.216000000000000E10   -3.195766475982964E-4   3.849543863907456E-4  
 2.218000000000000E10    1.172814882011153E-4   4.703751183114946E-4  
 2.220000000000000E10    7.113664178177714E-4  -2.743778750300407E-4  
 2.222000000000000E10   -6.337174563668668E-4   1.409321848768741E-4  
 2.224000000000000E10   -4.082740342710167E-4   5.426745046861470E-4  
 2.226000000000000E10    4.440104530658573E-4   2.780815411824733E-4  
 2.228000000000000E10   -1.040299757733010E-4  -7.145391427911818E-4  
 2.230000000000000E10   -3.719942469615489E-4   2.186528872698546E-4  
 2.232000000000000E10    2.568683412391692E-4   3.293800691608340E-4  
 2.234000000000000E10    4.023431101813912E-4  -9.619548654882237E-5  
 2.236000000000000E10   -1.144066700362600E-4  -2.866282884497196E-4  
 2.238000000000000E10    2.999850221385714E-5   9.455118561163545E-4  
 2.240000000000000E10    4.636799567379057E-4   6.652106822002679E-5  
 2.242000000000000E10    2.697561285458505E-4  -2.189684601034969E-4  
 2.244000000000000E10   -7.066808757372201E-4   8.004997653188184E-5  
 2.246000000000000E10    3.051249659620225E-4   6.584937800653279E-4  
 2.248000000000000E10    5.281741614453495E-4  -2.877811202779412E-4  
 2.250000000000000E10    1.675816747592762E-5  -5.252669216133654E-4  
 2.252000000000000E10   -7.783246692270041E-4   4.783999465871602E-4  
 2.254000000000000E10    4.023611254524440E-4   6.710580782964826E-4  
 2.256000000000000E10    5.178954452276230E-4  -2.501560084056109E-4  
 2.258000000000000E10   -4.319915606174618E-4  -2.972450747620314E-4  
 2.260000000000000E10   -6.389259942807257E-4   2.495285007171333E-4  
 2.262000000000000E10    2.727798710111529E-4   5.480865365825594E-4  
 2.264000000000000E10   -1.270058419322595E-5  -3.868664789479226E-4  
 2.266000000000000E10   -5.334090674296022E-4   1.613296626601368E-5  
 2.268000000000000E10   -3.980387118645012E-4   1.563976693432778E-4  
 2.270000000000000E10    4.255125531926751E-4   1.645930169615895E-4  
 2.272000000000000E10   -3.285701677668840E-4  -2.717814058996737E-4  
 2.274000000000000E10   -2.389064320595935E-4   3.521102189552039E-4  
 2.276000000000000E10    4.319602739997208E-4   5.271727568469942E-4  
 2.278000000000000E10    4.456517053768039E-4  -3.163450455758721E-4  
 2.280000000000000E10   -9.346991428174079E-4  -9.601436431694310E-6  
 2.282000000000000E10   -7.106660050339997E-4   3.498466976452619E-4  
 2.284000000000000E10    4.756260314024985E-4   6.629116251133382E-5  
 2.286000000000000E10    5.080657138023526E-5  -1.184678170830011E-3  
 2.288000000000000E10   -7.029211847111583E-4  -6.623441004194319E-4  
 2.290000000000000E10    2.423970145173371E-4   2.607022470328957E-4  
 2.292000000000000E10    7.985651027411223E-4  -9.422934112990333E-7  
 2.294000000000000E10    2.815503685269505E-4  -8.263729396276176E-4  
 2.296000000000000E10   -1.716367114568129E-4   4.395550640765578E-4  
 2.298000000000000E10    3.961482143495232E-4   2.405975101282820E-4  
 2.300000000000000E10    8.041864930419251E-5  -1.911513390950859E-4  
 2.302000000000000E10   -4.158300580456853E-4  -3.116585139650852E-5  
 2.304000000000000E10   -4.866810922976583E-5   6.418481352739036E-4  
 2.306000000000000E10    2.867672010324895E-4  -2.526144962757826E-4  
 2.308000000000000E10   -4.865102528128773E-5  -2.070619957521558E-4  
 2.310000000000000E10   -7.406121585518122E-4  -4.044505112688057E-5  
 2.312000000000000E10    7.802192121744156E-4   4.156266222707927E-4  
 2.314000000000000E10    5.317736649885774E-4  -4.948682617396116E-4  
 2.316000000000000E10   -5.894726200494915E-5  -5.784861277788878E-4  
 2.318000000000000E10   -5.883392441319302E-5   4.235846863593906E-4  
 2.320000000000000E10    7.650142069905996E-4   3.232537710573524E-4  
 2.322000000000000E10    2.000641397899017E-4  -4.288309719413519E-4  
 2.324000000000000E10    7.643806020496413E-5   2.095437521347776E-4  
 2.326000000000000E10   -5.833781688124873E-5   4.306552873458713E-4  
 2.328000000000000E10    1.925568358274177E-4  -3.064498305320740E-4  
 2.330000000000000E10   -2.978649863507599E-4  -3.515480784699321E-4  
 2.332000000000000E10   -7.633262430317700E-4  -2.026218862738460E-5  
 2.334000000000000E10    3.922723699361086E-4   5.672314728144556E-5  
 2.336000000000000E10    1.361482427455485E-4  -5.240586469881237E-4  
 2.338000000000000E10   -3.760032413993031E-4  -4.159877425990999E-4  
 2.340000000000000E10    1.597942173248157E-5   2.608360373415053E-4  
 2.342000000000000E10    4.122948157601059E-4  -2.206748322350904E-4  
 2.344000000000000E10   -5.127486656419933E-4  -5.339371273294091E-4  
 2.346000000000000E10   -8.147134212777019E-4   2.678431337699294E-4  
 2.348000000000000E10    2.901201951317489E-4   5.118153057992458E-4  
 2.350000000000000E10    3.648426791187376E-4  -1.901845971588045E-4  
 2.352000000000000E10   -6.614367011934519E-4  -3.591048589441925E-4  
 2.354000000000000E10   -7.546697161160410E-4   6.460324511863291E-4  
 2.356000000000000E10    2.343741216463968E-4   5.558496923185885E-4  
 2.358000000000000E10   -4.557738066068851E-5  -7.562320097349584E-4  
 2.360000000000000E10   -5.481104599311948E-4  -4.221488779876381E-4  
 2.362000000000000E10   -4.493129672482610E-4  -6.361297437251778E-6  
 2.364000000000000E10    3.591595741454512E-4  -1.082948365365155E-4  
 2.366000000000000E10   -2.005322457989678E-4   2.307811810169369E-4  
 2.368000000000000E10   -1.102409150917083E-4   2.575164253357798E-4  
 2.370000000000000E10    6.069395458325744E-4  -2.002840774366632E-4  
 2.372000000000000E10   -2.357809134991840E-4  -6.169719854369760E-4  
 2.374000000000000E10   -1.074008992873132E-3   6.960101018194109E-5  
 2.376000000000000E10    3.684278053697199E-4   8.861991809681058E-4  
 2.378000000000000E10    9.869225323200226E-4   1.353657135041431E-4  
 2.380000000000000E10   -2.942214487120509E-4  -1.037073321640492E-3  
 2.382000000000000E10   -8.061342523433268E-4   1.026000536512584E-4  
 2.384000000000000E10    2.373268507653847E-4   1.005236990749836E-3  
 2.386000000000000E10    1.228059292770922E-3  -1.404335489496589E-4  
 2.388000000000000E10    1.887362595880404E-4  -5.575564573518932E-4  
 2.390000000000000E10   -4.607074952218682E-4  -4.805843491340056E-5  
 2.392000000000000E10    3.383734147064388E-4   3.809676563832909E-4  
 2.394000000000000E10    6.597666069865227E-4   7.517934136558324E-5  
 2.396000000000000E10    5.267209489829838E-4   1.762043830240145E-4  
 2.398000000000000E10    7.315147668123245E-4  -3.376883105374873E-4  
 2.400000000000000E10    3.177499165758491E-4  -3.801580460276455E-4  
 2.402000000000000E10   -1.251850917469710E-4   7.494702003896236E-5  
 2.404000000000000E10    7.015923620201647E-4   6.583303329534829E-4  
 2.406000000000000E10    1.042838674038649E-3  -2.979820419568569E-4  
 2.408000000000000E10    5.810743896290660E-4  -8.578271954320371E-4  
 2.410000000000000E10   -4.862998903263360E-4  -3.570051339920610E-4  
 2.412000000000000E10    1.494818279752508E-4   5.881571560166776E-4  
 2.414000000000000E10    1.167104463092983E-3   1.336870773229748E-4  
 2.416000000000000E10    7.191426702775061E-4  -9.523534681648016E-4  
 2.418000000000000E10   -3.540413454174995E-4  -5.678073503077030E-4  
 2.420000000000000E10    1.234919000125956E-5   4.201962146908045E-4  
 2.422000000000000E10    5.243723862804472E-4   2.800553338602185E-4  
 2.424000000000000E10    6.694915937259793E-4  -5.684827337972820E-4  
 2.426000000000000E10   -4.074816388310865E-5  -4.094055911991745E-4  
 2.428000000000000E10   -3.194507735315710E-4  -5.325108577380888E-5  
 2.430000000000000E10    4.165041173109785E-5   2.004371526709292E-5  
 2.432000000000000E10   -1.907557452796027E-5  -2.371539267187472E-6  
 2.434000000000000E10    3.207031404599547E-4  -1.524667914054589E-5  
 2.436000000000000E10    7.836049189791083E-5  -7.530539296567440E-4  
 2.438000000000000E10   -3.968662931583822E-4  -2.184406475862488E-4  
 2.440000000000000E10   -5.316894967108965E-4   4.506613186094910E-4  
 2.442000000000000E10    5.244388012215495E-4   4.354707780294120E-4  
 2.444000000000000E10    4.025265225209296E-4  -3.677281201817095E-4  
 2.446000000000000E10   -9.411878418177366E-4  -7.122930255718529E-4  
 2.448000000000000E10   -8.751314599066973E-4   2.101952704833821E-4  
 2.450000000000000E10   -7.412797913275426E-6   5.255736759863794E-4  
 2.452000000000000E10   -2.128426240233239E-5  -3.654624160844833E-4  
 2.454000000000000E10   -1.925252727232873E-4  -1.043772441335022E-3  
 2.456000000000000E10   -8.031744509935379E-4  -1.860339980339631E-4  
 2.458000000000000E10   -8.716686861589551E-4   1.434971054550260E-4  
 2.460000000000000E10    1.547684514662251E-4   1.000443808152340E-4  
 2.462000000000000E10    3.438287239987403E-4  -1.413819518347736E-6  
 2.464000000000000E10   -6.091257673688233E-4  -2.777327026706189E-4  
 2.466000000000000E10   -8.405744447372854E-4  -1.957533968379721E-4  
 2.468000000000000E10   -8.752563735470176E-4   5.142679437994957E-4  
 2.470000000000000E10   -1.888308615889400E-4   5.407495773397386E-4  
 2.472000000000000E10    4.578685911837965E-5  -2.406794519629329E-4  
 2.474000000000000E10   -4.934447933919728E-4  -7.874969160184264E-4  
 2.476000000000000E10   -7.634367211721838E-4  -3.038311479031108E-5  
 2.478000000000000E10   -1.349756494164467E-4   6.639065104536712E-4  
 2.480000000000000E10    3.925644850824028E-4   3.198498161509633E-4  
 2.482000000000000E10    2.067367458948866E-4  -4.133743932470679E-4  
 2.484000000000000E10   -3.535475407261401E-4  -8.469865133520216E-5  
 2.486000000000000E10   -5.920910043641925E-4   7.267895853146911E-4  
 2.488000000000000E10   -1.460892326576868E-5   4.054942692164332E-4  
 2.490000000000000E10   -5.147399497218430E-5  -4.808305311598815E-5  
 2.492000000000000E10   -4.656042438000441E-4  -2.375040348852053E-4  
 2.494000000000000E10   -7.022882928140461E-4  -3.361658673384227E-5  
 2.496000000000000E10   -1.636419619899243E-4  -1.361657486995682E-4  
 2.498000000000000E10    1.218902543769218E-4   5.822000821353868E-5  
 2.500000000000000E10    1.225545856868848E-4   2.014005003729835E-4  
 2.502000000000000E10    2.478724345564842E-4  -1.156496873591095E-4  
 2.504000000000000E10   -9.024063911056146E-5   8.938160317484289E-5  
 2.506000000000000E10   -1.798673329176381E-4   5.136772524565458E-4  
 2.508000000000000E10    1.134147605625913E-4   7.041371427476406E-4  
 2.510000000000000E10    6.016353654558770E-5   4.047026232001372E-5  
 2.512000000000000E10   -4.077766789123416E-4  -5.141271685715765E-5  
 2.514000000000000E10   -6.271977326832712E-4   2.519945555832237E-4  
 2.516000000000000E10    1.554307527840138E-4   5.798006895929575E-4  
 2.518000000000000E10    5.108052282594144E-4  -6.672177551081404E-5  
 2.520000000000000E10    2.692491398192942E-4  -4.084286047145724E-4  
 2.522000000000000E10   -1.471056602895260E-4   3.523192717693746E-4  
 2.524000000000000E10    6.304257549345493E-4   3.279534284956753E-4  
 2.526000000000000E10    5.267178057692945E-4   8.501842385157943E-4  
 2.528000000000000E10    3.539806930348277E-4   1.150373427662998E-4  
 2.530000000000000E10    2.183822070946917E-4   3.525338834151626E-4  
 2.532000000000000E10   -1.511885056970641E-4   2.157464332412928E-4  
 2.534000000000000E10    1.596318179508671E-4   1.710193464532495E-4  
 2.536000000000000E10    2.849171578418464E-4  -1.748089998727664E-4  
 2.538000000000000E10    7.998548680916429E-4  -2.837835563695990E-5  
 2.540000000000000E10   -2.788207893900108E-5  -6.701300735585392E-4  
 2.542000000000000E10    2.589041250757873E-4  -2.459665411151946E-4  
 2.544000000000000E10    4.917095648124814E-4   5.089563783258200E-4  
 2.546000000000000E10    7.398593588732183E-4  -2.265341172460467E-4  
 2.548000000000000E10    1.834016075008549E-5  -2.979619312100112E-4  
 2.550000000000000E10   -2.473234198987484E-4   1.179988321382552E-4  
 2.552000000000000E10    6.492577085737139E-5   3.446169139351696E-4  
 2.554000000000000E10    3.071737592108548E-4  -2.391333691775799E-4  
 2.556000000000000E10   -1.876311580417678E-5  -4.429688851814717E-4  
 2.558000000000000E10   -3.137475505354814E-5  -7.266143220476806E-4  
 2.560000000000000E10    3.416914260014892E-4  -1.290293439524248E-4  
 2.562000000000000E10    1.655895175645128E-4  -3.008186176884919E-4  
 2.564000000000000E10    6.865957402624190E-4  -1.908791309688240E-4  
 2.566000000000000E10    2.178765571443364E-4  -1.302165910601616E-4  
 2.568000000000000E10    1.195480363094248E-4  -4.694563103839755E-4  
 2.570000000000000E10   -2.175740664824843E-4   1.295924630539957E-5  
 2.572000000000000E10    5.139564564160537E-6   7.210188050521538E-5  
 2.574000000000000E10   -3.474207551334985E-5  -4.717099072877318E-4  
 2.576000000000000E10   -2.112859656335786E-4  -6.280104862526059E-4  
 2.578000000000000E10   -4.163470002822578E-4   2.314864250365645E-4  
 2.580000000000000E10   -1.366393844364211E-4  -2.580913132987917E-4  
 2.582000000000000E10    2.282969217048958E-4  -4.418928001541644E-4  
 2.584000000000000E10   -3.612490545492619E-4  -2.909201721195132E-4  
 2.586000000000000E10   -3.777314268518239E-4   7.465874659828842E-5  
 2.588000000000000E10   -2.369920184719376E-5   2.655901771504432E-4  
 2.590000000000000E10   -1.113462421926670E-4  -1.273258676519617E-4  
 2.592000000000000E10   -4.287844349164516E-4  -5.561165162362158E-4  
 2.594000000000000E10   -2.145749458577484E-4  -4.068038469995372E-5  
 2.596000000000000E10   -4.592141485773027E-4  -5.738758409279399E-5  
 2.598000000000000E10    5.558325210586190E-5  -7.974265026859939E-4  
 2.600000000000000E10    1.290928776143119E-4  -5.208262336964253E-6  
 2.602000000000000E10   -2.175903500756249E-4  -4.891838761977851E-4  
 2.604000000000000E10   -2.554967650212348E-4   1.466091271140613E-5  
 2.606000000000000E10   -1.332134852418676E-4   2.529821940697730E-4  
 2.608000000000000E10   -5.374524698709138E-5  -9.411081555299461E-5  
 2.610000000000000E10   -1.986472198041156E-4  -4.845760413445532E-4  
 2.612000000000000E10   -5.537963588722050E-4  -2.728257868511719E-6  
 2.614000000000000E10   -8.199935546144843E-4   2.313482946192380E-5  
 2.616000000000000E10    4.353000840637833E-4  -3.611679130699486E-4  
 2.618000000000000E10   -1.183342683361843E-4   8.316202183777932E-6  
 2.620000000000000E10   -1.645682932576165E-4  -4.933608579449356E-4  
 2.622000000000000E10    1.478695503465133E-5   3.015454858541489E-4  
 2.624000000000000E10   -1.506893750047311E-4   4.301957378629595E-4  
 2.626000000000000E10   -2.508616307750344E-4   1.244684681296349E-4  
 2.628000000000000E10   -1.937578344950452E-4   2.589426185295451E-5  
 2.630000000000000E10   -3.558520402293652E-4   6.626084214076400E-4  
 2.632000000000000E10   -4.559473891276866E-4  -9.168498218059540E-5  
 2.634000000000000E10    1.643200521357358E-4   1.986781280720606E-4  
 2.636000000000000E10   -3.509092857711949E-5   1.064701905306720E-6  
 2.638000000000000E10    2.005682035814971E-4  -2.699982433114201E-4  
 2.640000000000000E10   -1.098735738196410E-4   3.534548159223050E-4  
 2.642000000000000E10    1.368810189887881E-4   6.385477026924491E-4  
 2.644000000000000E10    6.163314683362842E-4   6.018824642524123E-4  
 2.646000000000000E10    4.294241080060601E-4   3.740408574230969E-4  
 2.648000000000000E10   -5.940882692812011E-5   2.958706754725426E-4  
 2.650000000000000E10   -5.815174972667592E-6   4.575269413180649E-4  
 2.652000000000000E10    4.147527797613293E-4   7.432554848492146E-4  
 2.654000000000000E10    4.154676862526685E-4  -1.026148947858019E-5  
 2.656000000000000E10    2.594785182736814E-4  -9.716326894704253E-5  
 2.658000000000000E10    1.951774611370638E-4   4.740490985568613E-4  
 2.660000000000000E10    7.807997753843665E-4   4.538117500487715E-4  
 2.662000000000000E10    6.798833492211998E-4  -1.929206191562116E-4  
 2.664000000000000E10    4.928819835186005E-4   7.271990034496412E-5  
 2.666000000000000E10    2.561377768870443E-4   9.435219544684514E-5  
 2.668000000000000E10    5.477567319758236E-4  -5.901922486373223E-5  
 2.670000000000000E10    2.776325563900173E-4  -9.055538976099342E-5  
 2.672000000000000E10    5.131788202561438E-4   9.306437277700752E-5  
 2.674000000000000E10    4.190334002487361E-4   2.158871793653816E-4  
 2.676000000000000E10    5.712880520150065E-4  -5.890823085792363E-4  
 2.678000000000000E10   -2.072678762488067E-4  -1.891206629807130E-4  
 2.680000000000000E10    5.628720464301296E-5   1.888619299279526E-4  
 2.682000000000000E10    4.528098215814680E-4   2.506979508325458E-4  
 2.684000000000000E10    4.361036917543970E-5  -7.422594353556633E-4  
 2.686000000000000E10   -1.845762162702158E-4  -1.200949700432830E-4  
 2.688000000000000E10   -1.069121208274737E-5   1.318660943070427E-4  
 2.690000000000000E10    2.825651026796550E-4   1.108540345740039E-5  
 2.692000000000000E10   -3.071843821089715E-4  -8.184018079191446E-4  
 2.694000000000000E10    6.881757872179151E-5  -1.955960906343535E-4  
 2.696000000000000E10   -2.981174911838025E-4   8.674849959788844E-5  
 2.698000000000000E10   -2.080429112538695E-4  -5.123144364915788E-4  
 2.700000000000000E10   -2.866412687581033E-4  -9.087724902201444E-5  
 2.702000000000000E10   -1.220451231347397E-4  -8.356634498341009E-5  
 2.704000000000000E10   -6.624910020036623E-5  -3.020035510417074E-4  
 2.706000000000000E10   -2.215528802480549E-4  -6.984649226069450E-4  
 2.708000000000000E10   -3.985002695117146E-4   1.744456239975989E-4  
 2.710000000000000E10    3.010072396136820E-4   2.181245945394039E-4  
 2.712000000000000E10    2.310812415089458E-4  -6.215504981810227E-5  
 2.714000000000000E10   -7.193837082013488E-4  -3.671793383546174E-4  
 2.716000000000000E10   -1.972584723262116E-4   4.238814581185579E-4  
 2.718000000000000E10   -4.264796007191762E-5   1.401966874254867E-4  
 2.720000000000000E10   -3.609744890127331E-4  -4.166860308032483E-4  
 2.722000000000000E10   -5.699920002371073E-4  -1.075224645319395E-4  
 2.724000000000000E10   -2.408820000709966E-4   4.585020360536873E-4  
 2.726000000000000E10    6.436148396460339E-5  -1.990850578295067E-4  
 2.728000000000000E10   -3.490873268674477E-6  -2.579742285888642E-4  
 2.730000000000000E10   -4.206627490930259E-4   2.355999313294888E-4  
 2.732000000000000E10    3.732556942850351E-4   4.220435803290457E-4  
 2.734000000000000E10    1.055844113579951E-4  -4.507318226387724E-5  
 2.736000000000000E10   -5.107796168886125E-4  -5.939586844760925E-5  
 2.738000000000000E10   -1.002583012450486E-4   5.624787881970406E-4  
 2.740000000000000E10    3.209474962204695E-4   1.071646111086011E-4  
 2.742000000000000E10   -1.508456334704533E-4  -8.266040094895288E-5  
 2.744000000000000E10   -3.632662628660910E-5   1.181976185762323E-4  
 2.746000000000000E10    3.933208936359733E-4   6.099832826294005E-4  
 2.748000000000000E10    2.129364147549495E-4  -3.214038588339463E-5  
 2.750000000000000E10    1.593080087332055E-4  -6.301329995039851E-5  
 2.752000000000000E10   -3.486790519673377E-4   7.402180344797671E-4  
 2.754000000000000E10    2.952186914626509E-4   2.779217320494354E-4  
 2.756000000000000E10    2.977252006530762E-4   1.323249125562143E-5  
