#  HZ   S   RI   R     50.00 
! Rohde & Schwarz ZVA40 4Ports - Version 3.90 - 1145.1110k42 SN: 100403
! Date: 2023-10-04 07:58:20
! Measurement: S12 
! 
 2.200000000000000E10   -5.415390478447080E-4   8.395037002628669E-5  
 2.202000000000000E10    4.191413609078154E-5   4.604891582857817E-4  
 2.204000000000000E10    4.503293894231319E-4  -5.940490518696606E-4  
 2.206000000000000E10   -4.345319757703692E-4  -6.665450055152178E-4  
 2.208000000000000E10   -4.035116580780596E-4   2.127976331394166E-4  
 2.210000000000000E10    3.566813247743994E-4   3.368985489942133E-4  
 2.212000000000000E10   -1.639766705920920E-4  -2.845950075425208E-4  
 2.214000000000000E10   -4.125918494537473E-4   5.289526598062366E-5  
 2.216000000000000E10   -8.301527705043554E-4   6.533732521347702E-4  
 2.218000000000000E10    1.910004648379982E-4   3.483534965198487E-4  
 2.220000000000000E10   -5.074951914139092E-4  -9.285967098549008E-5  
 2.222000000000000E10   -5.182060413062573E-4  -5.868067819392309E-5  
 2.224000000000000E10    2.981596917379648E-4   5.227976362220943E-4  
 2.226000000000000E10   -7.456276307493681E-6  -3.252104797866195E-4  
 2.228000000000000E10   -2.891167241614312E-4  -1.414206635672599E-4  
 2.230000000000000E10   -5.289428518153727E-4   9.676512563601136E-4  
 2.232000000000000E10    3.068556252401322E-4   3.157980972900987E-4  
 2.234000000000000E10   -2.627817157190293E-4  -1.990209239011165E-5  
 2.236000000000000E10   -9.516305290162563E-4  -3.730682656168938E-4  
 2.238000000000000E10   -4.914043238386512E-4   9.215947939082980E-4  
 2.240000000000000E10    4.102076345589012E-4  -1.179992905235849E-4  
 2.242000000000000E10    5.225015775067732E-5  -9.778677485883236E-4  
 2.244000000000000E10   -6.631463184021413E-4  -2.136361290467903E-4  
 2.246000000000000E10    5.874673370271921E-4   5.206407513469458E-4  
 2.248000000000000E10    6.957355071790516E-4  -1.840186741901562E-4  
 2.250000000000000E10    1.982178218895569E-4  -3.158790059387684E-4  
 2.252000000000000E10    1.609037572052330E-4   9.090825915336609E-4  
 2.254000000000000E10    7.634471403434873E-4  -1.450396812288091E-4  
 2.256000000000000E10   -2.431035682093352E-4  -5.494019133038819E-4  
 2.258000000000000E10   -6.975346477702260E-4   3.097727894783020E-4  
 2.260000000000000E10    4.450692795217037E-4   5.225850036367774E-4  
 2.262000000000000E10    5.642707692459226E-4  -6.173695437610149E-4  
 2.264000000000000E10    2.072163479169831E-4  -6.110891699790955E-4  
 2.266000000000000E10   -1.409802353009582E-4   4.885094240307808E-4  
 2.268000000000000E10    1.406996627338231E-3   3.230031288694590E-4  
 2.270000000000000E10    1.039345166645944E-3  -4.381790931802243E-4  
 2.272000000000000E10   -2.629657683428377E-4  -6.892831297591329E-4  
 2.274000000000000E10   -1.140803651651368E-4   7.156877545639873E-4  
 2.276000000000000E10    6.961121107451618E-4  -3.494885459076613E-5  
 2.278000000000000E10    3.590669366531074E-4  -7.901326171122491E-4  
 2.280000000000000E10   -7.650572806596756E-4  -3.394143423065543E-4  
 2.282000000000000E10    3.923550539184362E-4   2.530477358959615E-4  
 2.284000000000000E10    8.014135528355837E-4  -5.073136417195201E-4  
 2.286000000000000E10    3.048671351280063E-4  -4.943017265759409E-4  
 2.288000000000000E10    1.803013765311334E-5   2.740799973253161E-4  
 2.290000000000000E10    6.326838629320264E-4  -1.884045559563674E-5  
 2.292000000000000E10    1.036093817674555E-4  -3.288425796199590E-4  
 2.294000000000000E10   -6.085549830459058E-4  -1.365739444736391E-5  
 2.296000000000000E10    1.919012283906341E-4   4.705072497017682E-4  
 2.298000000000000E10    8.642240427434444E-4  -3.364208969287574E-4  
 2.300000000000000E10   -1.929668942466378E-4  -1.134501188062131E-3  
 2.302000000000000E10   -6.747832521796227E-4  -7.242183346534148E-5  
 2.304000000000000E10    3.707611758727580E-4   7.242177962325513E-4  
 2.306000000000000E10    7.613833877258003E-4  -5.522803403437138E-4  
 2.308000000000000E10   -4.559735534712672E-4  -6.286732968874276E-4  
 2.310000000000000E10   -8.959554252214730E-4   3.054669941775501E-4  
 2.312000000000000E10    3.911773674190044E-4   5.179420695640147E-4  
 2.314000000000000E10    2.184496224799659E-5  -2.187550271628425E-4  
 2.316000000000000E10   -8.410556474700570E-4  -1.997230137931183E-4  
 2.318000000000000E10   -4.161254910286516E-4   2.761865907814354E-4  
 2.320000000000000E10    2.940382910310291E-5   1.100816734833643E-4  
 2.322000000000000E10   -5.609728395938873E-4  -4.343895998317748E-4  
 2.324000000000000E10   -1.649399782763794E-4   5.839719669893384E-4  
 2.326000000000000E10    5.560016143135727E-4   7.995841442607343E-4  
 2.328000000000000E10    9.018316632136703E-6  -5.549131310544908E-4  
 2.330000000000000E10   -7.401050534099340E-4   1.326716592302546E-4  
 2.332000000000000E10   -1.557575596962124E-4   1.227837754413486E-3  
 2.334000000000000E10    8.282152703031898E-4   4.798375593964011E-4  
 2.336000000000000E10   -3.967318116337992E-5  -5.459205713123083E-4  
 2.338000000000000E10   -8.370107389055193E-4   3.220669750589877E-4  
 2.340000000000000E10   -1.027728358167224E-4   9.560062317177653E-4  
 2.342000000000000E10    6.287119467742741E-4  -1.779452304617735E-6  
 2.344000000000000E10    1.156687430921011E-4  -2.977918484248221E-4  
 2.346000000000000E10   -2.018038067035377E-4   1.933376333909109E-4  
 2.348000000000000E10    5.158507847227156E-4   3.154741425532848E-4  
 2.350000000000000E10    1.245198363903910E-4  -2.802443632390350E-4  
 2.352000000000000E10    1.995448546949774E-4  -9.474326361669228E-5  
 2.354000000000000E10    3.193012671545148E-4   4.351962998043746E-4  
 2.356000000000000E10    1.005152240395546E-3  -7.697186083532870E-4  
 2.358000000000000E10    2.413619076833129E-4  -4.932038718834519E-4  
 2.360000000000000E10   -3.328624588903040E-4   2.191154489992186E-4  
 2.362000000000000E10    1.143071218393743E-3   5.124511662870646E-4  
 2.364000000000000E10    6.763544515706599E-4  -6.551794940605760E-4  
 2.366000000000000E10   -5.829141591675580E-4  -6.509629311040044E-4  
 2.368000000000000E10   -3.419041167944670E-4   7.253639632835984E-4  
 2.370000000000000E10    1.017002738080919E-3   3.057064168388024E-5  
 2.372000000000000E10    2.089888876071200E-4  -6.711857276968658E-4  
 2.374000000000000E10   -7.097251364029944E-4  -6.947261863388121E-4  
 2.376000000000000E10   -2.442763070575893E-4   5.233874544501305E-4  
 2.378000000000000E10    4.139964003115892E-4   7.855138392187655E-5  
 2.380000000000000E10    9.579637116985396E-5  -2.805379917845130E-4  
 2.382000000000000E10   -4.867078969255090E-4  -2.918857207987458E-4  
 2.384000000000000E10    1.787725923350081E-4   3.697837528306991E-4  
 2.386000000000000E10   -3.901710151694715E-4   3.464942856226116E-4  
 2.388000000000000E10   -3.775403311010450E-4   1.040773495333269E-4  
 2.390000000000000E10    3.272168032708578E-5   4.984196275472641E-4  
 2.392000000000000E10    4.940523285767995E-5  -4.168590239714831E-4  
 2.394000000000000E10   -8.258011657744646E-4  -1.883259938040283E-5  
 2.396000000000000E10   -8.839601068757474E-4   6.423798040486872E-4  
 2.398000000000000E10    6.028482457622886E-4   5.168791394680738E-4  
 2.400000000000000E10    1.405320508638397E-4  -5.031735636293888E-4  
 2.402000000000000E10   -8.078353130258620E-4  -2.965638705063611E-4  
 2.404000000000000E10   -8.696291479282081E-4   1.065164105966687E-3  
 2.406000000000000E10    5.074611399322748E-4   9.739746456034482E-4  
 2.408000000000000E10    4.937038756906986E-4   2.023512352025136E-4  
 2.410000000000000E10   -5.280009936541319E-4   8.435986819677055E-5  
 2.412000000000000E10   -6.732342881150544E-4   6.216088077053428E-4  
 2.414000000000000E10   -3.968005476053804E-4   6.838637636974454E-4  
 2.416000000000000E10    2.535830572014675E-5   6.461148150265217E-4  
 2.418000000000000E10    1.480471546528861E-4  -2.707906824070960E-4  
 2.420000000000000E10    4.392953705973923E-4  -4.765805788338184E-4  
 2.422000000000000E10   -5.778754712082446E-4  -9.314325143350288E-5  
 2.424000000000000E10   -1.390660618199036E-4   3.268256259616464E-4  
 2.426000000000000E10    4.931120784021914E-4   1.017877249978483E-3  
 2.428000000000000E10    6.551413680426776E-4  -2.889133756980300E-4  
 2.430000000000000E10    1.064440075424500E-4  -4.260621208231896E-4  
 2.432000000000000E10   -9.085072088055313E-4   3.869709908030927E-4  
 2.434000000000000E10    1.314629935222911E-5   7.960268994793296E-4  
 2.436000000000000E10    7.540857768617570E-4   7.099705271684798E-6  
 2.438000000000000E10    6.473056419054046E-5  -7.518610218539834E-4  
 2.440000000000000E10   -5.777044571004808E-4  -4.086343396920711E-4  
 2.442000000000000E10    2.017245133174583E-4   1.491674629505724E-4  
 2.444000000000000E10    6.314620259217918E-4   2.688586537260562E-4  
 2.446000000000000E10    6.049162475392222E-4  -3.961782203987241E-4  
 2.448000000000000E10    4.467024409677833E-4  -4.617007507476956E-4  
 2.450000000000000E10   -1.749021030263975E-4   1.035562600009143E-4  
 2.452000000000000E10   -5.289442560751922E-5  -1.257080475625116E-5  
 2.454000000000000E10    5.337277543731034E-4   1.027123798849061E-4  
 2.456000000000000E10    2.901640837080777E-4  -3.214132448192686E-4  
 2.458000000000000E10   -2.406511630397290E-4  -9.303450351580977E-4  
 2.460000000000000E10   -2.954491646960378E-4  -4.776486312039197E-4  
 2.462000000000000E10    1.428729447070509E-4   2.953801595140249E-4  
 2.464000000000000E10    5.520021659322083E-4  -2.286727685714141E-4  
 2.466000000000000E10    6.322338012978435E-4  -6.502275355160236E-4  
 2.468000000000000E10   -8.082156273303554E-5  -4.602962872013450E-5  
 2.470000000000000E10   -2.485916193109006E-4   4.195904475636780E-4  
 2.472000000000000E10    8.462421101285145E-5   5.620329175144434E-4  
 2.474000000000000E10    3.679829242173582E-4  -3.347431629663333E-5  
 2.476000000000000E10   -1.472553994972259E-4  -1.841822522692382E-4  
 2.478000000000000E10   -8.111828938126564E-4  -7.978778739925474E-6  
 2.480000000000000E10   -8.987841283669695E-5   3.557574527803809E-4  
 2.482000000000000E10    2.401163510512561E-4   2.340396895306185E-4  
 2.484000000000000E10    3.454567049629986E-4  -3.262888931203634E-4  
 2.486000000000000E10    7.326812192332000E-5  -2.047203015536070E-4  
 2.488000000000000E10   -2.267805712108384E-6   8.338435873156413E-5  
 2.490000000000000E10    8.542818250134587E-5   8.193229441531003E-4  
 2.492000000000000E10    4.150249296799302E-4   5.408611614257097E-4  
 2.494000000000000E10    2.992265508510172E-4  -4.290826109354384E-5  
 2.496000000000000E10   -2.676714211702347E-4  -3.316721995361149E-4  
 2.498000000000000E10   -4.125773848500103E-4   5.681703332811594E-4  
 2.500000000000000E10    9.102092008106411E-5   5.047421436756849E-4  
 2.502000000000000E10    7.267436594702303E-4  -2.718375471886247E-4  
 2.504000000000000E10   -3.103377821389586E-5  -2.910379262175411E-4  
 2.506000000000000E10   -1.428300747647882E-4  -1.843231439124793E-4  
 2.508000000000000E10    2.074482617899776E-4   1.050519204000011E-4  
 2.510000000000000E10    4.636014637071639E-4   2.773186424747109E-4  
 2.512000000000000E10    4.320614243624732E-5  -1.726471818983555E-4  
 2.514000000000000E10   -2.571055665612221E-4  -3.297652583569288E-4  
 2.516000000000000E10   -2.389087749179453E-4  -1.463222142774612E-4  
 2.518000000000000E10   -3.569076943676919E-4  -1.778097794158384E-4  
 2.520000000000000E10   -4.754343081003754E-6  -1.181781190098263E-4  
 2.522000000000000E10   -7.542248931713402E-5   1.562868601467926E-5  
 2.524000000000000E10   -6.727942673023790E-5  -6.892329547554255E-4  
 2.526000000000000E10   -4.592800687532872E-4   1.113291291403584E-4  
 2.528000000000000E10   -2.714179572649300E-4   4.334313562139869E-4  
 2.530000000000000E10    1.998863590415567E-4   9.386208694195375E-5  
 2.532000000000000E10   -2.784174575936049E-4  -3.087708901148289E-4  
 2.534000000000000E10   -8.556928951293230E-4  -1.523841201560572E-4  
 2.536000000000000E10   -5.715439911000431E-4   3.100518661085516E-4  
 2.538000000000000E10   -1.346225326415151E-4  -6.337058584904298E-5  
 2.540000000000000E10   -4.632638301700354E-4  -4.489569109864533E-4  
 2.542000000000000E10   -4.580319218803197E-4  -4.197035450488329E-4  
 2.544000000000000E10   -3.452287637628615E-4   2.363375970162451E-4  
 2.546000000000000E10   -1.260586432181299E-4   1.544037804706022E-4  
 2.548000000000000E10   -1.678252920100931E-5   2.125713581335731E-5  
 2.550000000000000E10   -1.922118099173531E-4   1.061033544829115E-4  
 2.552000000000000E10   -4.978508222848177E-4   1.406764786224812E-4  
 2.554000000000000E10   -3.084944037254900E-4   3.979520406574011E-4  
 2.556000000000000E10   -3.072830440942198E-4   1.116528655984439E-4  
 2.558000000000000E10   -2.438899537082762E-5   1.542058271297719E-5  
 2.560000000000000E10   -1.484773529227823E-4  -4.535061816568486E-5  
 2.562000000000000E10   -5.938083049841225E-4  -1.281784716411494E-5  
 2.564000000000000E10   -6.364689761539921E-5   4.899133928120136E-4  
 2.566000000000000E10    1.027665202855133E-4   3.075227432418615E-4  
 2.568000000000000E10   -9.830393537413329E-5   1.209482579724863E-4  
 2.570000000000000E10   -2.245419309474528E-4   2.664445783011615E-4  
 2.572000000000000E10   -4.863718459091615E-6   5.338662886060774E-4  
 2.574000000000000E10   -1.199107136926614E-4   1.090409132302739E-4  
 2.576000000000000E10    2.016501966863871E-4   4.900437488686293E-6  
 2.578000000000000E10   -2.235641877632588E-4   3.242782549932599E-4  
 2.580000000000000E10    3.655794716905803E-5  -1.444691733922809E-4  
 2.582000000000000E10    3.812925715465099E-4   8.268727833637968E-5  
 2.584000000000000E10    1.725941547192633E-4  -7.837289012968540E-5  
 2.586000000000000E10    6.688574794679880E-4   7.542337698396295E-5  
 2.588000000000000E10    3.887263592332602E-4   1.149237650679424E-4  
 2.590000000000000E10    1.883614640973974E-5   2.046986337518320E-4  
 2.592000000000000E10    4.715128452517092E-4   3.785804437939078E-4  
 2.594000000000000E10    6.389330956153572E-4   2.511312777642161E-4  
 2.596000000000000E10   -1.650386257097125E-4   1.766141940606758E-4  
 2.598000000000000E10    3.370370541233569E-4  -6.446362385759130E-5  
 2.600000000000000E10    4.183254714007489E-5   4.680149431806058E-4  
 2.602000000000000E10    3.475120756775141E-4  -3.819743578787893E-4  
 2.604000000000000E10    7.956469198688865E-4  -6.747183215338737E-5  
 2.606000000000000E10   -1.093269384000450E-4   1.048978956532665E-4  
 2.608000000000000E10    3.206895489711314E-4   2.321261272300035E-4  
 2.610000000000000E10    8.235444547608495E-4   2.245814830530435E-4  
 2.612000000000000E10    3.939770685974509E-4  -7.042187007755274E-6  
 2.614000000000000E10   -9.828578185988590E-6   1.899387134471908E-4  
 2.616000000000000E10    4.884905065409839E-4   4.033292352687568E-4  
 2.618000000000000E10    2.152572851628065E-4   2.186555211665109E-4  
 2.620000000000000E10    3.265329287387431E-4  -6.100209429860115E-4  
 2.622000000000000E10    2.892876509577036E-4   3.600347263272852E-4  
 2.624000000000000E10    8.629001968074590E-6  -2.630880917422473E-4  
 2.626000000000000E10    6.278770160861313E-4  -2.943120489362627E-4  
 2.628000000000000E10    3.103110648225993E-4   1.172520715044811E-4  
 2.630000000000000E10    5.336643662303686E-4   1.141191605711356E-4  
 2.632000000000000E10    3.698166256072000E-5  -1.561661338200793E-4  
 2.634000000000000E10    6.533632404170930E-5   1.126668867073022E-4  
 2.636000000000000E10   -2.664829662535340E-4   5.715356091968715E-4  
 2.638000000000000E10    5.023727426305413E-4  -3.008065104950219E-4  
 2.640000000000000E10   -1.064989919541404E-4  -5.435372004285455E-4  
 2.642000000000000E10   -4.516599874477834E-4  -2.961411082651466E-4  
 2.644000000000000E10    8.139883721014485E-5   5.582509911619127E-4  
 2.646000000000000E10    4.231407947372645E-4  -8.513279317412525E-5  
 2.648000000000000E10    3.214547177776694E-5  -1.263555022887886E-4  
 2.650000000000000E10   -3.912127576768398E-4   2.325922250747681E-4  
 2.652000000000000E10    8.420884114457294E-5   4.340337472967804E-4  
 2.654000000000000E10   -1.575818751007319E-4  -5.810191942146048E-5  
 2.656000000000000E10   -4.932788433507085E-4   7.177632505772635E-5  
 2.658000000000000E10   -3.690858429763466E-4   9.375758236274123E-5  
 2.660000000000000E10    4.335525591159239E-5  -2.513293875381351E-4  
 2.662000000000000E10   -4.017199680674821E-4  -6.050004158169031E-4  
 2.664000000000000E10    9.502346802037209E-5  -1.036130488500930E-4  
 2.666000000000000E10    5.145923350937665E-4  -3.210383874829859E-5  
 2.668000000000000E10    9.501849126536399E-5  -2.658340381458402E-4  
 2.670000000000000E10   -2.666342770680785E-4   1.851244087447412E-5  
 2.672000000000000E10   -2.868168521672487E-4   6.749707390554249E-4  
 2.674000000000000E10   -1.647253375267610E-4   4.761760064866394E-4  
 2.676000000000000E10   -2.847730647772551E-4  -6.178532494232059E-4  
 2.678000000000000E10   -1.042381278239191E-3  -3.114845312666148E-4  
 2.680000000000000E10   -3.156810416840017E-4  -1.257878902833909E-4  
 2.682000000000000E10    2.857742656487972E-4  -2.233057894045487E-4  
 2.684000000000000E10    3.182251384714618E-5  -5.517365643754602E-4  
 2.686000000000000E10   -2.856721403077245E-4  -7.736144652881194E-6  
 2.688000000000000E10    7.701399226789363E-6   3.386850003153086E-4  
 2.690000000000000E10   -5.700688052456826E-5   3.874862159136683E-4  
 2.692000000000000E10   -5.364209646359086E-4   1.078700279322220E-5  
 2.694000000000000E10   -1.390249090036377E-4   3.252823371440172E-4  
 2.696000000000000E10   -4.358567239250988E-4  -7.716205800534226E-6  
 2.698000000000000E10   -2.247492520837113E-4  -3.122193156741560E-4  
 2.700000000000000E10   -3.266548446845263E-4   1.714384270599112E-4  
 2.702000000000000E10   -9.888724889606237E-6   1.914494932861999E-4  
 2.704000000000000E10    5.836003692820668E-4  -2.083602303173393E-4  
 2.706000000000000E10    1.943553652381524E-4   2.370851507293992E-5  
 2.708000000000000E10   -1.678339613135904E-4   5.650925450026989E-4  
 2.710000000000000E10    5.705073708668351E-4   6.077983998693526E-4  
 2.712000000000000E10    5.067286110715941E-5   4.972713650204241E-4  
 2.714000000000000E10   -5.933032371103764E-4  -1.419359177816659E-4  
 2.716000000000000E10    2.102174912579358E-4   2.575289399828762E-4  
 2.718000000000000E10   -8.874912600731477E-5   3.434357131482102E-5  
 2.720000000000000E10    1.924948737723753E-4  -5.531903007067740E-4  
 2.722000000000000E10    9.138276800513268E-5   1.911539438879117E-4  
 2.724000000000000E10    2.780037466436625E-4   3.629096900112927E-4  
 2.726000000000000E10    2.947934844996780E-4  -1.238395052496344E-4  
 2.728000000000000E10   -8.150646317517385E-5   4.531736194621772E-4  
 2.730000000000000E10    5.668295852956362E-5   6.295994971878827E-4  
 2.732000000000000E10    3.123985952697694E-4   7.477078906958923E-5  
 2.734000000000000E10    1.784312044037506E-4   1.158501981990412E-4  
 2.736000000000000E10   -5.996458930894733E-4  -2.620158484205604E-4  
 2.738000000000000E10    3.026859194505960E-4   2.323933440493420E-4  
 2.740000000000000E10    3.733474004548043E-4   2.940946142189205E-4  
 2.742000000000000E10    1.241553982254118E-4  -2.194231783505529E-4  
 2.744000000000000E10    3.486932255327702E-4   1.253837690455839E-4  
 2.746000000000000E10    3.632615553215146E-4   5.462421904667281E-5  
 2.748000000000000E10    1.163727210951038E-4  -1.560527562105563E-5  
 2.750000000000000E10   -8.604268259659875E-6  -1.850803673733026E-4  
 2.752000000000000E10   -4.600408283295110E-5   4.554068436846137E-4  
 2.754000000000000E10    3.531111869961023E-4  -2.805008552968502E-4  
 2.756000000000000E10    1.051535364240408E-4  -2.845787676051259E-4  
