#  HZ   S   RI   R     50.00 
! Rohde & Schwarz ZVA40 4Ports - Version 3.90 - 1145.1110k42 SN: 100403
! Date: 2023-10-04 07:57:58
! Measurement: S12 
! 
 2.200000000000000E10   -8.289895049529150E-5   6.155346054583788E-4  
 2.202000000000000E10    3.121546469628811E-4   6.460310542024672E-4  
 2.204000000000000E10    6.268196157179773E-4   1.623901625862345E-4  
 2.206000000000000E10   -3.666313423309475E-4   2.655016432981938E-4  
 2.208000000000000E10   -3.023945901077241E-4   1.168518210761249E-3  
 2.210000000000000E10    2.306362002855167E-4   5.773160955868661E-4  
 2.212000000000000E10   -4.190426625427790E-5   2.690743167477194E-5  
 2.214000000000000E10   -3.207251138519496E-4  -4.545627234620042E-5  
 2.216000000000000E10    4.339531587902457E-4   5.194375407882035E-4  
 2.218000000000000E10    1.014790497720242E-3  -1.044414821080864E-4  
 2.220000000000000E10   -1.753945834934712E-4  -7.386318175122142E-4  
 2.222000000000000E10    1.235045201610774E-4   1.017497037537396E-3  
 2.224000000000000E10    6.167628453113139E-4   1.049969228915870E-3  
 2.226000000000000E10    5.610613734461367E-4  -4.141801036894321E-4  
 2.228000000000000E10   -5.937756504863501E-4   2.632757823448628E-4  
 2.230000000000000E10   -1.214317526319064E-4   9.624562808312476E-4  
 2.232000000000000E10    7.963650277815759E-4   1.431661657989025E-4  
 2.234000000000000E10    1.630740152904764E-4  -7.510815630666912E-4  
 2.236000000000000E10   -1.050749560818076E-3   1.874583686003462E-4  
 2.238000000000000E10    1.532975875306875E-4   5.228735390119255E-4  
 2.240000000000000E10    9.320117533206940E-4  -2.105031016981229E-4  
 2.242000000000000E10   -2.526030584704131E-4  -6.069907685741782E-4  
 2.244000000000000E10   -5.812893505208194E-4   4.357202851679176E-4  
 2.246000000000000E10    7.870940607972443E-4   6.500539602711797E-4  
 2.248000000000000E10    5.801910301670432E-4  -5.141480942256749E-4  
 2.250000000000000E10   -5.823158426210284E-4  -2.716179005801678E-4  
 2.252000000000000E10   -3.023181925527751E-4   6.561465561389923E-4  
 2.254000000000000E10    7.403258932754397E-4  -1.428074483555974E-5  
 2.256000000000000E10   -2.524985757190734E-4  -7.751573575660586E-4  
 2.258000000000000E10   -3.370902559254319E-4   2.068071917165071E-4  
 2.260000000000000E10    2.250504985568114E-5   2.469689061399549E-4  
 2.262000000000000E10    5.467631272040308E-4  -5.135539104230702E-4  
 2.264000000000000E10   -2.387621352681890E-4  -1.007347833365202E-3  
 2.266000000000000E10   -6.744554848410189E-4   1.792890543583781E-5  
 2.268000000000000E10    4.604007117450237E-4  -1.782005128916353E-4  
 2.270000000000000E10    4.900947096757591E-4  -1.181409461423755E-3  
 2.272000000000000E10   -5.446368595585227E-4  -8.698935271240771E-4  
 2.274000000000000E10   -3.201678046025336E-4   1.142895489465445E-4  
 2.276000000000000E10    7.158535299822688E-4  -1.855446753324941E-4  
 2.278000000000000E10   -2.604328037705272E-4  -1.281941542401910E-3  
 2.280000000000000E10   -6.602978683076799E-4  -3.035978006664664E-4  
 2.282000000000000E10   -1.888019469333813E-4   1.191476985695772E-4  
 2.284000000000000E10    2.343945816392079E-4  -8.208092185668647E-4  
 2.286000000000000E10   -4.228602920193225E-4  -6.762653356418014E-4  
 2.288000000000000E10   -9.734947816468775E-4   8.434732444584370E-5  
 2.290000000000000E10    2.846431161742657E-4  -2.290872071171179E-4  
 2.292000000000000E10    8.006811549421400E-5  -1.068367040716112E-3  
 2.294000000000000E10   -9.507386712357402E-4  -5.376412882469595E-4  
 2.296000000000000E10   -2.090707275783643E-4   5.333425360731781E-4  
 2.298000000000000E10    8.267225348390639E-4  -3.007298619195353E-5  
 2.300000000000000E10   -4.723606252809987E-5  -7.711833459325135E-4  
 2.302000000000000E10   -1.104069175198674E-3  -1.102011228795163E-4  
 2.304000000000000E10    3.809563349932432E-4   1.017572009004653E-3  
 2.306000000000000E10    3.453603421803564E-4  -1.062943465512944E-5  
 2.308000000000000E10   -3.110881953034550E-4  -6.237089401111007E-4  
 2.310000000000000E10   -9.381482959724963E-4   5.609670188277960E-4  
 2.312000000000000E10    3.791519557125866E-4   3.497563011478633E-4  
 2.314000000000000E10   -9.881162259262055E-5  -2.319315972272307E-4  
 2.316000000000000E10   -5.598855786956847E-4  -8.545057789888233E-5  
 2.318000000000000E10    2.170487568946555E-4   6.515751592814922E-4  
 2.320000000000000E10    4.071519360877574E-4  -3.051854728255421E-4  
 2.322000000000000E10   -8.016228093765676E-5  -2.301251515746117E-4  
 2.324000000000000E10   -6.225177785381675E-4   9.567216038703919E-4  
 2.326000000000000E10    7.563270046375692E-4   1.068339915946126E-3  
 2.328000000000000E10    5.594581016339362E-4   3.073353145737201E-4  
 2.330000000000000E10   -6.899504223838449E-4  -4.571226781990845E-6  
 2.332000000000000E10   -4.937952035106719E-4   1.145283458754420E-3  
 2.334000000000000E10    4.331540258135647E-4   6.965899956412613E-4  
 2.336000000000000E10    3.998779575340450E-4  -4.665130691137165E-4  
 2.338000000000000E10   -4.943473613820970E-4  -3.741655673366040E-4  
 2.340000000000000E10   -9.234666504198685E-5   5.388000281527638E-4  
 2.342000000000000E10    4.162776167504489E-4  -1.350570673821494E-4  
 2.344000000000000E10    2.652261755429208E-4  -4.298403218854219E-4  
 2.346000000000000E10   -2.324356319149956E-4   4.690839850809425E-4  
 2.348000000000000E10    3.699542430695146E-4  -2.575793041614816E-5  
 2.350000000000000E10    2.089501067530364E-4  -2.661875914782286E-4  
 2.352000000000000E10   -6.832267390564084E-4   4.354265547590330E-5  
 2.354000000000000E10   -9.134887659456581E-5   3.773426578845829E-4  
 2.356000000000000E10    2.234643470728770E-4  -1.746555353747681E-4  
 2.358000000000000E10   -3.579942858777940E-4  -8.454235503450036E-4  
 2.360000000000000E10   -1.009392668493092E-3   2.407652937108651E-4  
 2.362000000000000E10    2.314101002411917E-4   3.931586397811770E-4  
 2.364000000000000E10    2.596332342363894E-4  -5.206880741752684E-4  
 2.366000000000000E10   -5.773004377260804E-4  -9.430939680896699E-4  
 2.368000000000000E10   -6.136457668617368E-4   4.125412961002439E-4  
 2.370000000000000E10    2.921395062003285E-4   4.477073089219630E-4  
 2.372000000000000E10    3.823727602139115E-4  -4.843987408094108E-4  
 2.374000000000000E10   -3.505726926960051E-4  -2.389826404396445E-4  
 2.376000000000000E10   -5.853593465872109E-4   2.715987211558968E-4  
 2.378000000000000E10   -1.539658260298893E-4   2.937570097856224E-4  
 2.380000000000000E10   -3.859806165564805E-4   1.848895626608282E-4  
 2.382000000000000E10   -1.555593771627173E-4  -2.463555028953124E-5  
 2.384000000000000E10   -2.245039941044524E-4  -2.490753104211763E-6  
 2.386000000000000E10   -5.689590470865369E-4  -4.436617600731552E-4  
 2.388000000000000E10   -4.108950961381197E-4   3.452500386629254E-4  
 2.390000000000000E10    4.375372664071620E-4   4.567919822875410E-4  
 2.392000000000000E10    9.074214613065124E-4  -3.452589735388756E-4  
 2.394000000000000E10   -3.731641627382487E-4  -5.281030898913741E-4  
 2.396000000000000E10   -4.403109487611800E-4   5.912019405514002E-4  
 2.398000000000000E10    4.993030452169478E-4   1.286999788135290E-3  
 2.400000000000000E10    9.735858184285462E-4   7.111653394531459E-5  
 2.402000000000000E10   -1.348079531453550E-4  -3.275604103691876E-4  
 2.404000000000000E10   -6.997590535320342E-4  -2.132486552000046E-4  
 2.406000000000000E10    3.372961073182523E-4   6.819670088589191E-4  
 2.408000000000000E10    4.362628678791225E-4  -1.459720078855753E-4  
 2.410000000000000E10    5.902289412915707E-4  -4.772989195771515E-4  
 2.412000000000000E10    1.564412377774715E-4  -3.013635869137943E-4  
 2.414000000000000E10    1.457967573514907E-5   7.679363625356928E-5  
 2.416000000000000E10    5.561111611314118E-4   5.765080568380654E-4  
 2.418000000000000E10    6.089698872528970E-4   1.296348928008229E-4  
 2.420000000000000E10    7.688273326493800E-4  -2.033480996033177E-4  
 2.422000000000000E10   -4.733730747830123E-4  -5.177698330953717E-4  
 2.424000000000000E10   -2.686478546820581E-4   2.521433052606881E-4  
 2.426000000000000E10    1.364822965115309E-4   4.579989472404122E-4  
 2.428000000000000E10    7.919115596450865E-4  -5.167164490558207E-4  
 2.430000000000000E10    2.169248473364860E-4  -7.885966333560646E-4  
 2.432000000000000E10   -6.302916444838047E-4  -5.053735803812742E-4  
 2.434000000000000E10    6.718507502228022E-4   6.376485689543188E-4  
 2.436000000000000E10    5.487156449817121E-4  -8.558500849176198E-5  
 2.438000000000000E10    4.768380895256996E-4  -7.954193279147148E-4  
 2.440000000000000E10   -2.866260474547744E-4  -1.679390989011154E-4  
 2.442000000000000E10   -2.008731389651075E-4  -2.179453731514514E-4  
 2.444000000000000E10   -1.906840043375269E-4  -1.258518459508196E-4  
 2.446000000000000E10    2.964587765745819E-4  -4.842512134928256E-4  
 2.448000000000000E10    9.709837468108162E-5  -5.888976156711578E-4  
 2.450000000000000E10   -4.912813892588019E-4  -7.762705208733678E-4  
 2.452000000000000E10   -4.301271837903187E-5   1.655335800023750E-4  
 2.454000000000000E10   -3.184114757459611E-4   1.812808040995151E-4  
 2.456000000000000E10    2.370671281823888E-4  -3.957989392802119E-4  
 2.458000000000000E10   -5.150765646249056E-4  -4.423985665198416E-4  
 2.460000000000000E10   -7.949214195832610E-4  -7.505383109673858E-5  
 2.462000000000000E10   -4.609673633240163E-4   3.346437006257474E-4  
 2.464000000000000E10    2.637328871060163E-4  -9.127683006227016E-5  
 2.466000000000000E10    1.124771006288938E-4  -2.860516251530498E-4  
 2.468000000000000E10   -3.872962261084467E-4  -4.632583004422486E-4  
 2.470000000000000E10   -2.088619221467525E-4   3.708623989950866E-4  
 2.472000000000000E10    5.526777749764733E-5   6.854827515780926E-4  
 2.474000000000000E10    8.524963050149381E-4  -5.804435204481706E-5  
 2.476000000000000E10   -3.068232035730034E-4  -1.406031515216455E-4  
 2.478000000000000E10   -4.483445954974741E-4  -2.364581450819969E-4  
 2.480000000000000E10   -1.019458286464214E-4   5.580056458711624E-4  
 2.482000000000000E10    2.059099351754412E-4   3.050632076337934E-4  
 2.484000000000000E10    4.026590031571686E-4  -2.002815745072439E-4  
 2.486000000000000E10   -1.009290863294154E-4  -2.539851702749729E-4  
 2.488000000000000E10    1.003356446744874E-4  -1.341134484391660E-4  
 2.490000000000000E10   -1.540224329801276E-4   5.792275187559426E-4  
 2.492000000000000E10    7.246817694976926E-4   6.213272718014196E-5  
 2.494000000000000E10    7.290540961548686E-4  -5.014613634557463E-5  
 2.496000000000000E10   -4.480807983782142E-4  -2.493055071681738E-4  
 2.498000000000000E10   -1.506105763837695E-4   1.926938712131232E-4  
 2.500000000000000E10    2.198766596848145E-4   3.639738133642823E-4  
 2.502000000000000E10    4.652058705687523E-4  -2.657996665220708E-4  
 2.504000000000000E10   -1.662418799242005E-4  -6.644547684118152E-4  
 2.506000000000000E10    1.244876184500754E-4  -2.744809607975185E-4  
 2.508000000000000E10   -1.866185193648562E-4   4.028839175589383E-4  
 2.510000000000000E10    2.059528342215344E-4   1.769590744515881E-4  
 2.512000000000000E10    2.559094864409417E-4  -1.549068292661104E-5  
 2.514000000000000E10   -1.736823032842949E-4  -1.402755151502788E-4  
 2.516000000000000E10   -5.883588164579123E-5  -2.310077979927883E-4  
 2.518000000000000E10   -3.385375894140452E-4   1.784366177162156E-4  
 2.520000000000000E10    2.838048931153026E-5  -4.554199040285312E-5  
 2.522000000000000E10    2.331484429305419E-4  -2.700772020034492E-4  
 2.524000000000000E10   -8.733120193937793E-5  -8.311896235682070E-4  
 2.526000000000000E10   -3.568960528355092E-4  -2.028993621934205E-4  
 2.528000000000000E10    2.599010767880827E-4   1.523205137345940E-4  
 2.530000000000000E10    5.451638135127723E-4   5.917036560276756E-6  
 2.532000000000000E10   -2.069899346679449E-4  -2.273799909744412E-4  
 2.534000000000000E10    2.515189771656878E-5   7.373124390142039E-5  
 2.536000000000000E10   -3.195959143340588E-4   6.206592661328614E-4  
 2.538000000000000E10   -1.615194487385452E-4  -3.209598071407527E-4  
 2.540000000000000E10   -3.226588887628168E-4  -5.258632882032543E-5  
 2.542000000000000E10   -4.002462083008140E-4  -1.638210233068094E-4  
 2.544000000000000E10   -3.032181411981583E-4   1.734527177177370E-4  
 2.546000000000000E10   -1.706141338218004E-4   9.321357356384397E-5  
 2.548000000000000E10    1.298372517339885E-4   3.525227657519281E-5  
 2.550000000000000E10   -5.271557602100074E-4   2.243440540041775E-4  
 2.552000000000000E10   -3.740646352525801E-4   1.275532558793202E-4  
 2.554000000000000E10   -6.638852646574378E-4   3.414382808841765E-4  
 2.556000000000000E10   -2.404845145065337E-4   2.362246450502425E-4  
 2.558000000000000E10   -1.946991978911683E-4   1.805897190934047E-4  
 2.560000000000000E10   -3.179844643454999E-4  -3.980866458732635E-4  
 2.562000000000000E10   -1.755341509124264E-5   1.233612420037389E-4  
 2.564000000000000E10   -7.446653035003692E-5   4.249681369401515E-4  
 2.566000000000000E10    4.110539739485830E-4  -5.405674455687404E-4  
 2.568000000000000E10   -1.696682447800413E-4   2.346238616155461E-4  
 2.570000000000000E10   -4.001891356892884E-4   1.902736257761717E-4  
 2.572000000000000E10    2.250158286187798E-4   3.036087146028876E-4  
 2.574000000000000E10    8.037414954742417E-5   2.505804004613310E-4  
 2.576000000000000E10    3.195491444785148E-5  -1.876137393992394E-4  
 2.578000000000000E10    1.268853666260839E-4   6.765214038750855E-6  
 2.580000000000000E10    2.742761280387640E-4   8.341165084857494E-5  
 2.582000000000000E10   -2.485936856828630E-4   2.369325811741874E-4  
 2.584000000000000E10    3.916726855095476E-4   1.000001866486855E-4  
 2.586000000000000E10    1.176140358438715E-4   5.281121702864766E-4  
 2.588000000000000E10   -3.600980271585286E-4  -1.504910032963380E-4  
 2.590000000000000E10    1.313468965236098E-4   3.646891273092479E-4  
 2.592000000000000E10   -2.780930954031646E-4   3.461134620010853E-4  
 2.594000000000000E10    3.153731522615999E-4  -3.740351530723274E-4  
 2.596000000000000E10   -8.320745109813288E-5  -4.073221061844379E-4  
 2.598000000000000E10   -2.332728763576597E-4  -1.018439143081196E-4  
 2.600000000000000E10    1.931543229147792E-4  -4.419083415996283E-5  
 2.602000000000000E10    9.678494534455240E-4  -2.578295243438333E-4  
 2.604000000000000E10   -2.351901930524036E-4  -6.435239629354328E-5  
 2.606000000000000E10   -5.071978084743023E-4  -4.608051385730505E-4  
 2.608000000000000E10    3.441268054302782E-4   6.342520937323570E-4  
 2.610000000000000E10   -2.588628740340937E-5  -1.077276756404899E-4  
 2.612000000000000E10    1.695527316769585E-4  -8.272038539871573E-4  
 2.614000000000000E10   -1.983786496566609E-4   2.743051300058141E-5  
 2.616000000000000E10    3.730566531885415E-4  -1.266471663257107E-4  
 2.618000000000000E10    6.052768439985812E-4  -2.861610555555672E-4  
 2.620000000000000E10    4.537361382972449E-4   3.035043164345552E-6  
 2.622000000000000E10    3.624923119787127E-4   2.669575042091310E-4  
 2.624000000000000E10    5.668773083016276E-4  -3.037978312931955E-4  
 2.626000000000000E10   -1.632865896681324E-4   3.298838855698705E-4  
 2.628000000000000E10   -2.020248066401109E-4   2.698995231185108E-4  
 2.630000000000000E10    7.897425093688071E-4  -3.872563320328482E-5  
 2.632000000000000E10    6.820373528171331E-5  -3.272699250373989E-4  
 2.634000000000000E10   -2.795483451336622E-4  -5.758084007538855E-4  
 2.636000000000000E10    3.484672633931041E-4   3.309073799755424E-4  
 2.638000000000000E10    8.090054616332054E-4  -2.001765533350408E-4  
 2.640000000000000E10    3.235694312024862E-4  -8.308279211632907E-4  
 2.642000000000000E10   -1.735905534587801E-4  -1.104043185478076E-4  
 2.644000000000000E10    1.583447301527485E-4   5.702067865058780E-4  
 2.646000000000000E10    4.706551262643188E-4  -1.866824459284544E-4  
 2.648000000000000E10   -1.234727915289113E-5  -2.970298519358039E-4  
 2.650000000000000E10   -2.058801037492231E-4  -2.686507650651038E-4  
 2.652000000000000E10    1.659473055042327E-4  -4.480776988202706E-5  
 2.654000000000000E10   -2.121437719324604E-4  -2.595932455733419E-4  
 2.656000000000000E10   -2.379044162807986E-4  -2.164977777283639E-4  
 2.658000000000000E10    2.155324909836054E-4   8.111322676995769E-5  
 2.660000000000000E10    7.543368155893404E-6  -3.777209203690291E-4  
 2.662000000000000E10   -4.609170428011566E-4  -4.137792857363820E-4  
 2.664000000000000E10   -2.929993497673422E-4   6.082987601985224E-5  
 2.666000000000000E10   -3.050605982934940E-6   5.560906720347703E-5  
 2.668000000000000E10    4.241452843416482E-4  -5.662018666043878E-4  
 2.670000000000000E10   -3.734478959813714E-4  -2.998664276674390E-4  
 2.672000000000000E10   -4.268352349754423E-4   1.533942559035495E-4  
 2.674000000000000E10    6.926937930984423E-5   2.983156300615519E-4  
 2.676000000000000E10    1.529189030406997E-4  -3.678019857034087E-4  
 2.678000000000000E10   -8.344060624949634E-4  -1.220254998770542E-4  
 2.680000000000000E10   -3.737894876394421E-4   2.415293565718457E-4  
 2.682000000000000E10   -3.874330650432967E-5  -2.749261147982907E-5  
 2.684000000000000E10   -3.254980838391930E-4  -4.681056307163090E-4  
 2.686000000000000E10   -3.894369583576918E-4  -6.625107198487967E-5  
 2.688000000000000E10   -1.513065071776509E-4   1.592635089764372E-4  
 2.690000000000000E10    3.711019817274064E-4  -2.900083782151341E-4  
 2.692000000000000E10   -4.329092334955931E-4  -4.199784962111153E-5  
 2.694000000000000E10    1.349984086118639E-4   8.634122787043452E-5  
 2.696000000000000E10    2.482490890542977E-5  -1.620401453692466E-4  
 2.698000000000000E10   -3.067277721129358E-4  -3.461804590187967E-4  
 2.700000000000000E10   -8.763751829974353E-4   2.664640305738431E-5  
 2.702000000000000E10    2.573971869423986E-4   1.830531255109236E-5  
 2.704000000000000E10    2.249701647087932E-4  -1.805700303521007E-4  
 2.706000000000000E10   -1.762297906680033E-4  -7.042249199002981E-4  
 2.708000000000000E10   -2.452564149280079E-5   2.551117504481226E-4  
 2.710000000000000E10    7.666602323297411E-5   4.055051249451935E-4  
 2.712000000000000E10    4.226061864756048E-4   4.665407686843537E-5  
 2.714000000000000E10   -3.491498864605092E-5   1.050785940606147E-4  
 2.716000000000000E10   -2.168331702705473E-4   4.188634047750384E-4  
 2.718000000000000E10    7.315464608836919E-5   9.065803169505671E-6  
 2.720000000000000E10    4.710313805844635E-5   2.096343814628199E-4  
 2.722000000000000E10   -2.893227501772344E-4   6.169508560560644E-5  
 2.724000000000000E10    6.565173389390111E-4   1.297610378969694E-5  
 2.726000000000000E10    3.968157107010484E-4   4.223229479975998E-4  
 2.728000000000000E10    1.717547856969759E-4   6.319646490737796E-5  
 2.730000000000000E10    2.729318512137979E-4   5.828932044096291E-4  
 2.732000000000000E10    3.728989686351270E-4   2.366243861615658E-4  
 2.734000000000000E10    1.226514268637402E-5   4.240650014253333E-5  
 2.736000000000000E10    3.738522354979068E-5   3.294284979347140E-4  
 2.738000000000000E10   -6.261240196181461E-5   6.432799855247140E-4  
 2.740000000000000E10    2.583620080258697E-4  -2.196876157540828E-4  
 2.742000000000000E10    5.977525142952800E-4   1.542745012557134E-4  
 2.744000000000000E10   -1.259900745935738E-4   4.613162891473621E-4  
 2.746000000000000E10    4.291902587283403E-4   5.675063584931195E-5  
 2.748000000000000E10    2.204242628067732E-4   6.508626393042505E-4  
 2.750000000000000E10   -8.367195550817996E-5   3.428402123972774E-4  
 2.752000000000000E10    2.025013818638399E-4   3.538473683875054E-4  
 2.754000000000000E10    1.607043668627739E-4  -4.993053880752996E-5  
 2.756000000000000E10   -2.579949214123189E-4   5.061512638349086E-5  
