#  HZ   S   RI   R     50.00 
! Rohde & Schwarz ZVA40 4Ports - Version 3.90 - 1145.1110k42 SN: 100403
! Date: 2023-10-04 07:57:09
! Measurement: S12 
! 
 2.200000000000000E10   -3.806527820415795E-4   1.814119605114684E-4  
 2.202000000000000E10   -7.069307321216911E-5   1.588614832144231E-4  
 2.204000000000000E10    1.799184683477506E-4  -1.082664748537354E-4  
 2.206000000000000E10   -9.067637729458511E-4  -3.032542881555855E-4  
 2.208000000000000E10   -1.059711867128499E-4  -1.373981212964281E-4  
 2.210000000000000E10    2.195695851696655E-4   8.920936670619994E-5  
 2.212000000000000E10   -5.477034719660878E-4  -8.866889984346926E-4  
 2.214000000000000E10   -3.643671807367355E-4   2.304838271811605E-4  
 2.216000000000000E10    4.356342251412571E-4   6.031356751918793E-4  
 2.218000000000000E10    2.050623734248802E-4  -6.541592883877456E-4  
 2.220000000000000E10   -7.933768793009222E-4  -3.323830896988511E-4  
 2.222000000000000E10   -6.890975637361407E-4   5.676706205122173E-4  
 2.224000000000000E10    3.339870600029826E-4   1.712850207695738E-4  
 2.226000000000000E10    2.366335829719901E-4  -1.066022901795805E-3  
 2.228000000000000E10   -1.022530370391905E-3  -4.096373450011015E-4  
 2.230000000000000E10   -4.224868607707322E-4   2.587797644082457E-4  
 2.232000000000000E10    6.989098619669676E-4   1.679911219980568E-4  
 2.234000000000000E10   -2.098494442179799E-4  -7.202029810287058E-4  
 2.236000000000000E10   -7.908270345069468E-4  -1.062729643308558E-4  
 2.238000000000000E10    4.304767571738921E-5   4.247363831382245E-4  
 2.240000000000000E10    8.606853225501254E-5  -5.315079470165074E-4  
 2.242000000000000E10   -9.235338075086474E-4  -3.699818043969572E-4  
 2.244000000000000E10   -5.130360950715840E-4   5.344082601368427E-4  
 2.246000000000000E10    4.534246399998665E-4  -3.231191076338291E-4  
 2.248000000000000E10   -4.599993189913221E-5  -1.340807299129665E-3  
 2.250000000000000E10   -7.199594983831048E-4  -1.356944176222896E-5  
 2.252000000000000E10    1.231540372828022E-4   9.668100392445922E-4  
 2.254000000000000E10    1.329880324192345E-3   2.612977550597861E-5  
 2.256000000000000E10   -3.511714749038220E-4  -6.091871764510870E-4  
 2.258000000000000E10   -9.658031631261110E-4   7.160907262004912E-4  
 2.260000000000000E10   -9.787374438019469E-5   1.473253360018134E-3  
 2.262000000000000E10    6.396237295120955E-4  -3.581136843422428E-5  
 2.264000000000000E10   -5.258134333416820E-4  -3.324662975501269E-4  
 2.266000000000000E10   -4.686419270001352E-4   4.668044566642493E-4  
 2.268000000000000E10    6.291702738963068E-4   4.316782287787646E-4  
 2.270000000000000E10    6.186802638694644E-4  -2.252770500490442E-4  
 2.272000000000000E10    1.659498666413128E-4   3.951742546632886E-4  
 2.274000000000000E10    5.752263823524118E-4   1.151715521700680E-3  
 2.276000000000000E10    8.197929710149765E-4   2.021781983785331E-4  
 2.278000000000000E10   -1.950283185578883E-4  -2.917319579864852E-5  
 2.280000000000000E10   -1.087998170987703E-4   7.208302267827094E-4  
 2.282000000000000E10   -2.335486060474068E-4   9.217892657034099E-4  
 2.284000000000000E10    5.620911251753569E-4  -8.259257301688194E-4  
 2.286000000000000E10   -6.363858701661229E-4  -5.230926763033494E-5  
 2.288000000000000E10   -5.685221403837204E-4   8.462449768558145E-4  
 2.290000000000000E10    1.005768310278654E-3   1.922392839333043E-4  
 2.292000000000000E10    4.929603892378509E-4  -6.064120098017156E-4  
 2.294000000000000E10   -6.890326621942222E-4  -1.585147110745311E-4  
 2.296000000000000E10   -9.790479089133441E-5   9.066701168194413E-4  
 2.298000000000000E10    4.501735093072057E-4   2.310701966052875E-4  
 2.300000000000000E10   -1.452808937756345E-4  -3.004545578733087E-4  
 2.302000000000000E10   -7.862003985792399E-4  -1.157516635430511E-5  
 2.304000000000000E10    2.631359966471791E-4   5.475234938785434E-4  
 2.306000000000000E10   -8.899162639863789E-5   1.081579248420894E-4  
 2.308000000000000E10    2.062436687992886E-4  -2.049939939752221E-4  
 2.310000000000000E10   -1.812097798392642E-5   1.588673767400906E-4  
 2.312000000000000E10    4.955017939209938E-4  -4.755768168251962E-4  
 2.314000000000000E10   -1.219595219481562E-6  -2.573493693489581E-4  
 2.316000000000000E10   -4.541193193290383E-4  -1.175268480437808E-4  
 2.318000000000000E10    3.383037983439863E-4   1.435324229532853E-4  
 2.320000000000000E10    2.953476505354047E-4  -6.498171715065837E-4  
 2.322000000000000E10   -5.806143162772059E-4  -5.779837956652045E-4  
 2.324000000000000E10   -1.077006803825498E-3   1.382301561534405E-4  
 2.326000000000000E10    6.831028149463236E-4   2.621781604830176E-4  
 2.328000000000000E10    3.253815521020442E-4  -5.910194595344365E-4  
 2.330000000000000E10   -9.678690694272518E-4  -8.320648339577019E-4  
 2.332000000000000E10   -4.377315053716302E-4   6.830312195234001E-4  
 2.334000000000000E10    4.045977839268744E-4   1.341359165962786E-4  
 2.336000000000000E10    2.443652192596346E-4  -2.785783144645393E-4  
 2.338000000000000E10   -5.768200499005616E-4  -2.401744277449325E-4  
 2.340000000000000E10    1.645269803702831E-4   2.196719724452123E-4  
 2.342000000000000E10   -8.753093425184488E-5  -3.790477785514668E-5  
 2.344000000000000E10    2.763437441899441E-5   3.929151571355760E-4  
 2.346000000000000E10    2.629685332067311E-4   3.656674525700510E-4  
 2.348000000000000E10    4.014384758193046E-4  -4.626351583283395E-4  
 2.350000000000000E10    1.742346648825333E-4  -4.356717981863767E-4  
 2.352000000000000E10   -2.058196841971949E-4   4.154037742409855E-4  
 2.354000000000000E10    7.683956646360457E-4   5.083153955638409E-4  
 2.356000000000000E10    8.725119987502694E-4  -6.128626991994679E-4  
 2.358000000000000E10    3.078599402215332E-4  -9.915442205965519E-4  
 2.360000000000000E10   -2.065200969809666E-4   4.763079050462693E-4  
 2.362000000000000E10    7.338836439885199E-4   5.430930177681148E-4  
 2.364000000000000E10    1.285915030166507E-3  -1.778775913408026E-4  
 2.366000000000000E10    3.979852190241218E-4  -4.425224324222654E-4  
 2.368000000000000E10   -6.839204434072599E-5   1.371067337458953E-4  
 2.370000000000000E10    3.321662952657789E-4   5.253092385828495E-4  
 2.372000000000000E10    5.135263199917972E-4  -1.066274562617764E-4  
 2.374000000000000E10    3.084318886976689E-4  -1.677587424637750E-4  
 2.376000000000000E10   -5.361263902159408E-5  -8.215827401727438E-4  
 2.378000000000000E10    1.545747800264508E-4  -5.492579657584429E-4  
 2.380000000000000E10   -2.703363134060055E-4  -1.870338746812195E-5  
 2.382000000000000E10    7.359693991020322E-4  -7.280823774635792E-5  
 2.384000000000000E10    7.648494793102145E-4  -1.849001564551145E-4  
 2.386000000000000E10   -3.740664687938988E-4  -6.925417692400515E-4  
 2.388000000000000E10   -1.584946294315159E-4   4.800631722901017E-4  
 2.390000000000000E10   -7.442197238560766E-5   5.916488007642329E-4  
 2.392000000000000E10    2.263954374939203E-4  -1.700835564406589E-4  
 2.394000000000000E10   -7.641930133104324E-4  -6.137189920991659E-4  
 2.396000000000000E10   -5.892660701647401E-4  -2.257470914628357E-4  
 2.398000000000000E10   -7.045508245937526E-4  -9.349450920126401E-6  
 2.400000000000000E10   -2.809873840305954E-4  -6.029130890965462E-4  
 2.402000000000000E10   -3.399217966943979E-4  -3.464667679509148E-5  
 2.404000000000000E10   -4.286349576432258E-4  -3.017068083863705E-4  
 2.406000000000000E10   -2.840797242242843E-4   2.165403711842373E-4  
 2.408000000000000E10   -3.440156579017639E-4   5.450355820357800E-4  
 2.410000000000000E10    4.056152538396418E-4   7.994625775609165E-5  
 2.412000000000000E10   -7.087676203809679E-4   5.239659367362037E-5  
 2.414000000000000E10   -7.988284924067557E-4   1.177661397377960E-4  
 2.416000000000000E10   -6.263547693379223E-4   8.447440341114998E-4  
 2.418000000000000E10   -3.327752347104251E-4   6.975960568524897E-4  
 2.420000000000000E10    9.923507604980841E-5  -1.350417587673292E-4  
 2.422000000000000E10   -8.678124868310988E-4  -2.204287302447483E-4  
 2.424000000000000E10   -4.199856775812805E-4   2.742036303970963E-4  
 2.426000000000000E10    1.716250844765455E-4   9.000287973321974E-4  
 2.428000000000000E10    2.847864816430956E-4   1.092890743166208E-4  
 2.430000000000000E10   -1.134837075369433E-4   2.166659760405310E-5  
 2.432000000000000E10   -3.393714141566306E-4   8.590579818701372E-5  
 2.434000000000000E10   -1.587589067639783E-4   6.000928115099669E-4  
 2.436000000000000E10   -1.339554146397859E-4   3.848391352221370E-4  
 2.438000000000000E10    5.140909925103188E-4  -3.806822496699169E-5  
 2.440000000000000E10    1.948239514604211E-4   1.832851376093458E-5  
 2.442000000000000E10   -3.945401695091277E-4  -3.976584412157536E-4  
 2.444000000000000E10   -2.349047572351992E-4   6.381574203260243E-4  
 2.446000000000000E10    3.881301090586931E-4   4.603752749972045E-4  
 2.448000000000000E10    7.871199632063508E-4   9.668031998444349E-5  
 2.450000000000000E10   -1.728478309814818E-5  -4.870054544880986E-4  
 2.452000000000000E10   -3.495820565149188E-4   1.357569854008034E-4  
 2.454000000000000E10   -2.147510822396725E-4   4.903898225165904E-4  
 2.456000000000000E10    8.670378592796624E-4   1.270877546630800E-4  
 2.458000000000000E10    6.382585706887767E-5  -3.269800508860499E-4  
 2.460000000000000E10   -3.713178157340735E-4  -6.457256386056542E-4  
 2.462000000000000E10   -1.077686320059001E-4   4.026009701192379E-4  
 2.464000000000000E10    2.760004426818341E-4   3.033492830581963E-4  
 2.466000000000000E10    5.298851756379008E-4  -2.200431772507727E-4  
 2.468000000000000E10    6.487911014119163E-5  -6.344106514006853E-4  
 2.470000000000000E10   -3.248767170589417E-4   1.441728090867400E-5  
 2.472000000000000E10   -4.275167011655867E-4   3.032754466403276E-4  
 2.474000000000000E10    4.489661077968776E-4   2.085416053887457E-5  
 2.476000000000000E10    2.837860956788063E-4   2.096623211400583E-4  
 2.478000000000000E10   -2.678713644854724E-4  -5.393500905483961E-4  
 2.480000000000000E10   -4.116470809094608E-4   5.348043487174437E-5  
 2.482000000000000E10   -4.445191589184105E-4   5.663105403073132E-4  
 2.484000000000000E10    2.371652517467737E-4  -3.644618482212536E-5  
 2.486000000000000E10   -1.148512455984019E-5  -3.355943190399557E-4  
 2.488000000000000E10   -4.637463425751776E-4  -2.904723223764449E-4  
 2.490000000000000E10   -4.186680598650128E-4   5.116027314215899E-4  
 2.492000000000000E10    5.406166310422123E-4   2.644146443344653E-4  
 2.494000000000000E10    7.283947779797018E-4   2.643721236381680E-4  
 2.496000000000000E10   -3.395897510927171E-4  -2.963852602988482E-4  
 2.498000000000000E10   -3.593387373257428E-4   1.695560495136306E-4  
 2.500000000000000E10    2.478430542396382E-5   9.225371759384871E-4  
 2.502000000000000E10    4.180626419838518E-4   3.733722769538872E-5  
 2.504000000000000E10    1.562408870086074E-4  -3.113663115072995E-4  
 2.506000000000000E10   -1.955732150236145E-4  -4.483900847844780E-4  
 2.508000000000000E10   -3.047235950361937E-4   1.485718239564449E-4  
 2.510000000000000E10    6.200132775120437E-4  -9.278805373469368E-5  
 2.512000000000000E10    4.810025275219232E-4  -1.133647892856970E-4  
 2.514000000000000E10    2.797734341584146E-4  -4.630400508176535E-4  
 2.516000000000000E10   -1.857669994933531E-4  -7.495600584661588E-5  
 2.518000000000000E10   -2.862475521396846E-4   3.929774102289230E-4  
 2.520000000000000E10    2.573687233962119E-4   2.910858602263033E-4  
 2.522000000000000E10    6.068286602385342E-4  -5.669857273460366E-5  
 2.524000000000000E10   -6.699744844809175E-4  -6.083612097427249E-4  
 2.526000000000000E10   -4.222322022542357E-4  -1.760400919010863E-4  
 2.528000000000000E10   -2.219412453996483E-5   5.525324377231300E-4  
 2.530000000000000E10    5.945102893747389E-4  -3.145305527141318E-5  
 2.532000000000000E10    1.040465140249580E-4  -6.320271058939397E-4  
 2.534000000000000E10   -3.947254444938153E-4   1.871345448307693E-4  
 2.536000000000000E10   -2.144917525583878E-4   5.832565366290510E-4  
 2.538000000000000E10    1.800317404558882E-4   3.522899351082742E-4  
 2.540000000000000E10   -1.451946591259912E-4   9.296225471189246E-6  
 2.542000000000000E10   -2.677305310498923E-4  -1.215594675159082E-4  
 2.544000000000000E10   -4.629680552170612E-5  -3.402455695322715E-5  
 2.546000000000000E10   -3.263773978687823E-4  -1.015897578326985E-4  
 2.548000000000000E10    2.783670497592539E-4   2.272789424750954E-4  
 2.550000000000000E10    3.566531522665173E-4   2.416818824713118E-5  
 2.552000000000000E10    4.437422612681985E-4  -5.771533469669521E-4  
 2.554000000000000E10   -1.201664490508847E-4   3.994884900748730E-4  
 2.556000000000000E10    3.196780744474381E-4   4.478716291487217E-4  
 2.558000000000000E10    5.885149003006518E-4  -3.777551319217309E-5  
 2.560000000000000E10   -1.787800429156050E-4  -6.601727800443769E-4  
 2.562000000000000E10   -4.839956527575851E-4   2.143138553947210E-4  
 2.564000000000000E10   -2.391413872828707E-4   1.655801606830210E-4  
 2.566000000000000E10    6.474861293099821E-4  -3.914911067113280E-4  
 2.568000000000000E10    7.592667680000886E-5  -2.614655822981149E-4  
 2.570000000000000E10   -2.292120479978621E-4  -9.617692558094859E-5  
 2.572000000000000E10    4.247895267326385E-4   3.122916386928409E-4  
 2.574000000000000E10    6.175094313221052E-5   1.468905829824507E-4  
 2.576000000000000E10    5.363356103771366E-5  -3.665915282908827E-4  
 2.578000000000000E10   -1.958374195965007E-4   4.195767105557025E-4  
 2.580000000000000E10   -6.427203334169462E-5  -1.397139712935314E-4  
 2.582000000000000E10    5.609714935417287E-5  -4.194536595605314E-4  
 2.584000000000000E10   -1.249979104613885E-4  -7.731377991149202E-5  
 2.586000000000000E10    1.769536465872079E-4  -1.519782381365076E-4  
 2.588000000000000E10    1.258597476407886E-4  -7.241640123538673E-4  
 2.590000000000000E10   -4.735036054626107E-5   9.233471791958436E-5  
 2.592000000000000E10   -4.050452116644010E-5   2.756192698143423E-4  
 2.594000000000000E10    7.351202657446265E-4  -1.203625943162479E-4  
 2.596000000000000E10   -4.314803518354893E-4   5.342132135410793E-5  
 2.598000000000000E10   -5.118758417665958E-4  -3.554964496288449E-4  
 2.600000000000000E10    1.529068249510601E-4   5.245191277936101E-4  
 2.602000000000000E10    1.719150750432164E-4  -5.440467502921820E-4  
 2.604000000000000E10   -3.823960432782769E-4  -9.688609279692173E-4  
 2.606000000000000E10   -4.379649762995541E-4  -1.817225711420178E-4  
 2.608000000000000E10    4.460741765797138E-4   5.558929406106472E-4  
 2.610000000000000E10   -4.367987276054919E-5  -6.351563497446477E-4  
 2.612000000000000E10    9.424432937521488E-5  -1.769129739841446E-4  
 2.614000000000000E10   -6.183110526762903E-4   5.143205053173006E-4  
 2.616000000000000E10    1.862973876995966E-4  -2.258590102428570E-4  
 2.618000000000000E10   -4.256405227351934E-4   1.109555232687853E-4  
 2.620000000000000E10   -7.774392142891884E-4  -1.321677118539810E-4  
 2.622000000000000E10    3.164330792060355E-6   1.274537935387343E-4  
 2.624000000000000E10   -9.016427065944299E-5  -3.291742759756744E-4  
 2.626000000000000E10   -5.717283347621560E-4  -3.531556285452098E-5  
 2.628000000000000E10   -2.437724906485528E-4   3.285041893832386E-4  
 2.630000000000000E10    5.079016555100679E-4   7.211036863736808E-4  
 2.632000000000000E10   -4.778702859766781E-4  -1.180690742330626E-4  
 2.634000000000000E10   -3.369568730704486E-4  -1.590142710483633E-5  
 2.636000000000000E10   -3.870113578159362E-4   7.084822864271700E-4  
 2.638000000000000E10    1.750245137372986E-4  -1.999353553401306E-4  
 2.640000000000000E10   -1.696488907327876E-4  -4.494194872677326E-4  
 2.642000000000000E10   -3.026147314812988E-4  -1.115066479542293E-4  
 2.644000000000000E10    3.446727059781551E-4   5.431924364529550E-4  
 2.646000000000000E10    2.822290407493711E-4   2.104337181663141E-4  
 2.648000000000000E10   -5.484341818373650E-5  -1.174317003460601E-4  
 2.650000000000000E10   -4.194051434751600E-4   3.624654200393707E-4  
 2.652000000000000E10    1.852245914051309E-4   4.453216388355941E-4  
 2.654000000000000E10   -2.382155653322116E-4  -2.801392984110862E-4  
 2.656000000000000E10   -1.453881559427828E-4  -1.610474282642826E-4  
 2.658000000000000E10    3.951985490857624E-5   3.093625127803534E-4  
 2.660000000000000E10    5.113718798384070E-4  -1.652815990382806E-4  
 2.662000000000000E10   -1.177471713162959E-4  -4.048351256642491E-4  
 2.664000000000000E10   -1.569964224472642E-4   8.428857108810917E-5  
 2.666000000000000E10    3.344980650581420E-4   5.852925241924822E-4  
 2.668000000000000E10    3.525170614011586E-4  -9.711335587780923E-5  
 2.670000000000000E10   -1.363923947792500E-4  -5.214500924921595E-5  
 2.672000000000000E10   -4.342485044617206E-4   3.039226285181940E-4  
 2.674000000000000E10    3.387098258826882E-4   1.771943207131699E-4  
 2.676000000000000E10    6.586335803149268E-5  -4.565928538795561E-4  
 2.678000000000000E10   -9.057033457793295E-5  -8.677288133185357E-5  
 2.680000000000000E10    2.933272917289287E-4   2.889833413064480E-4  
 2.682000000000000E10    5.667992518283427E-4  -9.939494339050725E-5  
 2.684000000000000E10    1.550691958982498E-4   8.131759386742488E-5  
 2.686000000000000E10   -2.782801748253405E-4   6.400414276868105E-4  
 2.688000000000000E10    2.460553077980876E-4   4.665688902605325E-4  
 2.690000000000000E10    1.888369297375903E-4   1.932924351422116E-4  
 2.692000000000000E10   -6.371799972839654E-4  -1.147561706602573E-4  
 2.694000000000000E10   -3.624034288804978E-4   8.493225323036313E-5  
 2.696000000000000E10    1.270469510927796E-4   4.249973862897605E-4  
 2.698000000000000E10    2.329604030819610E-4  -2.928437606897205E-4  
 2.700000000000000E10   -2.220015885541216E-4  -4.702667501987889E-5  
 2.702000000000000E10   -1.931254882947542E-5   4.591168253682554E-4  
 2.704000000000000E10    2.015928330365568E-4   4.090155416633934E-4  
 2.706000000000000E10    9.434584353584796E-5  -8.559956768294796E-5  
 2.708000000000000E10   -3.695778432302177E-4   3.020901640411466E-4  
 2.710000000000000E10   -1.332562096649781E-4  -2.220777059847023E-5  
 2.712000000000000E10    1.193579446407966E-4   1.663966395426542E-4  
 2.714000000000000E10   -3.959061868954450E-4  -1.986112465601764E-7  
 2.716000000000000E10    1.345725904684514E-4  -5.954809967079200E-5  
 2.718000000000000E10    1.051757062668912E-4   2.048010064754635E-4  
 2.720000000000000E10   -1.345344644505531E-4  -1.285416219616309E-4  
 2.722000000000000E10   -1.877942559076473E-4   5.175646583666094E-5  
 2.724000000000000E10    2.213435363955796E-4   3.367129247635603E-4  
 2.726000000000000E10   -2.521031419746578E-4  -1.572318069520406E-5  
 2.728000000000000E10    1.331453404418426E-5  -4.736651317216456E-4  
 2.730000000000000E10   -2.052309864666313E-4   1.447783870389685E-4  
 2.732000000000000E10   -5.578513446380384E-5  -1.474294112995267E-4  
 2.734000000000000E10    5.570603534579277E-4  -5.167455528862774E-4  
 2.736000000000000E10   -2.287003881065175E-4  -1.623252610443160E-4  
 2.738000000000000E10   -1.524244580650702E-4  -2.450908650644124E-4  
 2.740000000000000E10    3.268437867518514E-4  -1.046581528498791E-4  
 2.742000000000000E10    4.983977851225063E-5  -1.510249967395794E-5  
 2.744000000000000E10   -1.872254651971161E-4  -2.060053375316784E-4  
 2.746000000000000E10    2.042927517322823E-4  -4.477440379559994E-4  
 2.748000000000000E10   -1.666910975473002E-4  -5.731033888878301E-5  
 2.750000000000000E10    2.145099424524233E-4  -4.490695428103209E-4  
 2.752000000000000E10    1.067913253791630E-4  -2.904955763369799E-4  
 2.754000000000000E10   -2.587205381132662E-4  -4.473770677577704E-4  
 2.756000000000000E10    6.283829861786217E-5  -9.107925143325701E-5  
