#  HZ   S   RI   R     50.00 
! Rohde & Schwarz ZVA40 4Ports - Version 3.90 - 1145.1110k42 SN: 100403
! Date: 2023-10-04 07:56:53
! Measurement: S12 
! 
 2.200000000000000E10   -6.279422086663544E-4   6.254389300011098E-4  
 2.202000000000000E10    3.585968224797398E-4   3.050245286431164E-4  
 2.204000000000000E10    1.396834122715518E-4  -8.609597571194172E-4  
 2.206000000000000E10   -9.839459089562297E-4  -4.581022076308727E-4  
 2.208000000000000E10   -1.273929665330797E-4   8.933049975894392E-4  
 2.210000000000000E10    9.198475745506585E-4   5.068640457466245E-4  
 2.212000000000000E10    3.606085083447397E-4  -7.000508485361934E-4  
 2.214000000000000E10   -5.353913293220103E-4   2.230915706604719E-4  
 2.216000000000000E10   -3.808839828707278E-4   9.977720910683274E-4  
 2.218000000000000E10    4.987608408555389E-4  -3.128245589323342E-5  
 2.220000000000000E10   -1.752352691255510E-4  -5.862104007974267E-4  
 2.222000000000000E10   -2.449915045872331E-4   2.813420724123716E-4  
 2.224000000000000E10    2.118083502864465E-4   2.662652113940567E-4  
 2.226000000000000E10    5.111792124807835E-4  -1.985094277188182E-4  
 2.228000000000000E10   -4.092689487151802E-4   4.433875146787614E-4  
 2.230000000000000E10    5.192621611058712E-4   4.688215558417141E-4  
 2.232000000000000E10    7.981253438629210E-4   2.631185343489051E-4  
 2.234000000000000E10   -1.856420567492023E-4  -2.518715336918831E-4  
 2.236000000000000E10   -2.628595393616706E-4   1.008440740406513E-3  
 2.238000000000000E10    9.430521167814732E-4   9.651933796703816E-4  
 2.240000000000000E10    1.099244458600879E-3  -3.170492127537727E-4  
 2.242000000000000E10   -3.254142065998167E-4  -3.600778873078525E-4  
 2.244000000000000E10   -6.134607974672690E-5   3.599545161705464E-4  
 2.246000000000000E10    1.198691665194929E-3   5.484824650920928E-4  
 2.248000000000000E10    9.033820242621005E-4  -8.655773126520217E-4  
 2.250000000000000E10   -2.734634617809206E-4  -3.017887647729367E-4  
 2.252000000000000E10   -7.869761248002760E-6   4.456181486602873E-4  
 2.254000000000000E10    9.531290270388126E-4   3.969298632000573E-5  
 2.256000000000000E10    9.530424722470343E-5  -6.329066818580031E-4  
 2.258000000000000E10   -3.123665519524366E-4   1.493943636887707E-5  
 2.260000000000000E10    1.962090027518570E-4  -2.525339368730784E-5  
 2.262000000000000E10    5.863444530405104E-4  -5.268783424980938E-4  
 2.264000000000000E10   -5.656296852976084E-4  -3.455694240983576E-4  
 2.266000000000000E10   -2.800202637445182E-4   4.200625407975167E-4  
 2.268000000000000E10    7.778217550367117E-4   1.669187768129632E-4  
 2.270000000000000E10   -8.163430175045505E-5  -1.071446924470365E-3  
 2.272000000000000E10   -8.796823094598949E-4  -1.597858645254746E-4  
 2.274000000000000E10   -4.473390581551939E-4   2.913442440330982E-4  
 2.276000000000000E10    1.004681107588112E-3  -4.472088767215610E-4  
 2.278000000000000E10    9.007764310808852E-5  -1.283450401388109E-3  
 2.280000000000000E10   -6.193271838128567E-4  -1.748472423059866E-4  
 2.282000000000000E10   -2.543806913308799E-4   6.569467368535698E-4  
 2.284000000000000E10    9.842513827607036E-4  -4.134260234422982E-4  
 2.286000000000000E10   -2.458423259668052E-4  -5.940322880633175E-4  
 2.288000000000000E10   -5.621316377073526E-4  -1.757226418703795E-4  
 2.290000000000000E10    2.079037949442864E-4   2.403581893304363E-4  
 2.292000000000000E10   -2.875181089621037E-4  -3.803650906775147E-4  
 2.294000000000000E10   -3.646062396001071E-4  -5.277714808471501E-4  
 2.296000000000000E10   -7.363098848145455E-5  -1.517864875495434E-4  
 2.298000000000000E10    1.828510721679777E-4  -7.637690287083387E-4  
 2.300000000000000E10   -1.767359790392220E-4  -6.437376141548157E-4  
 2.302000000000000E10   -4.592435434460640E-4   3.527914523147047E-4  
 2.304000000000000E10    6.464484613388777E-4   5.764772649854422E-4  
 2.306000000000000E10    5.605192855000496E-4  -5.663676420226693E-4  
 2.308000000000000E10   -5.735298618674278E-4  -2.142140729120001E-4  
 2.310000000000000E10   -4.982880200259388E-4   1.035695779137313E-3  
 2.312000000000000E10    9.326323051936925E-4   9.004999301396310E-4  
 2.314000000000000E10    2.704212092794478E-4  -3.436991537455469E-4  
 2.316000000000000E10   -9.625675156712532E-4  -2.666666405275464E-4  
 2.318000000000000E10   -1.773190742824227E-4   7.373166154138744E-4  
 2.320000000000000E10    2.043146087089554E-4  -2.339789498364553E-4  
 2.322000000000000E10    1.239802659256384E-4  -1.880157651612535E-4  
 2.324000000000000E10    2.264217910123989E-4  -3.436458064243197E-5  
 2.326000000000000E10    2.894399804063141E-4   3.168682160321623E-4  
 2.328000000000000E10    1.220116464537568E-4   2.049118920695037E-4  
 2.330000000000000E10    3.460764128249139E-4   3.463232424110174E-4  
 2.332000000000000E10    4.528108402155340E-4   3.097127773799002E-4  
 2.334000000000000E10    1.205742883030325E-4  -4.885620437562466E-4  
 2.336000000000000E10   -4.302774614188820E-4   5.614980182144791E-5  
 2.338000000000000E10   -4.107535060029477E-4   4.056551842950285E-4  
 2.340000000000000E10    5.392357124947012E-4   3.163772344123572E-4  
 2.342000000000000E10   -1.085578551283106E-4  -7.136743515729904E-4  
 2.344000000000000E10   -1.097601605579257E-3  -6.627133116126061E-4  
 2.346000000000000E10   -4.526058910414577E-4   3.656386688817293E-4  
 2.348000000000000E10    5.295593291521072E-4   2.028155140578747E-4  
 2.350000000000000E10    2.358572528464720E-4  -5.434719496406615E-4  
 2.352000000000000E10   -4.992400645278394E-4  -2.310113777639344E-4  
 2.354000000000000E10   -3.881157026626170E-4   5.795721663162112E-4  
 2.356000000000000E10   -6.923647015355527E-5   5.466840812005103E-4  
 2.358000000000000E10   -9.003869490697980E-5   1.772070027072914E-5  
 2.360000000000000E10   -4.943097010254860E-4   1.750900410115719E-4  
 2.362000000000000E10   -8.484913851134479E-4  -3.777039237320423E-4  
 2.364000000000000E10   -6.435177638195455E-4   2.408326254226267E-4  
 2.366000000000000E10   -7.208643364720047E-4   3.500059247016907E-4  
 2.368000000000000E10    1.447486138204113E-4  -1.377926091663539E-4  
 2.370000000000000E10   -9.921731543727219E-5  -6.170997512526810E-4  
 2.372000000000000E10   -6.837125984020531E-4  -1.762449683155865E-4  
 2.374000000000000E10   -4.149886372033507E-4   6.357649690471590E-4  
 2.376000000000000E10    6.903281901031733E-4   3.990249242633581E-4  
 2.378000000000000E10    4.555757332127541E-4  -1.970435405382887E-4  
 2.380000000000000E10   -1.016820897348225E-3  -2.367127162870020E-4  
 2.382000000000000E10   -8.090616320259869E-4   6.169306579977274E-4  
 2.384000000000000E10   -6.260729423956946E-5   7.615981739945710E-4  
 2.386000000000000E10   -5.662574767484330E-5  -3.099179593846202E-4  
 2.388000000000000E10   -3.296216891612858E-4  -2.202048635808751E-4  
 2.390000000000000E10   -5.555675597861409E-4  -1.406204246450216E-4  
 2.392000000000000E10   -5.989545752527192E-5   5.520506529137492E-4  
 2.394000000000000E10    3.863630699925125E-4   5.450465250760317E-4  
 2.396000000000000E10    9.954870911315084E-4   1.997372455662116E-4  
 2.398000000000000E10    2.576480910647661E-4  -1.352871768176556E-4  
 2.400000000000000E10   -3.119715838693082E-4  -8.587366028223187E-5  
 2.402000000000000E10   -4.629453542293049E-5   1.073870109394193E-3  
 2.404000000000000E10    4.106733540538698E-4   4.168629820924252E-4  
 2.406000000000000E10    7.885713712312281E-4  -6.168618565425277E-4  
 2.408000000000000E10   -5.023676203563809E-4  -2.751973224803805E-4  
 2.410000000000000E10    7.188333256635815E-5   4.131671739742160E-4  
 2.412000000000000E10    9.475803235545754E-4   4.647411988116801E-4  
 2.414000000000000E10    1.164644840173423E-3  -5.989530473016202E-4  
 2.416000000000000E10    4.142443067394197E-4  -8.029888704186305E-5  
 2.418000000000000E10    4.745001933770254E-5  -1.236701064044610E-4  
 2.420000000000000E10    5.331150023266673E-4   4.226159362588078E-4  
 2.422000000000000E10    2.595039550215006E-4   2.845669805537909E-4  
 2.424000000000000E10    5.814364412799478E-4  -2.408718864899129E-4  
 2.426000000000000E10    1.913555024657399E-4  -1.457301405025646E-4  
 2.428000000000000E10   -1.791001996025443E-4  -5.964032607153058E-4  
 2.430000000000000E10    3.288851876277477E-4   5.708913522539660E-5  
 2.432000000000000E10    7.553450413979590E-4  -2.016710495809093E-4  
 2.434000000000000E10    7.584398845210671E-4  -5.593142705038190E-4  
 2.436000000000000E10   -1.015665766317397E-4  -7.717740954831243E-4  
 2.438000000000000E10   -2.087002940243110E-5   8.315309241879731E-5  
 2.440000000000000E10    3.131694975309074E-4   3.085003409069032E-4  
 2.442000000000000E10    6.746493163518608E-4  -6.217524642124772E-4  
 2.444000000000000E10   -1.270098582608625E-4  -6.406660540960729E-4  
 2.446000000000000E10   -5.833233008161187E-4  -4.167834413237870E-4  
 2.448000000000000E10    1.063456802512519E-4   1.626958255656064E-4  
 2.450000000000000E10    1.564404519740492E-4  -5.313791916705668E-4  
 2.452000000000000E10    1.778797595761716E-4  -7.374618435278535E-4  
 2.454000000000000E10   -3.380323178134859E-4  -7.237553363665938E-4  
 2.456000000000000E10   -7.418447694362840E-6   6.570706318598241E-5  
 2.458000000000000E10   -2.149826614186168E-4   1.517468190286309E-4  
 2.460000000000000E10    3.033053362742066E-4  -2.960220735985786E-4  
 2.462000000000000E10   -8.742733189137653E-5   9.252098243450746E-5  
 2.464000000000000E10   -6.171673885546625E-4  -2.912812342401594E-4  
 2.466000000000000E10   -4.244604788254947E-4   1.786117209121585E-4  
 2.468000000000000E10   -3.314286004751921E-4   4.041787178721279E-4  
 2.470000000000000E10    1.112831305363216E-4  -6.025030961609446E-5  
 2.472000000000000E10   -4.388470842968673E-4  -5.439806845970452E-4  
 2.474000000000000E10   -6.539515452459455E-4   8.767676627030596E-5  
 2.476000000000000E10   -6.401997525244951E-4   8.950495393946767E-4  
 2.478000000000000E10    3.657892229966819E-4   2.756648755166680E-4  
 2.480000000000000E10    2.570631331764162E-4  -3.062054165638983E-4  
 2.482000000000000E10   -1.040235860273242E-3  -2.327479160157964E-4  
 2.484000000000000E10   -6.440029828809202E-4   3.641043149400502E-4  
 2.486000000000000E10    1.317787537118420E-4   5.787114496342838E-4  
 2.488000000000000E10    4.063171218149364E-4  -5.128294578753412E-4  
 2.490000000000000E10   -5.481398329720832E-5  -3.723233239725232E-4  
 2.492000000000000E10   -4.616187361534685E-4  -9.386707097291946E-5  
 2.494000000000000E10    2.137299889000133E-4   3.941603063140065E-4  
 2.496000000000000E10    3.685944539029151E-4   5.137537755217636E-6  
 2.498000000000000E10    5.466954316943884E-4   2.469090395607054E-5  
 2.500000000000000E10   -2.720397897064686E-4  -2.503010618966073E-4  
 2.502000000000000E10    3.397385444259271E-5  -8.703404455445707E-5  
 2.504000000000000E10   -2.202523755840957E-4   7.227787282317877E-4  
 2.506000000000000E10    2.612133685033768E-4   2.644903725013137E-5  
 2.508000000000000E10    7.184878340922296E-4  -3.973019775003195E-4  
 2.510000000000000E10   -3.831742797046900E-4  -6.453547393903136E-4  
 2.512000000000000E10   -5.776474718004465E-4   2.334054079256021E-5  
 2.514000000000000E10    4.643611900974065E-4   1.062582887243480E-4  
 2.516000000000000E10    6.176213501021266E-4  -3.074341511819512E-4  
 2.518000000000000E10   -4.245103627908975E-4  -8.163994643837214E-4  
 2.520000000000000E10   -1.617030793568119E-4  -2.014211058849469E-4  
 2.522000000000000E10   -2.581917506176978E-4   4.145735292695463E-4  
 2.524000000000000E10    6.244052201509476E-5  -4.168154846411198E-4  
 2.526000000000000E10   -1.111513120122254E-4  -2.286077360622585E-4  
 2.528000000000000E10   -5.369512364268303E-4  -4.348093934822828E-4  
 2.530000000000000E10   -8.939686085795984E-5  -2.776775800157338E-4  
 2.532000000000000E10   -2.092501381412149E-4  -1.346154749626294E-4  
 2.534000000000000E10    7.388934318441898E-5  -4.886733950115740E-4  
 2.536000000000000E10    1.316608395427465E-4  -3.809384070336819E-4  
 2.538000000000000E10   -3.714388876687735E-4  -3.427262709010392E-4  
 2.540000000000000E10   -6.304286653175950E-4   1.329075894318521E-4  
 2.542000000000000E10    1.466661342419684E-4   4.794168926309794E-4  
 2.544000000000000E10    3.066729987040162E-4  -5.812441941088764E-6  
 2.546000000000000E10   -6.342038395814598E-4  -4.756061825901270E-4  
 2.548000000000000E10   -6.588188698515296E-4   5.543170846067369E-4  
 2.550000000000000E10   -2.013727498706430E-4   6.734652561135590E-4  
 2.552000000000000E10    4.388462693896145E-4  -2.552034857217223E-4  
 2.554000000000000E10   -2.316755417268723E-4  -1.794080308172852E-4  
 2.556000000000000E10   -6.455968832597137E-4   2.181699674110860E-4  
 2.558000000000000E10    5.113203660584986E-4   6.124330684542656E-4  
 2.560000000000000E10    5.640945746563375E-4   1.151211617980152E-4  
 2.562000000000000E10   -3.221313454560004E-5   2.028402559517417E-5  
 2.564000000000000E10   -2.659246383700520E-4   5.263610510155559E-4  
 2.566000000000000E10   -2.631141251185909E-5   3.097407170571387E-4  
 2.568000000000000E10   -2.141746808774769E-4   1.207311215694062E-4  
 2.570000000000000E10   -1.210687696584500E-4   3.053182445000857E-4  
 2.572000000000000E10    1.653432263992727E-4   1.464066881453618E-4  
 2.574000000000000E10    2.468115053488873E-5  -5.611260421574116E-4  
 2.576000000000000E10    2.275101287523285E-4   6.840789137640968E-5  
 2.578000000000000E10   -3.189756625943119E-6   3.916007990483195E-4  
 2.580000000000000E10    7.311524823307991E-4  -4.501487128436565E-4  
 2.582000000000000E10    7.287548942258582E-5   1.898081391118467E-4  
 2.584000000000000E10   -5.121975555084646E-4   4.118038923479617E-4  
 2.586000000000000E10    3.709628945216537E-4   6.877274718135595E-4  
 2.588000000000000E10    1.487664267187938E-4   2.230260870419443E-4  
 2.590000000000000E10   -4.422568308655173E-4  -2.989157219417393E-4  
 2.592000000000000E10   -4.037951875943691E-4  -5.456717190099880E-5  
 2.594000000000000E10    2.045308501692489E-4   3.275871567893773E-4  
 2.596000000000000E10   -2.498228568583727E-4  -5.151702789589763E-4  
 2.598000000000000E10    2.360869111726061E-4  -4.894675803370774E-4  
 2.600000000000000E10   -1.330045633949339E-4   9.988967794924974E-4  
 2.602000000000000E10    1.270711654797196E-4  -2.107764157699421E-4  
 2.604000000000000E10    3.764632856473327E-4   9.407932520844042E-5  
 2.606000000000000E10   -3.492737014312297E-4   5.215890123508871E-4  
 2.608000000000000E10    3.146035305690020E-5   2.474079374223948E-4  
 2.610000000000000E10   -1.364359491162759E-6  -2.459869137965143E-4  
 2.612000000000000E10   -2.649308880791068E-4   3.949816527892835E-5  
 2.614000000000000E10   -1.141099637607113E-4  -1.322363823419437E-4  
 2.616000000000000E10    8.531982894055545E-4  -4.218582762405276E-5  
 2.618000000000000E10   -1.106540221371688E-4  -2.783859963528812E-4  
 2.620000000000000E10    1.425133377779275E-4  -3.254132461734116E-4  
 2.622000000000000E10    4.387006920296699E-4   8.002470713108778E-4  
 2.624000000000000E10    2.369318099226803E-4  -2.173707471229136E-4  
 2.626000000000000E10   -1.099881483241916E-4  -3.869998618029058E-4  
 2.628000000000000E10   -4.412780399434269E-4   5.869339802302420E-4  
 2.630000000000000E10    4.198040551273152E-5   3.666691773105413E-4  
 2.632000000000000E10    2.720094344113022E-4  -7.026625098660588E-4  
 2.634000000000000E10   -3.013168316101655E-5  -3.414849634282291E-4  
 2.636000000000000E10   -1.244330487679690E-4  -3.570845001377165E-5  
 2.638000000000000E10    5.093912477605045E-4   1.093664250220172E-4  
 2.640000000000000E10   -4.154058842686936E-5  -2.178405848098919E-4  
 2.642000000000000E10   -2.656141296029091E-4   3.471857780823484E-5  
 2.644000000000000E10    5.358529233490117E-5   5.829887813888490E-4  
 2.646000000000000E10    1.813603739719838E-5  -2.191808889620006E-4  
 2.648000000000000E10   -1.568015431985259E-4  -4.643322608899325E-4  
 2.650000000000000E10   -2.400698431301862E-4   2.008939336519688E-4  
 2.652000000000000E10    1.581205870024860E-4   7.502746302634478E-5  
 2.654000000000000E10    3.305900900159031E-4  -6.048473878763616E-4  
 2.656000000000000E10   -4.761579621117562E-4  -1.783742482075468E-4  
 2.658000000000000E10   -1.024736193357967E-4   3.799719561357051E-4  
 2.660000000000000E10    3.735747595783323E-4  -5.410445737652481E-6  
 2.662000000000000E10   -2.127114566974342E-4  -6.074280245229602E-4  
 2.664000000000000E10   -4.496622132137418E-4  -8.784373494563624E-5  
 2.666000000000000E10   -2.174994733650237E-5   1.105437622754835E-4  
 2.668000000000000E10    2.514985681045800E-4  -5.523535655811429E-4  
 2.670000000000000E10   -2.080058620776981E-4  -3.244103572797030E-4  
 2.672000000000000E10   -3.773541175178252E-5   2.037416707025841E-4  
 2.674000000000000E10    2.736813039518893E-4   1.815927244024351E-4  
 2.676000000000000E10    7.754716352792457E-5  -3.062732866965234E-4  
 2.678000000000000E10   -4.061056824866682E-4   1.688643678789958E-4  
 2.680000000000000E10   -3.114981809630990E-4  -3.312436820124276E-5  
 2.682000000000000E10    1.440166670363396E-4  -2.012558688875288E-4  
 2.684000000000000E10   -5.203386535868049E-4  -4.518801579251885E-4  
 2.686000000000000E10   -4.826479707844555E-4  -7.498276681872085E-5  
 2.688000000000000E10    1.085424810298719E-4   9.463128662900999E-5  
 2.690000000000000E10    3.538897144608200E-4  -4.275813989806920E-4  
 2.692000000000000E10   -1.563772821100429E-4  -3.819187404587865E-4  
 2.694000000000000E10   -1.511076843598858E-4   3.981910122092813E-4  
 2.696000000000000E10   -9.962481271941215E-5   2.002751134568825E-4  
 2.698000000000000E10    2.590919029898942E-4  -2.337319019716233E-4  
 2.700000000000000E10   -1.244755258085206E-4   1.726366608636454E-4  
 2.702000000000000E10   -2.109664492309094E-4  -2.273046411573887E-4  
 2.704000000000000E10    2.905603323597461E-4  -1.736023114062846E-4  
 2.706000000000000E10    8.382052328670397E-5   9.725493146106601E-5  
 2.708000000000000E10    3.701707755681127E-4  -8.018963853828609E-5  
 2.710000000000000E10    6.416416727006435E-4   9.968825906980783E-5  
 2.712000000000000E10    9.670275903772563E-5   1.031887950375676E-4  
 2.714000000000000E10   -1.686426985543221E-4  -9.089225204661489E-5  
 2.716000000000000E10    1.114415426854976E-4   3.996682353317738E-4  
 2.718000000000000E10   -1.645035808905959E-4   9.997464076150209E-5  
 2.720000000000000E10    2.169210929423571E-4  -4.859529726672918E-4  
 2.722000000000000E10    3.279272732470417E-6  -1.074065585271455E-4  
 2.724000000000000E10   -4.584747875924222E-5  -4.165300197200850E-5  
 2.726000000000000E10    2.802960807457566E-4  -6.638100603595376E-5  
 2.728000000000000E10    5.438146763481200E-4   1.675579696893692E-4  
 2.730000000000000E10   -6.665741966571659E-5   1.007675164146349E-4  
 2.732000000000000E10   -4.904509751213482E-6  -1.792338734958321E-4  
 2.734000000000000E10   -1.665898016653955E-4   2.762138610705733E-4  
 2.736000000000000E10   -1.066913391696289E-4   3.973993880208582E-4  
 2.738000000000000E10    4.782190080732107E-4  -1.886251557152718E-4  
 2.740000000000000E10   -3.092234546784312E-4  -2.599292783997953E-4  
 2.742000000000000E10   -3.454023099038750E-4   9.206646791426465E-5  
 2.744000000000000E10    2.978433622047305E-4   3.877895651385188E-4  
 2.746000000000000E10    1.767279900377616E-4  -7.978894427651539E-5  
 2.748000000000000E10   -5.086335659143515E-5   5.872326255484950E-6  
 2.750000000000000E10   -1.595510984770954E-4   3.795880475081503E-4  
 2.752000000000000E10   -3.269930894020945E-4   2.661295293364674E-4  
 2.754000000000000E10    3.820955680566840E-5   3.466802081675269E-5  
 2.756000000000000E10   -4.938206257065758E-5   1.308134378632531E-4  
