#  HZ   S   RI   R     50.00 
! Rohde & Schwarz ZVA40 4Ports - Version 3.90 - 1145.1110k42 SN: 100403
! Date: 2023-10-04 07:56:38
! Measurement: S12 
! 
 2.200000000000000E10   -8.958921171142720E-6   1.339249138254672E-4  
 2.202000000000000E10    6.914205150678754E-4   5.814383621327579E-4  
 2.204000000000000E10    1.350451027974486E-3  -3.787238383665681E-4  
 2.206000000000000E10    3.697546708281152E-5  -6.587583920918405E-4  
 2.208000000000000E10   -1.416123413946480E-4   4.955352051183581E-4  
 2.210000000000000E10    2.354457392357290E-4   5.024346755817533E-4  
 2.212000000000000E10   -1.015654706861824E-4  -5.377369234338403E-4  
 2.214000000000000E10   -5.192469106987119E-4   2.861042448785156E-4  
 2.216000000000000E10    5.806020999443717E-5   1.835056718846317E-5  
 2.218000000000000E10    5.026009748689830E-4  -5.765435053035617E-4  
 2.220000000000000E10   -7.480523199774325E-4  -5.762587534263730E-4  
 2.222000000000000E10    8.790578431217000E-5   2.529823104850948E-4  
 2.224000000000000E10    5.686434451490641E-4   2.359658537898213E-4  
 2.226000000000000E10    4.381760372780263E-4  -1.119739143177867E-3  
 2.228000000000000E10   -8.814595639705658E-4  -1.504933170508593E-4  
 2.230000000000000E10   -3.390724887140095E-4   6.463420577347279E-4  
 2.232000000000000E10    5.502176936715841E-4   4.023893270641565E-4  
 2.234000000000000E10   -5.388731951825321E-4  -1.039268565364182E-3  
 2.236000000000000E10   -1.062549301423132E-3   4.057633486809209E-5  
 2.238000000000000E10   -7.078023627400398E-4   3.469460643827915E-4  
 2.240000000000000E10   -2.301698696101084E-4  -3.641132789198309E-4  
 2.242000000000000E10   -6.347413291223347E-4  -6.230218568816781E-4  
 2.244000000000000E10   -5.342432996258140E-4  -3.841244615614414E-4  
 2.246000000000000E10   -1.163687338703312E-4  -9.257518831873313E-5  
 2.248000000000000E10   -3.341562696732581E-4  -7.002936326898634E-4  
 2.250000000000000E10   -7.170018507167697E-4   1.979974331334233E-4  
 2.252000000000000E10    2.334598684683442E-4   5.495045334100723E-4  
 2.254000000000000E10    5.763784865848720E-4  -1.546344283269718E-4  
 2.256000000000000E10   -9.939533192664385E-4  -5.249723326414824E-4  
 2.258000000000000E10   -5.185135523788631E-4   6.445841863751411E-4  
 2.260000000000000E10    2.952085924334824E-4   4.802483599632978E-4  
 2.262000000000000E10    3.428944910410792E-4  -6.277411594055593E-4  
 2.264000000000000E10   -8.003650582395494E-4  -5.552048096433282E-4  
 2.266000000000000E10   -4.841320624109358E-4   3.249877772759646E-4  
 2.268000000000000E10    4.793533007614315E-4   2.083287108689547E-4  
 2.270000000000000E10    3.346465236973018E-4  -7.119721267372370E-4  
 2.272000000000000E10   -1.701330766081810E-4   1.558067015139386E-5  
 2.274000000000000E10   -1.532213937025517E-4   3.670472360681742E-4  
 2.276000000000000E10    8.531753555871546E-4   1.247245090780780E-4  
 2.278000000000000E10   -5.133151425980032E-4   3.441765147726983E-5  
 2.280000000000000E10   -5.348627455532551E-4   2.076068922178820E-4  
 2.282000000000000E10   -6.751198088750243E-5   6.291901227086783E-4  
 2.284000000000000E10    1.369263336528093E-4  -8.840020745992661E-5  
 2.286000000000000E10   -4.011765704490244E-4   2.012012409977615E-4  
 2.288000000000000E10    1.369104120385600E-5   6.299635278992355E-4  
 2.290000000000000E10    4.007056122645736E-4   1.547321589896455E-4  
 2.292000000000000E10   -1.630918122828007E-4  -5.430165911093354E-4  
 2.294000000000000E10   -7.086569094099104E-4   1.064535172190517E-4  
 2.296000000000000E10    1.239853590959683E-4   7.323091267608106E-4  
 2.298000000000000E10    8.800816140137613E-4  -4.961943486705422E-4  
 2.300000000000000E10   -3.365013617440127E-5  -5.568297347053886E-4  
 2.302000000000000E10   -7.961951196193695E-4   3.051023231819272E-4  
 2.304000000000000E10    5.591473309323192E-4   6.332425982691348E-4  
 2.306000000000000E10    2.397993521299213E-4  -9.615172893973067E-5  
 2.308000000000000E10   -4.707745101768524E-4  -3.418883134145290E-4  
 2.310000000000000E10   -5.496203084476292E-4   2.206497883889824E-4  
 2.312000000000000E10   -2.070912887575105E-4   2.780080249067396E-4  
 2.314000000000000E10   -3.744653949979693E-4   1.124808986787684E-4  
 2.316000000000000E10   -8.835772314341739E-5  -1.135778729803860E-4  
 2.318000000000000E10    7.707312761340290E-5   1.504771935287863E-4  
 2.320000000000000E10   -5.203922628425062E-4  -4.350074741523713E-4  
 2.322000000000000E10   -8.941957639763132E-5   2.281336783198640E-4  
 2.324000000000000E10   -1.604604040039703E-4   6.763307028450072E-4  
 2.326000000000000E10    6.365163135342300E-4  -1.223857816512464E-5  
 2.328000000000000E10    4.681745849666186E-5  -2.493110951036215E-4  
 2.330000000000000E10   -7.043274235911667E-4   3.270907036494464E-4  
 2.332000000000000E10    3.628091071732342E-4   1.209269859828055E-3  
 2.334000000000000E10    7.264697342179716E-4   7.778774306643754E-5  
 2.336000000000000E10   -1.519565703347325E-4  -5.047352751716971E-4  
 2.338000000000000E10   -6.881793378852308E-4  -7.287342305062339E-5  
 2.340000000000000E10    2.506464370526373E-4   5.845457781106234E-4  
 2.342000000000000E10    3.718963853316382E-5  -1.184254779218463E-5  
 2.344000000000000E10    2.682579797692597E-4  -5.134107777848840E-4  
 2.346000000000000E10    1.647142198635265E-4   8.375132892979309E-6  
 2.348000000000000E10   -1.105170085793361E-4  -1.852229761425406E-4  
 2.350000000000000E10    1.839363831095398E-4   1.429918338544667E-4  
 2.352000000000000E10    5.622740718536079E-4   6.100458558648825E-4  
 2.354000000000000E10    7.744038011878729E-4  -2.728218096308410E-4  
 2.356000000000000E10    4.398702876642346E-4  -4.897773615084589E-4  
 2.358000000000000E10   -1.828088570619002E-4   3.391623904462904E-4  
 2.360000000000000E10    4.242968861944974E-4   8.539909613318741E-4  
 2.362000000000000E10    1.283949590288103E-3  -2.305309171788395E-4  
 2.364000000000000E10    3.917823196388781E-4  -5.778099875897169E-4  
 2.366000000000000E10   -6.221084622666240E-4   3.836632458842360E-5  
 2.368000000000000E10    8.574146777391434E-4   6.889916257932782E-4  
 2.370000000000000E10    1.222739461809397E-3  -1.104855909943581E-4  
 2.372000000000000E10    4.801866598427296E-4  -1.051216153427959E-3  
 2.374000000000000E10   -1.664285991864745E-5  -7.627458398928866E-5  
 2.376000000000000E10    5.876324139535427E-4   3.052888787351549E-4  
 2.378000000000000E10    7.145071867853403E-4  -2.330855204490945E-5  
 2.380000000000000E10    2.155162655981258E-4  -1.417589373886585E-4  
 2.382000000000000E10    6.304291309788823E-4  -2.164351899409667E-4  
 2.384000000000000E10    3.483801992842928E-5  -1.731615047901869E-4  
 2.386000000000000E10   -2.062895364360884E-4  -6.673474126728252E-5  
 2.388000000000000E10    4.079949285369366E-4   3.383867442607880E-4  
 2.390000000000000E10    6.918075378052890E-4  -5.330412532202900E-4  
 2.392000000000000E10   -1.409370452165604E-4  -1.004235702566803E-3  
 2.394000000000000E10   -8.586304611526430E-4  -1.348996447632089E-4  
 2.396000000000000E10    2.237762819277123E-4   3.812598879449070E-4  
 2.398000000000000E10    4.428916436154395E-4  -5.862782127223909E-4  
 2.400000000000000E10   -1.503938110545278E-4  -1.227583736181259E-3  
 2.402000000000000E10   -1.031941035762429E-3   2.501750714145601E-4  
 2.404000000000000E10   -2.295209997100756E-4   2.635524724610150E-4  
 2.406000000000000E10    5.708058597519994E-4  -8.500748663209379E-5  
 2.408000000000000E10   -7.514542085118592E-4  -5.548426997847855E-4  
 2.410000000000000E10   -5.578967393375933E-4  -1.114638143917546E-4  
 2.412000000000000E10   -7.021338096819818E-4   3.405278839636594E-4  
 2.414000000000000E10   -1.534084149170667E-4   5.606049671769142E-5  
 2.416000000000000E10    1.020393247017637E-4   1.146626527770422E-4  
 2.418000000000000E10   -1.521414233138785E-4  -3.980179899372160E-4  
 2.420000000000000E10   -4.818509332835674E-4  -3.972390913986601E-5  
 2.422000000000000E10   -7.718338165432215E-4  -1.436740276403725E-4  
 2.424000000000000E10   -8.891067409422249E-6   5.300660268403590E-4  
 2.426000000000000E10    6.836896500317380E-5   1.321204181294888E-4  
 2.428000000000000E10    7.793170880177058E-6  -7.379713933914900E-4  
 2.430000000000000E10   -1.313975779339671E-3  -8.862223330652341E-5  
 2.432000000000000E10   -5.355562316253781E-4   4.823805356863886E-4  
 2.434000000000000E10    3.042729222215712E-4   4.406023363117129E-4  
 2.436000000000000E10   -1.288568746531382E-4  -8.099526166915894E-4  
 2.438000000000000E10   -4.298189887776971E-4  -2.207502839155495E-4  
 2.440000000000000E10   -4.362637118902057E-4   2.526493044570088E-4  
 2.442000000000000E10    2.226281649200246E-4   5.008883308619261E-4  
 2.444000000000000E10    4.046341637149453E-4   2.934889052994549E-4  
 2.446000000000000E10    1.012069915304892E-4  -2.589236246421933E-4  
 2.448000000000000E10   -2.250573306810111E-4   2.376269840169698E-4  
 2.450000000000000E10   -5.760160856880248E-4   2.597662096377462E-4  
 2.452000000000000E10    3.894208930432797E-5   7.007115636952221E-4  
 2.454000000000000E10   -8.803089440334588E-5   3.852331428788602E-5  
 2.456000000000000E10    2.015691279666498E-5  -4.006490926258266E-4  
 2.458000000000000E10   -7.318459101952612E-4  -1.038616464938968E-4  
 2.460000000000000E10   -1.766719360603020E-4   3.074476844631136E-4  
 2.462000000000000E10    3.610900603234768E-4   8.404589025303721E-4  
 2.464000000000000E10    2.258734166389331E-4  -2.707847452256829E-4  
 2.466000000000000E10   -6.634250894421712E-5   1.429853728041053E-4  
 2.468000000000000E10   -9.511918760836124E-4   6.071673706173897E-4  
 2.470000000000000E10   -9.484888141741976E-5   8.471947512589395E-4  
 2.472000000000000E10    3.146823437418789E-4   3.393863153178245E-4  
 2.474000000000000E10   -2.012640907196328E-4  -3.551245608832687E-4  
 2.476000000000000E10   -5.787524278275669E-4   2.199974733230192E-5  
 2.478000000000000E10   -9.992610284825787E-5   2.703830832615495E-4  
 2.480000000000000E10    4.824202624149621E-4   2.650097885634750E-4  
 2.482000000000000E10    3.957332519348711E-4  -2.997754781972617E-4  
 2.484000000000000E10    1.841574121499434E-4   1.114967653847998E-5  
 2.486000000000000E10   -8.525714292773046E-6   7.120915688574314E-4  
 2.488000000000000E10    2.855883212760091E-4   2.812434686347842E-4  
 2.490000000000000E10    1.654671650612727E-4   7.398850284516811E-4  
 2.492000000000000E10   -4.688350963988341E-5   2.988400046888273E-5  
 2.494000000000000E10    7.017201369308168E-6  -2.589840150903910E-4  
 2.496000000000000E10   -7.177713559940457E-4   2.551319776102901E-4  
 2.498000000000000E10   -6.477127317339182E-5   5.270682740956545E-4  
 2.500000000000000E10    6.653349264524877E-4   4.729429292638088E-6  
 2.502000000000000E10    5.545850726775825E-4  -5.148506024852395E-4  
 2.504000000000000E10   -5.699933972209692E-4  -1.781328319339082E-5  
 2.506000000000000E10    3.173086734022945E-4   5.694216815754771E-4  
 2.508000000000000E10    1.055362168699503E-3   7.613731431774795E-4  
 2.510000000000000E10    4.238796827849001E-4  -5.863885744474828E-4  
 2.512000000000000E10   -3.720728564076126E-4  -4.142616671742871E-5  
 2.514000000000000E10   -1.242841099156067E-4   7.512887241318822E-4  
 2.516000000000000E10    7.629360188730061E-4   3.130114637315273E-4  
 2.518000000000000E10    6.839752895757556E-4  -4.127722058910877E-4  
 2.520000000000000E10    2.220497699454427E-4  -3.716575156431645E-4  
 2.522000000000000E10    1.683269074419513E-4  -6.189138366607949E-5  
 2.524000000000000E10    4.692585789598525E-4  -1.470975166739663E-5  
 2.526000000000000E10    3.538872988428921E-4   3.070708480663598E-4  
 2.528000000000000E10    6.775285582989454E-4  -1.357551955152303E-4  
 2.530000000000000E10    4.375583957880735E-4  -1.248081534868106E-4  
 2.532000000000000E10   -5.383759853430092E-4  -1.570307649672031E-4  
 2.534000000000000E10   -9.912382665788755E-5   2.683447673916817E-4  
 2.536000000000000E10    8.418975630775094E-4   2.373754832660779E-4  
 2.538000000000000E10    1.073459352483042E-4  -7.880130433477461E-4  
 2.540000000000000E10   -2.521247370168567E-4  -8.776450413279235E-4  
 2.542000000000000E10   -2.689486427698284E-5   2.333860029466450E-4  
 2.544000000000000E10    2.547516487538815E-4  -1.334351509285625E-5  
 2.546000000000000E10    6.657683406956494E-4  -4.683014703914523E-4  
 2.548000000000000E10   -2.409227308817208E-4  -1.490422728238627E-4  
 2.550000000000000E10   -1.482667430536822E-4   2.222648181486875E-4  
 2.552000000000000E10    5.298584583215416E-4   3.538941091392189E-4  
 2.554000000000000E10    2.399590885033831E-4  -6.007344927638769E-5  
 2.556000000000000E10   -1.315403551416239E-5  -3.659047652035952E-4  
 2.558000000000000E10   -1.336261175310938E-5  -1.796728975023143E-5  
 2.560000000000000E10   -4.317365164752118E-5  -1.338938163826242E-4  
 2.562000000000000E10    1.185562950922758E-6  -3.638294292613864E-4  
 2.564000000000000E10    9.553438576404005E-5  -2.768417289189529E-5  
 2.566000000000000E10    2.262224297737703E-4  -6.299621309153736E-4  
 2.568000000000000E10   -1.138719671871513E-4  -2.996302500832826E-4  
 2.570000000000000E10   -1.406858064001426E-4   3.465420159045607E-4  
 2.572000000000000E10    3.107643569819629E-4   8.474529022350907E-5  
 2.574000000000000E10    2.595379191916436E-4  -3.623699012678117E-4  
 2.576000000000000E10   -2.653089468367398E-4  -1.863451470853761E-4  
 2.578000000000000E10   -3.497061843518168E-4   2.682407503016293E-4  
 2.580000000000000E10    6.389491609297693E-4   1.420137996319681E-4  
 2.582000000000000E10    1.729661016725004E-5  -5.231088725849986E-4  
 2.584000000000000E10   -4.865576629526913E-4  -6.070911767892540E-4  
 2.586000000000000E10   -6.334960198728368E-5   5.400239606387913E-4  
 2.588000000000000E10    1.030708081088960E-4  -4.142290854360908E-4  
 2.590000000000000E10    1.552360045025125E-4  -5.686624208465219E-4  
 2.592000000000000E10   -2.487162710167468E-4   2.092700888169929E-4  
 2.594000000000000E10    2.210528618888930E-4   1.349240628769621E-4  
 2.596000000000000E10   -5.830735972267576E-5  -1.836234441725537E-4  
 2.598000000000000E10   -5.973689621896483E-5   1.371620164718479E-4  
 2.600000000000000E10   -5.207588546909392E-4   2.204672200605273E-4  
 2.602000000000000E10   -4.474180968827568E-5  -3.341999545227736E-4  
 2.604000000000000E10   -3.217113262508065E-4   3.482136817183346E-4  
 2.606000000000000E10   -6.159837939776480E-4   6.730252607667353E-6  
 2.608000000000000E10    1.637454261071980E-4   3.185308887623251E-4  
 2.610000000000000E10   -2.639946469571441E-4  -2.503521973267198E-4  
 2.612000000000000E10   -2.656665164977312E-4  -2.014934871112928E-4  
 2.614000000000000E10   -9.119774767896161E-5   6.868286873213947E-4  
 2.616000000000000E10    3.963073249906302E-4   2.779630303848535E-4  
 2.618000000000000E10    6.970759568503127E-5  -1.772479590727016E-4  
 2.620000000000000E10   -1.297072012675926E-4   4.262691363692284E-4  
 2.622000000000000E10   -2.858295338228345E-4   9.257629862986505E-4  
 2.624000000000000E10    4.274342209100723E-4  -8.330288983415812E-5  
 2.626000000000000E10   -1.751363452058286E-4   1.331258972641081E-4  
 2.628000000000000E10   -4.399531753733754E-4   2.312186406925321E-4  
 2.630000000000000E10    1.673493825364858E-4   3.798938414547592E-4  
 2.632000000000000E10    8.730679110158235E-5  -6.627541006309912E-5  
 2.634000000000000E10   -6.690061582048656E-6   1.455356104997918E-4  
 2.636000000000000E10    2.559570702942438E-6  -1.386774529237300E-4  
 2.638000000000000E10    3.203034575562924E-4   2.501960261724889E-5  
 2.640000000000000E10   -1.966580894077197E-4  -3.800653212238103E-5  
 2.642000000000000E10    2.818420471157879E-4   2.403709950158373E-4  
 2.644000000000000E10    5.747256000177003E-5   4.449117986951023E-4  
 2.646000000000000E10    1.015362431644462E-4  -2.519201952964068E-4  
 2.648000000000000E10   -2.490384504199028E-4   2.403472899459302E-4  
 2.650000000000000E10   -1.689355267444626E-4   1.451095013180748E-4  
 2.652000000000000E10    2.841863315552473E-4   1.598979579284787E-4  
 2.654000000000000E10   -5.276539741316810E-5  -2.493433421477675E-4  
 2.656000000000000E10   -2.341259678360075E-4  -1.041926298057661E-4  
 2.658000000000000E10    4.941493898513727E-5   2.951322312583216E-5  
 2.660000000000000E10    3.295147034805268E-4  -7.577458018204197E-5  
 2.662000000000000E10    4.622354754246771E-5  -2.682167978491634E-4  
 2.664000000000000E10    2.682704071048647E-4   9.142047201748937E-5  
 2.666000000000000E10   -1.572997462062631E-5   1.971541350940242E-4  
 2.668000000000000E10    4.088284040335566E-4  -1.338906440651044E-4  
 2.670000000000000E10   -1.912204752443358E-4   1.857126480899751E-4  
 2.672000000000000E10   -2.070459595415741E-4  -2.079122932627797E-4  
 2.674000000000000E10    3.194979799445719E-4  -6.293307524174452E-5  
 2.676000000000000E10   -2.017125370912254E-5  -4.042323853354901E-4  
 2.678000000000000E10   -2.536365063861013E-4  -1.384881761623547E-4  
 2.680000000000000E10   -5.295779556035996E-5  -1.372671977151185E-4  
 2.682000000000000E10    4.705374012701213E-4   1.019676637952216E-4  
 2.684000000000000E10   -2.602678432594985E-4   4.999538577976637E-5  
 2.686000000000000E10   -7.664989971090108E-5   9.722269896883518E-5  
 2.688000000000000E10   -7.118305074982345E-5   1.271994406124577E-4  
 2.690000000000000E10   -4.557129432214424E-5  -1.016192109091207E-4  
 2.692000000000000E10   -5.331260617822409E-4   1.727428898448125E-4  
 2.694000000000000E10   -5.245313514024019E-5  -2.403519611107186E-4  
 2.696000000000000E10    2.328891423530877E-4  -1.276709081139416E-4  
 2.698000000000000E10   -1.645040174480528E-4  -1.697208354016766E-4  
 2.700000000000000E10   -1.139873638749123E-4   2.354901516810060E-4  
 2.702000000000000E10    1.309477229369804E-4  -4.249106132192537E-5  
 2.704000000000000E10   -1.582388213137165E-4   1.833803689805791E-4  
 2.706000000000000E10   -4.312543896958232E-4  -4.518496280070394E-5  
 2.708000000000000E10   -2.443518606014550E-4   3.305704740341753E-4  
 2.710000000000000E10   -1.013489454635419E-4   1.699617132544518E-4  
 2.712000000000000E10    5.811215669382364E-5  -2.797811175696552E-4  
 2.714000000000000E10   -2.462078118696809E-4   1.427827373845503E-5  
 2.716000000000000E10   -2.464430290274322E-4   1.051875588018447E-4  
 2.718000000000000E10    3.342930995131610E-6   1.729939394863322E-4  
 2.720000000000000E10    3.949147940147668E-4   2.594240359030664E-4  
 2.722000000000000E10   -2.297259197803214E-4   1.411863195244223E-4  
 2.724000000000000E10   -1.570412568980828E-4  -2.874278870876879E-4  
 2.726000000000000E10   -3.451753291301429E-4   2.672113187145442E-4  
 2.728000000000000E10   -3.373594954609871E-4   2.892785687436117E-6  
 2.730000000000000E10    3.330091130919755E-4  -3.083407063968480E-4  
 2.732000000000000E10   -8.626919225207530E-6  -5.389902507886291E-4  
 2.734000000000000E10   -3.392274084035307E-4  -1.248984044650570E-4  
 2.736000000000000E10    1.945342955878004E-4   1.882365031633526E-4  
 2.738000000000000E10    3.123629430774599E-4  -1.954880426637828E-4  
 2.740000000000000E10   -2.532538783270866E-4  -2.779177448246628E-4  
 2.742000000000000E10   -8.696623990545049E-5   6.940766616025940E-5  
 2.744000000000000E10   -4.564510309137404E-4   3.826545435003936E-4  
 2.746000000000000E10    1.687529584160075E-4  -1.131748504121788E-4  
 2.748000000000000E10   -1.075235995813273E-4  -1.632960338611156E-4  
 2.750000000000000E10   -3.458435821812600E-4  -9.277326171286404E-5  
 2.752000000000000E10    9.836788376560435E-5   1.310105562879471E-5  
 2.754000000000000E10    2.332040457986295E-4  -1.049870916176587E-4  
 2.756000000000000E10   -4.007484676549211E-5   1.421934430254623E-4  
