#  HZ   S   RI   R     50.00 
! Rohde & Schwarz ZVA40 4Ports - Version 3.90 - 1145.1110k42 SN: 100403
! Date: 2023-10-04 07:56:18
! Measurement: S12 
! 
 2.200000000000000E10   -8.181875455193222E-5   5.864894483238459E-4  
 2.202000000000000E10    1.979385706363246E-4   2.338882914045826E-4  
 2.204000000000000E10   -9.569430403644219E-5  -1.101204543374479E-4  
 2.206000000000000E10   -8.431557798758149E-4   5.549747729673982E-4  
 2.208000000000000E10    2.459460847603623E-5   6.413601222448051E-4  
 2.210000000000000E10    3.563355712685734E-4  -9.708116704132408E-5  
 2.212000000000000E10   -7.840975886210799E-4  -4.105823463760316E-4  
 2.214000000000000E10   -7.879811455495656E-4   4.830006801057607E-4  
 2.216000000000000E10    2.467423037160188E-4   7.390981772914529E-4  
 2.218000000000000E10    6.700848462060094E-4  -4.401913902256638E-4  
 2.220000000000000E10   -7.589607848785818E-4  -5.072475178167224E-4  
 2.222000000000000E10   -2.284133806824684E-4   4.044605011586100E-4  
 2.224000000000000E10    3.660797083284706E-4   9.452965459786356E-4  
 2.226000000000000E10    3.891677188221365E-4  -3.150400298181921E-4  
 2.228000000000000E10   -1.462911168346182E-4   2.175427362089977E-4  
 2.230000000000000E10    1.943475654115900E-4   2.618973667267710E-4  
 2.232000000000000E10    3.544263890944421E-4   1.409513351973146E-4  
 2.234000000000000E10   -7.058597111608833E-5  -1.811615511542186E-4  
 2.236000000000000E10    1.702985755400732E-4   5.223675980232656E-4  
 2.238000000000000E10    9.798510000109673E-4  -3.004568952746922E-6  
 2.240000000000000E10    2.137067058356479E-4  -5.974223022349179E-4  
 2.242000000000000E10   -6.263924879021943E-4   4.743754470837303E-5  
 2.244000000000000E10    6.736035575158894E-4   1.021349220536649E-3  
 2.246000000000000E10    1.015139045193791E-3   8.229959348682314E-5  
 2.248000000000000E10    2.702140191104263E-4  -1.155955833382905E-3  
 2.250000000000000E10   -4.840921901632100E-4   2.776928304228932E-4  
 2.252000000000000E10    3.994819417130202E-4   5.510214832611382E-4  
 2.254000000000000E10    1.330216880887747E-3  -3.697821375681087E-5  
 2.256000000000000E10    1.397409650962800E-4  -4.443977086339146E-4  
 2.258000000000000E10    2.834884799085558E-4   1.633188658161089E-4  
 2.260000000000000E10    6.518301088362932E-4   7.064581150189042E-4  
 2.262000000000000E10    4.119702207390219E-4  -1.187181987916119E-4  
 2.264000000000000E10   -6.360110273817554E-5   1.548919681226835E-4  
 2.266000000000000E10    4.603087145369500E-4   3.659276990219951E-4  
 2.268000000000000E10    2.824032271746546E-4  -6.677197525277734E-4  
 2.270000000000000E10   -3.924875054508448E-4  -5.963996518403292E-4  
 2.272000000000000E10   -8.399997022934258E-5   5.518090329132974E-4  
 2.274000000000000E10    9.831411298364401E-4   1.510258589405567E-4  
 2.276000000000000E10    7.247354369610548E-4  -7.878061151131988E-4  
 2.278000000000000E10   -8.527412428520620E-4  -4.779503506142646E-4  
 2.280000000000000E10    7.997298234840855E-5   4.436237504705787E-4  
 2.282000000000000E10    2.749446430243552E-4   8.401324739679694E-4  
 2.284000000000000E10    4.335898483986966E-5  -6.802218849770725E-4  
 2.286000000000000E10   -8.119936101138592E-4  -3.460662555880845E-4  
 2.288000000000000E10   -4.322601889725775E-4   4.890593700110912E-4  
 2.290000000000000E10   -1.472228323109448E-4  -7.396233559120446E-5  
 2.292000000000000E10   -2.074959484161809E-4  -8.640079759061337E-4  
 2.294000000000000E10   -9.399603732163087E-5  -1.294405665248632E-4  
 2.296000000000000E10    1.820573088480160E-4  -3.447636554483324E-4  
 2.298000000000000E10    2.043032291112468E-4  -6.756648654118180E-4  
 2.300000000000000E10   -4.302260931581259E-4   3.710874589160085E-4  
 2.302000000000000E10    1.802718470571563E-4   1.820934558054432E-4  
 2.304000000000000E10    4.874127916991711E-4  -5.101157003082335E-4  
 2.306000000000000E10   -7.405099458992481E-4  -3.633191809058189E-4  
 2.308000000000000E10   -5.447563598863781E-4   1.133348705479875E-4  
 2.310000000000000E10    3.975119034294039E-4   2.572247467469424E-4  
 2.312000000000000E10    1.491074654040858E-4  -5.747962859459221E-4  
 2.314000000000000E10   -6.679798243567348E-4  -7.333094836212695E-4  
 2.316000000000000E10   -5.564611637964845E-4   3.805481246672571E-4  
 2.318000000000000E10    4.508869897108525E-4   5.035991198383272E-4  
 2.320000000000000E10    1.642809947952628E-4  -1.052097999490798E-3  
 2.322000000000000E10   -2.556573890615255E-4  -5.039504612796009E-4  
 2.324000000000000E10   -3.731305187102407E-4   6.009792559780181E-4  
 2.326000000000000E10    3.531913389451802E-4  -5.091953426017426E-5  
 2.328000000000000E10    1.490105350967497E-4   5.199178485781886E-5  
 2.330000000000000E10   -4.377010918688029E-4  -2.308623661519960E-4  
 2.332000000000000E10    2.127110201399773E-4   1.701196742942557E-5  
 2.334000000000000E10   -3.323858254589140E-4   9.865908941719681E-5  
 2.336000000000000E10   -1.778329606167972E-4  -6.288287113420665E-5  
 2.338000000000000E10    3.353838983457536E-4   2.010325551964343E-4  
 2.340000000000000E10    1.168129238067195E-4  -2.836920903064311E-4  
 2.342000000000000E10   -4.763130273204297E-4  -7.312893285416067E-4  
 2.344000000000000E10   -2.483295393176377E-4   3.948373196180910E-4  
 2.346000000000000E10    7.215765072032809E-4   4.592505283653736E-4  
 2.348000000000000E10    1.813896087696776E-4  -9.119251044467092E-4  
 2.350000000000000E10   -5.516419187188149E-4  -5.709056276828051E-4  
 2.352000000000000E10   -8.695062715560198E-4   7.609906024299562E-4  
 2.354000000000000E10    5.360919749364257E-4   1.351849059574306E-4  
 2.356000000000000E10    2.506792661733925E-4  -4.269148630555719E-4  
 2.358000000000000E10   -9.590127738192678E-4  -2.990894136019051E-4  
 2.360000000000000E10   -4.392919363453984E-4   4.893586738035083E-4  
 2.362000000000000E10   -1.379402674501762E-4   1.752897223923355E-4  
 2.364000000000000E10   -1.396193983964622E-4  -2.938177385658491E-5  
 2.366000000000000E10   -3.114080755040050E-4  -3.347826714161784E-4  
 2.368000000000000E10   -1.610977487871423E-4  -3.231544978916645E-4  
 2.370000000000000E10   -7.505920366384089E-4   2.707355597522110E-4  
 2.372000000000000E10   -4.289433418307453E-4   1.634422660572454E-4  
 2.374000000000000E10    1.658751280047000E-4   5.226337816566229E-4  
 2.376000000000000E10   -1.171401090687141E-4  -4.385429201647639E-4  
 2.378000000000000E10   -7.260446436703205E-4  -3.755697398446500E-4  
 2.380000000000000E10   -8.635408594273031E-4   7.722266018390656E-4  
 2.382000000000000E10    5.579785211011767E-4   8.557724650017917E-4  
 2.384000000000000E10    4.624223947757855E-5  -1.104958573705517E-4  
 2.386000000000000E10   -9.106500656343997E-4  -3.409285272937268E-4  
 2.388000000000000E10   -8.461491088382900E-4   1.221897313371301E-3  
 2.390000000000000E10    1.290073414565995E-4   8.610304794274271E-4  
 2.392000000000000E10    3.411091747693718E-4   2.769692400761414E-5  
 2.394000000000000E10   -6.330063333734870E-4   1.987988653127104E-4  
 2.396000000000000E10   -1.668926706770435E-4   4.556979693006724E-4  
 2.398000000000000E10    1.529135770397261E-4   7.270604255609214E-4  
 2.400000000000000E10    1.816453586798161E-4   4.689734196290374E-4  
 2.402000000000000E10    1.796970173018053E-4   4.419980978127569E-4  
 2.404000000000000E10   -2.013754965446424E-5   2.042267260549124E-5  
 2.406000000000000E10    1.723367458907887E-4   6.090800161473453E-4  
 2.408000000000000E10   -1.610424951650202E-4   9.351074113510549E-4  
 2.410000000000000E10    8.486372535116971E-4   3.751970943994820E-4  
 2.412000000000000E10    6.693801842629910E-4   2.164333272958174E-4  
 2.414000000000000E10    1.675931125646457E-4  -5.753388395532966E-4  
 2.416000000000000E10    4.079029022250325E-4   5.977570544928312E-4  
 2.418000000000000E10    7.346434285864234E-4   5.064416909590364E-4  
 2.420000000000000E10    1.183880609460175E-3  -1.912734733195975E-4  
 2.422000000000000E10    2.248388191219419E-4  -4.094943578820676E-4  
 2.424000000000000E10   -1.050363280228339E-4   3.457564744167030E-4  
 2.426000000000000E10    5.060851690359414E-4   4.607195733115077E-4  
 2.428000000000000E10    8.666263893246651E-4  -2.854131744243205E-4  
 2.430000000000000E10    4.307164999772795E-5  -6.027839262969792E-4  
 2.432000000000000E10    2.107478358084336E-4  -5.712099373340607E-4  
 2.434000000000000E10    4.291362129151821E-4   8.214750414481387E-5  
 2.436000000000000E10    4.868811520282179E-4  -7.339277653954923E-4  
 2.438000000000000E10    6.442225421778858E-4  -3.976865846198052E-4  
 2.440000000000000E10    3.310164029244334E-4  -9.175363811664283E-5  
 2.442000000000000E10    1.448152033844963E-4  -5.774062592536211E-4  
 2.444000000000000E10    1.104604161810130E-4  -1.240469719050452E-4  
 2.446000000000000E10    2.744464472925756E-5  -7.803339394740760E-5  
 2.448000000000000E10    2.745962410699576E-4  -2.899997925851494E-4  
 2.450000000000000E10   -4.686405736720190E-5  -1.059254165738821E-3  
 2.452000000000000E10   -3.250637382734567E-4  -8.790264255367219E-4  
 2.454000000000000E10   -4.629647301044315E-4   1.136877763201483E-4  
 2.456000000000000E10    5.486165755428374E-4  -3.147431998513639E-4  
 2.458000000000000E10    3.481656312942505E-4  -7.378451991826296E-4  
 2.460000000000000E10   -8.926204754970968E-4  -9.007324697449803E-4  
 2.462000000000000E10   -7.414150168187916E-4   5.082992720417678E-4  
 2.464000000000000E10   -1.615553483134136E-4   1.331360981566832E-4  
 2.466000000000000E10    1.463632215745747E-4  -4.501624498516321E-4  
 2.468000000000000E10   -8.037378429435194E-4  -6.554037099704146E-4  
 2.470000000000000E10   -3.621448995545507E-4  -4.215904336888343E-4  
 2.472000000000000E10   -1.472701842430979E-4   3.509768284857273E-4  
 2.474000000000000E10    8.265133510576561E-5  -3.224359243176878E-4  
 2.476000000000000E10    2.109278429998085E-4   1.094692925107665E-4  
 2.478000000000000E10    1.261259894818068E-4   2.247333895866177E-6  
 2.480000000000000E10   -1.834771683206782E-4  -1.966726449609269E-5  
 2.482000000000000E10   -3.677667118608952E-4   3.912777756340802E-4  
 2.484000000000000E10    3.268423897679895E-4   5.579508724622428E-4  
 2.486000000000000E10   -1.260102435480803E-4  -3.368135076016188E-4  
 2.488000000000000E10   -2.061229606624693E-4  -7.175569189712405E-4  
 2.490000000000000E10   -4.227126482874155E-4   2.957465767394751E-4  
 2.492000000000000E10    3.522573388181627E-4  -1.138482548412867E-4  
 2.494000000000000E10    1.065415679477155E-3  -3.681931120809168E-4  
 2.496000000000000E10   -9.626197424950078E-5  -7.489802665077150E-4  
 2.498000000000000E10   -1.346925564575940E-4  -1.290986983804032E-4  
 2.500000000000000E10    2.790919970721006E-4   4.930403083562851E-4  
 2.502000000000000E10    4.861513443756849E-4   1.983927541004960E-5  
 2.504000000000000E10   -2.871015458367765E-4  -6.097667501308024E-4  
 2.506000000000000E10   -1.505707768956199E-4  -1.114077967940830E-4  
 2.508000000000000E10   -2.811020822264254E-4   1.132116740336642E-4  
 2.510000000000000E10   -3.957137232646346E-5  -4.552205791696906E-4  
 2.512000000000000E10   -4.288251147954725E-5  -5.762150976806879E-5  
 2.514000000000000E10   -2.697064483072609E-4  -2.804554824251682E-4  
 2.516000000000000E10   -2.327273687114939E-4  -1.469004782848060E-4  
 2.518000000000000E10   -6.419154233299196E-4   2.839342050720006E-4  
 2.520000000000000E10   -2.380564110353589E-4   4.757696588058025E-4  
 2.522000000000000E10    5.667746881954372E-5   1.047024343279190E-4  
 2.524000000000000E10   -4.916164907626808E-4  -2.464138669893146E-4  
 2.526000000000000E10   -1.001153141260147E-3   2.119712007697672E-4  
 2.528000000000000E10   -2.728404069785029E-5   6.971348193474114E-4  
 2.530000000000000E10    4.804134659934789E-4   1.631951163290069E-4  
 2.532000000000000E10   -1.632978674024344E-4  -6.954651325941086E-4  
 2.534000000000000E10   -6.934771663509309E-4   2.638142905198038E-4  
 2.536000000000000E10   -1.192348718177527E-4   7.097873021848500E-4  
 2.538000000000000E10    3.147010575048626E-4   7.817862933734432E-5  
 2.540000000000000E10    7.629950414411724E-5  -1.057021218002774E-4  
 2.542000000000000E10   -2.448950253892690E-4   4.488725680857897E-4  
 2.544000000000000E10   -1.624298020033166E-4   4.163493576925248E-4  
 2.546000000000000E10    1.989536103792489E-4   4.077767662238330E-4  
 2.548000000000000E10   -1.415160659234971E-4   4.255773674231023E-4  
 2.550000000000000E10    1.028441402013414E-4   3.247226413805038E-4  
 2.552000000000000E10   -6.770255276933312E-5   1.580099342390895E-4  
 2.554000000000000E10   -3.712271281983703E-4   3.466221969574690E-4  
 2.556000000000000E10    6.603490328416228E-5   7.830829708836973E-4  
 2.558000000000000E10    4.387253138702363E-4  -1.245948624273296E-5  
 2.560000000000000E10   -1.182554115075618E-4  -4.340390732977539E-4  
 2.562000000000000E10   -2.245164214400575E-4   3.442077722866088E-4  
 2.564000000000000E10   -8.555450108360674E-7   8.483040728606284E-4  
 2.566000000000000E10    6.262673414312303E-4   5.162486195331439E-5  
 2.568000000000000E10    1.593631313880906E-4   3.066466597374529E-4  
 2.570000000000000E10   -4.376563883852214E-4   3.248911816626787E-4  
 2.572000000000000E10    4.102221864741296E-4   5.193118122406304E-4  
 2.574000000000000E10    1.573801127960905E-4   2.658068551681936E-4  
 2.576000000000000E10   -1.043469310388900E-4  -3.882124728988856E-4  
 2.578000000000000E10    3.088401717832312E-5   2.981226134579629E-4  
 2.580000000000000E10    1.348921359749511E-4   1.196270604850724E-4  
 2.582000000000000E10   -4.920730498270132E-5  -2.155792317353189E-4  
 2.584000000000000E10    3.722902620211244E-4  -3.154859950882383E-5  
 2.586000000000000E10    2.495559165254235E-4   2.832229656632990E-4  
 2.588000000000000E10    2.137649571523070E-4  -3.212094306945801E-4  
 2.590000000000000E10    7.285279934876598E-6   1.265016762772575E-4  
 2.592000000000000E10   -2.603536122478545E-4   4.043422813992947E-5  
 2.594000000000000E10    2.555370447225869E-4  -2.181417075917125E-4  
 2.596000000000000E10   -1.409940741723403E-4  -1.695980899967253E-4  
 2.598000000000000E10   -4.247860633768141E-4  -1.338530419161543E-4  
 2.600000000000000E10    1.011102867778391E-4  -1.062306619132869E-4  
 2.602000000000000E10    4.144312988501042E-4  -3.877731505781412E-4  
 2.604000000000000E10   -4.874233272857964E-4  -3.687518765218556E-4  
 2.606000000000000E10   -2.882719563785940E-4  -8.362208609469235E-5  
 2.608000000000000E10    3.059614100493491E-4   2.031115436693654E-4  
 2.610000000000000E10   -4.082378291059285E-4  -2.989422355312854E-4  
 2.612000000000000E10   -1.334263070020825E-4  -9.907237836159766E-5  
 2.614000000000000E10   -3.438841085880995E-4   2.220147725893185E-4  
 2.616000000000000E10    9.475792467128485E-5  -1.091904960048851E-5  
 2.618000000000000E10    1.275469403481111E-4  -2.233724080724642E-4  
 2.620000000000000E10   -2.584279864095151E-4  -1.466591056669131E-4  
 2.622000000000000E10   -1.433722209185362E-4   7.739716966170818E-5  
 2.624000000000000E10    2.654045820236206E-4  -1.827171763579827E-5  
 2.626000000000000E10   -2.975518000312150E-4   6.113396375440061E-5  
 2.628000000000000E10   -3.967395241488703E-5  -2.576201513875276E-4  
 2.630000000000000E10    1.620695984456688E-4  -7.397330591629725E-6  
 2.632000000000000E10   -1.053110172506422E-4  -2.868569863494486E-4  
 2.634000000000000E10    2.344071544939652E-4  -1.833026035455987E-4  
 2.636000000000000E10    2.540446585044265E-4  -1.293368986807764E-4  
 2.638000000000000E10    3.152297285851091E-4  -2.994749811477959E-4  
 2.640000000000000E10   -9.596964810043573E-5  -3.774502256419510E-4  
 2.642000000000000E10   -3.190902643837035E-4   9.828516340348870E-5  
 2.644000000000000E10   -1.052198567776941E-4   1.171883050119504E-4  
 2.646000000000000E10    9.510538802715018E-5  -2.737346803769469E-4  
 2.648000000000000E10   -5.971282371319830E-4  -2.882441731344443E-5  
 2.650000000000000E10   -2.225880889454857E-4  -1.199815669679083E-4  
 2.652000000000000E10    1.970322337001562E-4   6.038387800799683E-5  
 2.654000000000000E10   -9.651478649175260E-6  -2.501095295883715E-4  
 2.656000000000000E10    9.197562758345157E-5   5.477800732478499E-5  
 2.658000000000000E10    7.852596900193021E-5   2.135889080818743E-4  
 2.660000000000000E10    1.781622704584152E-4   2.962312137242407E-4  
 2.662000000000000E10   -1.505835680291057E-4   2.316250174771994E-4  
 2.664000000000000E10   -2.803896313707810E-5   2.835717750713229E-4  
 2.666000000000000E10   -1.657109241932631E-4  -1.272949011763558E-4  
 2.668000000000000E10    1.405740476911888E-4  -2.754259621724486E-4  
 2.670000000000000E10   -3.774005745071918E-4   2.788993879221380E-4  
 2.672000000000000E10    1.331597013631836E-4  -2.028075832640752E-4  
 2.674000000000000E10    1.116504354286008E-4  -1.509895519120619E-4  
 2.676000000000000E10   -5.455913487821817E-4  -1.599397801328450E-4  
 2.678000000000000E10    5.470295945997350E-5   3.335061483085156E-4  
 2.680000000000000E10   -6.241451046662405E-5   2.880966931115836E-4  
 2.682000000000000E10   -2.244987408630550E-4   1.656752428971231E-4  
 2.684000000000000E10   -6.148253451101482E-4   4.640725965145975E-4  
 2.686000000000000E10   -6.367074092850089E-5   2.793089079204947E-4  
 2.688000000000000E10   -8.254524800577201E-6   2.929637594206724E-5  
 2.690000000000000E10   -3.339223039802164E-4   3.249600194976665E-5  
 2.692000000000000E10   -2.788396959658712E-4   2.859260130207986E-4  
 2.694000000000000E10    3.740001993719488E-4   6.747471343260258E-5  
 2.696000000000000E10    2.695031871553510E-4   2.444977872073650E-4  
 2.698000000000000E10   -3.089832607656717E-4   1.677970431046560E-5  
 2.700000000000000E10   -5.125689494889230E-5   2.523038419894874E-4  
 2.702000000000000E10    4.625073415809311E-5   2.030511386692524E-4  
 2.704000000000000E10   -8.387421985389665E-5  -1.118747823056765E-4  
 2.706000000000000E10    1.313015818595886E-4  -1.632713247090578E-4  
 2.708000000000000E10    1.254172238986939E-4  -3.480967279756442E-5  
 2.710000000000000E10   -1.479453494539484E-4  -2.857044746633619E-4  
 2.712000000000000E10    2.348817943129689E-4  -8.439170778729022E-5  
 2.714000000000000E10    2.914812939707190E-4   2.476263034623116E-4  
 2.716000000000000E10    2.722388308029622E-4  -3.948621160816401E-4  
 2.718000000000000E10    4.722197627415881E-5  -1.463905937271193E-4  
 2.720000000000000E10   -1.527094282209873E-4   2.007182629313320E-4  
 2.722000000000000E10    3.807133543887176E-5   1.704203314147890E-4  
 2.724000000000000E10    6.269341101869941E-4  -3.107915690634400E-4  
 2.726000000000000E10   -8.452295151073486E-5  -6.013133315718733E-5  
 2.728000000000000E10   -3.008722560480237E-4  -1.859264011727646E-4  
 2.730000000000000E10    6.134164286777377E-4   1.843146746978164E-4  
 2.732000000000000E10    2.503766736481339E-4  -2.738369512371719E-4  
 2.734000000000000E10    6.322155240923166E-5  -2.891677431762219E-4  
 2.736000000000000E10   -9.623153891880065E-5   1.077331980923191E-4  
 2.738000000000000E10    3.060817543882877E-4  -2.756440080702305E-4  
 2.740000000000000E10    2.070001501124352E-4  -9.365044388687238E-5  
 2.742000000000000E10    1.237628312082961E-4   8.739175973460078E-5  
 2.744000000000000E10    1.143361005233601E-4  -1.371757680317387E-4  
 2.746000000000000E10   -8.472848276142031E-5  -3.683133400045335E-4  
 2.748000000000000E10   -4.936932818964124E-4   2.942577993962914E-4  
 2.750000000000000E10    1.909236452775076E-4   1.481681829318404E-4  
 2.752000000000000E10    4.169754392933101E-4  -2.215792192146182E-4  
 2.754000000000000E10   -3.594055306166410E-4  -3.563670616131276E-4  
 2.756000000000000E10   -3.976580046582967E-5   3.431613149587065E-4  
