#  HZ   S   RI   R     50.00 
! Rohde & Schwarz ZVA40 4Ports - Version 3.90 - 1145.1110k42 SN: 100403
! Date: 2023-10-04 07:55:58
! Measurement: S12 
! 
 2.200000000000000E10    1.084677060134709E-3   3.436978440731764E-4  
 2.202000000000000E10    7.803965127095580E-4  -6.873173406347632E-4  
 2.204000000000000E10   -9.521401079837233E-5  -7.165994611568749E-4  
 2.206000000000000E10   -5.053964559920132E-4   5.001876852475107E-4  
 2.208000000000000E10    7.595142233185470E-4   2.805904368869960E-4  
 2.210000000000000E10    5.720027256757021E-4  -6.295646307989955E-4  
 2.212000000000000E10   -3.363567811902612E-4  -6.028395728208125E-4  
 2.214000000000000E10   -1.347094512311742E-4   4.053527081850916E-4  
 2.216000000000000E10    4.201630945317447E-4  -6.442693120334297E-5  
 2.218000000000000E10    3.498776350170374E-4  -4.163631238043308E-4  
 2.220000000000000E10   -2.111155336024240E-4   2.495372027624399E-4  
 2.222000000000000E10    4.785654309671372E-4  -2.343347587157041E-4  
 2.224000000000000E10   -3.201200161129236E-4  -2.428942680126056E-4  
 2.226000000000000E10   -4.394393472466618E-4  -3.717747749760747E-4  
 2.228000000000000E10   -2.887638947868254E-5   7.074286695569754E-4  
 2.230000000000000E10    3.813557559624314E-4  -8.273171260952950E-4  
 2.232000000000000E10   -4.004375950898975E-4  -7.753135287202895E-4  
 2.234000000000000E10   -1.201880979351699E-3   1.205565276904963E-4  
 2.236000000000000E10    2.396637137280777E-4   1.062097377143800E-3  
 2.238000000000000E10    6.875279941596091E-4  -3.154092701151967E-4  
 2.240000000000000E10   -4.553368780761957E-4  -7.395926513709128E-4  
 2.242000000000000E10   -1.113885547965765E-3   3.337240777909756E-4  
 2.244000000000000E10    8.006022653717082E-6   8.385065593756735E-4  
 2.246000000000000E10    3.680063673527911E-5  -7.462339453923050E-6  
 2.248000000000000E10   -4.845368384849280E-4  -8.146863547153771E-4  
 2.250000000000000E10   -6.198050687089562E-4   3.956641594413668E-4  
 2.252000000000000E10   -2.415232156636193E-4   1.593119304743595E-5  
 2.254000000000000E10   -2.924174441432115E-5  -4.381547041703016E-4  
 2.256000000000000E10   -5.704888026230037E-4   2.376836637267843E-4  
 2.258000000000000E10    2.949815825559199E-4   3.044028708245605E-4  
 2.260000000000000E10   -1.232755312230438E-4  -4.561923269648105E-4  
 2.262000000000000E10   -8.488735184073448E-4  -8.863148832460865E-5  
 2.264000000000000E10   -3.732043551281095E-4   8.001720416359603E-4  
 2.266000000000000E10    4.466504906304181E-4   2.061795385088772E-4  
 2.268000000000000E10   -2.259503380628303E-4  -8.464352576993406E-4  
 2.270000000000000E10   -9.357511880807579E-4  -1.918947054946329E-5  
 2.272000000000000E10   -3.670715668704361E-4   7.288856431841850E-4  
 2.274000000000000E10    7.236829842440784E-4   9.895300900097936E-5  
 2.276000000000000E10    1.111449237214401E-4  -8.685308275744319E-4  
 2.278000000000000E10   -7.181270630098879E-4  -5.059436080045998E-4  
 2.280000000000000E10    3.882171586155891E-5   3.721630782820284E-4  
 2.282000000000000E10    4.085787222720683E-4   2.600501466076821E-4  
 2.284000000000000E10    1.029780323733576E-4  -5.894075729884207E-4  
 2.286000000000000E10   -4.898418410448358E-5   3.123054921161383E-4  
 2.288000000000000E10    9.878071432467550E-5  -2.750743587967008E-4  
 2.290000000000000E10   -2.225020143669099E-4  -4.420205950737000E-4  
 2.292000000000000E10   -2.033482160186395E-4   6.689719157293439E-4  
 2.294000000000000E10    3.736296785064042E-4   4.309517389629036E-4  
 2.296000000000000E10    3.382696595508605E-4  -5.920985131524503E-4  
 2.298000000000000E10   -5.150845390744507E-4  -1.810357935028151E-4  
 2.300000000000000E10   -5.380965885706246E-4   1.039638533256948E-3  
 2.302000000000000E10    9.319119853898883E-4   5.268220556899905E-4  
 2.304000000000000E10    7.303436868824065E-4  -4.456411115825176E-4  
 2.306000000000000E10   -7.085240213200450E-4  -2.796654589474201E-4  
 2.308000000000000E10   -1.232042995980009E-4   6.809299811720848E-4  
 2.310000000000000E10    5.117589025758207E-4   9.826100431382656E-4  
 2.312000000000000E10    3.536726871971041E-4  -4.612155607901514E-4  
 2.314000000000000E10   -1.422241184627637E-4  -1.666533498791978E-4  
 2.316000000000000E10   -4.592197656165808E-4   8.193700923584402E-4  
 2.318000000000000E10    5.171684733795701E-6   3.045686207769904E-5  
 2.320000000000000E10    9.392958600074053E-5   1.222188875544816E-4  
 2.322000000000000E10   -2.500078117009252E-4   1.201650666189380E-4  
 2.324000000000000E10    6.688770372420549E-5  -1.165483918157406E-4  
 2.326000000000000E10   -3.658520872704685E-4  -3.029478830285370E-4  
 2.328000000000000E10   -5.294223665259779E-4   4.837629385292530E-4  
 2.330000000000000E10    4.481951182242483E-4   5.220816819928587E-4  
 2.332000000000000E10    8.284215582534671E-4  -3.610679996199906E-4  
 2.334000000000000E10   -6.647842237725854E-4  -1.814085844671354E-4  
 2.336000000000000E10   -4.305136972106993E-4   7.580511737614870E-4  
 2.338000000000000E10    6.894525140523911E-4   1.443333341740072E-3  
 2.340000000000000E10    3.019773284904659E-4  -4.176340880803764E-4  
 2.342000000000000E10   -3.559773613233119E-4  -3.303729172330350E-4  
 2.344000000000000E10   -8.873399929143488E-4   1.194823533296585E-3  
 2.346000000000000E10    4.616999067366123E-4   7.858590106479824E-4  
 2.348000000000000E10    7.463475340045989E-4  -4.943025414831936E-4  
 2.350000000000000E10   -2.430309541523457E-4  -2.603968023322523E-4  
 2.352000000000000E10   -3.244810213800520E-4   3.590667038224638E-4  
 2.354000000000000E10    7.553453906439245E-4   3.370687772985548E-4  
 2.356000000000000E10    6.049330113455653E-4  -1.796019569155760E-5  
 2.358000000000000E10    2.934302901849151E-4  -1.013505097944289E-4  
 2.360000000000000E10    5.023133708164096E-4   7.655534864170477E-5  
 2.362000000000000E10   -1.604763820068911E-4  -2.476784866303206E-4  
 2.364000000000000E10   -6.157802999950945E-5   2.605507906991988E-4  
 2.366000000000000E10    2.538664848543704E-4   5.180678563192487E-4  
 2.368000000000000E10    6.431594374589622E-4  -4.318039573263377E-4  
 2.370000000000000E10   -2.852903562597930E-4  -6.887071649543941E-4  
 2.372000000000000E10   -4.894619924016297E-4   1.513138558948413E-4  
 2.374000000000000E10    8.969559567049146E-4   7.525355322286487E-4  
 2.376000000000000E10    8.394717006012797E-4  -8.468471351079643E-4  
 2.378000000000000E10   -2.690406108740717E-4  -1.072700833901763E-3  
 2.380000000000000E10   -4.074173339176923E-4   8.445431594736874E-4  
 2.382000000000000E10    9.430481586605310E-4   6.539045716635883E-4  
 2.384000000000000E10    7.248012698255479E-4  -4.620299150701612E-4  
 2.386000000000000E10   -1.799723977455869E-4  -6.051726522855461E-4  
 2.388000000000000E10   -3.383112925803289E-5   7.075160974636674E-4  
 2.390000000000000E10    4.944857791997492E-4   2.775241446215659E-4  
 2.392000000000000E10    7.856464944779873E-4  -2.591214433778077E-4  
 2.394000000000000E10   -1.437320406694198E-5   9.255438158106699E-7  
 2.396000000000000E10    1.452665164833888E-4  -2.667176886461675E-4  
 2.398000000000000E10    8.478773088427261E-5   1.850663393270224E-4  
 2.400000000000000E10    4.860335684497841E-5  -2.539903798606247E-4  
 2.402000000000000E10    6.166442763060331E-4  -3.303032281110063E-5  
 2.404000000000000E10    1.950782025232911E-4  -7.266695029102266E-4  
 2.406000000000000E10   -1.393247948726639E-4  -8.288369863294065E-4  
 2.408000000000000E10   -2.421091485302895E-4   1.958305801963434E-4  
 2.410000000000000E10    3.963518247473985E-4   8.077020902419463E-5  
 2.412000000000000E10    8.126160828396678E-4  -5.448271986097097E-4  
 2.414000000000000E10   -4.012328281532973E-4  -1.166450325399637E-3  
 2.416000000000000E10   -6.528966478072107E-4   2.334156015422195E-4  
 2.418000000000000E10   -4.897278267890215E-5   7.482984801754355E-5  
 2.420000000000000E10    5.653965054079890E-4  -6.335416692309082E-4  
 2.422000000000000E10   -1.443502842448652E-4  -9.260113583877683E-4  
 2.424000000000000E10   -5.448130541481078E-4  -5.873932386748493E-4  
 2.426000000000000E10   -1.334165281150490E-4   5.962069189990871E-5  
 2.428000000000000E10    1.228898618137464E-4  -3.692476020660251E-4  
 2.430000000000000E10   -1.434610312571749E-4  -4.482318763621151E-4  
 2.432000000000000E10   -3.008037165272981E-4  -3.972854756284505E-4  
 2.434000000000000E10   -4.536555206868798E-4  -7.762687891954556E-5  
 2.436000000000000E10   -5.730831762775779E-4  -4.825573996640742E-4  
 2.438000000000000E10   -4.848111711908132E-4   5.594504182226956E-5  
 2.440000000000000E10   -3.284957201685756E-4  -2.534449449740350E-4  
 2.442000000000000E10   -2.567322808317840E-4  -4.292933153919876E-4  
 2.444000000000000E10   -6.411822396330535E-4  -1.078021668945439E-4  
 2.446000000000000E10   -3.464375622570515E-4   3.501986211631447E-4  
 2.448000000000000E10    4.447460523806512E-4   6.864108727313578E-4  
 2.450000000000000E10    3.768379974644631E-5  -6.507247599074617E-5  
 2.452000000000000E10   -4.904922679997981E-4  -5.528118344955146E-5  
 2.454000000000000E10   -4.460187337826937E-4   1.050017192028463E-3  
 2.456000000000000E10    5.994354069116525E-5   2.528309996705502E-4  
 2.458000000000000E10    2.091875066980720E-4  -2.197048743255436E-4  
 2.460000000000000E10   -8.384552784264088E-4   2.255059953313321E-4  
 2.462000000000000E10   -8.267522935057059E-5   3.682818496599793E-4  
 2.464000000000000E10    2.298869076184928E-4   3.176250902470201E-4  
 2.466000000000000E10    1.946975680766627E-4   7.107829151209444E-5  
 2.468000000000000E10   -4.320831430959515E-5   3.133079007966444E-5  
 2.470000000000000E10    6.264826515689492E-5   4.554914485197514E-4  
 2.472000000000000E10   -2.300626510987058E-4   5.836922209709883E-4  
 2.474000000000000E10   -3.737374208867550E-5   1.065068936441094E-4  
 2.476000000000000E10    1.137442668550648E-4   5.586935440078378E-4  
 2.478000000000000E10   -1.730923249851912E-4  -3.718183052114910E-6  
 2.480000000000000E10   -2.081816928694025E-4  -2.791168226394802E-4  
 2.482000000000000E10   -4.141162207815796E-4   3.489236987661570E-4  
 2.484000000000000E10    1.036918984027579E-4   4.004343645647168E-4  
 2.486000000000000E10    5.208270740695298E-4  -1.625122968107462E-4  
 2.488000000000000E10   -1.393863494740799E-4  -5.568854394368827E-4  
 2.490000000000000E10   -6.508409860543907E-4   2.765023382380605E-4  
 2.492000000000000E10    9.191843855660409E-5   7.323366007767618E-4  
 2.494000000000000E10    5.986947799101472E-4  -1.295425681746565E-5  
 2.496000000000000E10   -3.001600853167474E-4  -3.987376694567502E-4  
 2.498000000000000E10   -6.000427529215813E-4   2.578858984634280E-4  
 2.500000000000000E10   -9.882769518299028E-5   6.490520318038762E-4  
 2.502000000000000E10    3.288628940936178E-4  -5.844052429893054E-5  
 2.504000000000000E10    4.829302633879706E-5  -2.977121912408620E-4  
 2.506000000000000E10   -3.778103855438530E-4  -1.350265374640003E-4  
 2.508000000000000E10   -2.603539905976504E-4  -6.739739183103666E-5  
 2.510000000000000E10   -1.155614954768680E-4   1.722151791909710E-4  
 2.512000000000000E10   -2.455065441608895E-5   3.736216167453677E-4  
 2.514000000000000E10    1.896543544717133E-4  -3.598823968786746E-4  
 2.516000000000000E10   -2.368711575400084E-4  -3.029892977792770E-4  
 2.518000000000000E10   -6.255279295146465E-4   2.819619548972696E-4  
 2.520000000000000E10    3.156879392918199E-5   4.528040299192071E-4  
 2.522000000000000E10    4.265058378223330E-4   1.644500880502164E-4  
 2.524000000000000E10   -3.496400604490191E-4  -5.284507060423493E-4  
 2.526000000000000E10   -3.457696875557303E-4   1.544555416330695E-4  
 2.528000000000000E10    1.567174913361669E-4   8.771549910306931E-4  
 2.530000000000000E10    5.489420727826655E-4   9.787666931515560E-5  
 2.532000000000000E10    3.194742021150887E-4  -9.069307270692661E-5  
 2.534000000000000E10   -3.889484214596450E-4   4.052070435136557E-4  
 2.536000000000000E10    5.123362279846333E-5   4.541867529042065E-4  
 2.538000000000000E10    1.169210518128239E-4   4.675771342590451E-4  
 2.540000000000000E10    5.216764839133248E-5   1.347481011180207E-4  
 2.542000000000000E10    1.797101722331718E-4  -1.353184507024707E-5  
 2.544000000000000E10    1.619105460122228E-4   1.056463806889951E-4  
 2.546000000000000E10    1.023787917802110E-4   2.010143070947379E-4  
 2.548000000000000E10    8.612882229499519E-4   4.322153108660132E-4  
 2.550000000000000E10    7.084686658345163E-4  -1.093004830181599E-4  
 2.552000000000000E10    1.568827719893307E-4  -2.149275533156470E-4  
 2.554000000000000E10    2.468681195750833E-4   3.703936818055809E-4  
 2.556000000000000E10    5.088705802336335E-4   8.304803050123155E-4  
 2.558000000000000E10    7.629747851751745E-4  -3.959141904488206E-4  
 2.560000000000000E10    7.219876715680584E-5  -4.411056870594621E-4  
 2.562000000000000E10   -3.852238878607750E-4   9.414734813617542E-5  
 2.564000000000000E10    2.469951577950269E-4   2.997015253640711E-4  
 2.566000000000000E10    6.642707739956677E-4  -3.716479404829443E-4  
 2.568000000000000E10    4.841983536607586E-5  -5.900999531149864E-4  
 2.570000000000000E10   -8.982139115687460E-5  -1.998671359615400E-4  
 2.572000000000000E10    1.321483432548121E-4   2.648043737281114E-4  
 2.574000000000000E10    6.598491745535284E-5  -1.576849026605487E-4  
 2.576000000000000E10    1.802093465812504E-4  -1.835764123825356E-4  
 2.578000000000000E10   -3.180108906235546E-4  -1.973829785129055E-4  
 2.580000000000000E10   -3.641235525719822E-4  -2.340334176551551E-4  
 2.582000000000000E10    9.852870425675064E-5  -6.507078069262207E-6  
 2.584000000000000E10    1.050055725499988E-4  -1.372451079078019E-4  
 2.586000000000000E10    7.141931564547122E-5  -3.038900031242520E-4  
 2.588000000000000E10    1.204145883093588E-4  -1.887872640509158E-4  
 2.590000000000000E10   -1.861023920355365E-4   4.460201016627252E-4  
 2.592000000000000E10    3.304938727524132E-4   3.365343945915811E-5  
 2.594000000000000E10    3.321349504403770E-4   5.226060602581129E-5  
 2.596000000000000E10   -4.892730503343046E-4  -9.957810834748671E-5  
 2.598000000000000E10   -1.297132112085819E-4   1.039603666868061E-4  
 2.600000000000000E10    2.398424403509125E-4   3.031064115930349E-4  
 2.602000000000000E10    3.106460280832835E-5  -2.645767817739397E-4  
 2.604000000000000E10   -2.271433768328279E-4  -2.516427775844932E-4  
 2.606000000000000E10    2.692025191208813E-5  -1.966073068615515E-5  
 2.608000000000000E10   -1.781414175638929E-4   1.424884103471413E-4  
 2.610000000000000E10   -1.203914507641457E-4  -2.467152626195457E-6  
 2.612000000000000E10   -1.041481955326162E-4   3.915772686013952E-5  
 2.614000000000000E10   -3.507173823891208E-5  -1.271491928491741E-4  
 2.616000000000000E10   -1.777995494194329E-4   4.798949157702737E-5  
 2.618000000000000E10   -5.951285129413009E-4   2.560055581852794E-4  
 2.620000000000000E10   -3.757021113415249E-5   5.841351594426669E-5  
 2.622000000000000E10    1.282963348785415E-4  -2.376876218477264E-4  
 2.624000000000000E10   -3.001586010213941E-4  -5.234275886323303E-5  
 2.626000000000000E10   -2.119386917911470E-4   3.250718291383237E-4  
 2.628000000000000E10    3.299486124888063E-4   2.591225202195346E-4  
 2.630000000000000E10   -4.400343459565193E-5   3.074207052122802E-4  
 2.632000000000000E10   -3.750664182007313E-4  -1.085333351511508E-4  
 2.634000000000000E10   -2.263799979118630E-5   3.343120333738625E-4  
 2.636000000000000E10    3.822598046099301E-6  -3.444606554694474E-4  
 2.638000000000000E10   -5.162135948921787E-6  -5.836984491907060E-4  
 2.640000000000000E10   -3.748764574993402E-4  -1.455921883461997E-4  
 2.642000000000000E10    9.893058449961245E-5  -9.369190956931561E-5  
 2.644000000000000E10    3.389838675502688E-4  -1.834624417824671E-4  
 2.646000000000000E10   -3.167738032061607E-4  -4.320864391047508E-4  
 2.648000000000000E10   -1.248952612513676E-4   2.745402161963284E-4  
 2.650000000000000E10    2.443300618324429E-4   8.493373752571642E-5  
 2.652000000000000E10   -3.570436965674162E-4  -3.533808630891144E-4  
 2.654000000000000E10   -4.817718872800469E-4  -4.307174531277269E-4  
 2.656000000000000E10    2.971918002003804E-5   4.565227718558163E-4  
 2.658000000000000E10   -2.994907554239035E-4  -3.775629156734794E-4  
 2.660000000000000E10    2.136950206477195E-5  -4.039178893435746E-4  
 2.662000000000000E10   -2.058432000922039E-4   9.357782982988283E-5  
 2.664000000000000E10    2.499838301446289E-4  -3.604320590966381E-5  
 2.666000000000000E10    7.902891229605302E-5  -1.572308538015932E-4  
 2.668000000000000E10   -2.781460352707654E-4   1.995494676521048E-5  
 2.670000000000000E10   -1.600892137503251E-4   2.575860125944018E-4  
 2.672000000000000E10    3.093337872996926E-4  -2.054251235676929E-4  
 2.674000000000000E10   -3.259173536207527E-4  -2.596153644844890E-4  
 2.676000000000000E10   -3.923182084690779E-4  -2.432008186588064E-4  
 2.678000000000000E10    6.446870393119752E-4  -3.323359851492569E-5  
 2.680000000000000E10    2.711361448746175E-4  -4.851105331908912E-4  
 2.682000000000000E10   -1.556338247610256E-4  -2.390023873886094E-4  
 2.684000000000000E10    5.475780199049041E-5   2.694336290005595E-4  
 2.686000000000000E10    3.707492724061012E-4   3.083834890276194E-4  
 2.688000000000000E10   -5.584499376709573E-5  -1.630338229006156E-4  
 2.690000000000000E10   -3.586987731978297E-4   3.295591159258038E-5  
 2.692000000000000E10   -4.206944765883236E-7   4.547526768874377E-4  
 2.694000000000000E10    3.151883720420301E-4  -7.156760693760589E-5  
 2.696000000000000E10   -2.040822873823345E-4   3.973052662331611E-5  
 2.698000000000000E10   -1.205735970870592E-4   6.250487786019221E-5  
 2.700000000000000E10    4.155858478043228E-4   4.555663035716862E-4  
 2.702000000000000E10    2.026500442298129E-4   1.968345459317789E-4  
 2.704000000000000E10    5.822442471981049E-5   2.702902129385620E-4  
 2.706000000000000E10    4.193872155155987E-4   2.925568551290780E-4  
 2.708000000000000E10    2.769119164440781E-4   5.837174467160367E-5  
 2.710000000000000E10   -1.823190978029743E-4   4.515285399975255E-5  
 2.712000000000000E10   -2.718825498959632E-6   3.050799714401364E-4  
 2.714000000000000E10    3.689357254188508E-4   1.654382504057139E-4  
 2.716000000000000E10    2.115857205353677E-4  -4.033466975670308E-4  
 2.718000000000000E10   -3.459969884715974E-4  -6.439327262341976E-5  
 2.720000000000000E10   -2.037914382526651E-4   4.564801929518580E-4  
 2.722000000000000E10    3.212364099454135E-4   2.009955351240933E-4  
 2.724000000000000E10    1.001300406642258E-4  -2.327743713976815E-4  
 2.726000000000000E10   -3.853721427731216E-4  -2.415058406768367E-4  
 2.728000000000000E10   -6.680334627162665E-5   3.500306629575789E-4  
 2.730000000000000E10    3.017931012436748E-4   1.944886025739834E-4  
 2.732000000000000E10    1.485058019170538E-4  -4.437539610080421E-4  
 2.734000000000000E10   -1.458479382563382E-4  -1.604682911420241E-4  
 2.736000000000000E10   -9.679380309535191E-5   1.768552647263277E-5  
 2.738000000000000E10    2.329755225218833E-4  -1.545711565995589E-4  
 2.740000000000000E10    7.315442780964077E-5   3.313823981443420E-5  
 2.742000000000000E10   -5.533248622668907E-5  -2.314421581104398E-4  
 2.744000000000000E10   -1.200075712404214E-5  -2.598728460725397E-4  
 2.746000000000000E10   -1.602234697202221E-4  -3.435214966884814E-5  
 2.748000000000000E10    1.351310929749161E-4   8.972127398010343E-5  
 2.750000000000000E10    2.203101175837219E-4   7.674807420698926E-5  
 2.752000000000000E10   -9.862736078503076E-6  -2.699879114516079E-4  
 2.754000000000000E10   -5.320730269886553E-4  -3.471169038675726E-4  
 2.756000000000000E10   -5.886516300961375E-4   3.003838937729597E-4  
