#  HZ   S   RI   R     50.00 
! Rohde & Schwarz ZVA40 4Ports - Version 3.90 - 1145.1110k42 SN: 100403
! Date: 2023-10-04 07:55:37
! Measurement: S12 
! 
 2.200000000000000E10    2.237717271782458E-4   6.831198115833104E-4  
 2.202000000000000E10    2.896684163715690E-4  -8.835190965328366E-5  
 2.204000000000000E10   -2.969902707263827E-4  -7.841475890018046E-4  
 2.206000000000000E10   -5.499573308043182E-4   3.385470772627741E-4  
 2.208000000000000E10    3.918503352906555E-4   2.781065995804966E-4  
 2.210000000000000E10    4.360553430160508E-5   1.077135093510151E-4  
 2.212000000000000E10   -1.130007804022171E-4   5.974411615170538E-4  
 2.214000000000000E10    9.684330871095881E-5   6.613458390347660E-4  
 2.216000000000000E10   -1.344771735602990E-4  -3.683268005261198E-5  
 2.218000000000000E10   -1.192271360196173E-3   6.183661171235144E-4  
 2.220000000000000E10   -5.039273528382182E-4   1.283358666114509E-3  
 2.222000000000000E10    6.939047598280013E-4  -1.026585741783492E-4  
 2.224000000000000E10   -3.103553026448935E-4  -9.813563665375114E-4  
 2.226000000000000E10   -1.038183807395399E-3  -2.621327876113355E-4  
 2.228000000000000E10    2.602094027679414E-4   1.138989464379847E-3  
 2.230000000000000E10    1.118161715567112E-3   4.386550074286788E-7  
 2.232000000000000E10    3.209837886970490E-4  -5.924353608861566E-4  
 2.234000000000000E10   -7.864627405069768E-4   4.223879950586706E-4  
 2.236000000000000E10    3.287494473624975E-4   1.193193136714399E-3  
 2.238000000000000E10    5.995907704345882E-4   1.229131594300270E-4  
 2.240000000000000E10   -4.629209070117213E-5  -2.550052886363119E-5  
 2.242000000000000E10   -1.299571740673855E-4   4.619380342774093E-4  
 2.244000000000000E10    6.168201798573136E-4   1.333089221589034E-5  
 2.246000000000000E10   -1.871778295026161E-5  -3.049480146728456E-4  
 2.248000000000000E10   -1.545567793073133E-4   2.923323481809348E-4  
 2.250000000000000E10    1.079645007848740E-3   6.694718031212688E-4  
 2.252000000000000E10    9.618329931981862E-4  -7.519497885368764E-4  
 2.254000000000000E10   -5.466595757752657E-4  -5.317734903655946E-4  
 2.256000000000000E10   -4.763424294651486E-5   1.127819065004587E-3  
 2.258000000000000E10    1.178046688437462E-3   6.016818806529045E-4  
 2.260000000000000E10    6.179102347232401E-4  -1.135624828748405E-3  
 2.262000000000000E10   -8.480351534672082E-4  -5.471730255521834E-4  
 2.264000000000000E10   -4.982372047379613E-4   7.469315896742046E-4  
 2.266000000000000E10    9.930740343406797E-4   3.653537132777274E-4  
 2.268000000000000E10    6.524391938000917E-4  -7.627154700458050E-4  
 2.270000000000000E10   -6.445169565267861E-4  -2.302049688296393E-4  
 2.272000000000000E10   -1.748865033732727E-4   4.274768580216914E-4  
 2.274000000000000E10    5.936113884672523E-4   6.804303848184645E-5  
 2.276000000000000E10   -2.745556703303009E-4  -5.220510065555573E-4  
 2.278000000000000E10   -2.044038992607966E-4   2.224202908109874E-4  
 2.280000000000000E10    2.794627216644585E-4  -6.082137770135887E-5  
 2.282000000000000E10    2.442277909722179E-4  -7.864783401601017E-4  
 2.284000000000000E10   -4.135188064537942E-4  -2.589091018307954E-4  
 2.286000000000000E10    1.928999845404178E-4   5.922379205003381E-4  
 2.288000000000000E10    3.479616134427488E-4  -6.593486759811640E-4  
 2.290000000000000E10   -4.213381034787744E-4  -8.180445875041187E-4  
 2.292000000000000E10   -1.167285838164389E-3   6.200209609232843E-4  
 2.294000000000000E10   -6.704749102937058E-5   7.598569500260055E-4  
 2.296000000000000E10    6.963274790905416E-4  -4.242048307787627E-4  
 2.298000000000000E10   -1.332929823547602E-3  -9.633534355089068E-4  
 2.300000000000000E10   -9.476625709794462E-4   1.056493929354474E-4  
 2.302000000000000E10    3.432458615861833E-4   7.757436251267791E-4  
 2.304000000000000E10    2.220174355898053E-4  -7.116933120414615E-4  
 2.306000000000000E10   -3.544764185789973E-4  -5.358158960007131E-4  
 2.308000000000000E10   -1.656676904531196E-4   3.216515178792179E-4  
 2.310000000000000E10    2.461188123561442E-4   6.122957984189270E-6  
 2.312000000000000E10   -9.729343582876027E-5  -1.467249385314062E-4  
 2.314000000000000E10    8.926651207730174E-5   6.051231175661087E-4  
 2.316000000000000E10    3.014915273524821E-4   2.030451869359240E-4  
 2.318000000000000E10   -8.779898053035140E-5  -8.928299066610634E-4  
 2.320000000000000E10   -8.244048804044724E-4   4.108093562535942E-4  
 2.322000000000000E10    9.542672341922298E-5   3.401376307010651E-4  
 2.324000000000000E10    1.262503210455179E-3  -5.440954701043665E-4  
 2.326000000000000E10   -1.889271225081757E-4  -8.933916687965393E-4  
 2.328000000000000E10   -5.206672358326614E-4   9.846359716902953E-6  
 2.330000000000000E10    5.119643756188452E-4   1.250965171493590E-3  
 2.332000000000000E10    1.154622179456055E-3  -4.363920888863504E-4  
 2.334000000000000E10    1.689717173576355E-4  -9.910364169627428E-4  
 2.336000000000000E10   -4.552383325062692E-4   3.699598892126232E-4  
 2.338000000000000E10    3.512672847136855E-4   7.069679559208453E-4  
 2.340000000000000E10    8.281608461402357E-4  -6.204954115673900E-4  
 2.342000000000000E10    5.095563756185584E-5  -5.132613587193191E-4  
 2.344000000000000E10   -6.241896771825850E-4   1.986867137020454E-4  
 2.346000000000000E10    2.499997208360583E-4  -8.598459680797532E-5  
 2.348000000000000E10    2.588900861155707E-5   4.212904605083168E-5  
 2.350000000000000E10   -8.859102672431618E-5  -1.346750741504366E-5  
 2.352000000000000E10    3.617728943936527E-4  -2.534478262532502E-4  
 2.354000000000000E10   -1.577127404743806E-4  -6.694735493510962E-4  
 2.356000000000000E10   -7.757968851365149E-4  -1.045785757014528E-4  
 2.358000000000000E10    3.026938356924802E-4   6.509914528578520E-4  
 2.360000000000000E10    8.759324555285275E-4  -2.430609456496313E-4  
 2.362000000000000E10   -4.900885396637023E-4  -1.063775969669223E-3  
 2.364000000000000E10   -7.185483118519187E-4   6.289123848546296E-5  
 2.366000000000000E10    3.217687844880857E-5   1.216730219312012E-3  
 2.368000000000000E10    7.868215907365084E-4  -4.074631433468312E-4  
 2.370000000000000E10   -2.738734474405646E-4  -8.953318465501070E-4  
 2.372000000000000E10   -1.301552169024944E-3   2.319513623660896E-5  
 2.374000000000000E10    7.277666736626998E-5   7.240126142278314E-4  
 2.376000000000000E10    2.044317225227132E-4  -1.828433596529067E-4  
 2.378000000000000E10    2.535208659537602E-5  -1.186730107292533E-3  
 2.380000000000000E10   -6.602253415621817E-4   5.297893585520797E-5  
 2.382000000000000E10   -2.444247948005796E-4   5.431823228718713E-5  
 2.384000000000000E10    1.846869417931885E-4   2.999264979735017E-4  
 2.386000000000000E10   -7.330986409215257E-5   7.842402555979788E-5  
 2.388000000000000E10    1.261889410670847E-4   1.923522504512221E-4  
 2.390000000000000E10   -4.766140773426741E-4  -8.482632256345823E-5  
 2.392000000000000E10   -4.381058970466256E-4   4.118664073757827E-4  
 2.394000000000000E10   -1.594273198861629E-4   6.026209448464215E-4  
 2.396000000000000E10    6.123420898802578E-4  -3.841758007183671E-4  
 2.398000000000000E10   -1.829589309636504E-4  -2.966296451631934E-4  
 2.400000000000000E10   -7.012184360064566E-4   9.342805424239487E-5  
 2.402000000000000E10    2.519797999411821E-4   1.016804366372526E-3  
 2.404000000000000E10    5.016612121835351E-4   1.294031098950654E-4  
 2.406000000000000E10    1.393627462675795E-4  -5.984929157420993E-4  
 2.408000000000000E10   -8.622694294899702E-4   2.582927991170436E-4  
 2.410000000000000E10   -8.391374285565689E-5   6.926204659976065E-4  
 2.412000000000000E10    8.066712180152535E-4   1.375193824060261E-5  
 2.414000000000000E10    1.270969660254195E-4  -6.035540718585253E-4  
 2.416000000000000E10   -7.705190218985081E-4  -2.370844158576801E-4  
 2.418000000000000E10    5.400312875281088E-5   6.293114274740219E-4  
 2.420000000000000E10    4.791431711055338E-4   5.065437289886177E-4  
 2.422000000000000E10    2.817294443957508E-4  -8.773675654083490E-5  
 2.424000000000000E10   -2.066265733446926E-4  -6.003953967592679E-5  
 2.426000000000000E10   -2.762470103334636E-4   6.021583103574812E-4  
 2.428000000000000E10    6.843959909019759E-6   1.196503653773107E-4  
 2.430000000000000E10   -1.422625646227971E-4   2.457691298332065E-4  
 2.432000000000000E10   -1.064229363691993E-4  -1.095970401365776E-5  
 2.434000000000000E10    7.772694516461343E-5  -2.752705768216401E-4  
 2.436000000000000E10   -2.351260482100770E-4   1.376639920636080E-5  
 2.438000000000000E10   -2.419272204861045E-4   3.270554589107633E-4  
 2.440000000000000E10    6.477186107076705E-4   2.503355499356985E-4  
 2.442000000000000E10    4.200900730211288E-4  -3.940462192986161E-4  
 2.444000000000000E10   -6.352878408506513E-4  -1.525730040157214E-4  
 2.446000000000000E10   -2.624763874337077E-4   7.178594823926687E-4  
 2.448000000000000E10    8.277998858829960E-5   6.795530207455158E-4  
 2.450000000000000E10    1.360532187391073E-4  -9.169175609713420E-5  
 2.452000000000000E10   -1.023196964524686E-4  -1.735225523589179E-4  
 2.454000000000000E10   -4.508194397203624E-4   4.376948345452547E-4  
 2.456000000000000E10   -1.489025908085750E-5   2.967012405861169E-4  
 2.458000000000000E10    5.086099845357239E-4   4.080663784407079E-4  
 2.460000000000000E10   -3.015841357409954E-4   9.371393389301375E-5  
 2.462000000000000E10    8.909665484679863E-5   2.564041060395539E-4  
 2.464000000000000E10    3.970769284933340E-6   3.185844398103654E-4  
 2.466000000000000E10   -1.362734765280038E-4  -1.167824812000617E-4  
 2.468000000000000E10    3.648337442427874E-4   5.196376005187631E-4  
 2.470000000000000E10    4.424389917403460E-4   7.030780398054048E-5  
 2.472000000000000E10   -6.337580543913646E-6  -2.969634369947016E-4  
 2.474000000000000E10   -6.000143548590131E-5   2.247223455924541E-4  
 2.476000000000000E10    1.111706151277758E-4   7.516006589867175E-4  
 2.478000000000000E10    6.481027230620384E-4  -2.760995994322002E-4  
 2.480000000000000E10    1.641243434278294E-4  -3.526638611219823E-4  
 2.482000000000000E10   -4.996217903681099E-4   1.725198089843616E-4  
 2.484000000000000E10    1.616610970813781E-4   4.931541043333709E-4  
 2.486000000000000E10    7.629596511833370E-4   1.501182850915939E-4  
 2.488000000000000E10    4.359237664175453E-6  -2.696017909329385E-4  
 2.490000000000000E10   -3.914031258318573E-4  -2.235428692074493E-4  
 2.492000000000000E10    2.178340946557000E-4   3.449900832492858E-4  
 2.494000000000000E10   -3.522549741319381E-5   2.198383881477639E-4  
 2.496000000000000E10    4.250182246323675E-4  -2.088213514070958E-4  
 2.498000000000000E10   -4.768703547597397E-6   8.849304322211538E-6  
 2.500000000000000E10    2.341031358810142E-5  -2.071928756777197E-4  
 2.502000000000000E10    3.613760927692056E-4   2.469318278599531E-4  
 2.504000000000000E10    3.547251981217414E-4  -2.163735916838050E-5  
 2.506000000000000E10    3.626354446168989E-4  -7.168520824052393E-5  
 2.508000000000000E10    1.458519545849413E-4  -3.941635368391872E-4  
 2.510000000000000E10   -2.866742433980107E-4  -1.792089897207916E-4  
 2.512000000000000E10   -2.090146299451590E-4   3.692538011819124E-4  
 2.514000000000000E10    5.036192596890032E-4   1.524140679975972E-4  
 2.516000000000000E10    6.019559350534109E-6  -5.253754789009690E-4  
 2.518000000000000E10   -2.877397346310318E-4  -3.598178736865521E-4  
 2.520000000000000E10   -8.185365004464984E-5   4.913663724437356E-4  
 2.522000000000000E10    7.906475220806897E-4   4.557205465971492E-5  
 2.524000000000000E10    2.958756231237203E-4  -3.837548138108105E-4  
 2.526000000000000E10   -3.846494655590504E-4  -2.451209002174437E-4  
 2.528000000000000E10   -3.662790986709297E-4   5.046253209002316E-4  
 2.530000000000000E10    1.305611222051084E-4   1.024888042593375E-4  
 2.532000000000000E10    9.616569877834991E-5  -2.767487894743681E-4  
 2.534000000000000E10   -1.963560644071549E-4  -5.155720282346010E-4  
 2.536000000000000E10   -3.149364201817662E-4  -4.871342389378697E-4  
 2.538000000000000E10   -3.375674350536428E-5  -1.754619006533176E-4  
 2.540000000000000E10    2.964152372442186E-4  -2.542352885939181E-4  
 2.542000000000000E10    5.566937616094947E-4  -5.902969860471785E-4  
 2.544000000000000E10    9.603102807886899E-5  -5.793449236080051E-4  
 2.546000000000000E10   -7.479348278138787E-5  -6.441301229642704E-5  
 2.548000000000000E10    2.336271718377248E-4   3.141326596960425E-4  
 2.550000000000000E10    4.467412945814431E-4  -2.053994539892301E-4  
 2.552000000000000E10   -7.507890404667705E-5  -8.477536030113697E-4  
 2.554000000000000E10   -7.341972086578608E-4  -2.840988454408944E-4  
 2.556000000000000E10   -1.226415188284591E-4   2.631469214975368E-5  
 2.558000000000000E10    4.031786811538041E-4  -3.577337774913758E-4  
 2.560000000000000E10   -9.859998499450740E-6  -8.448313456028700E-4  
 2.562000000000000E10   -9.267294808523729E-5  -3.804330481216312E-4  
 2.564000000000000E10   -6.056591246306198E-7   8.486659498885274E-5  
 2.566000000000000E10    8.076787707977928E-6   1.351415994577110E-4  
 2.568000000000000E10    1.618208916625008E-4  -1.303785538766533E-4  
 2.570000000000000E10    6.885707989567891E-5   4.776191053679213E-5  
 2.572000000000000E10   -7.555785123258829E-4  -1.598757371539250E-4  
 2.574000000000000E10   -3.158762701787055E-4   9.695215703686699E-5  
 2.576000000000000E10   -2.221915747213643E-5   1.259041309822351E-4  
 2.578000000000000E10   -7.961478695506230E-5  -7.125254487618804E-4  
 2.580000000000000E10   -1.493658201070502E-4  -6.270919693633914E-4  
 2.582000000000000E10   -4.450689593795687E-4   3.427113406360149E-4  
 2.584000000000000E10    5.832415627082810E-5   4.937416524626315E-4  
 2.586000000000000E10    5.716980667784810E-4  -9.070005762623623E-5  
 2.588000000000000E10   -3.068645601160824E-4  -3.061523602809757E-5  
 2.590000000000000E10   -6.777171511203051E-4   3.609292034525424E-4  
 2.592000000000000E10   -5.185077316127718E-5   4.669673508033156E-4  
 2.594000000000000E10   -7.441015623044223E-5   9.615742601454258E-5  
 2.596000000000000E10   -1.303164608543739E-4  -1.610808976693079E-4  
 2.598000000000000E10   -1.860162155935541E-4   1.905586104840040E-4  
 2.600000000000000E10   -1.606688165338710E-4   2.589267387520522E-4  
 2.602000000000000E10    3.166978422086686E-4   1.536026684334502E-4  
 2.604000000000000E10    1.625037402845919E-4   3.335829824209213E-4  
 2.606000000000000E10    1.358649169560522E-4   1.856782910181209E-4  
 2.608000000000000E10   -1.537292409921065E-4   6.250903243198991E-5  
 2.610000000000000E10   -2.971612557303160E-4   1.349207013845444E-4  
 2.612000000000000E10    1.181486709356250E-6   2.005622518481687E-4  
 2.614000000000000E10    3.443007590249181E-4  -1.945944532053545E-4  
 2.616000000000000E10   -2.783315430860966E-4  -1.835945586208254E-4  
 2.618000000000000E10   -1.194646974909119E-4   1.834519352996722E-4  
 2.620000000000000E10    5.378322675824165E-4   2.828583237715066E-4  
 2.622000000000000E10    2.809290599543601E-4  -2.914906654041261E-4  
 2.624000000000000E10   -1.005097219604068E-4   5.710045661544427E-5  
 2.626000000000000E10   -2.094620431307703E-4   5.662383046001196E-4  
 2.628000000000000E10    7.627131708431989E-5   1.623955758986995E-4  
 2.630000000000000E10    2.972225192934275E-4   1.205936641781591E-4  
 2.632000000000000E10   -1.100991576095112E-4   2.774641325231642E-4  
 2.634000000000000E10    4.008985997643322E-4   1.246510364580900E-4  
 2.636000000000000E10    2.392221358604729E-4  -1.874545432656305E-6  
 2.638000000000000E10   -2.521985379644320E-6   5.135890387464315E-5  
 2.640000000000000E10    2.384423569310457E-4   3.816734533756971E-4  
 2.642000000000000E10    3.610029816627502E-4   1.541228557471186E-4  
 2.644000000000000E10   -3.017110575456172E-4  -1.596654765307903E-4  
 2.646000000000000E10   -4.589010495692492E-4  -1.772084942786023E-4  
 2.648000000000000E10    5.339687922969461E-4   3.032996319234371E-4  
 2.650000000000000E10    1.593680565292743E-7  -1.876630412880331E-4  
 2.652000000000000E10   -6.914511322975159E-5  -4.439342301338911E-4  
 2.654000000000000E10   -7.018445558060193E-6   3.427976334933192E-4  
 2.656000000000000E10    1.899421622510999E-4   4.493986198212951E-4  
 2.658000000000000E10    1.855434129538480E-5  -2.666728396434337E-4  
 2.660000000000000E10   -4.078175697941333E-4   4.878361505689099E-5  
 2.662000000000000E10   -2.986539329867810E-4   4.271533980499953E-4  
 2.664000000000000E10    1.643853756831959E-4  -1.433845682186075E-5  
 2.666000000000000E10   -2.218050212832168E-4  -4.899172381556127E-6  
 2.668000000000000E10   -3.862140001729131E-4   4.775828347192146E-5  
 2.670000000000000E10    2.057701785815880E-4   2.717819297686219E-4  
 2.672000000000000E10    1.779548911144957E-4   4.166177313891240E-5  
 2.674000000000000E10   -1.166534639196470E-4   1.201569684781134E-4  
 2.676000000000000E10   -1.236245298059657E-4   4.702445294242352E-4  
 2.678000000000000E10    3.394905070308596E-4   8.702986087882891E-5  
 2.680000000000000E10   -5.645087367156521E-5  -2.071650233119726E-4  
 2.682000000000000E10   -3.658888454083353E-4   9.577389573678374E-5  
 2.684000000000000E10    4.213738793623634E-5   5.048489547334611E-4  
 2.686000000000000E10    3.105017240159214E-4  -9.761891851667315E-5  
 2.688000000000000E10   -9.455172403249890E-5  -3.209279384464026E-4  
 2.690000000000000E10    4.817605713469675E-6   2.067501482088119E-4  
 2.692000000000000E10    4.370250389911234E-4   3.026586491614580E-4  
 2.694000000000000E10    1.867232931545004E-4  -1.100967419915833E-4  
 2.696000000000000E10   -9.458896238356829E-5   4.492946118261898E-6  
 2.698000000000000E10   -6.181665867188713E-6   2.080490085063502E-4  
 2.700000000000000E10    1.626943267183378E-4   2.810099431371782E-5  
 2.702000000000000E10   -1.954812796611805E-5  -2.696040028240532E-4  
 2.704000000000000E10   -1.949080324266106E-4   3.170909258187749E-5  
 2.706000000000000E10    4.482543154153973E-4  -1.609307037142571E-5  
 2.708000000000000E10    3.574145375750959E-4  -3.080678870901465E-4  
 2.710000000000000E10   -1.232294453075156E-4  -5.377532797865570E-4  
 2.712000000000000E10   -8.180723853001837E-6   8.146499021677300E-5  
 2.714000000000000E10    2.892339543905109E-4  -4.785930286743678E-5  
 2.716000000000000E10   -2.778611451503821E-5  -5.435078637674451E-4  
 2.718000000000000E10   -3.105184005107731E-4  -4.076807454111986E-5  
 2.720000000000000E10   -2.559685344749596E-5   1.582151598995552E-4  
 2.722000000000000E10    4.013886791653931E-4  -3.913552063750103E-5  
 2.724000000000000E10    1.114985570893623E-4  -2.167109341826290E-4  
 2.726000000000000E10   -2.315810124855489E-4   5.152678568265401E-6  
 2.728000000000000E10   -2.240383328171447E-4   1.133997138822451E-4  
 2.730000000000000E10   -1.545857085147873E-4   3.465295230853371E-5  
 2.732000000000000E10   -3.201645740773529E-4   1.140535459853709E-4  
 2.734000000000000E10   -2.684807986952364E-5  -7.423371425829828E-5  
 2.736000000000000E10    1.010866981232539E-4  -9.551667608320713E-5  
 2.738000000000000E10   -5.304306978359819E-4  -2.788262791000307E-4  
 2.740000000000000E10   -5.032294575357810E-5   9.705610864330083E-5  
 2.742000000000000E10    2.264257636852562E-4   2.508891921024770E-4  
 2.744000000000000E10    2.860069616872352E-5  -4.117119533475488E-4  
 2.746000000000000E10   -2.362362865824252E-4  -5.128556585987099E-5  
 2.748000000000000E10   -1.720130821922794E-4   4.980408702977002E-4  
 2.750000000000000E10    1.053034575306810E-4   1.638435933273286E-4  
 2.752000000000000E10    2.197652938775718E-4  -5.065213190391660E-4  
 2.754000000000000E10   -5.070029292255640E-4   3.248732173233293E-5  
 2.756000000000000E10   -2.945028245449066E-4   3.493264739518054E-5  
