#  HZ   S   RI   R     50.00 
! Rohde & Schwarz ZVA40 4Ports - Version 3.90 - 1145.1110k42 SN: 100403
! Date: 2023-10-04 07:55:08
! Measurement: S12 
! 
 2.200000000000000E10    4.313784011173993E-4   2.051641786238179E-4  
 2.202000000000000E10   -3.256159252487123E-4  -1.201132312417030E-3  
 2.204000000000000E10   -7.197526865638793E-4   4.127008141949773E-4  
 2.206000000000000E10    7.703749579377472E-4   5.197394639253616E-4  
 2.208000000000000E10    6.312399054877460E-4  -3.523446794133633E-4  
 2.210000000000000E10   -4.419359611347318E-4  -1.151796896010637E-3  
 2.212000000000000E10   -8.109076879918575E-4   8.456893847323954E-4  
 2.214000000000000E10    6.943109328858554E-4   6.790147162973881E-4  
 2.216000000000000E10    5.646459176205099E-4  -7.256090757437050E-4  
 2.218000000000000E10   -6.135717267170548E-4  -5.344455712474883E-4  
 2.220000000000000E10   -5.159520660527051E-4   2.526718308217824E-4  
 2.222000000000000E10    6.461665616370738E-4   4.730924847535789E-4  
 2.224000000000000E10    2.677691809367389E-4  -3.565391816664487E-4  
 2.226000000000000E10   -4.963724059052765E-4  -1.892281579785049E-4  
 2.228000000000000E10    5.664037889800966E-4   2.729278930928558E-4  
 2.230000000000000E10   -1.442932261852548E-5  -6.183024961501360E-4  
 2.232000000000000E10   -1.334840344497934E-4  -2.528450568206608E-4  
 2.234000000000000E10   -8.909867756301537E-5   5.014687194488943E-4  
 2.236000000000000E10    6.457447307184339E-4  -3.277962969150394E-4  
 2.238000000000000E10    1.224962179549038E-4  -1.262485748156905E-3  
 2.240000000000000E10   -1.385050592944026E-3   2.688906970433891E-4  
 2.242000000000000E10    1.681997091509402E-4   1.163314096629620E-3  
 2.244000000000000E10    1.028352184221149E-3  -1.911697181640193E-4  
 2.246000000000000E10   -6.882283487357199E-4  -6.493338150903583E-4  
 2.248000000000000E10   -1.645589829422534E-3   1.388037926517427E-4  
 2.250000000000000E10   -2.284372203575913E-5   1.147448318079114E-3  
 2.252000000000000E10    7.164319977164269E-4  -4.812816041521728E-4  
 2.254000000000000E10   -5.078659742139280E-4  -1.038623740896583E-3  
 2.256000000000000E10   -3.729836607817560E-4   2.262115740450099E-4  
 2.258000000000000E10    6.660515209659934E-4   4.443621728569269E-4  
 2.260000000000000E10    5.222295294515789E-4  -4.641376144718379E-4  
 2.262000000000000E10   -1.987915456993505E-4   2.499649963283446E-5  
 2.264000000000000E10    3.225516993552446E-4   8.114117081277072E-4  
 2.266000000000000E10    6.596230086870492E-4  -3.492734977044165E-4  
 2.268000000000000E10   -5.306252278387547E-4  -1.945464609889314E-4  
 2.270000000000000E10   -4.965258995071054E-4   8.628488285467029E-4  
 2.272000000000000E10    5.912525230087340E-4   3.060013114009053E-4  
 2.274000000000000E10    3.373530926182866E-4  -1.329577644355595E-3  
 2.276000000000000E10   -9.796923259273171E-4  -9.168525575660169E-4  
 2.278000000000000E10   -2.036098885582760E-4   9.418568224646151E-4  
 2.280000000000000E10    1.132595934905112E-3   3.776909943553619E-5  
 2.282000000000000E10    1.260842080228031E-3  -3.935215645469725E-4  
 2.284000000000000E10   -1.161059946753085E-3  -4.781931056641042E-4  
 2.286000000000000E10   -1.182534178951755E-4   6.826460594311357E-4  
 2.288000000000000E10    8.367194095626473E-4   9.781076369108632E-5  
 2.290000000000000E10   -5.590762157225981E-5  -6.341989501379430E-4  
 2.292000000000000E10   -5.886090220883489E-4  -8.527235331712291E-5  
 2.294000000000000E10    3.856030234601349E-4   2.946556487586349E-4  
 2.296000000000000E10    6.562785711139441E-5  -2.964721643365920E-4  
 2.298000000000000E10   -2.729714615270495E-4  -1.148643059423193E-4  
 2.300000000000000E10    2.499163092579693E-4   6.148858810774982E-4  
 2.302000000000000E10    5.010232562199235E-4  -2.970567147713155E-4  
 2.304000000000000E10   -2.026340080192313E-4  -8.420908707194030E-4  
 2.306000000000000E10   -7.273691007867456E-4   4.378762678243220E-4  
 2.308000000000000E10    5.390908918343484E-4   5.478232051245868E-4  
 2.310000000000000E10    9.892163798213005E-4  -5.390783189795911E-4  
 2.312000000000000E10   -4.021015192847699E-4  -4.541423695627600E-4  
 2.314000000000000E10   -5.994954262860119E-4   6.001216243021190E-4  
 2.316000000000000E10    1.012661959975958E-3   7.994801853783429E-4  
 2.318000000000000E10    4.035487363580614E-4  -3.298241936136037E-4  
 2.320000000000000E10   -7.037231116555631E-4  -6.078103906475008E-4  
 2.322000000000000E10   -6.215200410224497E-4   5.081317503936589E-4  
 2.324000000000000E10    3.429171920288354E-5   5.468833260238171E-4  
 2.326000000000000E10   -5.768087703472702E-6  -5.751791759394109E-4  
 2.328000000000000E10   -2.494232321623713E-4  -2.624524931889027E-4  
 2.330000000000000E10   -2.770473656710237E-4   3.441494191065431E-4  
 2.332000000000000E10   -1.123671754612587E-4  -2.966018510051072E-4  
 2.334000000000000E10    1.800701138563454E-4   1.353122788714245E-4  
 2.336000000000000E10    2.631983079481870E-4   5.120504647493362E-4  
 2.338000000000000E10    3.780723782256246E-4  -3.716466308105737E-4  
 2.340000000000000E10   -3.956420987378806E-4  -8.551799692213535E-5  
 2.342000000000000E10   -8.373286109417677E-4   8.850913145579398E-4  
 2.344000000000000E10    2.654477430041879E-4   6.590932607650757E-4  
 2.346000000000000E10    2.545453899074346E-4  -6.282477988861501E-4  
 2.348000000000000E10   -5.458279629237950E-4  -6.432341760955751E-4  
 2.350000000000000E10   -8.900462999008596E-4   6.248769350349903E-4  
 2.352000000000000E10    2.133468224201351E-4   6.802587304264307E-4  
 2.354000000000000E10    8.519036928191781E-4  -6.239838548935950E-4  
 2.356000000000000E10   -2.577419218141586E-4  -6.040002335794270E-4  
 2.358000000000000E10   -6.125136860646308E-4   6.380027043633163E-4  
 2.360000000000000E10    3.601458156481385E-4   9.618662297725678E-4  
 2.362000000000000E10    2.354698663111776E-4   1.934900210471824E-4  
 2.364000000000000E10   -3.696961211971939E-4   1.691899233264849E-4  
 2.366000000000000E10   -4.634803335648030E-4   4.384761850815266E-4  
 2.368000000000000E10   -3.066305071115494E-4   2.510402991902083E-4  
 2.370000000000000E10   -1.335535926045850E-4   1.095602638088167E-4  
 2.372000000000000E10   -4.941997758578509E-5  -8.214934496209025E-5  
 2.374000000000000E10    1.838294701883569E-4  -4.600151150953025E-4  
 2.376000000000000E10   -1.878477778518572E-4  -3.284812555648387E-4  
 2.378000000000000E10   -2.430257154628635E-4   4.269618657417595E-4  
 2.380000000000000E10    7.933356682769954E-4   4.557080392260104E-4  
 2.382000000000000E10    8.427920402027667E-4  -4.385469073895365E-4  
 2.384000000000000E10   -1.032057189149782E-4  -2.001039392780513E-4  
 2.386000000000000E10   -4.013384459540248E-4   5.471960757859051E-4  
 2.388000000000000E10    7.617056253366172E-4   7.974566542543471E-4  
 2.390000000000000E10    7.452603313140571E-4  -2.832274767570198E-4  
 2.392000000000000E10   -1.946341653820127E-4  -6.011106888763607E-4  
 2.394000000000000E10   -1.971591700566933E-4   5.703536444343627E-4  
 2.396000000000000E10    8.094172808341682E-4   7.229006732814014E-4  
 2.398000000000000E10    9.878765558823943E-4  -2.602695894893259E-4  
 2.400000000000000E10    4.051794239785522E-4  -6.454673130065203E-4  
 2.402000000000000E10   -5.502084968611598E-5   7.624835416208953E-5  
 2.404000000000000E10    2.321339416084811E-4   2.975837560370565E-4  
 2.406000000000000E10    5.333963781595230E-4  -3.970776015194133E-5  
 2.408000000000000E10    3.218020428903401E-4  -3.589585248846561E-4  
 2.410000000000000E10   -3.188812479493208E-5  -4.417488526087254E-4  
 2.412000000000000E10   -1.587747283338103E-5  -1.372368569718674E-4  
 2.414000000000000E10    2.191775638493709E-5  -1.640244299778715E-4  
 2.416000000000000E10    2.759757917374373E-4  -3.456491685938090E-4  
 2.418000000000000E10    1.822988851927221E-4  -2.175041008740664E-4  
 2.420000000000000E10   -2.796714834403247E-4  -7.947428966872394E-4  
 2.422000000000000E10   -1.461635692976415E-4  -5.015368151362054E-5  
 2.424000000000000E10   -1.167769805761054E-4   2.854809572454542E-4  
 2.426000000000000E10    4.548443248495460E-4  -2.683121711015701E-4  
 2.428000000000000E10   -2.136015682481229E-4  -5.615868140012026E-4  
 2.430000000000000E10   -7.559022051282227E-4  -1.561302487971261E-4  
 2.432000000000000E10   -4.289031785447151E-4   2.036249352386221E-4  
 2.434000000000000E10    3.757007361855358E-4   6.184601079439744E-5  
 2.436000000000000E10   -3.988661046605557E-4  -7.707001641392708E-4  
 2.438000000000000E10   -8.660897728987038E-4  -5.067247548140585E-4  
 2.440000000000000E10   -3.359055554028601E-4   7.134638726711273E-4  
 2.442000000000000E10    1.842292986111715E-4   1.699534041108564E-4  
 2.444000000000000E10    1.735150144668296E-4  -2.879173553083092E-4  
 2.446000000000000E10   -5.466839065775275E-4  -2.154722642444540E-5  
 2.448000000000000E10   -3.475546254776418E-4   3.009723150171340E-4  
 2.450000000000000E10   -7.240814738906920E-5   2.080139347526711E-5  
 2.452000000000000E10    9.403713920619339E-5  -5.462618719320744E-5  
 2.454000000000000E10    7.604763231938705E-5  -2.650982642080635E-4  
 2.456000000000000E10    1.595708890818059E-4  -1.691019133431837E-4  
 2.458000000000000E10   -2.948494220618159E-4   1.640686678001657E-4  
 2.460000000000000E10   -9.369530016556382E-5   3.835887473542243E-4  
 2.462000000000000E10    4.770014493260533E-4   2.139636635547504E-4  
 2.464000000000000E10    6.212868174770847E-5  -4.756229172926396E-4  
 2.466000000000000E10   -4.603915149345994E-4  -4.209630715195090E-4  
 2.468000000000000E10   -2.184198092436418E-4   4.432010173331946E-4  
 2.470000000000000E10    4.298446874599904E-4   3.308361337985843E-4  
 2.472000000000000E10    5.006816354580224E-4  -5.713253049179912E-4  
 2.474000000000000E10   -3.923581680282950E-4  -5.100387497805059E-4  
 2.476000000000000E10   -4.168459272477776E-4  -1.573782064951956E-4  
 2.478000000000000E10    6.465323967859149E-4  -1.147725834016455E-5  
 2.480000000000000E10    2.180476294597611E-4  -1.515838666819036E-4  
 2.482000000000000E10   -4.007970710517839E-5  -5.327960243448615E-4  
 2.484000000000000E10   -4.521960727288388E-5  -2.511815400794148E-4  
 2.486000000000000E10   -2.740520285442472E-4  -1.771975657902658E-4  
 2.488000000000000E10   -2.217547735199332E-4  -2.005531423492357E-4  
 2.490000000000000E10    1.532618480268866E-4  -2.534693048801273E-4  
 2.492000000000000E10    6.777535872970475E-6  -4.585715068969876E-4  
 2.494000000000000E10   -4.251418286003172E-4  -7.005000952631235E-4  
 2.496000000000000E10   -4.615662328433245E-4   8.331959543284029E-5  
 2.498000000000000E10    3.199640777893364E-4   2.863019180949777E-4  
 2.500000000000000E10    3.414591483306140E-4  -2.300447958987206E-4  
 2.502000000000000E10   -5.769715062342584E-4  -3.700965025927872E-4  
 2.504000000000000E10   -6.965837674215436E-4   1.387119555147365E-4  
 2.506000000000000E10   -7.295225805137307E-5   4.415689327288419E-4  
 2.508000000000000E10   -6.844579183962196E-5  -8.432190224993974E-5  
 2.510000000000000E10   -3.833456721622497E-4  -6.527694640681148E-4  
 2.512000000000000E10   -4.356474382802844E-4  -9.175832383334637E-5  
 2.514000000000000E10   -3.923737385775894E-4   5.102773429825902E-4  
 2.516000000000000E10   -4.168643135926686E-5   8.600392902735621E-5  
 2.518000000000000E10    9.335709182778373E-5   2.761904324870557E-4  
 2.520000000000000E10   -3.458541759755462E-4   1.937547349371016E-4  
 2.522000000000000E10   -3.315405920147896E-4   4.758499853778631E-4  
 2.524000000000000E10   -4.629473260138184E-4   5.223623011261225E-4  
 2.526000000000000E10    1.158302329713479E-4   3.753080090973526E-4  
 2.528000000000000E10    1.098728971555829E-4   1.202626372105442E-4  
 2.530000000000000E10   -1.198838217533194E-4  -4.076768891536631E-5  
 2.532000000000000E10   -3.156131715513766E-4   3.029056533705443E-4  
 2.534000000000000E10    3.572128771338612E-4   6.414855597540736E-4  
 2.536000000000000E10    6.896581035107374E-4   4.219062975607812E-4  
 2.538000000000000E10    1.861318451119587E-4  -2.431202665320598E-5  
 2.540000000000000E10   -4.678835102822632E-4   7.575532072223723E-4  
 2.542000000000000E10   -4.030944182886742E-5   7.838868768885732E-4  
 2.544000000000000E10    3.019993891939521E-4   5.423660622909665E-4  
 2.546000000000000E10    1.741699452395551E-5   1.856395683716983E-4  
 2.548000000000000E10   -4.642134626919869E-6   2.919708495028317E-4  
 2.550000000000000E10   -1.420447515556589E-4   5.086493329145014E-4  
 2.552000000000000E10    3.764947759918869E-4   4.565359267871827E-4  
 2.554000000000000E10    3.898210416082293E-4   2.814768595271744E-5  
 2.556000000000000E10    3.191622963640839E-4  -2.482218551449478E-4  
 2.558000000000000E10   -2.904041612055153E-4   5.456635262817144E-4  
 2.560000000000000E10    1.731122902128846E-4   6.253626779653132E-4  
 2.562000000000000E10    5.273264250718057E-4   4.213565262034535E-4  
 2.564000000000000E10    6.993352144490928E-6  -1.742132153594866E-4  
 2.566000000000000E10   -4.964906838722527E-4  -1.249651395482943E-4  
 2.568000000000000E10   -8.978846744867042E-5   5.393529427237809E-4  
 2.570000000000000E10    4.911241121590138E-4   2.223033225163817E-4  
 2.572000000000000E10    3.910705563612282E-4  -5.144262686371803E-4  
 2.574000000000000E10   -1.473414158681408E-4  -1.370301761198789E-4  
 2.576000000000000E10   -8.963010623119772E-5   4.581661487463862E-4  
 2.578000000000000E10    3.617303154896945E-4   1.610457002243493E-5  
 2.580000000000000E10    4.005402442999184E-4  -3.143154026474804E-4  
 2.582000000000000E10   -4.396177828311920E-4  -9.807775495573878E-5  
 2.584000000000000E10   -2.586769696790725E-4  -1.716364349704236E-4  
 2.586000000000000E10    1.482859170209849E-5   1.021917978505371E-5  
 2.588000000000000E10   -1.286410988541320E-4  -1.703929956420325E-5  
 2.590000000000000E10    2.548783668316901E-4  -4.901648208033294E-5  
 2.592000000000000E10   -1.121215973398648E-4  -2.898770617321134E-4  
 2.594000000000000E10   -2.075987722491846E-4  -1.352753897663206E-4  
 2.596000000000000E10    1.170866817119531E-4   3.430084616411477E-4  
 2.598000000000000E10    4.778350994456559E-4   1.658597902860493E-4  
 2.600000000000000E10    1.793338742572814E-4  -4.783940967172384E-4  
 2.602000000000000E10   -2.495729713700712E-4  -1.604570425115526E-4  
 2.604000000000000E10    2.603174652904272E-5   3.984591166954488E-4  
 2.606000000000000E10    9.037576382979751E-4  -2.148522798961494E-5  
 2.608000000000000E10    4.125437408220023E-4  -5.198359140194953E-4  
 2.610000000000000E10    6.395082164090127E-5  -1.852714776759967E-4  
 2.612000000000000E10    3.871893277391791E-4   4.865128430537880E-4  
 2.614000000000000E10    2.680184261407703E-4   1.183158747153357E-4  
 2.616000000000000E10    1.536202180432156E-4  -1.756018609739840E-4  
 2.618000000000000E10   -6.508441583719105E-5  -7.535342592746019E-5  
 2.620000000000000E10   -1.062344163074158E-4  -1.300409494433552E-4  
 2.622000000000000E10    2.450554457027465E-4  -4.467174294404686E-4  
 2.624000000000000E10    3.654653119156137E-5  -2.822653914336115E-4  
 2.626000000000000E10    1.503608655184507E-4  -1.047247769747628E-5  
 2.628000000000000E10    4.306611954234541E-4  -3.191167779732496E-4  
 2.630000000000000E10   -1.305388286709786E-4   9.491138189332560E-5  
 2.632000000000000E10   -1.864376827143133E-4   6.192964501678944E-4  
 2.634000000000000E10    1.871164276963100E-4   2.873108132916968E-5  
 2.636000000000000E10   -1.089055076590739E-4  -3.326505539007485E-4  
 2.638000000000000E10   -8.154597599059343E-4  -1.140441381721757E-4  
 2.640000000000000E10    1.449051978852367E-5  -8.360352512681857E-5  
 2.642000000000000E10    2.098297409247607E-4  -1.017751492327079E-4  
 2.644000000000000E10   -1.197669007524382E-5  -8.939144317992032E-4  
 2.646000000000000E10    6.513063271995634E-5   3.189099661540240E-4  
 2.648000000000000E10    2.307081012986600E-5   3.151609562337399E-4  
 2.650000000000000E10    3.814585797954351E-4  -1.549178268760443E-4  
 2.652000000000000E10   -2.093667717417702E-4   3.229033973184414E-5  
 2.654000000000000E10   -3.028316423296928E-4   1.933564053615555E-4  
 2.656000000000000E10   -6.037608545739204E-5   1.621841656742618E-4  
 2.658000000000000E10   -2.015023346757516E-4  -4.270834033377469E-4  
 2.660000000000000E10   -2.737057220656425E-4  -2.131279034074396E-4  
 2.662000000000000E10   -3.619297640398145E-4  -8.538678957847878E-5  
 2.664000000000000E10    1.945221883943304E-4  -5.977880209684372E-5  
 2.666000000000000E10   -2.552597725298256E-4  -5.137303378432989E-5  
 2.668000000000000E10   -1.013942310237326E-4   1.980021479539573E-4  
 2.670000000000000E10    2.524320152588189E-4   3.750039904844016E-4  
 2.672000000000000E10   -8.612515375716612E-5  -1.241301797563210E-4  
 2.674000000000000E10   -4.722414887510240E-4   3.587751416489482E-5  
 2.676000000000000E10   -2.261901099700481E-4   5.103114526718855E-4  
 2.678000000000000E10   -2.872378900065087E-6  -1.836779119912535E-4  
 2.680000000000000E10   -1.592428016010672E-4  -4.055547178722918E-4  
 2.682000000000000E10   -3.561033809091896E-4   1.815216382965446E-4  
 2.684000000000000E10   -5.834583498653956E-5   3.843686426989734E-4  
 2.686000000000000E10    2.144331810995936E-4  -1.563742844155058E-4  
 2.688000000000000E10   -4.045178138767369E-5  -3.679607971207588E-6  
 2.690000000000000E10   -8.481327677145600E-5   4.631651099771261E-4  
 2.692000000000000E10    3.970285761170089E-4   2.272206183988601E-4  
 2.694000000000000E10    1.801547186914831E-4  -3.095456486335024E-5  
 2.696000000000000E10   -2.266428055008873E-4   1.958748762262985E-4  
 2.698000000000000E10    1.730674848658964E-4   2.560934226494283E-4  
 2.700000000000000E10    2.969508059322834E-4   8.331869594258023E-7  
 2.702000000000000E10   -3.171688586007804E-4  -1.964023249456659E-4  
 2.704000000000000E10   -1.340294056717539E-5   1.216413002111949E-4  
 2.706000000000000E10    2.354625612497330E-4  -4.675660238717683E-5  
 2.708000000000000E10    3.503080733935349E-5  -2.370972506469116E-4  
 2.710000000000000E10    5.007320432923734E-4  -4.575114580802620E-4  
 2.712000000000000E10    2.007093717111275E-4   1.696722465567291E-4  
 2.714000000000000E10    7.858203753130510E-5   5.883533958694898E-5  
 2.716000000000000E10    4.379984457045794E-4  -2.810493242577650E-5  
 2.718000000000000E10   -1.088167118723504E-4   1.179669634439051E-4  
 2.720000000000000E10   -2.194958942709491E-4   6.922636657691328E-6  
 2.722000000000000E10    1.495907199569047E-4  -1.245657622348517E-4  
 2.724000000000000E10   -2.642429026309401E-4   1.600449759280309E-4  
 2.726000000000000E10   -3.129854158032686E-4  -1.330248487647623E-4  
 2.728000000000000E10    1.443634682800621E-4  -2.432572073303163E-4  
 2.730000000000000E10   -1.193747593788430E-4  -3.100931644439697E-4  
 2.732000000000000E10   -3.302256518509239E-4  -5.113887891639024E-5  
 2.734000000000000E10    9.097930160351098E-5   1.045938552124426E-4  
 2.736000000000000E10    4.478668561205268E-4  -2.179611328756437E-4  
 2.738000000000000E10   -3.940819296985865E-4   1.515729218226625E-5  
 2.740000000000000E10   -5.463826819323003E-4  -6.401111022569239E-5  
 2.742000000000000E10    2.358710480621085E-4   2.064114378299564E-4  
 2.744000000000000E10    7.473916775779799E-5  -1.195675285998732E-4  
 2.746000000000000E10   -6.850914360256866E-5  -5.188205977901816E-4  
 2.748000000000000E10    3.008919293279178E-6   1.282314042327926E-4  
 2.750000000000000E10   -2.206664939876646E-4   3.702660615090281E-5  
 2.752000000000000E10    4.970577429048717E-4   3.810092675848864E-5  
 2.754000000000000E10    7.737774154747967E-8   1.534891198389232E-4  
 2.756000000000000E10   -3.237219061702490E-5  -2.844924456439912E-4  
