#  HZ   S   RI   R     50.00 
! Rohde & Schwarz ZVA40 4Ports - Version 3.90 - 1145.1110k42 SN: 100403
! Date: 2023-10-04 07:54:43
! Measurement: S12 
! 
 2.200000000000000E10    1.041148672811687E-3  -3.243616956751794E-4  
 2.202000000000000E10   -1.236402022186667E-4  -1.610275241546333E-3  
 2.204000000000000E10   -6.883390014991164E-4   2.250952093163505E-4  
 2.206000000000000E10    1.587294100318104E-4   9.662968805059791E-4  
 2.208000000000000E10    9.607737883925438E-4  -5.658458685502410E-4  
 2.210000000000000E10   -2.656532742548734E-4  -5.062111886218190E-4  
 2.212000000000000E10   -3.363889991305769E-4   2.697432937566191E-4  
 2.214000000000000E10    2.783985692076385E-4   5.691054393537343E-4  
 2.216000000000000E10    1.629870821489021E-4  -1.241525460500270E-4  
 2.218000000000000E10   -5.307628889568150E-4   1.392602712257940E-6  
 2.220000000000000E10    2.969771448988468E-4   6.574692088179290E-4  
 2.222000000000000E10    3.215811157133430E-4   3.156945604132488E-5  
 2.224000000000000E10   -5.982583388686180E-4  -2.829928707797080E-4  
 2.226000000000000E10   -5.616127164103091E-4   9.718663059175015E-4  
 2.228000000000000E10    9.895986877381802E-4   3.438337298575789E-4  
 2.230000000000000E10    3.118751046713442E-4  -6.456392002291977E-4  
 2.232000000000000E10   -8.946380112320185E-4  -6.179303454700857E-5  
 2.234000000000000E10    1.766237437550444E-5   1.185436733067036E-3  
 2.236000000000000E10    1.112889382056892E-3   1.395904109813273E-4  
 2.238000000000000E10    2.130903740180656E-4  -6.768596358597279E-4  
 2.240000000000000E10   -6.906358757987618E-4  -6.806604505982250E-5  
 2.242000000000000E10    3.391609061509371E-4   7.217836682684720E-4  
 2.244000000000000E10    9.734098566696048E-4   6.003690941724926E-5  
 2.246000000000000E10    8.317789615830407E-5  -7.231847848743200E-4  
 2.248000000000000E10   -4.849637043662369E-4  -7.477948656742228E-6  
 2.250000000000000E10    2.136494731530547E-4   4.095173790119588E-4  
 2.252000000000000E10    9.690755541669205E-5  -2.895682118833065E-4  
 2.254000000000000E10   -9.968703670892865E-5  -1.072613158612512E-4  
 2.256000000000000E10    7.328795618377626E-5   4.631029732991010E-4  
 2.258000000000000E10    3.630459250416607E-4  -6.982441991567612E-4  
 2.260000000000000E10   -3.803265281021595E-4  -4.604909627232701E-4  
 2.262000000000000E10   -5.097318789921701E-4   2.549980999901891E-4  
 2.264000000000000E10    9.663627715781331E-4   6.694642943330109E-4  
 2.266000000000000E10    4.153692570980638E-4  -8.471468463540077E-4  
 2.268000000000000E10   -8.991927606984973E-4  -4.803401825483888E-4  
 2.270000000000000E10   -7.379201124422252E-4   1.085226424038410E-3  
 2.272000000000000E10    7.405055803246796E-4   5.073401844128966E-4  
 2.274000000000000E10    2.711496781557798E-4  -5.748383700847626E-4  
 2.276000000000000E10   -1.045364770106971E-3  -4.430598637554795E-4  
 2.278000000000000E10   -4.634373763110489E-4   9.852198418229818E-4  
 2.280000000000000E10    5.402659298852086E-4  -1.304880279349163E-4  
 2.282000000000000E10    6.826745811849833E-4  -2.523953153286129E-4  
 2.284000000000000E10   -9.388189064338803E-4   1.542766403872520E-4  
 2.286000000000000E10    2.275376464240253E-4   1.946610136656091E-4  
 2.288000000000000E10    2.479040413163602E-4  -2.162031887564808E-5  
 2.290000000000000E10   -6.762257544323802E-4   1.921328948810697E-4  
 2.292000000000000E10    9.887502301353379E-7   2.281107590533793E-4  
 2.294000000000000E10    2.124488528352231E-4  -6.182716333569260E-6  
 2.296000000000000E10   -5.501515115611255E-4  -5.917136440984905E-4  
 2.298000000000000E10   -7.257725810632110E-4   3.019584110006690E-4  
 2.300000000000000E10   -2.085658343276009E-5   7.888809777796269E-4  
 2.302000000000000E10    6.693609175272286E-4  -6.294076447375119E-4  
 2.304000000000000E10   -4.763625038322061E-4  -9.220932261087000E-4  
 2.306000000000000E10   -8.945813169702888E-4   2.726851962506771E-4  
 2.308000000000000E10    2.690025430638343E-4   8.747251704335213E-4  
 2.310000000000000E10    6.520785391330719E-4  -3.052217944059521E-4  
 2.312000000000000E10   -2.795148757286370E-4  -5.348804406821728E-4  
 2.314000000000000E10   -6.884902250021696E-4   4.017234314233065E-4  
 2.316000000000000E10    1.486110431869747E-5   5.200418527238071E-4  
 2.318000000000000E10    1.789460802683607E-4  -4.059558705193922E-5  
 2.320000000000000E10    1.104091206798330E-4  -3.454291145317257E-4  
 2.322000000000000E10   -8.534111839253455E-5  -3.652144732768647E-5  
 2.324000000000000E10    5.822602179250680E-5  -4.572493780869991E-4  
 2.326000000000000E10    2.075011725537479E-4   5.333765511750244E-5  
 2.328000000000000E10    5.301557248458266E-4   2.093387738568708E-4  
 2.330000000000000E10    8.553657098673284E-4  -3.226357221137732E-4  
 2.332000000000000E10    1.975685590878129E-4  -4.626638547051698E-4  
 2.334000000000000E10   -3.038178547285497E-4   3.728804003912956E-4  
 2.336000000000000E10    2.568257332313806E-4   6.271204911172390E-4  
 2.338000000000000E10    1.080100308172405E-3  -1.648479519644752E-4  
 2.340000000000000E10   -1.645012234803289E-4  -5.558053380809724E-4  
 2.342000000000000E10   -5.129536730237305E-4  -2.897626254707575E-4  
 2.344000000000000E10    5.355357425287366E-4   8.026063442230225E-4  
 2.346000000000000E10    8.355053723789752E-4  -1.984336704481393E-4  
 2.348000000000000E10    3.216054392396472E-5  -7.650736952200532E-4  
 2.350000000000000E10   -3.661415248643607E-4  -8.675881690578535E-5  
 2.352000000000000E10   -2.855466664186679E-5   5.017078947275877E-4  
 2.354000000000000E10    3.326359437778592E-4  -6.482817843789235E-5  
 2.356000000000000E10    2.609872899483889E-4  -2.549121563788503E-4  
 2.358000000000000E10   -1.733832032186911E-4  -2.108165499521419E-4  
 2.360000000000000E10   -2.412329376966227E-5  -3.607262042351067E-4  
 2.362000000000000E10   -2.897830563597381E-4   2.711083798203617E-4  
 2.364000000000000E10    4.547189746517688E-4  -2.013993653235957E-4  
 2.366000000000000E10    1.655622472753748E-4  -3.992305137217045E-4  
 2.368000000000000E10   -2.976608520839363E-4  -5.501518025994301E-4  
 2.370000000000000E10   -4.926106776110828E-4   5.485446890816093E-4  
 2.372000000000000E10    1.368058583466336E-4   3.499937884043902E-4  
 2.374000000000000E10    7.176218787208200E-4  -3.842037112917751E-4  
 2.376000000000000E10   -2.170278312405571E-4  -5.106243188492954E-4  
 2.378000000000000E10   -7.126240525394678E-4  -1.466645771870390E-4  
 2.380000000000000E10   -1.331965468125418E-4   2.889063325710595E-4  
 2.382000000000000E10    8.166858460754156E-4  -3.194036835338920E-4  
 2.384000000000000E10   -1.051171493600123E-4  -9.513074764981866E-4  
 2.386000000000000E10   -6.040782900527120E-4  -3.697819483932108E-4  
 2.388000000000000E10   -6.500352901639417E-5   6.762610282748938E-4  
 2.390000000000000E10    3.090960381086916E-4  -2.357096855121199E-5  
 2.392000000000000E10    3.273870388511568E-4  -6.559553439728916E-4  
 2.394000000000000E10   -5.280839977785945E-4  -1.356232532998547E-4  
 2.396000000000000E10   -5.617190035991371E-4   4.628559690900147E-5  
 2.398000000000000E10    7.639089744770899E-5   2.854841586668044E-4  
 2.400000000000000E10    1.397862070007250E-4  -2.293487632414326E-4  
 2.402000000000000E10    1.667823089519516E-4  -4.166725848335773E-4  
 2.404000000000000E10   -4.225626762490720E-4  -1.104301554732956E-5  
 2.406000000000000E10   -2.905961009673774E-4   4.383761552162468E-4  
 2.408000000000000E10    1.449839473934844E-4   8.458840602543205E-5  
 2.410000000000000E10    4.202290438115597E-4  -3.344442520756275E-4  
 2.412000000000000E10   -5.559188430197537E-4  -4.377432051114738E-4  
 2.414000000000000E10   -5.888630985282362E-4   1.139823871199042E-4  
 2.416000000000000E10    9.368229802930728E-5   5.741072236560285E-4  
 2.418000000000000E10    6.612070719711483E-4  -2.232509868917987E-4  
 2.420000000000000E10   -9.085081546800211E-5  -6.324154674075544E-4  
 2.422000000000000E10   -4.967767745256424E-4  -2.811406557157170E-5  
 2.424000000000000E10   -1.119900389312534E-5   8.918055682443082E-4  
 2.426000000000000E10    5.577906267717481E-4   3.843158483505249E-4  
 2.428000000000000E10    2.322191285202280E-4  -3.686305717565119E-4  
 2.430000000000000E10   -6.595811573788524E-4   1.283491728827357E-4  
 2.432000000000000E10   -3.799487603828311E-4   7.026520906947553E-4  
 2.434000000000000E10    3.723859263118357E-4   6.482634926214814E-4  
 2.436000000000000E10    1.284153986489400E-4  -1.146723734564148E-4  
 2.438000000000000E10   -2.144489735655952E-5  -6.817814664827893E-6  
 2.440000000000000E10   -3.406689502298832E-4   3.878747520502657E-4  
 2.442000000000000E10    2.203155454481021E-4   4.097663913853467E-4  
 2.444000000000000E10    2.285001100972295E-4   4.370199167169631E-4  
 2.446000000000000E10    1.858152245404199E-4   1.715020334813744E-5  
 2.448000000000000E10    1.797400909708813E-4   1.217462267959490E-4  
 2.450000000000000E10   -2.407952852081507E-4   3.209795977454633E-4  
 2.452000000000000E10   -8.589631033828482E-5   4.670611815527082E-4  
 2.454000000000000E10    3.827182517852634E-4   1.003407596726902E-4  
 2.456000000000000E10    1.455868277844274E-5  -2.490227961970959E-5  
 2.458000000000000E10   -3.099704626947641E-4  -3.282219113316387E-4  
 2.460000000000000E10   -7.330542575800791E-5   5.968979676254094E-4  
 2.462000000000000E10    1.465249224565923E-4   4.077482153661549E-4  
 2.464000000000000E10    5.190969095565379E-4  -3.979986067861319E-4  
 2.466000000000000E10   -4.411635163705796E-4  -4.353535041445866E-5  
 2.468000000000000E10   -5.916133522987366E-4   3.915050183422864E-4  
 2.470000000000000E10    2.746028767433018E-4   3.407587064430118E-4  
 2.472000000000000E10    1.858289178926498E-4   1.288993662456051E-4  
 2.474000000000000E10   -2.438812516629696E-4  -2.272038545925170E-4  
 2.476000000000000E10   -2.753663284238428E-4  -1.133685727836564E-4  
 2.478000000000000E10   -1.186872468679212E-4   3.844264138024300E-4  
 2.480000000000000E10   -1.241697900695726E-4   6.458381540142000E-5  
 2.482000000000000E10    2.413710317341611E-4  -3.783517604460940E-5  
 2.484000000000000E10   -1.788129738997668E-4  -8.593188249506056E-5  
 2.486000000000000E10   -2.577997802291066E-4  -2.635241435200442E-5  
 2.488000000000000E10    1.098273514799075E-5   6.883297464810312E-4  
 2.490000000000000E10    1.364140771329403E-4   5.184659967198968E-4  
 2.492000000000000E10    1.464813831262291E-4  -1.520376827102155E-4  
 2.494000000000000E10   -3.124953072983772E-4  -1.149025920312852E-4  
 2.496000000000000E10   -3.417777770664543E-4   3.183378430549055E-4  
 2.498000000000000E10    1.654817169765011E-4   3.825129242613912E-4  
 2.500000000000000E10    1.267213956452906E-4  -2.123307058354840E-5  
 2.502000000000000E10   -1.436100137652829E-5  -2.756183384917676E-4  
 2.504000000000000E10   -1.875924208434299E-4   1.201657869387418E-4  
 2.506000000000000E10   -1.287424820475280E-4   1.215927040902898E-4  
 2.508000000000000E10    4.438217438291758E-4   2.476983645465225E-4  
 2.510000000000000E10    5.437132131191902E-6  -9.497903374722228E-5  
 2.512000000000000E10   -1.379628956783563E-4  -1.125525959650986E-4  
 2.514000000000000E10   -3.027376369573176E-4   3.541414625942707E-4  
 2.516000000000000E10    1.314889959758148E-4   3.700647212099284E-4  
 2.518000000000000E10    3.026916529051960E-4   1.427705574315041E-4  
 2.520000000000000E10    3.247543936595321E-4  -2.218729641754180E-4  
 2.522000000000000E10   -3.917388676200062E-4  -2.226010838057846E-5  
 2.524000000000000E10   -1.925695833051577E-4   3.347798192407936E-4  
 2.526000000000000E10    4.838018503505737E-4   6.812757928855717E-4  
 2.528000000000000E10    5.173599347472191E-4  -2.760162169579417E-4  
 2.530000000000000E10    3.562394340406172E-5  -4.140517557971180E-4  
 2.532000000000000E10   -2.742810174822807E-4   2.263359201606363E-4  
 2.534000000000000E10    3.029833314940333E-4   2.060413971776143E-4  
 2.536000000000000E10    4.153424233663827E-4  -2.553308149799705E-4  
 2.538000000000000E10    4.379754245746881E-4  -3.892268578056246E-4  
 2.540000000000000E10   -3.524235798977315E-4  -2.515416999813169E-4  
 2.542000000000000E10    1.667817996349186E-4  -1.683056325418875E-4  
 2.544000000000000E10    5.088575999252498E-4   3.046503697987646E-4  
 2.546000000000000E10    6.036921404302120E-4  -6.107263616286218E-4  
 2.548000000000000E10    3.637411573436111E-4  -3.034433757420629E-4  
 2.550000000000000E10   -3.584679507184774E-4  -4.924041568301618E-4  
 2.552000000000000E10    4.175309150014073E-4   3.438640487729572E-5  
 2.554000000000000E10    3.260354278609157E-4   1.123445981647819E-4  
 2.556000000000000E10    4.819119349122047E-4  -6.489864899776876E-4  
 2.558000000000000E10   -2.841553068719804E-4  -5.180099979043007E-4  
 2.560000000000000E10   -4.911873475066386E-5   1.571777829667553E-4  
 2.562000000000000E10    3.451316151767969E-4   1.030955827445723E-4  
 2.564000000000000E10    1.748835493344814E-4  -7.409633835777640E-4  
 2.566000000000000E10   -2.224738564109430E-4  -3.193116863258183E-4  
 2.568000000000000E10   -5.401568487286568E-4   2.111269568558782E-4  
 2.570000000000000E10    3.540673351380974E-4   1.720940344966948E-4  
 2.572000000000000E10    8.224882913054898E-5  -2.714196307351813E-5  
 2.574000000000000E10   -1.766670538927428E-5   5.286978557705879E-5  
 2.576000000000000E10    1.091962330974639E-4  -4.623049971996807E-5  
 2.578000000000000E10   -1.143568897532532E-5   1.329445949522778E-4  
 2.580000000000000E10   -1.937010383699089E-4   1.618121750652790E-4  
 2.582000000000000E10    4.113952454645187E-4  -7.817288133082911E-5  
 2.584000000000000E10    3.755860961973667E-5  -2.228354132967070E-4  
 2.586000000000000E10   -3.347475430928171E-4  -3.122133784927428E-4  
 2.588000000000000E10   -2.485007862560451E-4   4.535320913419128E-4  
 2.590000000000000E10    3.451753582339734E-4   3.072317922487855E-4  
 2.592000000000000E10    3.013930981978774E-4  -4.850443801842630E-4  
 2.594000000000000E10   -4.028731200378388E-4  -3.225737018510699E-4  
 2.596000000000000E10   -3.897971473634243E-4   5.481929983943701E-4  
 2.598000000000000E10    4.316027625463903E-4   9.224256064044312E-5  
 2.600000000000000E10    3.502980107441545E-4  -2.929905022028834E-4  
 2.602000000000000E10   -6.395802483893931E-4  -1.855339723988436E-5  
 2.604000000000000E10   -3.042885218746960E-4   4.216828674543649E-4  
 2.606000000000000E10    3.129166361759417E-5   3.332555061206222E-4  
 2.608000000000000E10   -1.749411603668705E-4  -4.489059210754931E-4  
 2.610000000000000E10   -6.091869436204433E-4   6.366184243233874E-5  
 2.612000000000000E10   -2.240412577521056E-4   1.104777256841771E-4  
 2.614000000000000E10    1.156114558398258E-5  -2.966483589261770E-4  
 2.616000000000000E10   -7.569677109131590E-6  -6.571630365215242E-5  
 2.618000000000000E10    5.357200279831886E-5  -1.180494436994195E-4  
 2.620000000000000E10    2.079580735880882E-4  -1.575009955558926E-4  
 2.622000000000000E10   -1.230833149747923E-4  -1.514263713033870E-4  
 2.624000000000000E10   -3.773242060560733E-4   2.664675703272224E-4  
 2.626000000000000E10    3.808293840847910E-4   2.605094923637807E-4  
 2.628000000000000E10   -9.894624236039817E-5  -3.295897040516138E-4  
 2.630000000000000E10   -4.989191656932235E-4  -5.603809840977192E-4  
 2.632000000000000E10   -3.344995784573257E-4   3.976105072069913E-4  
 2.634000000000000E10    2.280170010635629E-4   8.356425678357482E-5  
 2.636000000000000E10    2.404329716227949E-4  -5.303265061229467E-4  
 2.638000000000000E10   -2.680601319298148E-4  -3.220621729269624E-4  
 2.640000000000000E10   -6.534106069011614E-5   4.242328286636621E-4  
 2.642000000000000E10    1.510635192971677E-4   6.438381387852132E-5  
 2.644000000000000E10    1.588880404597148E-4  -1.574080088175833E-4  
 2.646000000000000E10   -4.517556808423251E-4   2.766590041574091E-4  
 2.648000000000000E10   -4.807217192137614E-5   1.528371067252010E-4  
 2.650000000000000E10    5.681663606083021E-5   7.574669871246442E-5  
 2.652000000000000E10   -1.422553905285895E-4   5.599503128905781E-5  
 2.654000000000000E10   -1.171932308352552E-5   4.268072370905429E-5  
 2.656000000000000E10    2.269910473842174E-4  -1.930671278387308E-4  
 2.658000000000000E10   -1.498441415606067E-4   2.842854883056134E-5  
 2.660000000000000E10   -1.762917236192152E-4   2.843020192813128E-4  
 2.662000000000000E10    5.722698988392949E-4   4.647328460123390E-4  
 2.664000000000000E10    2.128281339537352E-4  -2.851977187674493E-4  
 2.666000000000000E10   -2.271299308631569E-4  -1.456424797652289E-4  
 2.668000000000000E10   -9.537913865642622E-5   5.151302902959287E-4  
 2.670000000000000E10    4.058088816236705E-4   8.022090332815424E-5  
 2.672000000000000E10    1.105464543798007E-4  -3.050139639526606E-4  
 2.674000000000000E10   -2.469062164891511E-4  -1.284641330130398E-4  
 2.676000000000000E10    1.600824325578287E-4   3.578682662919164E-4  
 2.678000000000000E10    3.889381478074938E-4  -2.661184407770634E-4  
 2.680000000000000E10    4.436843664734624E-5  -5.003766273148358E-4  
 2.682000000000000E10   -2.327218098798767E-4   7.393125997623429E-5  
 2.684000000000000E10    2.585738257039338E-4   1.026596364681609E-4  
 2.686000000000000E10    2.406567364232615E-4  -2.835775376297534E-4  
 2.688000000000000E10   -1.112792306230404E-4   6.482076423708350E-5  
 2.690000000000000E10   -1.647150638746098E-4   2.467366575729102E-4  
 2.692000000000000E10    4.984289989806712E-4   1.100779918488115E-4  
 2.694000000000000E10   -1.321914460277185E-4   3.246362030040473E-5  
 2.696000000000000E10   -3.680040244944394E-4  -2.527427859604359E-4  
 2.698000000000000E10    4.904473098577000E-5   1.678884145803750E-4  
 2.700000000000000E10   -9.944545308826491E-5  -7.913367880973965E-5  
 2.702000000000000E10   -1.698241976555437E-4  -4.860628105234355E-4  
 2.704000000000000E10   -4.635779987438582E-5   3.447537528700195E-5  
 2.706000000000000E10   -1.059169662767090E-4   1.272772351512685E-5  
 2.708000000000000E10    1.399264147039503E-4  -3.373858635313809E-4  
 2.710000000000000E10   -1.005073136184365E-5   6.447044142987579E-5  
 2.712000000000000E10   -2.371205337112770E-4   8.812609303276986E-5  
 2.714000000000000E10    2.007618168136105E-4  -2.430398017168045E-4  
 2.716000000000000E10   -2.821324451360852E-4   3.055733977816999E-4  
 2.718000000000000E10   -2.037230296991766E-4   2.012464574363548E-5  
 2.720000000000000E10    2.618573780637234E-4  -1.550791930640116E-4  
 2.722000000000000E10   -2.709684194996953E-4   1.223675208166242E-4  
 2.724000000000000E10   -2.685741637833417E-4   3.342650234117173E-5  
 2.726000000000000E10   -2.585177981018205E-6   1.589799067005515E-4  
 2.728000000000000E10   -1.833529240684584E-4   2.063202846329659E-4  
 2.730000000000000E10    1.267610932700336E-4   5.999302084092051E-5  
 2.732000000000000E10   -3.257470234530047E-5  -4.697650729212910E-5  
 2.734000000000000E10   -2.065066655632108E-4   2.258655440527946E-4  
 2.736000000000000E10   -4.960946898791008E-5   2.110946661559865E-5  
 2.738000000000000E10    1.356832508463413E-4   2.124117017956451E-4  
 2.740000000000000E10   -3.459360450506210E-4   4.172554326942191E-5  
 2.742000000000000E10   -1.193860807688907E-4  -3.368223406141624E-5  
 2.744000000000000E10   -1.299056748393923E-4   4.157663206569850E-4  
 2.746000000000000E10   -6.251211016206071E-5  -1.386732910759747E-4  
 2.748000000000000E10   -2.574855534476228E-5  -3.299302188679576E-4  
 2.750000000000000E10   -3.599853662308306E-4   7.167969306465238E-5  
 2.752000000000000E10    2.702631536521949E-5   2.360879152547568E-4  
 2.754000000000000E10    3.441586159169674E-4  -2.040920662693679E-4  
 2.756000000000000E10    7.531466690124944E-5  -1.520406804047525E-4  
