#  HZ   S   RI   R     50.00 
! Rohde & Schwarz ZVA40 4Ports - Version 3.90 - 1145.1110k42 SN: 100403
! Date: 2023-10-04 07:54:15
! Measurement: S12 
! 
 2.200000000000000E10   -1.988191506825388E-4   1.627864403417334E-4  
 2.202000000000000E10    1.549953303765506E-4   3.439986030571163E-4  
 2.204000000000000E10   -1.035641544149257E-4  -6.941784522496164E-4  
 2.206000000000000E10   -6.635313620790839E-4   2.781357616186142E-4  
 2.208000000000000E10    4.959465586580336E-4   8.852945175021887E-4  
 2.210000000000000E10    7.229124312289059E-4  -5.229128873907030E-4  
 2.212000000000000E10   -8.977674879133701E-4  -6.810844643041492E-4  
 2.214000000000000E10   -8.191516390070319E-4   6.848053308203816E-4  
 2.216000000000000E10    9.766351431608200E-4   8.396811317652464E-4  
 2.218000000000000E10    5.868729786016047E-4  -9.235675679519773E-4  
 2.220000000000000E10   -8.576165419071913E-4  -6.262921378947794E-4  
 2.222000000000000E10   -4.331780655775219E-4   1.021600211970508E-3  
 2.224000000000000E10    9.683289099484682E-4   6.498889415524900E-4  
 2.226000000000000E10    8.574128150939941E-4  -1.035248744301498E-3  
 2.228000000000000E10   -7.473651785403490E-4  -3.576486778911203E-4  
 2.230000000000000E10   -3.424870083108544E-4   6.584267830476165E-4  
 2.232000000000000E10    8.673765696585178E-4   2.450557658448815E-4  
 2.234000000000000E10    2.311667631147429E-4  -5.138145061209798E-4  
 2.236000000000000E10   -4.131519526708871E-4   1.847019739216194E-4  
 2.238000000000000E10    5.831661983393133E-4  -9.582388156559318E-5  
 2.240000000000000E10   -1.391817786497995E-4  -1.064297612174414E-4  
 2.242000000000000E10   -7.704290910623968E-4   3.592229040805250E-5  
 2.244000000000000E10    3.041620657313615E-4   4.554983752314001E-4  
 2.246000000000000E10    5.260892794467509E-4  -1.166552319773473E-4  
 2.248000000000000E10   -4.667155444622040E-4  -7.738540880382061E-4  
 2.250000000000000E10   -6.987375672906637E-4   4.458909970708191E-4  
 2.252000000000000E10    5.103272269479930E-4   8.458311203867197E-4  
 2.254000000000000E10    8.428345900028944E-4  -3.576327871996909E-4  
 2.256000000000000E10   -3.916560090146959E-4  -8.084558066911995E-4  
 2.258000000000000E10   -5.609776708297432E-4   7.492115255445242E-4  
 2.260000000000000E10    6.722065154463053E-4   7.005358929745853E-4  
 2.262000000000000E10    8.669007802382112E-4  -2.003778208745644E-4  
 2.264000000000000E10   -2.678628079593182E-4  -5.637163412757218E-4  
 2.266000000000000E10    2.882504668377806E-5   3.882429737132043E-4  
 2.268000000000000E10    3.799383412115276E-4   1.121751483879052E-4  
 2.270000000000000E10    3.660548536572605E-4  -5.154726095497608E-4  
 2.272000000000000E10   -1.862108474597335E-4  -1.087419223040342E-4  
 2.274000000000000E10    1.652398350415751E-4   1.243719270860311E-5  
 2.276000000000000E10    3.648315032478422E-5  -3.601829521358013E-4  
 2.278000000000000E10   -3.084571508225054E-4  -3.106427902821451E-4  
 2.280000000000000E10   -9.526636858936399E-5   5.829408182762563E-4  
 2.282000000000000E10    4.827236407436431E-4   3.502402614685707E-5  
 2.284000000000000E10    5.465372669277713E-5  -7.247790927067399E-4  
 2.286000000000000E10   -9.722294635139406E-4   7.961833034642041E-5  
 2.288000000000000E10   -3.768883516386268E-6   4.987152060493827E-4  
 2.290000000000000E10    4.393535782583058E-4  -7.989782898221165E-5  
 2.292000000000000E10   -2.752421714831144E-4  -8.025722345337272E-4  
 2.294000000000000E10   -8.201873861253262E-4   2.183062169933692E-4  
 2.296000000000000E10    1.170012474176474E-4   4.368750378489494E-4  
 2.298000000000000E10    3.752018965315074E-4  -2.051032788585872E-4  
 2.300000000000000E10   -3.105050127487630E-4  -4.253014340065420E-4  
 2.302000000000000E10   -3.572058340068907E-4   3.127507807221264E-4  
 2.304000000000000E10   -1.579682611918543E-5   1.679064152995125E-4  
 2.306000000000000E10   -1.263385929632932E-4  -3.815668242168613E-5  
 2.308000000000000E10   -2.583678724477068E-5  -3.145233131363057E-5  
 2.310000000000000E10    2.846207644324750E-4   1.697671686997637E-4  
 2.312000000000000E10    9.219779167324305E-5  -4.214433647575788E-5  
 2.314000000000000E10   -3.310306346975267E-4  -1.300870208069682E-4  
 2.316000000000000E10   -1.449256160412915E-5   3.912994288839400E-4  
 2.318000000000000E10    5.654189153574407E-4   1.147485600085929E-4  
 2.320000000000000E10   -4.497326153796166E-5  -3.659522626549006E-4  
 2.322000000000000E10   -3.656879416666925E-4   6.926172318344470E-6  
 2.324000000000000E10   -1.540830999147147E-4   5.232120165601373E-4  
 2.326000000000000E10    3.256202326156199E-4  -1.792587427189574E-4  
 2.328000000000000E10    2.370991714997217E-4  -7.110743899829686E-4  
 2.330000000000000E10   -6.682330858893693E-4  -4.514426109381020E-4  
 2.332000000000000E10   -1.779574631655123E-5   1.429695548722521E-4  
 2.334000000000000E10    4.431020643096417E-4  -1.424271613359451E-4  
 2.336000000000000E10    5.030822358094156E-4  -3.128804673906416E-4  
 2.338000000000000E10   -1.904925156850368E-4  -3.705710987560451E-4  
 2.340000000000000E10   -2.550637873355299E-4  -2.177500864490867E-4  
 2.342000000000000E10   -2.050649345619604E-4   1.692558580543846E-4  
 2.344000000000000E10   -7.336452108575031E-5  -2.395515912212431E-4  
 2.346000000000000E10    3.878166171489283E-5  -7.207486196421087E-4  
 2.348000000000000E10   -4.076734185218811E-4  -4.800392198376358E-4  
 2.350000000000000E10   -2.865316346287727E-4  -3.417096741031855E-4  
 2.352000000000000E10    2.781778748612851E-4  -1.804475177777931E-4  
 2.354000000000000E10    4.657545941881836E-4  -1.113443868234754E-4  
 2.356000000000000E10    1.022421274683438E-4  -3.782040439546108E-4  
 2.358000000000000E10   -4.589059972204268E-4   1.770629387465306E-5  
 2.360000000000000E10   -4.334093246143311E-4   6.218373891897500E-4  
 2.362000000000000E10    4.513496533036232E-4   2.266102528665215E-4  
 2.364000000000000E10   -2.108712506014854E-4  -4.270552890375257E-4  
 2.366000000000000E10   -6.772109190933406E-4  -4.791413375642151E-4  
 2.368000000000000E10   -6.189512205310166E-4   1.806938380468637E-4  
 2.370000000000000E10   -3.304621350253001E-5  -2.183499454986304E-4  
 2.372000000000000E10    3.219828649889678E-4  -2.140507713193074E-4  
 2.374000000000000E10   -6.591372657567263E-4  -5.710577243007720E-4  
 2.376000000000000E10   -3.638641210272908E-4  -1.546273852000013E-4  
 2.378000000000000E10   -3.911335661541671E-4   3.529149398673326E-4  
 2.380000000000000E10   -2.155806032533292E-5   2.667277003638446E-4  
 2.382000000000000E10   -2.114954804710578E-5  -1.168077433248982E-4  
 2.384000000000000E10   -7.505873800255358E-4  -3.897450369549915E-5  
 2.386000000000000E10   -8.132356451824307E-4   4.284173483029008E-4  
 2.388000000000000E10   -2.131703222403303E-4   2.233366540167481E-4  
 2.390000000000000E10    1.893928711069748E-4  -2.009927811741363E-6  
 2.392000000000000E10   -4.360356542747468E-4  -2.788595156744123E-4  
 2.394000000000000E10   -5.525611340999603E-4   1.462034124415368E-4  
 2.396000000000000E10    1.191636692965403E-4   6.926095229573548E-4  
 2.398000000000000E10    5.902894554310478E-5   1.855137670645490E-4  
 2.400000000000000E10    4.283107045921497E-5  -1.060259892255999E-4  
 2.402000000000000E10   -5.692159174941480E-4   4.413724527694285E-4  
 2.404000000000000E10   -2.975090465042740E-4   3.887442580889911E-4  
 2.406000000000000E10    4.727826162707061E-4   4.652414063457400E-4  
 2.408000000000000E10    1.312455569859594E-4   1.285092439502478E-4  
 2.410000000000000E10   -1.323164615314454E-4  -3.028455248568207E-4  
 2.412000000000000E10   -2.408355940133333E-4   2.696546143852174E-4  
 2.414000000000000E10    6.434060924220830E-5   5.363190430216491E-4  
 2.416000000000000E10    5.420012166723609E-4   1.697906554909423E-4  
 2.418000000000000E10    1.766473724273965E-4  -1.844270300352946E-4  
 2.420000000000000E10    3.536324220476672E-5   1.932452141772956E-5  
 2.422000000000000E10    3.473719698376954E-4   3.581767086870968E-4  
 2.424000000000000E10    5.161810549907386E-4   1.032478176057339E-4  
 2.426000000000000E10    6.490810774266720E-4  -2.813743485603482E-4  
 2.428000000000000E10   -5.685192081728019E-5  -1.116978673962876E-4  
 2.430000000000000E10   -1.394189603161067E-4  -9.564706124365330E-5  
 2.432000000000000E10    3.499241138342768E-4   3.991766134276986E-4  
 2.434000000000000E10    4.609615716617554E-4  -1.668907643761486E-4  
 2.436000000000000E10    6.736506475135684E-4  -6.976614240556955E-4  
 2.438000000000000E10   -2.028864691965282E-4  -5.010159802623093E-4  
 2.440000000000000E10    1.865824888227508E-4  -3.023902172571980E-5  
 2.442000000000000E10    4.415088333189488E-4   4.105026018805802E-4  
 2.444000000000000E10    5.051437183283269E-4  -5.650277016684413E-4  
 2.446000000000000E10   -9.297910582972691E-5  -2.108268090523779E-4  
 2.448000000000000E10   -3.365651937201619E-4   3.851105793728493E-5  
 2.450000000000000E10    1.655334490351379E-4   4.117423086427152E-4  
 2.452000000000000E10    3.353249921929091E-4   6.291835597949103E-5  
 2.454000000000000E10   -1.424517540726811E-4  -5.890635075047612E-4  
 2.456000000000000E10   -3.249759902246296E-4  -1.044193195411935E-4  
 2.458000000000000E10   -1.768337970133871E-4   4.417999007273465E-4  
 2.460000000000000E10    1.474474847782403E-4  -7.825472857803106E-5  
 2.462000000000000E10    2.526217722333968E-4   7.635424844920635E-5  
 2.464000000000000E10   -1.349698577541858E-4   5.445750139188021E-5  
 2.466000000000000E10   -1.208646935992874E-4  -1.139406813308597E-4  
 2.468000000000000E10   -1.183009953820147E-4   3.818984841927886E-4  
 2.470000000000000E10   -8.153890667017549E-5   3.744674904737622E-4  
 2.472000000000000E10    4.639286271412857E-5  -2.562058580224402E-5  
 2.474000000000000E10   -2.301465428899974E-4   2.561101064202376E-5  
 2.476000000000000E10   -3.228647401556373E-4   4.181322874501348E-4  
 2.478000000000000E10    3.381521091796458E-4   4.679771955125034E-4  
 2.480000000000000E10    2.572964003775269E-4   1.194292271975428E-4  
 2.482000000000000E10   -1.547731371829286E-4  -2.918390055128839E-5  
 2.484000000000000E10   -5.899047391721979E-5   3.233023453503847E-4  
 2.486000000000000E10    8.800040814094245E-5   4.577169311232865E-4  
 2.488000000000000E10    2.014467172557488E-4   8.339869964402169E-5  
 2.490000000000000E10    3.316777292639017E-4  -1.332829560851678E-4  
 2.492000000000000E10    1.463295575376833E-5   1.336944551439956E-4  
 2.494000000000000E10    1.359691086690873E-4   2.721610362641513E-4  
 2.496000000000000E10    3.365947341080755E-4   5.743754809373058E-5  
 2.498000000000000E10    2.167209604522213E-4  -2.102281905536074E-5  
 2.500000000000000E10    3.891887899953872E-4  -1.418056126567535E-5  
 2.502000000000000E10    4.405577419674955E-5   1.975803897948936E-4  
 2.504000000000000E10    9.833591320784763E-5  -6.727399158990011E-5  
 2.506000000000000E10    3.412213409319520E-4   4.319918225519359E-4  
 2.508000000000000E10    2.324708621017635E-4  -2.142546873074025E-4  
 2.510000000000000E10    3.297025978099555E-4  -4.881204804405570E-4  
 2.512000000000000E10   -4.865746886935085E-4   9.644356032367796E-5  
 2.514000000000000E10    1.736942795105279E-4  -5.887696374884399E-7  
 2.516000000000000E10    1.780488673830405E-4  -1.586114813107997E-4  
 2.518000000000000E10   -9.720050729811192E-5  -4.597869119606912E-4  
 2.520000000000000E10   -2.613505348563194E-4  -2.437739312881604E-4  
 2.522000000000000E10    1.343558542430401E-4   7.506729161832482E-5  
 2.524000000000000E10    2.743816003203392E-5  -9.833723743213341E-5  
 2.526000000000000E10    1.268613996217027E-4  -4.480887728277594E-4  
 2.528000000000000E10    2.489308826625347E-5   3.803893559961580E-5  
 2.530000000000000E10   -2.305154775967822E-4  -2.248010860057548E-4  
 2.532000000000000E10    1.264054299099371E-4   1.543900580145419E-4  
 2.534000000000000E10   -2.532505313865840E-4   3.325124635011889E-5  
 2.536000000000000E10    2.742521173786372E-4  -2.329483249923214E-4  
 2.538000000000000E10   -2.612569369375706E-4  -2.401886158622801E-4  
 2.540000000000000E10   -3.608797269407660E-4  -1.795288844732568E-4  
 2.542000000000000E10    1.340219296253054E-5   3.984686045441777E-4  
 2.544000000000000E10    6.144610815681517E-4  -3.116270818281919E-4  
 2.546000000000000E10   -3.969706012867391E-4  -5.554769886657596E-4  
 2.548000000000000E10   -5.036056390963495E-4  -2.624630869831890E-4  
 2.550000000000000E10    2.709812833927572E-4   6.396529497578740E-4  
 2.552000000000000E10    1.356813008897007E-4  -5.395714106271043E-5  
 2.554000000000000E10    1.022501674015075E-4  -3.665784315671772E-4  
 2.556000000000000E10   -2.934279618784785E-4   3.431420191191137E-4  
 2.558000000000000E10   -2.699443139135838E-4   2.339673665119335E-4  
 2.560000000000000E10    3.249191795475781E-4   1.890147541416809E-5  
 2.562000000000000E10    2.305933885509148E-4  -1.079247249435866E-5  
 2.564000000000000E10   -1.079735375242308E-4  -6.933947588549927E-5  
 2.566000000000000E10   -1.075016916729510E-5  -1.856758754001930E-4  
 2.568000000000000E10    1.953288010554388E-4   3.891824162565172E-4  
 2.570000000000000E10    2.094928640872240E-4   6.506133649963886E-5  
 2.572000000000000E10    3.673488681670278E-4  -2.415259223198518E-4  
 2.574000000000000E10    4.479264316614717E-5  -3.459999570623040E-4  
 2.576000000000000E10   -3.634821041487157E-4  -1.038282498484477E-4  
 2.578000000000000E10    3.792993957176805E-4   1.281706063309684E-4  
 2.580000000000000E10    5.224124761298299E-4  -2.066188026219606E-4  
 2.582000000000000E10   -2.211926475865766E-4  -8.030206663534045E-4  
 2.584000000000000E10   -2.335312456125394E-4   1.181758416350931E-4  
 2.586000000000000E10    6.716501229675487E-5   4.995347117073834E-4  
 2.588000000000000E10    3.904110344592482E-4  -2.801722148433328E-4  
 2.590000000000000E10   -2.955508825834841E-4  -1.937857450684533E-4  
 2.592000000000000E10   -5.406418931670487E-4   8.691669791005552E-5  
 2.594000000000000E10   -1.064979587681592E-4   4.115233896300197E-4  
 2.596000000000000E10    7.935506437206641E-5  -3.943109186366200E-5  
 2.598000000000000E10   -2.466453588567674E-4  -2.227446748293005E-5  
 2.600000000000000E10   -6.638398917857558E-5  -8.495257497997955E-5  
 2.602000000000000E10    2.416249044472352E-4   1.660702764638700E-5  
 2.604000000000000E10   -1.164594432339072E-4  -6.948049849597737E-5  
 2.606000000000000E10    1.322492316830903E-4   5.220490857027471E-4  
 2.608000000000000E10    2.638413570821285E-4   3.377252432983369E-4  
 2.610000000000000E10    2.023837878368795E-4  -3.855821560136974E-4  
 2.612000000000000E10   -7.612241897732019E-4   4.197591915726662E-4  
 2.614000000000000E10   -1.592765329405665E-4   4.258417466189712E-4  
 2.616000000000000E10    5.085181328468025E-4  -4.866761810262688E-5  
 2.618000000000000E10   -4.604193964041770E-4  -4.435778246261179E-4  
 2.620000000000000E10   -5.376951885409653E-4   1.789598027244210E-4  
 2.622000000000000E10    2.820772933773696E-4   4.399352183099836E-4  
 2.624000000000000E10    4.752824897877872E-4  -5.935720764682628E-5  
 2.626000000000000E10   -5.335107562132180E-4  -3.255944466218352E-4  
 2.628000000000000E10   -2.852248435374349E-4   5.266251391731203E-4  
 2.630000000000000E10    1.764187618391588E-4   7.820726023055613E-4  
 2.632000000000000E10   -6.513937842100859E-5  -5.404033581726253E-4  
 2.634000000000000E10   -3.436910046730191E-4   2.436160866636783E-5  
 2.636000000000000E10   -3.308504528831691E-4   1.085187832359225E-4  
 2.638000000000000E10    1.935300679178909E-4  -1.853171415859833E-4  
 2.640000000000000E10   -9.593267895979807E-5  -3.895404806826264E-4  
 2.642000000000000E10    2.556771141826175E-5   9.190198761643842E-5  
 2.644000000000000E10    2.247018128400669E-4   9.852847870206460E-5  
 2.646000000000000E10    3.255958436056972E-4  -1.637147943256423E-4  
 2.648000000000000E10   -2.995144459418953E-4   2.108604239765555E-4  
 2.650000000000000E10    3.124978684354574E-4   9.460338333155960E-5  
 2.652000000000000E10    4.425049701239914E-4   4.009215263067745E-5  
 2.654000000000000E10   -1.803992054192349E-4  -5.617935676127672E-4  
 2.656000000000000E10   -3.443436871748418E-4   2.449917665217072E-4  
 2.658000000000000E10    2.758310874924064E-4   9.823260916164145E-5  
 2.660000000000000E10    4.336192796472460E-4  -5.339831695891917E-4  
 2.662000000000000E10   -3.489935188554227E-4  -6.001096335239708E-4  
 2.664000000000000E10   -1.757586724124849E-4   4.408246968523599E-5  
 2.666000000000000E10    4.116329655516893E-4   1.797995792003349E-4  
 2.668000000000000E10    2.477183879818767E-4  -4.126380954403430E-4  
 2.670000000000000E10   -2.959843841381371E-4  -1.837682502809912E-4  
 2.672000000000000E10   -2.763335651252419E-4   2.317970793228596E-4  
 2.674000000000000E10   -1.027712860377505E-4   3.362495044711977E-5  
 2.676000000000000E10   -2.553100639488548E-4  -2.382850070716813E-4  
 2.678000000000000E10   -1.407515082973987E-4   3.225180989829823E-5  
 2.680000000000000E10   -3.334213106427342E-4  -5.789217539131641E-5  
 2.682000000000000E10   -1.287905324716121E-4  -3.810607304330915E-4  
 2.684000000000000E10   -2.434978378005326E-4   7.803105836501345E-5  
 2.686000000000000E10    2.616974597913213E-5   3.656343687907793E-5  
 2.688000000000000E10    3.816194366663694E-4  -1.529187429696322E-4  
 2.690000000000000E10   -1.037209513015114E-4  -3.571083652786911E-5  
 2.692000000000000E10   -2.270560362376273E-4   2.610598494356964E-5  
 2.694000000000000E10    3.089965030085295E-4   1.430480624549091E-4  
 2.696000000000000E10   -1.478191115893424E-4   1.283616875298321E-4  
 2.698000000000000E10   -3.732213226612657E-4  -3.154212026856840E-4  
 2.700000000000000E10   -9.173244507110212E-6   1.440919731976464E-4  
 2.702000000000000E10   -1.224767911480740E-4   1.909925194922835E-4  
 2.704000000000000E10    1.420562966814032E-5  -3.243858518544585E-4  
 2.706000000000000E10   -3.184092292940477E-6   2.945162705145776E-4  
 2.708000000000000E10   -6.489463703474030E-5   1.077115957741626E-4  
 2.710000000000000E10    1.609601458767429E-4  -4.109965448151343E-5  
 2.712000000000000E10   -6.578204920515418E-5   1.481892541050911E-4  
 2.714000000000000E10   -1.773920375853777E-4   7.231994823087007E-5  
 2.716000000000000E10    1.879017800092697E-4   1.526784326415509E-4  
 2.718000000000000E10    1.750934643496294E-5   9.475530532654375E-6  
 2.720000000000000E10   -3.737541846930981E-4  -2.095671807182953E-4  
 2.722000000000000E10    1.965515693882480E-4   1.927405828610063E-4  
 2.724000000000000E10    5.772025906480849E-5   1.171525873360224E-4  
 2.726000000000000E10    2.536561805754900E-4  -1.874089939519763E-4  
 2.728000000000000E10   -2.826425770763308E-6   2.092806971631944E-5  
 2.730000000000000E10   -2.310043346369639E-4   1.351894316030666E-4  
 2.732000000000000E10   -8.155201066983864E-5   2.627500507514924E-4  
 2.734000000000000E10    1.779693229764234E-5   8.070029434747994E-5  
 2.736000000000000E10   -4.138856820645742E-5  -8.406542474403977E-5  
 2.738000000000000E10   -2.937861718237400E-4  -3.458218125160784E-4  
 2.740000000000000E10   -6.544891948578879E-5   4.189409082755446E-4  
 2.742000000000000E10   -5.163261084817350E-5   2.044653665507212E-4  
 2.744000000000000E10    2.985846367664635E-4  -1.869918050942943E-4  
 2.746000000000000E10   -1.970201556105167E-4   1.481990475440398E-4  
 2.748000000000000E10   -3.898928698617965E-4   6.354469951475039E-5  
 2.750000000000000E10    1.769223163137212E-4   3.986955562140793E-4  
 2.752000000000000E10   -1.319080638495507E-6  -1.586591338309518E-6  
 2.754000000000000E10   -8.274288848042488E-5  -7.227781316032633E-5  
 2.756000000000000E10   -2.271900157211348E-4  -1.262545702047646E-4  
