#  HZ   S   RI   R     50.00 
! Rohde & Schwarz ZVA40 4Ports - Version 3.90 - 1145.1110k42 SN: 100403
! Date: 2023-10-04 07:53:48
! Measurement: S12 
! 
 2.200000000000000E10    1.071073711500503E-4   3.991325793322176E-4  
 2.202000000000000E10    5.407138960435987E-4  -2.525141462683678E-4  
 2.204000000000000E10    3.119195462204516E-4  -4.302606976125389E-4  
 2.206000000000000E10   -5.179965519346297E-4   1.308514620177448E-4  
 2.208000000000000E10    8.595245890319347E-4   7.740266155451536E-4  
 2.210000000000000E10    1.067647244781256E-3  -1.971765450434759E-4  
 2.212000000000000E10   -2.877978840842843E-5  -7.037153700366616E-4  
 2.214000000000000E10   -4.841754853259772E-4   5.431973841041327E-4  
 2.216000000000000E10    2.879234380088747E-4   7.565502892248333E-4  
 2.218000000000000E10    8.483142009936273E-4  -6.429898203350604E-4  
 2.220000000000000E10   -2.667079970706254E-4  -9.610211127437651E-4  
 2.222000000000000E10   -7.835617871023715E-4   1.768056827131659E-4  
 2.224000000000000E10    8.554910891689360E-4   3.759548708330840E-4  
 2.226000000000000E10    9.872550144791603E-4  -2.693607821129262E-4  
 2.228000000000000E10   -2.446601574774832E-4  -5.692595732398331E-4  
 2.230000000000000E10   -1.274741634915699E-6   2.485277364030480E-4  
 2.232000000000000E10   -4.759571311296895E-5   3.931549144908786E-4  
 2.234000000000000E10    4.545131378108636E-5  -3.423518501222134E-5  
 2.236000000000000E10   -1.632965868338943E-4  -9.715375199448317E-5  
 2.238000000000000E10    2.194074622821063E-4  -2.451513137202710E-4  
 2.240000000000000E10   -4.189653263892978E-4  -6.206817924976349E-4  
 2.242000000000000E10   -4.334381374064833E-4  -3.023854515049607E-4  
 2.244000000000000E10    2.068361936835572E-4   4.587961593642831E-4  
 2.246000000000000E10    5.813201423734427E-4  -6.845914758741856E-4  
 2.248000000000000E10    2.049144677584991E-4  -8.552572107873857E-4  
 2.250000000000000E10   -7.891128188930452E-4   1.133274199673906E-4  
 2.252000000000000E10    1.826545340009034E-4   6.589919794350863E-4  
 2.254000000000000E10    6.257146014831960E-4  -1.361651957267895E-4  
 2.256000000000000E10   -2.620657323859632E-4  -7.926121470518410E-4  
 2.258000000000000E10   -1.004707184620202E-3   2.059225225821137E-4  
 2.260000000000000E10   -1.954492472577840E-5   2.896247024182230E-4  
 2.262000000000000E10    5.296593881212175E-4  -1.937635970534757E-4  
 2.264000000000000E10   -2.129610365955159E-4  -4.523415409494191E-4  
 2.266000000000000E10   -4.360938619356602E-4   2.218797635578085E-5  
 2.268000000000000E10   -1.977226929739118E-4   9.480383596383035E-5  
 2.270000000000000E10   -1.077370179700665E-4  -3.001808909175452E-5  
 2.272000000000000E10   -2.099523262586445E-4   2.827622483891901E-5  
 2.274000000000000E10    1.537197531433776E-4  -1.630450715310872E-4  
 2.276000000000000E10   -2.883246634155512E-4  -4.455108719412237E-4  
 2.278000000000000E10   -4.503116360865533E-4  -4.141381577937864E-5  
 2.280000000000000E10    1.064753087121062E-4   4.455343587324023E-4  
 2.282000000000000E10    6.383737199939787E-4   1.964901457540691E-4  
 2.284000000000000E10   -7.267598994076252E-5  -2.324999950360507E-4  
 2.286000000000000E10   -5.289348191581667E-4   1.034614397212863E-4  
 2.288000000000000E10    1.651933271205053E-4   7.276514661498368E-4  
 2.290000000000000E10    1.474499731557444E-4   7.586560241179541E-5  
 2.292000000000000E10   -8.213963883463293E-5  -2.755163586698473E-4  
 2.294000000000000E10   -7.218360551632941E-4  -2.213976404163986E-4  
 2.296000000000000E10    2.542758302297443E-4   8.543471267330460E-6  
 2.298000000000000E10   -7.839847239665687E-5   1.789283705875278E-4  
 2.300000000000000E10    2.145265607396141E-4  -4.486883117351681E-4  
 2.302000000000000E10    2.199415030190721E-4   1.521865051472560E-4  
 2.304000000000000E10   -2.726964303292334E-4  -2.169401341234334E-5  
 2.306000000000000E10    3.463894972810522E-5   2.631306415423751E-4  
 2.308000000000000E10   -1.087948912754655E-4   2.007264120038599E-4  
 2.310000000000000E10    9.915092960000038E-5  -4.749220897792839E-5  
 2.312000000000000E10   -7.868750253692269E-5  -3.241823869757354E-4  
 2.314000000000000E10   -4.268915799912065E-4   1.452532742405310E-4  
 2.316000000000000E10   -3.007463965332136E-5   2.936378878075630E-4  
 2.318000000000000E10    4.371407558210194E-4  -3.150729462504387E-4  
 2.320000000000000E10   -2.930238842964172E-4  -5.076214438304305E-4  
 2.322000000000000E10   -1.895310706458986E-4   1.891648862510920E-4  
 2.324000000000000E10    9.900529403239489E-5   3.691501333378255E-4  
 2.326000000000000E10    1.896144094644114E-4  -3.767863381654024E-4  
 2.328000000000000E10   -2.899396349675953E-4   2.741204752965132E-6  
 2.330000000000000E10   -3.060318704228848E-4   9.966582729248330E-5  
 2.332000000000000E10   -6.988224049564451E-5   2.432972542010248E-4  
 2.334000000000000E10   -1.531166199129075E-4  -5.053749191574752E-5  
 2.336000000000000E10   -6.567707896465436E-5   4.833236744161695E-4  
 2.338000000000000E10    1.231371861649677E-4  -2.153583182007424E-6  
 2.340000000000000E10   -3.977667074650526E-5   1.140115200541914E-4  
 2.342000000000000E10   -4.072065348736942E-4   1.117202282330254E-5  
 2.344000000000000E10    2.306994065293111E-5   2.485259901732206E-4  
 2.346000000000000E10    1.487707631895319E-4   1.675826788414270E-4  
 2.348000000000000E10   -5.262470585876145E-5  -3.563027421478182E-4  
 2.350000000000000E10   -5.488299648277462E-4  -6.045517875463702E-5  
 2.352000000000000E10    3.975403888034634E-5   1.117146166507155E-5  
 2.354000000000000E10    3.747231676243246E-4  -2.434266352793202E-4  
 2.356000000000000E10    1.586420985404402E-4  -4.308903298806399E-4  
 2.358000000000000E10   -4.693473747465760E-4   5.907499144086614E-5  
 2.360000000000000E10    6.355825462378562E-5   3.837051917798817E-4  
 2.362000000000000E10    2.927501336671412E-4   1.939404464792460E-4  
 2.364000000000000E10   -3.689798759296536E-4  -3.379731206223369E-4  
 2.366000000000000E10   -1.854597212513909E-4   7.852443377487361E-5  
 2.368000000000000E10   -1.365528005408123E-4   9.377030073665083E-5  
 2.370000000000000E10    6.797704554628581E-5   1.631669147172943E-4  
 2.372000000000000E10    3.715962157002650E-5  -7.635269867023453E-5  
 2.374000000000000E10    2.887096488848329E-4  -2.191124513046816E-4  
 2.376000000000000E10   -1.953731843968853E-4   5.080331902718172E-5  
 2.378000000000000E10   -1.065293545252644E-4   3.137396415695548E-4  
 2.380000000000000E10    2.093739312840626E-4   5.326317623257637E-4  
 2.382000000000000E10    2.549255441408604E-4   1.837298041209579E-4  
 2.384000000000000E10   -3.026463964488357E-4  -2.287029637955129E-4  
 2.386000000000000E10   -5.244082421995699E-4   5.654960477841087E-5  
 2.388000000000000E10    6.777243834221736E-5   4.417618038132787E-4  
 2.390000000000000E10    1.896605244837701E-4  -8.346821414306760E-5  
 2.392000000000000E10   -1.405480579705909E-4  -5.420203087851405E-4  
 2.394000000000000E10   -5.243960767984390E-4  -1.613805361557752E-4  
 2.396000000000000E10    9.370574844069779E-5   7.541885133832693E-4  
 2.398000000000000E10    5.828602588735521E-4   1.914373715408146E-4  
 2.400000000000000E10    1.958005595952272E-4  -1.828756212489680E-4  
 2.402000000000000E10   -3.759925893973559E-4   1.772259420249611E-4  
 2.404000000000000E10    1.860008342191577E-4   4.568287113215774E-4  
 2.406000000000000E10    3.397981636226177E-4   3.456867707427591E-4  
 2.408000000000000E10    1.923909730976448E-4   4.511205042945221E-5  
 2.410000000000000E10   -4.691292997449637E-5  -1.367823570035398E-4  
 2.412000000000000E10   -1.113049052037241E-6   3.025708429049701E-5  
 2.414000000000000E10    1.241551799466834E-4   3.202865191269666E-4  
 2.416000000000000E10    6.043953471817076E-4   2.475107794452924E-5  
 2.418000000000000E10    5.249652895145118E-4  -2.124281454598531E-4  
 2.420000000000000E10   -1.910435530589894E-4  -4.148773732595146E-4  
 2.422000000000000E10   -1.187274829135276E-4   5.850784509675577E-5  
 2.424000000000000E10    5.278254975564778E-4   4.483583325054497E-4  
 2.426000000000000E10    5.807277630083263E-4  -1.298885617870838E-4  
 2.428000000000000E10    1.522432139609009E-4  -5.035873036831617E-4  
 2.430000000000000E10   -2.297519968124107E-4  -3.968836681451649E-4  
 2.432000000000000E10   -6.485817721113563E-5   3.791330964304507E-4  
 2.434000000000000E10    9.078517905436456E-4  -1.399694592691958E-4  
 2.436000000000000E10    4.481813812162727E-4  -4.643300781026483E-4  
 2.438000000000000E10   -3.019788127858192E-4  -5.718687898479402E-4  
 2.440000000000000E10    9.684523683972657E-5   3.851994115393609E-4  
 2.442000000000000E10    3.494147094897926E-4   4.952721064910293E-4  
 2.444000000000000E10    4.521404334809631E-4  -7.138261571526527E-4  
 2.446000000000000E10   -2.329516282770783E-4  -2.057485398836434E-4  
 2.448000000000000E10   -5.076764500699937E-4   3.178585393470712E-5  
 2.450000000000000E10   -1.325028570136055E-4   5.307534229359590E-5  
 2.452000000000000E10    2.305456000613049E-4  -2.573017554823309E-4  
 2.454000000000000E10   -1.647677563596517E-4  -2.958594996016473E-4  
 2.456000000000000E10   -2.478483947925270E-4  -1.905727112898603E-4  
 2.458000000000000E10   -2.087670145556331E-4   2.326960384380072E-4  
 2.460000000000000E10    1.240566689375555E-5   3.799226833507419E-4  
 2.462000000000000E10    3.979076427640393E-5   3.449002688284963E-4  
 2.464000000000000E10   -4.857276871916838E-5  -1.653650542721152E-5  
 2.466000000000000E10   -5.384983960539103E-4   2.446783182676882E-4  
 2.468000000000000E10   -4.238798865117133E-4   3.828039916697890E-4  
 2.470000000000000E10    1.905655954033136E-4   4.513630701694638E-4  
 2.472000000000000E10    1.493700692662969E-4  -4.084392276126891E-4  
 2.474000000000000E10   -2.079476544167846E-4  -5.450155367725529E-5  
 2.476000000000000E10   -2.008791634580120E-4   3.608731785789132E-4  
 2.478000000000000E10    5.350369028747082E-4   5.286663654260337E-4  
 2.480000000000000E10    1.385237846989185E-4  -2.722572826314718E-4  
 2.482000000000000E10   -2.063382853521034E-4  -1.069285863195546E-4  
 2.484000000000000E10   -5.015853676013649E-4   4.569204465951771E-4  
 2.486000000000000E10    5.168683128431439E-4   2.033712808042765E-4  
 2.488000000000000E10    1.185457658721134E-4  -1.959863311640220E-6  
 2.490000000000000E10    1.822503108996898E-4  -5.997291882522404E-4  
 2.492000000000000E10   -6.808991020079702E-5   7.340353818108270E-7  
 2.494000000000000E10    1.069454665412195E-4  -2.454318164382130E-4  
 2.496000000000000E10    7.186229922808707E-4   2.481066621840000E-4  
 2.498000000000000E10   -3.946094511775300E-5  -2.818123030010611E-4  
 2.500000000000000E10    2.552856749389321E-4  -1.519073557574302E-4  
 2.502000000000000E10   -3.052481042686850E-4   1.696785038802773E-4  
 2.504000000000000E10   -9.195162419928238E-5  -1.281182630918920E-5  
 2.506000000000000E10    1.017354734358378E-4  -1.359166635666043E-4  
 2.508000000000000E10    4.196667578071356E-4  -4.482795775402337E-4  
 2.510000000000000E10   -1.260138233192265E-4  -2.146132756024599E-4  
 2.512000000000000E10   -2.735402085818350E-5  -1.011398635455407E-4  
 2.514000000000000E10    5.265760119073093E-4   4.584397538565099E-4  
 2.516000000000000E10    4.755567933898419E-4  -2.526245079934597E-4  
 2.518000000000000E10    3.470709780231118E-4  -8.166542829712853E-5  
 2.520000000000000E10   -1.834084250731394E-4   3.529655805323273E-4  
 2.522000000000000E10    1.191035917145200E-4   1.872227003332228E-4  
 2.524000000000000E10    2.093578805215657E-4  -8.672224066685885E-5  
 2.526000000000000E10   -6.808109901612625E-5  -2.277295134263113E-4  
 2.528000000000000E10   -2.142857410944998E-4  -4.283349553588778E-4  
 2.530000000000000E10    1.058224443113431E-4  -9.112926636589691E-5  
 2.532000000000000E10   -7.211742195067927E-5   1.599830720806494E-4  
 2.534000000000000E10    1.594557688804343E-4  -1.201943232445046E-4  
 2.536000000000000E10    4.584974667523056E-4   7.427865784848109E-5  
 2.538000000000000E10   -2.850132877938449E-4  -1.802527549443767E-4  
 2.540000000000000E10   -4.570055170916021E-5   3.252979149692692E-5  
 2.542000000000000E10    1.758671860443428E-4   5.109624471515417E-4  
 2.544000000000000E10    2.641979081090540E-4  -2.277046150993556E-4  
 2.546000000000000E10    9.844874875852838E-5  -5.045814905315638E-4  
 2.548000000000000E10   -4.223641881253570E-4   3.920545859728009E-4  
 2.550000000000000E10    2.253136772196740E-4   1.724112662486732E-4  
 2.552000000000000E10    7.757173152640462E-4  -2.362539453315549E-5  
 2.554000000000000E10   -8.417648496106267E-5  -2.499763213563711E-4  
 2.556000000000000E10   -3.141976485494524E-4  -3.886701051669661E-6  
 2.558000000000000E10   -1.455967139918357E-4   3.805341839324683E-4  
 2.560000000000000E10    3.368858597241342E-4  -1.663064031163231E-4  
 2.562000000000000E10   -6.160450720926747E-5  -4.482733493205160E-4  
 2.564000000000000E10    1.076203625416383E-5  -3.778192040044814E-4  
 2.566000000000000E10   -8.555812382837758E-5  -2.569641765148845E-5  
 2.568000000000000E10    2.169974177377299E-4  -1.750351220835000E-4  
 2.570000000000000E10    4.060409264639020E-4   1.569985033711419E-4  
 2.572000000000000E10   -1.194804208353162E-4  -1.132865072577260E-4  
 2.574000000000000E10    2.788261626847088E-4  -2.020816173171625E-4  
 2.576000000000000E10   -3.554221475496888E-4   1.390802935929969E-4  
 2.578000000000000E10   -2.595669320726302E-5   2.736018213909119E-4  
 2.580000000000000E10    3.012935339938849E-4  -1.751432864693925E-4  
 2.582000000000000E10   -1.179513637907803E-4  -4.900806234218180E-4  
 2.584000000000000E10   -5.538137629628182E-4   2.243108974653296E-5  
 2.586000000000000E10    5.572473746724427E-4   7.520624058088288E-5  
 2.588000000000000E10    4.808287194464356E-4  -1.234084484167397E-4  
 2.590000000000000E10   -3.413805097807199E-4  -6.038389401510358E-4  
 2.592000000000000E10   -1.659669214859605E-4   1.734009128995240E-4  
 2.594000000000000E10   -1.239534958585864E-5   3.616880858317018E-4  
 2.596000000000000E10    3.032790264114738E-4  -1.654247753322125E-4  
 2.598000000000000E10   -3.925921046175063E-4  -3.086748765781522E-4  
 2.600000000000000E10   -1.152602417278104E-4  -1.985135604627430E-4  
 2.602000000000000E10   -2.895325815188699E-5   2.227191143902019E-4  
 2.604000000000000E10   -9.423476512893103E-6  -3.428687050472945E-4  
 2.606000000000000E10    1.508885361545254E-5   1.200155602418818E-4  
 2.608000000000000E10   -3.154502701363526E-5  -1.654199331824202E-5  
 2.610000000000000E10   -5.908757884753868E-5  -1.520267232990591E-5  
 2.612000000000000E10   -7.655687513761222E-4   1.194177457364276E-4  
 2.614000000000000E10    1.921234797919169E-4   6.047724746167660E-4  
 2.616000000000000E10    1.615604269318283E-4  -3.267261126893573E-5  
 2.618000000000000E10   -2.257943124277517E-4  -5.299702170304954E-4  
 2.620000000000000E10   -3.623993834480643E-4   5.592642119154334E-4  
 2.622000000000000E10    1.438259496353567E-4   2.630799135658890E-4  
 2.624000000000000E10    5.593694513663650E-4  -5.963248986518011E-5  
 2.626000000000000E10   -5.656755529344082E-4  -9.193590813083574E-5  
 2.628000000000000E10   -1.225448213517666E-4   2.147614140994847E-4  
 2.630000000000000E10    3.403741575311869E-4   5.244668573141098E-4  
 2.632000000000000E10    2.316124300705269E-5  -2.161880402127281E-4  
 2.634000000000000E10   -3.407973053981550E-5  -1.796156720956788E-4  
 2.636000000000000E10    1.705118629615754E-4  -8.667015936225653E-5  
 2.638000000000000E10    7.717619155300781E-5  -2.766871511994395E-5  
 2.640000000000000E10   -2.794984357024077E-5  -3.806819149758667E-4  
 2.642000000000000E10    6.734455382684246E-5   2.720520205912180E-5  
 2.644000000000000E10    2.670210960786790E-6  -3.997346357209608E-5  
 2.646000000000000E10   -7.767658644297626E-6  -4.177707596682012E-4  
 2.648000000000000E10   -3.345291770529002E-4   1.754930999595672E-4  
 2.650000000000000E10    1.857635070336983E-4   8.561307186027989E-5  
 2.652000000000000E10    1.298160204896703E-4  -1.110542652895674E-4  
 2.654000000000000E10   -3.648184065241367E-4  -3.624393721111119E-4  
 2.656000000000000E10   -3.057780850213021E-4   4.545146948657930E-4  
 2.658000000000000E10    1.642760907998309E-4   2.639486338011921E-4  
 2.660000000000000E10    1.174786521005444E-4  -8.116717071970925E-5  
 2.662000000000000E10   -3.450116200838238E-4   4.079336576978676E-5  
 2.664000000000000E10    5.439631058834493E-5   1.336706627625972E-4  
 2.666000000000000E10    2.054686483461410E-4   1.575538335600868E-4  
 2.668000000000000E10    1.919996575452387E-4  -2.039170940406621E-4  
 2.670000000000000E10    1.611855841474608E-4  -1.897214970085770E-4  
 2.672000000000000E10    2.521903370507062E-4   7.246061431942508E-5  
 2.674000000000000E10    1.605910802027211E-4   3.963488779845648E-5  
 2.676000000000000E10    3.968524470110424E-5  -1.884618977783248E-4  
 2.678000000000000E10   -6.685491098323837E-5  -5.071033592685126E-5  
 2.680000000000000E10   -2.318949700566009E-4  -1.625333679839969E-4  
 2.682000000000000E10   -1.917936751851812E-4  -1.155736026703380E-4  
 2.684000000000000E10   -1.653520594118163E-4   8.164179598679766E-5  
 2.686000000000000E10    2.672230475582182E-4   2.393092290731147E-5  
 2.688000000000000E10   -5.557004260481335E-5  -1.662926952121779E-4  
 2.690000000000000E10   -2.252915874123573E-4  -3.265427949372679E-4  
 2.692000000000000E10    1.300937583437190E-4   3.314424538984895E-4  
 2.694000000000000E10    4.579324377118610E-5  -2.234901767224073E-4  
 2.696000000000000E10   -2.321055399079341E-5  -2.650642127264291E-4  
 2.698000000000000E10   -3.228019631933421E-4   7.781544991303235E-5  
 2.700000000000000E10    1.513834140496329E-4   5.511869312613271E-5  
 2.702000000000000E10   -1.670177334744949E-5  -1.561949320603162E-4  
 2.704000000000000E10   -1.477374171372503E-4  -2.132656663889065E-4  
 2.706000000000000E10   -1.450886047678068E-4  -6.375638622557744E-5  
 2.708000000000000E10    1.138085208367556E-4   8.324114787683357E-6  
 2.710000000000000E10   -4.767927384818904E-5   1.349589729215950E-4  
 2.712000000000000E10    1.124234477174468E-4   5.642236828862224E-7  
 2.714000000000000E10   -1.099204018828459E-4   6.635626778006554E-5  
 2.716000000000000E10   -1.970886223716661E-4  -2.031204348895699E-4  
 2.718000000000000E10   -1.331643761659507E-5  -5.276639421936125E-5  
 2.720000000000000E10   -1.945884578162804E-4   1.024670127662830E-4  
 2.722000000000000E10    2.449883904773742E-4   2.116616633429658E-5  
 2.724000000000000E10    1.064409589162096E-4  -1.918259367812425E-4  
 2.726000000000000E10   -2.371435111854225E-4   2.196476561948657E-4  
 2.728000000000000E10   -1.320120209129527E-4   3.253561444580555E-4  
 2.730000000000000E10    4.763401520904154E-4   1.057721674442291E-4  
 2.732000000000000E10   -2.869658055715263E-4  -7.151420868467540E-5  
 2.734000000000000E10   -2.258255990454927E-4  -4.543573231785558E-5  
 2.736000000000000E10    5.197253267397173E-5   2.219489106209949E-4  
 2.738000000000000E10    1.278498966712505E-4  -2.265537623316050E-4  
 2.740000000000000E10   -1.296888658544049E-4   1.719717402011156E-4  
 2.742000000000000E10   -5.021308970754035E-5   2.955699455924332E-4  
 2.744000000000000E10    2.503089199308306E-4   2.841251261997968E-4  
 2.746000000000000E10   -8.901916589820758E-5  -9.428944031242281E-5  
 2.748000000000000E10   -2.634502016007900E-4   1.517637574579567E-4  
 2.750000000000000E10   -1.951929443748668E-4   1.533772301627323E-4  
 2.752000000000000E10    1.841848861658946E-4   4.782244650414214E-5  
 2.754000000000000E10   -3.326145233586431E-4  -2.672188857104629E-4  
 2.756000000000000E10    8.797230111667886E-5  -9.931324166245759E-5  
