#  HZ   S   RI   R     50.00 
! Rohde & Schwarz ZVA40 4Ports - Version 3.90 - 1145.1110k42 SN: 100403
! Date: 2023-10-04 07:53:29
! Measurement: S12 
! 
 2.200000000000000E10   -6.977000157348812E-4   4.135125491302460E-4  
 2.202000000000000E10    4.129624867346138E-4   6.889092037454248E-4  
 2.204000000000000E10    3.106002404820174E-4  -5.375113687478006E-4  
 2.206000000000000E10   -5.948975449427962E-4  -9.102772455662489E-4  
 2.208000000000000E10   -6.045551854185760E-4   8.943719440139830E-4  
 2.210000000000000E10    1.792315306374803E-4   2.889229508582503E-4  
 2.212000000000000E10    4.665116139221937E-4  -2.908521273639053E-4  
 2.214000000000000E10   -5.005087587051094E-4  -2.254355349577963E-4  
 2.216000000000000E10   -1.901727955555543E-4   2.485394070390612E-4  
 2.218000000000000E10   -2.625202250783332E-5   2.650119131430984E-4  
 2.220000000000000E10   -5.223704501986504E-4   2.280158951180056E-4  
 2.222000000000000E10   -2.421173267066479E-4   3.900032606907189E-4  
 2.224000000000000E10    2.865302667487413E-4  -1.331066887360066E-4  
 2.226000000000000E10   -6.086947978474200E-4  -3.241567173972726E-4  
 2.228000000000000E10   -7.443758076988161E-4   2.845916023943573E-4  
 2.230000000000000E10    4.528432909864932E-4   5.245612119324505E-4  
 2.232000000000000E10    4.591006145346910E-4  -6.413187365978956E-4  
 2.234000000000000E10   -3.374874941073358E-4  -5.531212082132697E-4  
 2.236000000000000E10   -4.872339195571840E-4   5.382974050007761E-4  
 2.238000000000000E10    4.087261622771621E-4   6.530284299515188E-4  
 2.240000000000000E10    5.205487832427025E-4  -2.901091938838363E-4  
 2.242000000000000E10   -3.986159572377801E-4  -3.971937403548509E-4  
 2.244000000000000E10   -6.689438596367836E-4   4.017784958705306E-4  
 2.246000000000000E10    7.544876280007884E-5   4.769565421156585E-4  
 2.248000000000000E10    3.660076763480902E-4  -2.345995017094538E-4  
 2.250000000000000E10    5.729853910452221E-6  -1.418933970853686E-4  
 2.252000000000000E10    5.919881368754432E-5   2.534335071686655E-4  
 2.254000000000000E10    3.392949292901903E-4   1.648587058298290E-4  
 2.256000000000000E10    2.820304362103343E-4   4.065344983246177E-4  
 2.258000000000000E10    3.609589184634388E-4   4.444584483280778E-4  
 2.260000000000000E10    6.384080625139177E-4  -5.925470031797886E-5  
 2.262000000000000E10   -2.497848763596267E-4   6.020242653903551E-5  
 2.264000000000000E10   -1.695308892522007E-4   2.646795765031129E-4  
 2.266000000000000E10    6.384940352290869E-4   5.263912025839090E-4  
 2.268000000000000E10    4.156448994763196E-4  -4.880500491708517E-4  
 2.270000000000000E10   -3.535506839398295E-4  -6.516345310956240E-4  
 2.272000000000000E10   -2.781511866487563E-4   3.366887103766203E-4  
 2.274000000000000E10    5.992603255435824E-4   6.047089118510485E-4  
 2.276000000000000E10    5.646714707836509E-4  -3.209598944522440E-4  
 2.278000000000000E10    1.896983667393215E-5  -1.785388885764405E-4  
 2.280000000000000E10   -3.547272644937038E-4   3.206824185326695E-4  
 2.282000000000000E10    1.620542316231877E-4   4.239263362251222E-4  
 2.284000000000000E10    3.092639672104269E-4   3.714127524290234E-5  
 2.286000000000000E10   -4.061608706251718E-5  -7.481857755919918E-5  
 2.288000000000000E10    2.433707268210128E-4   1.558162621222436E-4  
 2.290000000000000E10   -2.726958191487938E-4  -1.771939132595435E-4  
 2.292000000000000E10   -3.243455139454454E-4   9.988711099140346E-5  
 2.294000000000000E10    4.052583535667509E-4   2.281625638715923E-4  
 2.296000000000000E10    5.864079575985670E-4  -2.044145221589133E-4  
 2.298000000000000E10   -7.406133227050304E-4  -4.306159680709243E-4  
 2.300000000000000E10   -2.487878955435008E-4   4.098200588487089E-4  
 2.302000000000000E10    1.979437656700611E-4   6.000816938467324E-4  
 2.304000000000000E10    2.428757434245199E-4  -6.831007776781917E-4  
 2.306000000000000E10   -6.035570986568928E-4  -4.943605163134635E-4  
 2.308000000000000E10   -4.587162984535098E-4   2.427588187856600E-4  
 2.310000000000000E10    4.494618042372167E-4   4.139691009186208E-4  
 2.312000000000000E10    2.645667991600931E-4  -2.104706509271637E-4  
 2.314000000000000E10   -1.124564078054391E-4  -1.292546367039904E-4  
 2.316000000000000E10   -4.583000190905295E-5   6.130764813860878E-5  
 2.318000000000000E10   -4.840847759624012E-5  -9.851705544861034E-5  
 2.320000000000000E10   -4.260628193151206E-4  -1.935116888489574E-4  
 2.322000000000000E10    1.435124286217615E-4  -1.762229658197612E-5  
 2.324000000000000E10   -3.762808410101570E-5  -1.401088084094226E-4  
 2.326000000000000E10   -2.282767236465588E-4  -4.335379344411194E-4  
 2.328000000000000E10   -2.097501710522920E-4   4.790895036421716E-5  
 2.330000000000000E10    2.194933913415298E-4   2.540592977311462E-4  
 2.332000000000000E10    4.859067557845265E-4  -1.607774756848812E-4  
 2.334000000000000E10   -8.317711035488173E-5  -3.634646709542722E-4  
 2.336000000000000E10   -5.371245788410306E-4   5.612063105218113E-4  
 2.338000000000000E10    3.558653406798840E-4   4.350905073806644E-4  
 2.340000000000000E10    3.470115480013192E-4  -1.316379930358380E-4  
 2.342000000000000E10   -2.456484362483025E-4  -5.606279009953141E-4  
 2.344000000000000E10   -1.203869542223401E-4   3.704219998326153E-4  
 2.346000000000000E10    2.851100871339440E-4   1.066505647031590E-4  
 2.348000000000000E10    5.243070772849023E-4  -2.443605335429311E-4  
 2.350000000000000E10   -4.856539453612641E-5  -6.479780859081075E-5  
 2.352000000000000E10    2.047273301286623E-4   5.896496440982446E-5  
 2.354000000000000E10    3.299075178802013E-4   1.315196423092857E-4  
 2.356000000000000E10    2.246928779641166E-4  -1.705109898466617E-4  
 2.358000000000000E10    6.639822095166892E-5   2.025425346801058E-4  
 2.360000000000000E10    2.848668373189867E-4   1.067142875399441E-4  
 2.362000000000000E10   -2.980997305712663E-5  -2.043694548774511E-4  
 2.364000000000000E10   -4.423873906489462E-4  -1.837956806411967E-4  
 2.366000000000000E10    1.981568857445382E-5   2.233783743577078E-4  
 2.368000000000000E10    7.866766827646643E-5  -1.532885362394154E-4  
 2.370000000000000E10   -1.788445661077276E-4  -4.618525854311883E-4  
 2.372000000000000E10   -3.700832603499293E-4   8.679296297486872E-5  
 2.374000000000000E10    3.545243453118019E-5   4.002202185802162E-4  
 2.376000000000000E10    2.021271793637425E-4  -1.234687806572765E-4  
 2.378000000000000E10    7.380896568065509E-5  -6.289582233875990E-4  
 2.380000000000000E10   -2.454500354360789E-4   1.827913656597957E-4  
 2.382000000000000E10    3.935456043109298E-4   4.041168431285769E-4  
 2.384000000000000E10    3.748454328160733E-4  -4.493335145525634E-4  
 2.386000000000000E10   -7.475219899788499E-5  -3.784554428420961E-4  
 2.388000000000000E10    1.646013261051849E-4   4.549259610939771E-4  
 2.390000000000000E10    2.264995418954641E-4   1.627250603633001E-4  
 2.392000000000000E10    2.162119344575331E-4  -1.273414090974256E-4  
 2.394000000000000E10    2.115360257448629E-5  -3.444135654717684E-4  
 2.396000000000000E10    3.071288811042905E-4   2.126759645761922E-4  
 2.398000000000000E10   -8.245058415923268E-5   7.064911187626422E-5  
 2.400000000000000E10   -1.556543793412857E-5   1.408186944900081E-4  
 2.402000000000000E10    7.128970901248977E-5   6.803195719840005E-5  
 2.404000000000000E10    1.473543816246092E-4  -4.481287032831460E-4  
 2.406000000000000E10   -1.206666856887750E-4  -1.316357520408928E-4  
 2.408000000000000E10   -1.424254151061177E-4  -2.143223537132144E-5  
 2.410000000000000E10    2.950532943941653E-4   1.894360611913726E-4  
 2.412000000000000E10    3.638071648310870E-4  -5.395927291829139E-5  
 2.414000000000000E10   -2.118029224220663E-4  -5.161513108760119E-4  
 2.416000000000000E10   -4.398125165607780E-4  -3.771458432311192E-5  
 2.418000000000000E10   -1.839487085817382E-4   4.805283970199525E-4  
 2.420000000000000E10    3.470373630989343E-4  -2.567300980444998E-4  
 2.422000000000000E10   -6.013140227878466E-5  -5.269874236546457E-4  
 2.424000000000000E10   -6.594575825147331E-4   2.913783646363299E-5  
 2.426000000000000E10    1.065811375156045E-4   3.465098270680755E-4  
 2.428000000000000E10    3.795161901507527E-4   3.267712309025228E-4  
 2.430000000000000E10   -8.275701111415401E-5  -5.977672408334911E-4  
 2.432000000000000E10   -4.056101315654814E-4  -1.080609508790076E-4  
 2.434000000000000E10   -5.140827852301300E-4   3.361250273883343E-4  
 2.436000000000000E10    2.636248827911913E-4   1.241275604115799E-4  
 2.438000000000000E10    6.876036786707118E-5  -2.761018695309758E-4  
 2.440000000000000E10    6.248402496566996E-5  -5.468332674354315E-4  
 2.442000000000000E10   -4.777880676556379E-4  -5.115084422868677E-5  
 2.444000000000000E10   -5.954738298896700E-5   1.275730173802003E-4  
 2.446000000000000E10    3.280384989921004E-4   3.110104589723051E-4  
 2.448000000000000E10    2.730886917561293E-4  -3.141657798551023E-4  
 2.450000000000000E10    5.455962673295289E-5  -2.375415497226641E-4  
 2.452000000000000E10   -6.850557983852923E-4  -4.260001151124016E-5  
 2.454000000000000E10   -8.580217581766192E-6   3.686356649268419E-4  
 2.456000000000000E10    3.912670072168112E-4   1.964574476005510E-4  
 2.458000000000000E10    1.830390101531521E-4  -9.019392891786993E-4  
 2.460000000000000E10   -7.123940740711987E-4  -3.212855372112244E-4  
 2.462000000000000E10   -2.060327533399686E-4   4.519318172242492E-4  
 2.464000000000000E10    7.727828342467547E-4   1.721384469419718E-4  
 2.466000000000000E10    3.073040861636400E-4  -6.758329109288752E-4  
 2.468000000000000E10   -2.455301873851568E-4  -2.567405754234642E-4  
 2.470000000000000E10   -4.430629487615079E-4   2.000346576096490E-4  
 2.472000000000000E10    3.665682161226869E-4   2.206840872531757E-4  
 2.474000000000000E10    1.032927611959167E-4  -2.399973600404337E-4  
 2.476000000000000E10   -1.244663581019267E-4  -5.374505417421460E-4  
 2.478000000000000E10   -2.536846732255071E-4  -5.917324870097218E-6  
 2.480000000000000E10   -1.193267889902927E-4  -8.149161294568330E-5  
 2.482000000000000E10    4.491310683079064E-4  -1.061051516444422E-4  
 2.484000000000000E10    1.117427309509367E-4  -1.482291700085625E-4  
 2.486000000000000E10    1.594978093635291E-4  -5.880586684270384E-8  
 2.488000000000000E10   -1.900598435895518E-4   2.659529855009168E-4  
 2.490000000000000E10    8.788714330876246E-5   2.607481146696955E-4  
 2.492000000000000E10    2.522582362871617E-4   3.317099181003869E-4  
 2.494000000000000E10    1.605494435352739E-5  -2.323721855645999E-4  
 2.496000000000000E10   -2.894576173275709E-4  -2.093327822194624E-8  
 2.498000000000000E10   -5.680106551153585E-5   1.563212426844984E-4  
 2.500000000000000E10    5.650697275996208E-4   1.880144263850525E-4  
 2.502000000000000E10    1.345900236628950E-4  -4.516191838774830E-4  
 2.504000000000000E10   -1.438710023649037E-4  -2.714933943934739E-4  
 2.506000000000000E10   -1.594365312485024E-4   4.964364343322814E-4  
 2.508000000000000E10    1.534264592919499E-4   2.479394606780261E-4  
 2.510000000000000E10    6.989174289628863E-5  -1.392994454363361E-4  
 2.512000000000000E10   -4.600379907060415E-4  -6.304807175183669E-5  
 2.514000000000000E10   -2.288592077093199E-4   1.120926535804756E-4  
 2.516000000000000E10   -1.994915010072873E-6  -7.126958371372894E-5  
 2.518000000000000E10    1.457058970117942E-4  -1.547456922708079E-4  
 2.520000000000000E10   -3.422363079153001E-4  -2.553960657678545E-4  
 2.522000000000000E10   -1.155848804046400E-4  -1.307327183894813E-4  
 2.524000000000000E10   -3.400468267500401E-4   6.332910288620042E-6  
 2.526000000000000E10   -2.839830704033375E-4  -1.348993682768196E-4  
 2.528000000000000E10    2.060493134194985E-4   2.132801746483892E-4  
 2.530000000000000E10   -2.473003696650267E-4  -4.161625111009926E-5  
 2.532000000000000E10   -2.906588197220117E-4  -4.841726622544229E-4  
 2.534000000000000E10   -3.095794527325779E-4   1.023577133310027E-4  
 2.536000000000000E10    9.082197357201949E-5  -1.171849817183102E-5  
 2.538000000000000E10    2.426363353151828E-4  -4.244859737809748E-4  
 2.540000000000000E10   -3.947983495891094E-4  -1.890342246042565E-4  
 2.542000000000000E10   -2.743910590652376E-4   2.665540960151702E-4  
 2.544000000000000E10    1.687472686171532E-4   1.941587397595868E-4  
 2.546000000000000E10    9.155010775430128E-5   4.111662201466970E-5  
 2.548000000000000E10   -5.120678688399494E-4  -1.001358541543596E-4  
 2.550000000000000E10   -2.058639511233196E-4   7.942881347844377E-5  
 2.552000000000000E10   -9.142669296124950E-5   2.664317435119301E-4  
 2.554000000000000E10   -5.757961844210513E-5  -1.794696581782773E-4  
 2.556000000000000E10   -3.455383875916596E-6   1.382856426062062E-4  
 2.558000000000000E10    2.053400385193527E-5  -2.197318826802075E-4  
 2.560000000000000E10    2.238798915641382E-4  -2.759597846306860E-4  
 2.562000000000000E10    1.842196506913751E-4   3.936974098905921E-4  
 2.564000000000000E10    4.039593623019755E-4   2.711208653636277E-4  
 2.566000000000000E10    1.921964285429567E-4  -2.674180141184479E-4  
 2.568000000000000E10   -3.456237609498203E-4   9.012628288473934E-5  
 2.570000000000000E10   -2.984765742439777E-4   4.562077519949526E-4  
 2.572000000000000E10    2.476157096680254E-4   1.798615849111229E-4  
 2.574000000000000E10    3.687924181576818E-4  -1.380428875563666E-4  
 2.576000000000000E10   -4.990683519281447E-4  -4.929698770865798E-4  
 2.578000000000000E10    1.534938783152029E-4   1.058168199961074E-4  
 2.580000000000000E10    1.685404713498429E-4   2.015560021391138E-4  
 2.582000000000000E10    2.370005677221343E-4  -1.872018619906157E-4  
 2.584000000000000E10   -3.469913281151094E-5  -2.358815800107550E-5  
 2.586000000000000E10    4.111812449991703E-5   1.632296771276742E-4  
 2.588000000000000E10    1.112404934247024E-4   5.495936493389309E-4  
 2.590000000000000E10   -1.198360987473279E-4   2.764668533927761E-5  
 2.592000000000000E10    2.180183946620673E-4   2.428543084533885E-4  
 2.594000000000000E10   -1.874354893516284E-5   5.811601295135915E-5  
 2.596000000000000E10   -1.723951427266002E-4  -9.458942804485560E-5  
 2.598000000000000E10   -3.606862737797201E-4   2.941974962595850E-4  
 2.600000000000000E10    5.937881069257855E-4   3.052769170608372E-4  
 2.602000000000000E10    1.444495283067226E-4  -2.298504477948882E-5  
 2.604000000000000E10   -2.641722385305911E-4  -4.089169669896364E-4  
 2.606000000000000E10    8.126340253511444E-5   7.588022854179144E-4  
 2.608000000000000E10    7.090689905453473E-5   2.232846454717219E-4  
 2.610000000000000E10    1.992115430766717E-4  -2.066084562102333E-4  
 2.612000000000000E10   -4.628723836503923E-4  -8.333619916811585E-5  
 2.614000000000000E10   -2.486851590219885E-4   1.793127012206242E-4  
 2.616000000000000E10    1.222798891831189E-4   4.393479321151972E-5  
 2.618000000000000E10    1.645356387598440E-4  -2.475724904797971E-4  
 2.620000000000000E10   -3.014434478245676E-4  -1.668832410359755E-4  
 2.622000000000000E10    2.261279150843620E-4  -8.128589252009988E-5  
 2.624000000000000E10    6.445102917496115E-5   1.959137298399583E-4  
 2.626000000000000E10   -1.202978673973121E-4  -1.999112282646820E-4  
 2.628000000000000E10    2.270337863592431E-4   3.595284943003207E-4  
 2.630000000000000E10   -1.332261745119467E-4   1.759088336257264E-4  
 2.632000000000000E10   -7.393507257802412E-5  -4.374387208372355E-5  
 2.634000000000000E10   -3.951768303522840E-5   3.003724850714207E-4  
 2.636000000000000E10    2.247902302769944E-4   6.932391261216253E-5  
 2.638000000000000E10    2.843148831743747E-5  -3.982750931754708E-4  
 2.640000000000000E10    1.357973087579012E-4  -1.072089653462172E-4  
 2.642000000000000E10    1.301120355492458E-4   3.882850578520447E-4  
 2.644000000000000E10    6.128197419457138E-4  -1.975632767425850E-4  
 2.646000000000000E10    1.827686064643785E-4  -3.963490962632932E-5  
 2.648000000000000E10   -2.512274368200451E-4   1.610851177247241E-4  
 2.650000000000000E10    9.376882371725515E-5   1.423524226993322E-4  
 2.652000000000000E10    6.203441444085911E-5   1.713727251626551E-4  
 2.654000000000000E10    2.906264853663743E-5  -3.918191068805754E-4  
 2.656000000000000E10   -1.450187119189650E-4  -2.364366227993742E-4  
 2.658000000000000E10   -1.021883799694479E-4  -1.784022606443614E-4  
 2.660000000000000E10    6.285082781687379E-5  -1.130098899011500E-4  
 2.662000000000000E10   -4.987899956176989E-6  -1.097694766940549E-4  
 2.664000000000000E10    7.567608554381877E-5   6.877462874399498E-5  
 2.666000000000000E10    4.471718784770928E-5  -1.194938231492415E-4  
 2.668000000000000E10   -2.072178176604211E-4   8.158272248692811E-5  
 2.670000000000000E10    1.520793011877686E-4   3.029106010217220E-4  
 2.672000000000000E10    1.220568901771912E-5  -1.219294499605894E-4  
 2.674000000000000E10   -4.182820848654956E-4  -2.548690827097744E-4  
 2.676000000000000E10   -3.669652796816081E-4  -1.953210303327069E-4  
 2.678000000000000E10    3.191495488863438E-5   1.228552137035877E-4  
 2.680000000000000E10    8.199933654395863E-5  -3.834975068457425E-4  
 2.682000000000000E10   -7.375574205070734E-5  -1.271869259653613E-4  
 2.684000000000000E10   -1.228972105309367E-4   5.348066770238802E-5  
 2.686000000000000E10    4.285195609554648E-5   3.927143407054246E-4  
 2.688000000000000E10    8.076441736193374E-5  -9.404174488736317E-5  
 2.690000000000000E10    2.225506614195183E-5   1.461697684135288E-5  
 2.692000000000000E10   -1.835842995205894E-4   1.432235876563937E-4  
 2.694000000000000E10    1.689794999037986E-6   1.970778394024819E-4  
 2.696000000000000E10   -8.319442713400349E-5   1.319418806815520E-4  
 2.698000000000000E10   -6.061094973119907E-5  -8.500537660438567E-5  
 2.700000000000000E10   -9.265357948606834E-5   1.829232060117647E-4  
 2.702000000000000E10   -1.366549695376307E-4  -3.532272603479214E-5  
 2.704000000000000E10   -1.726540795061737E-4   2.688888635020703E-4  
 2.706000000000000E10    3.231943410355598E-4   1.808506058296189E-4  
 2.708000000000000E10    2.234055282315239E-4  -5.532900104299188E-5  
 2.710000000000000E10   -6.819317786721513E-5   1.200796577904839E-5  
 2.712000000000000E10    1.108409633161500E-4   4.602528933901340E-4  
 2.714000000000000E10    1.997131184907630E-4   2.287980751134455E-4  
 2.716000000000000E10    1.774787670001388E-4  -1.252733054570854E-4  
 2.718000000000000E10   -3.160451597068459E-4   1.591677137184888E-4  
 2.720000000000000E10   -4.476797039387748E-5   1.721526787150651E-4  
 2.722000000000000E10    2.493523352313787E-4   3.785233275266364E-5  
 2.724000000000000E10   -1.757720747264102E-4  -4.085041291546077E-4  
 2.726000000000000E10   -5.302349381963722E-5  -7.101931259967387E-5  
 2.728000000000000E10    2.960759156849235E-4   2.631231327541173E-4  
 2.730000000000000E10    3.426257753744721E-4   1.171481380879413E-5  
 2.732000000000000E10    2.364599204156548E-4  -9.650921856518835E-5  
 2.734000000000000E10   -6.416761607397348E-5   3.151041164528579E-4  
 2.736000000000000E10    2.766841498669237E-4   8.734868606552482E-5  
 2.738000000000000E10    1.678179105510935E-4   4.324033398006577E-6  
 2.740000000000000E10   -3.294178459327668E-4  -1.400356995873153E-4  
 2.742000000000000E10    6.999912147875875E-5  -4.942167652188800E-5  
 2.744000000000000E10    3.017272974830121E-4   2.608109753055032E-5  
 2.746000000000000E10    5.487406087922864E-5  -4.647798778023571E-4  
 2.748000000000000E10    1.143744066212094E-5  -2.833856560755521E-4  
 2.750000000000000E10    4.583797417581081E-4   2.629166119731963E-4  
 2.752000000000000E10    2.399716322543100E-4   8.855612395564094E-5  
 2.754000000000000E10    1.551087916595861E-4  -2.518204855732620E-4  
 2.756000000000000E10   -8.928784154704772E-6   4.995316267013550E-4  
