#  HZ   S   RI   R     50.00 
! Rohde & Schwarz ZVA40 4Ports - Version 3.90 - 1145.1110k42 SN: 100403
! Date: 2023-10-04 07:53:12
! Measurement: S12 
! 
 2.200000000000000E10   -2.429703454254195E-4  -1.782576873665676E-6  
 2.202000000000000E10    6.768517778255045E-4   6.382281426340342E-4  
 2.204000000000000E10    1.967630378203467E-4  -2.724415207921993E-5  
 2.206000000000000E10    2.458273665979505E-4  -1.561502285767347E-4  
 2.208000000000000E10    2.001049870159477E-4   7.086317054927349E-4  
 2.210000000000000E10    3.677057684399188E-4  -3.333901986479759E-4  
 2.212000000000000E10   -2.235719293821603E-4   1.813223061617464E-4  
 2.214000000000000E10   -3.445743641350418E-5   6.902089226059616E-4  
 2.216000000000000E10    6.993440911173821E-4   4.866060626227409E-4  
 2.218000000000000E10    6.585711525985971E-5  -5.419104127213359E-4  
 2.220000000000000E10   -6.155645824037492E-4  -1.656601234572008E-4  
 2.222000000000000E10   -1.335940178250894E-4   8.795310859568417E-4  
 2.224000000000000E10    6.710983579978347E-4   3.500377933960408E-4  
 2.226000000000000E10    4.440451157279313E-4  -9.356616646982729E-4  
 2.228000000000000E10   -7.378869340755045E-4  -2.420614328002557E-5  
 2.230000000000000E10    8.941499982029200E-5   6.117623415775597E-4  
 2.232000000000000E10    9.415503591299057E-4   5.105958553031087E-4  
 2.234000000000000E10    1.585080171935260E-4  -2.540004497859627E-4  
 2.236000000000000E10   -3.014865069417283E-5  -2.536418469389901E-5  
 2.238000000000000E10   -1.007631217362359E-4   3.246728156227619E-4  
 2.240000000000000E10   -2.168357787013520E-5   1.634086656849831E-4  
 2.242000000000000E10    4.108035136596300E-5   2.884693094529212E-4  
 2.244000000000000E10    7.090696453815326E-5  -3.536709409672767E-4  
 2.246000000000000E10   -7.734918472124264E-5  -5.184078472666442E-4  
 2.248000000000000E10   -6.270978483371437E-4  -3.070479142479599E-4  
 2.250000000000000E10    4.627644011634402E-5   3.550293040461838E-4  
 2.252000000000000E10    5.863443366251886E-4  -4.797021392732859E-5  
 2.254000000000000E10    1.872340362751856E-4  -6.401488790288568E-4  
 2.256000000000000E10   -7.247512112371624E-4  -1.409818360116333E-4  
 2.258000000000000E10   -6.430274515878409E-5   7.389397942461073E-4  
 2.260000000000000E10    6.465193582698703E-4   7.307683699764311E-5  
 2.262000000000000E10   -1.113673060899600E-4  -7.556356722488999E-4  
 2.264000000000000E10   -7.387242512777448E-4  -2.350659196963534E-4  
 2.266000000000000E10   -3.155936428811401E-4   1.924362368299626E-5  
 2.268000000000000E10    2.441784890834242E-4  -4.515312612056732E-4  
 2.270000000000000E10    3.242821549065411E-4  -4.596773360390216E-4  
 2.272000000000000E10   -1.590778119862080E-4  -2.761816140264273E-4  
 2.274000000000000E10    1.109959484892897E-4  -3.374084189999849E-4  
 2.276000000000000E10    3.656069748103619E-5  -2.424500562483445E-4  
 2.278000000000000E10   -1.461372012272477E-4   2.462608099449426E-4  
 2.280000000000000E10    4.557381325867027E-4   7.657366950297728E-5  
 2.282000000000000E10    4.773630644194782E-4  -4.006094241049141E-4  
 2.284000000000000E10   -6.289590382948518E-4  -3.508084046188742E-4  
 2.286000000000000E10   -2.027962764259428E-4   7.744649192318320E-4  
 2.288000000000000E10    5.833726027049124E-4   7.025910599622876E-5  
 2.290000000000000E10    6.985202617215691E-6  -1.124346861615777E-3  
 2.292000000000000E10   -7.425755611620843E-4  -3.641907533165067E-4  
 2.294000000000000E10   -2.229411848020391E-6   6.717534270137548E-4  
 2.296000000000000E10    5.090250051580370E-4  -3.358800022397190E-4  
 2.298000000000000E10   -1.439493789803237E-4  -7.491969154216349E-4  
 2.300000000000000E10   -5.692368722520769E-4  -8.335649181390181E-5  
 2.302000000000000E10    9.933709952747449E-5   3.118019376415759E-4  
 2.304000000000000E10    3.920634335372597E-4   3.334511711727828E-5  
 2.306000000000000E10   -3.121764166280627E-4  -3.160112537443638E-4  
 2.308000000000000E10   -2.767343539744616E-4   1.406045776093379E-4  
 2.310000000000000E10    2.300494270457421E-5   2.956047537736595E-4  
 2.312000000000000E10   -2.637828001752496E-4   3.426779585424811E-5  
 2.314000000000000E10   -3.461382875684649E-4   1.964523253263906E-4  
 2.316000000000000E10   -4.510809594648890E-5   4.469421401154250E-4  
 2.318000000000000E10    4.427157182362862E-5  -1.839485194068402E-4  
 2.320000000000000E10   -3.397942637093365E-4   1.327079280599719E-5  
 2.322000000000000E10   -2.865296555683017E-4   8.422852260991931E-4  
 2.324000000000000E10    7.615766953676939E-4   3.000430588144809E-4  
 2.326000000000000E10    3.620714123826474E-4  -3.468429495114833E-4  
 2.328000000000000E10   -7.000449695624411E-4   7.711525540798903E-5  
 2.330000000000000E10    2.836766725522466E-5   9.359419927932322E-4  
 2.332000000000000E10    5.220163147896528E-4   2.660906175151467E-4  
 2.334000000000000E10   -2.551400102674961E-4  -3.837069380097091E-4  
 2.336000000000000E10   -4.806976066902280E-4   6.090152601245791E-5  
 2.338000000000000E10    2.242066257167608E-4   5.344720557332039E-4  
 2.340000000000000E10    2.246806834591553E-4   7.387263030977920E-5  
 2.342000000000000E10    7.935198664199561E-5  -2.482914715074003E-4  
 2.344000000000000E10   -3.965074720326811E-4   2.790487196762115E-4  
 2.346000000000000E10    1.143076151493006E-4   5.841386519023217E-5  
 2.348000000000000E10    3.038218710571528E-4   6.909752119099721E-5  
 2.350000000000000E10   -3.694810729939491E-4  -3.772900527110323E-5  
 2.352000000000000E10    7.405394717352465E-5  -5.406724085332826E-5  
 2.354000000000000E10    4.708130145445466E-4  -1.106511990656145E-4  
 2.356000000000000E10   -6.972053233766928E-5  -2.568039053585380E-4  
 2.358000000000000E10    8.769666601438075E-5   4.240889975335449E-4  
 2.360000000000000E10    5.856262287124991E-4   2.622354368213564E-4  
 2.362000000000000E10    6.749372114427388E-4  -4.990231827832758E-4  
 2.364000000000000E10   -1.182449486805126E-4  -2.476458903402090E-4  
 2.366000000000000E10    6.037023194949143E-5   2.431044122204185E-4  
 2.368000000000000E10    5.225358181633055E-4   2.092879585688934E-4  
 2.370000000000000E10    2.266814117319882E-4  -6.840716232545674E-4  
 2.372000000000000E10   -3.037770220544189E-4  -1.628215686650947E-4  
 2.374000000000000E10   -3.781282866839320E-4   6.455616676248610E-5  
 2.376000000000000E10    2.772791776806116E-4  -2.412731264485046E-4  
 2.378000000000000E10   -6.767761078663170E-5  -3.538859891705215E-4  
 2.380000000000000E10   -2.528428158257157E-4  -4.986667772755027E-4  
 2.382000000000000E10   -1.734168617986143E-4   2.368017594562843E-4  
 2.384000000000000E10   -4.388959496282041E-5  -4.231052589602768E-4  
 2.386000000000000E10    1.114111946662888E-4  -9.399602276971564E-5  
 2.388000000000000E10   -5.741743952967227E-4   6.869182107038796E-5  
 2.390000000000000E10    2.034327480942011E-4  -1.301171578234062E-4  
 2.392000000000000E10   -1.964279363164678E-5   4.852924394072034E-5  
 2.394000000000000E10   -7.858987664803863E-4  -2.992283843923360E-4  
 2.396000000000000E10   -1.374810817651451E-4   4.333543765824288E-4  
 2.398000000000000E10    1.678144471952692E-4  -1.859753101598471E-4  
 2.400000000000000E10   -2.736314199864864E-4  -1.286685437662527E-4  
 2.402000000000000E10   -4.418310127221048E-4   2.870410389732570E-4  
 2.404000000000000E10    4.389023524709046E-4   2.667718217708170E-4  
 2.406000000000000E10    1.650440826779231E-4  -2.161846059607342E-4  
 2.408000000000000E10   -1.555104827275500E-4  -2.291163254994899E-4  
 2.410000000000000E10   -2.660893078427762E-4   5.883003468625248E-4  
 2.412000000000000E10    2.378036151640117E-4   3.810464841080830E-5  
 2.414000000000000E10    3.051052917726338E-4  -9.733441402204335E-5  
 2.416000000000000E10   -2.765289391390979E-4  -2.222166222054511E-4  
 2.418000000000000E10   -1.855255250120536E-4   7.026264938758686E-6  
 2.420000000000000E10    1.858677424024791E-4  -2.553558488216368E-6  
 2.422000000000000E10    4.283764792489819E-5  -2.919560065492988E-4  
 2.424000000000000E10    1.509316207375377E-4  -3.031898522749543E-4  
 2.426000000000000E10   -2.441953029119759E-6   1.918327325256541E-4  
 2.428000000000000E10   -1.382656482746825E-4  -5.867818617844023E-5  
 2.430000000000000E10    3.446987102506682E-5  -9.473412501392886E-5  
 2.432000000000000E10   -1.599553506821394E-4   4.309000214561820E-4  
 2.434000000000000E10   -2.025710045927553E-6  -7.790600648149848E-5  
 2.436000000000000E10   -1.916434703161940E-4  -1.670527708483860E-4  
 2.438000000000000E10   -4.881002532783896E-4   1.463811986468500E-5  
 2.440000000000000E10    1.967979769688100E-4  -1.211130584124476E-4  
 2.442000000000000E10   -1.357740893581649E-5  -1.069288337021135E-4  
 2.444000000000000E10   -5.502092535607517E-4  -4.625133879017085E-4  
 2.446000000000000E10   -1.788397348718718E-4   5.050216568633914E-4  
 2.448000000000000E10    1.361608156003058E-4   4.643340944312513E-4  
 2.450000000000000E10    5.309368498274125E-5  -1.802045735530555E-4  
 2.452000000000000E10   -5.073121283203363E-4  -1.592868065927178E-4  
 2.454000000000000E10   -5.755443708039820E-4   4.872837744187564E-4  
 2.456000000000000E10   -1.971413439605385E-4   2.844733535312116E-4  
 2.458000000000000E10    2.822361129801720E-4  -2.411418390693143E-4  
 2.460000000000000E10   -5.075651570223272E-4  -4.966066626366228E-5  
 2.462000000000000E10   -2.999998978339136E-4  -1.484659005654976E-4  
 2.464000000000000E10    1.746950438246131E-4   3.681088273879141E-4  
 2.466000000000000E10    4.256436077412218E-4   1.636865345062688E-4  
 2.468000000000000E10   -4.289903154131025E-5  -5.005089915357530E-4  
 2.470000000000000E10   -3.724476264324039E-4   9.694968321127817E-5  
 2.472000000000000E10   -3.693482722155750E-4   4.017576866317540E-4  
 2.474000000000000E10   -4.577410072670318E-5   2.302057837368920E-4  
 2.476000000000000E10    5.237287041381933E-5   1.113132675527595E-4  
 2.478000000000000E10   -2.735212328843772E-4  -2.248590317321941E-4  
 2.480000000000000E10   -1.919765491038561E-4  -2.692126727197319E-4  
 2.482000000000000E10   -1.653431536396965E-4   4.082039813511074E-4  
 2.484000000000000E10    2.645705535542220E-4   1.513278548372909E-4  
 2.486000000000000E10    3.904721816070378E-4  -3.412291989661753E-4  
 2.488000000000000E10   -1.567521394463256E-4  -1.563623372931033E-4  
 2.490000000000000E10   -3.441596054472029E-4   3.640641516540200E-4  
 2.492000000000000E10    3.967407683376223E-4   3.597709874156863E-4  
 2.494000000000000E10    6.754963542334735E-4  -7.244122389238328E-5  
 2.496000000000000E10   -3.607453982112929E-5  -2.671885013114661E-4  
 2.498000000000000E10   -5.814461037516594E-4   1.621783449081704E-4  
 2.500000000000000E10    1.029681443469599E-4   3.553008718881756E-4  
 2.502000000000000E10    5.983627634122968E-4   3.043571496164077E-6  
 2.504000000000000E10    1.477417972637340E-4  -2.517592802178115E-4  
 2.506000000000000E10   -1.683650189079344E-4  -1.685677125351504E-5  
 2.508000000000000E10    1.442804350517690E-4   3.123866626992822E-4  
 2.510000000000000E10    3.042065945919603E-4   1.229482495546108E-5  
 2.512000000000000E10    1.536862328066491E-5  -5.038348535890691E-5  
 2.514000000000000E10    7.209064642665908E-5   2.267636773467530E-6  
 2.516000000000000E10    1.660945417825133E-4   4.809895472135395E-5  
 2.518000000000000E10    1.788275840226561E-4   4.554064798867330E-5  
 2.520000000000000E10    6.673613097518683E-5   3.314024943392724E-4  
 2.522000000000000E10    3.208188863936812E-4   1.670802521402948E-5  
 2.524000000000000E10    1.975578925339505E-4  -3.637798072304577E-4  
 2.526000000000000E10   -3.176613827235997E-4   5.970904021523893E-5  
 2.528000000000000E10   -1.081062800949439E-4   3.826367319561541E-4  
 2.530000000000000E10    4.508401907514781E-4  -1.413573590980377E-5  
 2.532000000000000E10   -1.918620728247333E-5   1.539445220259950E-4  
 2.534000000000000E10   -3.146975650452077E-4   1.083272072719410E-4  
 2.536000000000000E10    1.378000451950356E-4   4.536831984296441E-4  
 2.538000000000000E10   -2.394126786384732E-4   4.822624032385647E-4  
 2.540000000000000E10   -1.646085001993924E-4  -1.296503032790497E-4  
 2.542000000000000E10   -3.311673572170548E-5   2.060933766188100E-4  
 2.544000000000000E10   -3.274868067819625E-4   1.850095140980557E-4  
 2.546000000000000E10    3.292021574452519E-4  -3.201909748895560E-6  
 2.548000000000000E10    2.853157275239937E-5  -1.641407288843766E-5  
 2.550000000000000E10    9.820140257943422E-5   1.071926726581296E-5  
 2.552000000000000E10    2.823807008098811E-4   7.851891859900206E-5  
 2.554000000000000E10    2.925384069385473E-5   6.872722588013858E-5  
 2.556000000000000E10   -7.142710092011839E-5   3.056690329685807E-4  
 2.558000000000000E10    2.982582373078913E-4  -5.609889194602147E-5  
 2.560000000000000E10    2.494714499334805E-5  -7.693002407904714E-5  
 2.562000000000000E10   -5.985192838124931E-4   7.273941446328536E-5  
 2.564000000000000E10    1.737148122629151E-4   3.293690679129213E-5  
 2.566000000000000E10    2.932749048341066E-4  -1.239369012182578E-4  
 2.568000000000000E10   -3.024330944754183E-4  -5.145549657754600E-4  
 2.570000000000000E10   -8.499308023601770E-5  -1.287357154069468E-4  
 2.572000000000000E10    1.243291917489842E-4   1.118070940719917E-4  
 2.574000000000000E10    3.429213538765907E-4  -1.781882892828435E-4  
 2.576000000000000E10    1.134166814154014E-4  -2.890045579988509E-4  
 2.578000000000000E10   -3.067514335270971E-4   7.135974010452628E-5  
 2.580000000000000E10   -1.364029303658754E-4   6.128562381491065E-5  
 2.582000000000000E10   -8.572957449359819E-5  -7.496486068703234E-5  
 2.584000000000000E10   -1.914489694172517E-4  -2.804824907798320E-4  
 2.586000000000000E10    9.982004849007353E-5   3.530386720740353E-6  
 2.588000000000000E10    3.413707599975169E-5  -3.252309397794306E-4  
 2.590000000000000E10   -1.240948768099770E-4  -1.174675417132676E-4  
 2.592000000000000E10    1.941548398463056E-4   2.756466565188021E-4  
 2.594000000000000E10    4.155107890255749E-4  -1.817433658288792E-4  
 2.596000000000000E10    1.993085425056052E-5  -3.183167136739940E-4  
 2.598000000000000E10   -2.586370392236859E-4   2.455874346196652E-4  
 2.600000000000000E10    7.845561776775867E-5   3.908670914825052E-4  
 2.602000000000000E10    2.155928086722270E-4  -2.253397396998480E-4  
 2.604000000000000E10   -2.655896241776645E-4  -3.540366597007960E-4  
 2.606000000000000E10   -3.369035839568824E-4  -1.706468174234033E-5  
 2.608000000000000E10    1.146829163189977E-4   3.357914392836392E-4  
 2.610000000000000E10    1.834407739806920E-4  -1.307926577283070E-4  
 2.612000000000000E10   -3.149341500829905E-5  -3.432208613958210E-4  
 2.614000000000000E10    6.461682642111555E-5   2.573332458268851E-4  
 2.616000000000000E10    1.591448090039194E-4   3.805004234891385E-4  
 2.618000000000000E10    2.821362868417054E-4   3.724995985976420E-5  
 2.620000000000000E10    1.858220930444077E-4   2.668628876563162E-4  
 2.622000000000000E10   -6.571487028850243E-5   1.819809258449823E-4  
 2.624000000000000E10    5.109115591039881E-6  -3.188275732100010E-4  
 2.626000000000000E10   -2.036177902482450E-4   3.201591607648879E-4  
 2.628000000000000E10   -5.356276233214885E-5   1.883346121758223E-4  
 2.630000000000000E10    6.897212588228285E-4  -1.122464673244394E-4  
 2.632000000000000E10   -1.129322190536186E-4  -2.929548500105739E-4  
 2.634000000000000E10   -2.263077767565846E-4   6.349501200020313E-5  
 2.636000000000000E10    4.755511181429029E-4   9.881379082798958E-5  
 2.638000000000000E10    4.052387375850231E-4  -1.857323077274486E-4  
 2.640000000000000E10   -2.757929323706776E-4  -4.316890845075250E-4  
 2.642000000000000E10   -1.492733863415197E-4   1.155381760327146E-4  
 2.644000000000000E10    1.613893400644884E-4   1.450503477826715E-4  
 2.646000000000000E10    1.513727474957705E-4  -1.904314704006538E-4  
 2.648000000000000E10    7.657388050574809E-5  -1.420621993020177E-4  
 2.650000000000000E10   -1.178489037556574E-4  -2.300657506566495E-4  
 2.652000000000000E10    1.085561743821017E-4   3.081756221945398E-5  
 2.654000000000000E10   -9.985182259697467E-5  -5.934919681749307E-5  
 2.656000000000000E10    1.010082196444273E-4  -1.407284289598465E-4  
 2.658000000000000E10    1.882597280200571E-5  -1.609351165825501E-4  
 2.660000000000000E10   -3.554523282218725E-4  -2.200314338551834E-4  
 2.662000000000000E10   -2.224440686404705E-4   1.163167326012626E-4  
 2.664000000000000E10    1.280595315620303E-4   1.119058506446891E-4  
 2.666000000000000E10    1.606421428732574E-4  -3.532684058882296E-4  
 2.668000000000000E10   -2.842674439307302E-4  -4.471695137908682E-5  
 2.670000000000000E10   -1.409232936566696E-4   1.362986222375184E-4  
 2.672000000000000E10    3.712951438501477E-4   1.388770324410871E-4  
 2.674000000000000E10    5.645178680424579E-5  -1.182591513497755E-4  
 2.676000000000000E10   -4.145983548369259E-4  -9.657353984948713E-6  
 2.678000000000000E10    1.868903782451525E-4   3.018827410414815E-4  
 2.680000000000000E10    1.510460861027241E-4  -4.612047996488400E-5  
 2.682000000000000E10   -1.827925007091835E-4  -1.766017812769860E-4  
 2.684000000000000E10   -1.503569365013391E-4   1.621957926545292E-4  
 2.686000000000000E10    7.187387382145971E-5   1.909100392367691E-4  
 2.688000000000000E10   -1.857031384133734E-5   1.065718970494345E-4  
 2.690000000000000E10   -2.164374309359118E-4   5.875659553566948E-5  
 2.692000000000000E10   -3.123551505268551E-5  -7.819979509804398E-5  
 2.694000000000000E10   -7.417022425215691E-5  -7.457286847056821E-5  
 2.696000000000000E10   -8.150657959049568E-5   5.430564124253579E-5  
 2.698000000000000E10   -2.630994131322950E-4   3.849695494864136E-4  
 2.700000000000000E10    1.384385686833412E-4  -2.634794145706110E-5  
 2.702000000000000E10    2.237395674455911E-4  -9.860048885457218E-5  
 2.704000000000000E10   -5.785957910120487E-4   8.592061931267381E-5  
 2.706000000000000E10    9.652289736550301E-5   3.168184193782508E-4  
 2.708000000000000E10    2.394407638348639E-4   7.382778130704537E-5  
 2.710000000000000E10   -2.874072197300848E-5  -1.914320164360106E-4  
 2.712000000000000E10   -2.580380823928863E-4   1.841669436544180E-4  
 2.714000000000000E10    5.647657235385850E-5   3.193766169715673E-4  
 2.716000000000000E10   -4.895540041616187E-5   6.286865391302854E-5  
 2.718000000000000E10   -1.606376317795366E-4  -1.504208485130221E-4  
 2.720000000000000E10    4.329401417635381E-5   1.501859223935753E-4  
 2.722000000000000E10    9.293529001297429E-5  -8.451877874904312E-6  
 2.724000000000000E10    1.700653228908777E-4   1.429662224836648E-4  
 2.726000000000000E10   -2.332935546291992E-4   1.491822768002749E-4  
 2.728000000000000E10    9.802681597648189E-5  -4.053000520798378E-5  
 2.730000000000000E10   -1.369594392599538E-4   4.054814780829474E-5  
 2.732000000000000E10   -4.919612547382712E-5  -3.595492671593092E-5  
 2.734000000000000E10    5.222414256422781E-5   3.133783320663497E-5  
 2.736000000000000E10    3.806356398854405E-4  -5.386781413108110E-5  
 2.738000000000000E10   -1.959442888619378E-4  -2.982753212563694E-4  
 2.740000000000000E10    1.876339439377261E-7  -3.015129323102883E-6  
 2.742000000000000E10    2.770280989352614E-4   3.928122168872505E-4  
 2.744000000000000E10    2.735766756813973E-4  -3.107552183791995E-4  
 2.746000000000000E10    1.965308183571324E-4  -2.311859425390139E-4  
 2.748000000000000E10   -2.335029421374202E-4   9.300876990891993E-5  
 2.750000000000000E10    1.205658336402848E-4   6.439808930736035E-5  
 2.752000000000000E10    3.215052420273423E-4  -2.622939937282354E-4  
 2.754000000000000E10   -5.020631942898035E-5  -2.857335784938186E-4  
 2.756000000000000E10   -7.254652882693335E-5  -9.043813770404086E-5  
