#  HZ   S   RI   R     50.00 
! Rohde & Schwarz ZVA40 4Ports - Version 3.90 - 1145.1110k42 SN: 100403
! Date: 2023-10-04 07:52:47
! Measurement: S12 
! 
 2.200000000000000E10    1.032020663842559E-4   2.376896009081975E-4  
 2.202000000000000E10    3.970434481743723E-4   3.153253928758204E-4  
 2.204000000000000E10    1.844707439886406E-4  -7.727063493803144E-4  
 2.206000000000000E10   -4.910115967504680E-4  -1.396527368342504E-4  
 2.208000000000000E10   -2.915200311690569E-4   8.912076009437442E-4  
 2.210000000000000E10    5.792835145257413E-4   2.195565757574514E-4  
 2.212000000000000E10   -2.643860643729568E-4  -5.842738901264966E-4  
 2.214000000000000E10   -7.166325813159347E-4  -4.495189932640642E-5  
 2.216000000000000E10   -3.107535885646939E-4   9.488526848144829E-5  
 2.218000000000000E10    4.193082568235695E-4  -3.134500584565103E-4  
 2.220000000000000E10   -2.045394066954032E-4  -4.103701212443411E-4  
 2.222000000000000E10    1.149801246356219E-4  -1.773698022589088E-4  
 2.224000000000000E10    2.955096424557269E-4  -5.972365215711761E-6  
 2.226000000000000E10   -9.634786692913622E-6  -2.118735137628391E-4  
 2.228000000000000E10   -2.183823089580983E-4   3.161617205478251E-4  
 2.230000000000000E10    5.655327913700603E-5  -1.468552218284458E-4  
 2.232000000000000E10   -9.018095443025231E-5  -2.752113505266607E-4  
 2.234000000000000E10   -9.651342406868935E-4  -2.121357829310000E-4  
 2.236000000000000E10   -1.603888958925381E-4   4.928146372549236E-4  
 2.238000000000000E10    4.110816807951778E-4   9.636795584810898E-5  
 2.240000000000000E10    6.939826562302187E-5  -8.185535552911460E-4  
 2.242000000000000E10   -6.233588210307062E-4   1.627345336601138E-4  
 2.244000000000000E10   -4.507192934397608E-4   7.371905376203358E-4  
 2.246000000000000E10    6.815203814767301E-4   6.253877072595060E-4  
 2.248000000000000E10    1.235622185049579E-4  -3.517146105878055E-4  
 2.250000000000000E10   -6.746764411218464E-4   6.368581671267748E-5  
 2.252000000000000E10   -4.189864266663790E-4   7.808832451701164E-4  
 2.254000000000000E10    4.258114495314658E-4   1.286162150790915E-4  
 2.256000000000000E10    1.244898066943279E-5   2.074887015623972E-5  
 2.258000000000000E10   -1.247361942660064E-4   1.371529506286606E-4  
 2.260000000000000E10    1.314021064899862E-4   4.493591040954925E-5  
 2.262000000000000E10   -1.422849163645878E-4   4.575982457026839E-4  
 2.264000000000000E10   -1.673560327617452E-4   5.098389810882509E-4  
 2.266000000000000E10    2.747452526818961E-4   1.240616838913411E-4  
 2.268000000000000E10    8.044626883929595E-5  -3.311168693471700E-4  
 2.270000000000000E10   -8.640686282888055E-4  -1.106768322642893E-4  
 2.272000000000000E10   -1.406722294632345E-4   6.588776013813913E-4  
 2.274000000000000E10    8.042728877626360E-4   3.441399894654751E-4  
 2.276000000000000E10    4.239841946400702E-4  -6.651954026892781E-4  
 2.278000000000000E10   -6.852692458778620E-4  -1.862937497207895E-4  
 2.280000000000000E10   -3.093599516432732E-4   9.992674458771944E-4  
 2.282000000000000E10    4.168142913840711E-4   8.296637097373605E-4  
 2.284000000000000E10    1.637436362216249E-4  -5.112918443046510E-4  
 2.286000000000000E10   -1.020022784359753E-3  -1.115691338782199E-4  
 2.288000000000000E10   -2.158402930945158E-4   5.984802264720202E-4  
 2.290000000000000E10    4.757285933010280E-4   2.640400489326567E-4  
 2.292000000000000E10    7.964276301208884E-5  -2.908423484768719E-4  
 2.294000000000000E10   -7.394679414574057E-6   6.744481652276591E-5  
 2.296000000000000E10    4.025393282063305E-4   2.905986366386060E-5  
 2.298000000000000E10   -4.235516098560765E-5  -2.305725502083078E-4  
 2.300000000000000E10   -1.530210283817723E-5   2.082184655591846E-4  
 2.302000000000000E10    5.652161780744791E-4   4.405746876727790E-4  
 2.304000000000000E10    1.762525789672509E-4  -5.831568851135671E-4  
 2.306000000000000E10   -3.697403590194881E-4  -5.868431762792170E-4  
 2.308000000000000E10   -2.850613964255899E-4   4.531998129095882E-4  
 2.310000000000000E10    7.335001719184220E-4  -9.264109394280240E-5  
 2.312000000000000E10    4.902881919406354E-4  -6.720044184476137E-4  
 2.314000000000000E10   -6.637002807110548E-4  -5.348240374587476E-4  
 2.316000000000000E10   -3.810255439020693E-4   4.341548774391413E-4  
 2.318000000000000E10    7.201684056781232E-4   2.392016904195771E-4  
 2.320000000000000E10    9.176940511679277E-5  -9.018292184919119E-4  
 2.322000000000000E10   -8.597955456934869E-4  -5.044084391556680E-4  
 2.324000000000000E10   -1.763904292602092E-4   6.738348165526986E-4  
 2.326000000000000E10    3.576635790523142E-4  -4.646020170184784E-5  
 2.328000000000000E10    1.773438561940566E-4  -5.287178792059422E-4  
 2.330000000000000E10   -5.975269014015794E-4   1.855289738159627E-4  
 2.332000000000000E10    5.345156023395248E-5   1.992336328839883E-4  
 2.334000000000000E10    3.058421425521374E-4   4.422291749506258E-5  
 2.336000000000000E10   -2.895180950872600E-4   1.274029727937887E-5  
 2.338000000000000E10    6.925367051735520E-5   3.680560330394656E-4  
 2.340000000000000E10    2.294482983415946E-4   1.030584462569095E-4  
 2.342000000000000E10    1.263163721887395E-4  -2.113866648869589E-4  
 2.344000000000000E10   -4.649549082387239E-4   7.726062904112041E-5  
 2.346000000000000E10    3.813128569163382E-4   4.278227570466697E-4  
 2.348000000000000E10    3.793026262428612E-4  -4.138129588682205E-4  
 2.350000000000000E10   -3.034321416635066E-4  -4.022061475552619E-4  
 2.352000000000000E10   -1.783456827979535E-4   2.679234021343291E-4  
 2.354000000000000E10    3.553215647116303E-4   1.603336131665856E-4  
 2.356000000000000E10    3.208720881957561E-4  -4.935117904096842E-4  
 2.358000000000000E10   -6.210613646544516E-4  -1.528623106423765E-4  
 2.360000000000000E10   -4.921472864225507E-4   2.467902377247810E-4  
 2.362000000000000E10    4.578226944431663E-4   2.002251130761579E-4  
 2.364000000000000E10   -1.815704163163900E-4  -4.739456635434181E-4  
 2.366000000000000E10   -4.063708474859595E-4  -9.248602145817131E-5  
 2.368000000000000E10   -4.005677474197000E-4   5.143671878613532E-4  
 2.370000000000000E10    3.973551210947335E-4  -2.383664832450450E-4  
 2.372000000000000E10   -4.332884418545291E-5  -4.157907460466959E-5  
 2.374000000000000E10   -3.094227577093989E-4  -1.471019495511428E-4  
 2.376000000000000E10    1.783444022294134E-4   1.983968395506963E-4  
 2.378000000000000E10    7.061566429911181E-5  -2.581011212896556E-4  
 2.380000000000000E10   -3.209565693396144E-5   1.087824784917757E-5  
 2.382000000000000E10   -3.292812325526029E-4   1.359375455649570E-4  
 2.384000000000000E10    3.480677551124245E-4  -3.150646225549281E-4  
 2.386000000000000E10   -4.341648309491575E-4  -1.740869265631773E-5  
 2.388000000000000E10   -2.241710171801969E-4  -2.036585501627997E-4  
 2.390000000000000E10    2.695213770493865E-4   5.817112978547812E-4  
 2.392000000000000E10   -1.191746778204106E-4  -3.341729461681098E-4  
 2.394000000000000E10   -3.075134009122849E-5  -8.914229692891240E-5  
 2.396000000000000E10   -4.297323466744274E-4   5.934450309723616E-4  
 2.398000000000000E10   -5.630048690363765E-5   3.090962709393352E-4  
 2.400000000000000E10   -1.420203043380752E-4   2.281880588270724E-4  
 2.402000000000000E10   -5.560206482186914E-4   9.683509415481240E-5  
 2.404000000000000E10   -3.123036585748196E-4   2.946277963928878E-4  
 2.406000000000000E10    2.236424479633570E-4   2.906188638007734E-5  
 2.408000000000000E10    2.272007841384038E-4  -9.248871356248856E-5  
 2.410000000000000E10   -1.457133621443063E-4  -4.603678826242685E-5  
 2.412000000000000E10    4.018044273834676E-4   3.701535752043128E-4  
 2.414000000000000E10    1.399881293764338E-4   4.615428624674678E-4  
 2.416000000000000E10    2.547201875131577E-4   5.030987667851150E-4  
 2.418000000000000E10    5.257489829091355E-5   9.262399980798364E-4  
 2.420000000000000E10   -8.117963443510234E-5   2.210529200965539E-4  
 2.422000000000000E10    8.499087016389240E-6   1.425335794920102E-4  
 2.424000000000000E10   -3.421224246267229E-4   4.421605262905359E-4  
 2.426000000000000E10    1.107373245758936E-4  -1.308610717387637E-5  
 2.428000000000000E10    5.143583985045552E-4  -3.324189037812175E-6  
 2.430000000000000E10    9.531457180855796E-5  -3.129374817945063E-4  
 2.432000000000000E10    2.474251086823642E-4   2.470605832058936E-4  
 2.434000000000000E10    3.191905270796269E-4   3.628499980550259E-4  
 2.436000000000000E10    4.891469725407660E-4   2.256617153761908E-4  
 2.438000000000000E10    2.511896018404514E-4  -7.726235344307497E-5  
 2.440000000000000E10   -6.807455793023109E-5   1.304627512581646E-4  
 2.442000000000000E10   -7.290427311090753E-5   2.977882686536759E-4  
 2.444000000000000E10    3.616523463279009E-4  -1.807974767871201E-4  
 2.446000000000000E10   -3.910274608642794E-5  -2.308296388946474E-4  
 2.448000000000000E10   -7.932260632514954E-5  -2.967660839203745E-4  
 2.450000000000000E10    4.637428792193532E-4   6.160591146908701E-5  
 2.452000000000000E10    2.971856702060904E-5   3.597442264435813E-5  
 2.454000000000000E10    2.028342860285193E-4  -2.618572616484016E-4  
 2.456000000000000E10    1.346237841062248E-4   1.118114523706026E-4  
 2.458000000000000E10   -1.264159363927320E-4  -5.153165329829790E-5  
 2.460000000000000E10    1.876864262158051E-4  -5.691189289791510E-5  
 2.462000000000000E10    1.474793825764209E-4   2.487768069840968E-4  
 2.464000000000000E10    4.695096868090332E-5  -2.280352646266692E-6  
 2.466000000000000E10    2.556683029979467E-4  -2.960799320135266E-4  
 2.468000000000000E10   -2.221422619186342E-4   1.203006613650359E-4  
 2.470000000000000E10   -1.846722589107230E-4   9.389373735757545E-5  
 2.472000000000000E10    1.856624003266916E-4   1.307123166043311E-4  
 2.474000000000000E10   -1.223321160068736E-4   3.887832644977607E-5  
 2.476000000000000E10   -3.318075032439083E-4  -2.043042186414823E-4  
 2.478000000000000E10   -2.745921676705621E-7   2.054543583653867E-4  
 2.480000000000000E10    1.067040866473690E-4   1.867942628450692E-4  
 2.482000000000000E10    2.183858305215836E-4  -2.453308843541890E-4  
 2.484000000000000E10   -3.354702203068882E-4  -1.308205582972732E-6  
 2.486000000000000E10   -1.444964800612070E-5   7.355849375016987E-4  
 2.488000000000000E10    3.627893165685237E-4   2.672221744433045E-4  
 2.490000000000000E10    2.960134588647634E-4  -5.699281464330852E-4  
 2.492000000000000E10   -3.021155716851354E-4   1.343246112810448E-4  
 2.494000000000000E10   -2.362116501899436E-4   2.497818204574287E-4  
 2.496000000000000E10    3.985311486758292E-4   5.251981565379538E-5  
 2.498000000000000E10    3.332313790451735E-4  -3.281876270193607E-4  
 2.500000000000000E10    8.941259875427932E-5  -1.661451678955928E-4  
 2.502000000000000E10   -6.705842679366469E-5   1.375122810713947E-4  
 2.504000000000000E10    2.079402474919334E-4   1.445656089344993E-4  
 2.506000000000000E10    8.470330794807524E-5   2.570675860624760E-4  
 2.508000000000000E10    3.489210212137550E-5  -9.457860869588330E-5  
 2.510000000000000E10   -1.833992282627150E-4  -2.610380470287055E-4  
 2.512000000000000E10   -5.122285801917315E-4  -1.271560904569924E-4  
 2.514000000000000E10   -3.818580444203690E-5   1.097606436815113E-4  
 2.516000000000000E10    2.990971261169761E-4  -2.768046106211841E-4  
 2.518000000000000E10    1.371958351228386E-4  -3.802932624239475E-4  
 2.520000000000000E10   -3.416136023588479E-4  -3.095429856330156E-4  
 2.522000000000000E10    1.581491087563336E-4   4.745390324387699E-4  
 2.524000000000000E10    5.143939051777124E-4   4.187542363069952E-4  
 2.526000000000000E10    3.289274463895708E-4  -3.773377684410662E-4  
 2.528000000000000E10   -2.111059002345428E-4  -1.222602732013911E-4  
 2.530000000000000E10   -5.210223607718945E-4   2.075149823212996E-4  
 2.532000000000000E10    2.224704949185252E-4   3.701954483403824E-5  
 2.534000000000000E10    2.938769757747650E-4  -2.327512047486380E-4  
 2.536000000000000E10   -1.346822682535276E-4  -4.846528754569590E-4  
 2.538000000000000E10    1.075929776561679E-5  -2.556338440626860E-4  
 2.540000000000000E10    1.028461410896853E-4   1.370428799418733E-4  
 2.542000000000000E10    2.811021404340863E-4   1.739895378705114E-4  
 2.544000000000000E10    2.843293477781117E-4   1.568738080095500E-4  
 2.546000000000000E10   -1.731832307996228E-4   1.074838874046691E-4  
 2.548000000000000E10   -3.939089074265212E-4   3.673534956760705E-4  
 2.550000000000000E10   -3.145905066048726E-5   4.417248419485986E-4  
 2.552000000000000E10    2.622125321067870E-4   8.707513916306198E-5  
 2.554000000000000E10   -5.047707236371934E-5  -4.392822156660259E-4  
 2.556000000000000E10   -6.213762389961630E-5  -6.807262980146334E-5  
 2.558000000000000E10   -7.679925329284743E-5   3.750745381694287E-4  
 2.560000000000000E10    5.539457779377699E-4  -6.718225631630048E-5  
 2.562000000000000E10    3.115264698863030E-4  -7.031977293081582E-5  
 2.564000000000000E10   -2.983725571539253E-4   1.026836107484996E-4  
 2.566000000000000E10   -6.923363980604336E-5   2.718740433920175E-4  
 2.568000000000000E10    2.609324001241475E-4   7.232029020087794E-5  
 2.570000000000000E10   -2.179071161663160E-4  -1.511878363089636E-4  
 2.572000000000000E10    1.609974424354732E-4  -4.284756141714752E-5  
 2.574000000000000E10   -9.905639672069810E-6   1.655754203966353E-5  
 2.576000000000000E10   -8.587676711613312E-5  -3.036102862097323E-4  
 2.578000000000000E10    2.107684267684817E-4   2.756658614089247E-5  
 2.580000000000000E10    3.198749909643084E-4  -1.578337250975892E-4  
 2.582000000000000E10    3.067717480007559E-4  -9.424903691979125E-5  
 2.584000000000000E10   -2.221063332399353E-4   7.634705070813652E-6  
 2.586000000000000E10    1.223544677486643E-4   2.545807219576091E-4  
 2.588000000000000E10    1.383834605803713E-4   4.685086969402619E-5  
 2.590000000000000E10   -1.940817310241982E-4  -3.756408405024558E-4  
 2.592000000000000E10   -2.434568305034190E-4  -2.177567366743460E-4  
 2.594000000000000E10    6.219733040779829E-5   1.109431250370108E-4  
 2.596000000000000E10    5.578542641160311E-6  -1.909136481117457E-4  
 2.598000000000000E10   -2.930109330918640E-4  -2.754371089395136E-4  
 2.600000000000000E10   -1.350141392322257E-4   8.407864515902475E-5  
 2.602000000000000E10    1.687642943579704E-4  -1.590390093042515E-5  
 2.604000000000000E10   -2.547047042753547E-4  -2.751576248556376E-4  
 2.606000000000000E10   -1.003561192192137E-4   1.263569138245657E-4  
 2.608000000000000E10    1.182174673886038E-5   1.842640340328217E-4  
 2.610000000000000E10    1.231132046086714E-4  -3.421042929403484E-4  
 2.612000000000000E10   -4.731835506390780E-4   1.526617561466992E-4  
 2.614000000000000E10   -2.217597066191956E-4   5.027547376812436E-5  
 2.616000000000000E10    4.613465571310371E-4  -1.577943476149812E-4  
 2.618000000000000E10   -2.210553502663970E-4  -1.781304599717259E-4  
 2.620000000000000E10   -1.926856057252735E-4   9.107605728786439E-5  
 2.622000000000000E10    1.387405209243298E-4   2.401087549515069E-4  
 2.624000000000000E10    3.008761559613049E-4  -9.947866055881605E-5  
 2.626000000000000E10   -3.174730809405446E-4  -2.707075909711421E-4  
 2.628000000000000E10   -6.195087917149067E-5   3.271013847552240E-4  
 2.630000000000000E10   -7.046324026305229E-5   4.441045748535544E-4  
 2.632000000000000E10    2.120983699569479E-4  -3.985977091360837E-4  
 2.634000000000000E10    8.059944957494736E-5   1.105459086829796E-4  
 2.636000000000000E10   -2.098287804983556E-4   7.263721636263654E-5  
 2.638000000000000E10    1.924624084495008E-4   1.190310213132761E-4  
 2.640000000000000E10    4.953533789375797E-5   2.010033203987405E-4  
 2.642000000000000E10    2.144930112990551E-5   7.612347690155730E-5  
 2.644000000000000E10   -6.466858758358285E-5   4.384366184240207E-5  
 2.646000000000000E10   -5.649271770380437E-5  -1.356240973109379E-4  
 2.648000000000000E10   -2.434549096506089E-4   1.279924908885732E-4  
 2.650000000000000E10    1.204120562761091E-4  -4.661448474507779E-5  
 2.652000000000000E10    2.314505109097809E-4  -9.594416769687086E-5  
 2.654000000000000E10   -1.816135627450422E-4  -3.168814000673592E-4  
 2.656000000000000E10    2.715349637583131E-6   3.384770534466952E-4  
 2.658000000000000E10    1.945417170645669E-4   1.012577195069753E-4  
 2.660000000000000E10    3.021699667442590E-4  -2.002449036808685E-4  
 2.662000000000000E10   -2.581576118245721E-4  -3.626160105341114E-5  
 2.664000000000000E10   -3.332991036586464E-5   1.414952566847205E-4  
 2.666000000000000E10    9.135227446677163E-5   1.964414987014607E-4  
 2.668000000000000E10   -1.459774066461250E-4  -3.314775822218508E-4  
 2.670000000000000E10    9.095731365960091E-5  -1.071884544217028E-4  
 2.672000000000000E10   -1.913597952807322E-4   8.869035082170740E-5  
 2.674000000000000E10   -1.034931483445689E-5   4.443704710865859E-6  
 2.676000000000000E10    1.969778168131597E-5   1.313576212851331E-4  
 2.678000000000000E10    4.917380283586681E-5   4.245290256221779E-5  
 2.680000000000000E10    1.826439256547019E-5  -2.248078817501664E-4  
 2.682000000000000E10   -1.314783585257828E-4  -9.893205424305052E-5  
 2.684000000000000E10   -2.477669040672481E-4   2.341419021831825E-4  
 2.686000000000000E10    3.505477216094732E-4   6.525721983052790E-5  
 2.688000000000000E10    1.860791526269168E-4  -3.129640826955438E-4  
 2.690000000000000E10   -3.116400621365756E-4  -2.904395514633507E-4  
 2.692000000000000E10    5.995229730615392E-5   4.049090202897787E-4  
 2.694000000000000E10    4.824529751203954E-4   1.703015586826950E-4  
 2.696000000000000E10   -3.625968383857980E-5  -2.447332371957600E-4  
 2.698000000000000E10   -5.329988198354840E-4  -1.509462344984058E-5  
 2.700000000000000E10    4.099026682524709E-6   3.858542768284679E-4  
 2.702000000000000E10    7.572413596790284E-5   7.490801363019273E-5  
 2.704000000000000E10    2.022585249505937E-4  -5.228646332398057E-4  
 2.706000000000000E10   -1.213798532262445E-4   1.752912648953497E-4  
 2.708000000000000E10   -1.521312078693882E-4   7.286493928404525E-5  
 2.710000000000000E10    2.284430083818734E-4  -7.088220445439220E-5  
 2.712000000000000E10   -3.804655352723785E-5   9.799206600291655E-5  
 2.714000000000000E10    4.896607606497128E-6   6.514957931358367E-5  
 2.716000000000000E10   -2.296456841577310E-6  -6.174321606522426E-5  
 2.718000000000000E10   -2.659333986230195E-4   3.207536428817548E-5  
 2.720000000000000E10   -1.890525018097833E-4   3.125370858469978E-5  
 2.722000000000000E10    2.855719358194619E-4   2.102760772686452E-4  
 2.724000000000000E10    8.999578540169750E-7  -2.750765706878156E-4  
 2.726000000000000E10    3.165487214573659E-5  -1.770446106093004E-4  
 2.728000000000000E10   -1.162712578661740E-5   6.647317204624414E-4  
 2.730000000000000E10    3.739476960618049E-4  -1.373495308598649E-7  
 2.732000000000000E10    1.665941817918792E-4  -6.965879583731294E-5  
 2.734000000000000E10   -3.560894110705704E-4   4.472845103009604E-5  
 2.736000000000000E10   -1.783073821570724E-4   2.382508828304708E-4  
 2.738000000000000E10    1.472003059461713E-4  -9.047616185853258E-5  
 2.740000000000000E10   -4.519649519352242E-5  -4.385204010759480E-5  
 2.742000000000000E10   -2.651115646585822E-4  -1.509259018348530E-4  
 2.744000000000000E10    2.196687128162012E-4   3.036865964531899E-4  
 2.746000000000000E10   -9.744658746058121E-5   1.984945702133700E-4  
 2.748000000000000E10   -2.255186336697079E-5  -2.979204873554409E-4  
 2.750000000000000E10    6.106102227931842E-5   2.386092673987150E-4  
 2.752000000000000E10   -4.950727088726126E-5   1.576235954416916E-4  
 2.754000000000000E10    6.037275306880474E-5  -7.258260666276328E-6  
 2.756000000000000E10   -6.426412437576801E-5  -7.060619827825576E-5  
