#  HZ   S   RI   R     50.00 
! Rohde & Schwarz ZVA40 4Ports - Version 3.90 - 1145.1110k42 SN: 100403
! Date: 2023-10-04 07:52:26
! Measurement: S12 
! 
 2.200000000000000E10   -2.490257611498237E-4   1.460919156670570E-4  
 2.202000000000000E10   -2.391860034549609E-4  -8.171785339072812E-6  
 2.204000000000000E10    2.579335414338857E-4  -2.228422235930339E-4  
 2.206000000000000E10    2.911425326601602E-6  -2.559898130130023E-4  
 2.208000000000000E10    1.161919426522218E-4  -1.334540866082534E-4  
 2.210000000000000E10    2.038623642874882E-4  -1.076129046850838E-4  
 2.212000000000000E10   -3.407037002034485E-4  -1.147318107541651E-4  
 2.214000000000000E10   -3.030046937055886E-4   4.697076219599694E-4  
 2.216000000000000E10    2.450184256304056E-4   7.816355209797621E-4  
 2.218000000000000E10    1.989861775655299E-4  -5.097838002257049E-4  
 2.220000000000000E10   -6.772310007363558E-4  -3.786471788771451E-4  
 2.222000000000000E10   -2.398910728516057E-4   5.654382403008640E-4  
 2.224000000000000E10    6.660821381956339E-4   2.695404691621661E-4  
 2.226000000000000E10    5.004447884857655E-4  -7.793297409079969E-4  
 2.228000000000000E10   -2.988467749673873E-4  -9.407275501871482E-5  
 2.230000000000000E10   -2.635731652844697E-5   7.109983707778156E-4  
 2.232000000000000E10    6.946903886273503E-4   6.089576345402747E-5  
 2.234000000000000E10    8.184428588720039E-5  -3.916761488653719E-4  
 2.236000000000000E10   -4.946411936543882E-4  -5.688247983925976E-5  
 2.238000000000000E10    5.217178841121495E-5   3.121297049801797E-4  
 2.240000000000000E10    1.050011196639389E-4  -2.170270745409653E-4  
 2.242000000000000E10    5.652609615935944E-5  -2.997180563397706E-4  
 2.244000000000000E10    1.426789094693959E-4   1.120726956287399E-4  
 2.246000000000000E10    4.119373334106058E-4  -3.854470269288868E-4  
 2.248000000000000E10    1.897861366160214E-4  -3.465776680968702E-4  
 2.250000000000000E10   -2.226467186119407E-4   2.459315874148160E-4  
 2.252000000000000E10    4.559690423775464E-4   4.857566964346916E-4  
 2.254000000000000E10    3.158498439006507E-4  -2.288415707880631E-4  
 2.256000000000000E10   -6.215153844095767E-4  -7.553792675025761E-4  
 2.258000000000000E10   -4.158183583058417E-4   4.836760635953397E-4  
 2.260000000000000E10    7.516355835832655E-4   1.645571028348059E-4  
 2.262000000000000E10    5.682773771695793E-4  -7.937377085909247E-4  
 2.264000000000000E10   -3.943278570659459E-4  -5.722832866013050E-4  
 2.266000000000000E10   -3.673015817184933E-5   9.347594459541142E-4  
 2.268000000000000E10    9.169137920252979E-4   3.377140383236110E-4  
 2.270000000000000E10    6.612111465074122E-4  -4.962679813615978E-4  
 2.272000000000000E10   -4.277132684364915E-4   4.939195150654996E-6  
 2.274000000000000E10    1.502336526755244E-4   5.929428734816611E-4  
 2.276000000000000E10    4.897422040812671E-4   2.901531697716564E-4  
 2.278000000000000E10    1.457405742257834E-4  -4.693641967605799E-4  
 2.280000000000000E10    1.158697068603942E-5  -1.682739675743505E-4  
 2.282000000000000E10    5.765295936726034E-4   1.303816097788513E-4  
 2.284000000000000E10    6.238118658075109E-5  -1.977947249542922E-4  
 2.286000000000000E10   -1.446643727831543E-4  -6.997538730502129E-5  
 2.288000000000000E10    4.541214730124921E-4   7.063234224915505E-4  
 2.290000000000000E10    1.825168437790126E-4  -5.544687737710774E-4  
 2.292000000000000E10   -2.468455641064793E-4  -4.675103991758078E-4  
 2.294000000000000E10   -7.354355184361339E-4   7.552668685093522E-4  
 2.296000000000000E10    5.918426904827356E-4   4.233741492498666E-4  
 2.298000000000000E10    3.258320502936840E-4  -5.755602614954114E-4  
 2.300000000000000E10   -8.716960437595844E-4  -5.809358553960919E-4  
 2.302000000000000E10   -6.021869485266507E-4   8.929299656301737E-4  
 2.304000000000000E10    6.852144724689424E-4   5.201136809773743E-4  
 2.306000000000000E10    4.533171886578202E-4  -5.944931763224304E-4  
 2.308000000000000E10   -8.899998501874507E-4  -5.157990963198245E-4  
 2.310000000000000E10   -2.511760685592890E-4   5.552417133003473E-4  
 2.312000000000000E10    2.579426218289882E-4   4.620738909579814E-4  
 2.314000000000000E10    8.554659143555909E-5  -4.557415959425271E-4  
 2.316000000000000E10   -2.674757706699893E-5  -5.139328641234897E-5  
 2.318000000000000E10   -1.217188255395740E-4  -6.990361725911498E-5  
 2.320000000000000E10    3.042418684344739E-4  -1.299351715715602E-4  
 2.322000000000000E10    3.899932562489994E-5  -8.686456567374989E-5  
 2.324000000000000E10    1.849380932981148E-4  -1.668768381932750E-4  
 2.326000000000000E10    2.966109896078706E-4  -1.506829867139459E-4  
 2.328000000000000E10   -3.639637143351138E-4  -4.052117001265287E-4  
 2.330000000000000E10   -3.686536219902337E-4   2.845757699105889E-4  
 2.332000000000000E10    2.242160117020831E-4   4.824547213502228E-4  
 2.334000000000000E10    3.158771723974496E-4  -5.091704661026597E-4  
 2.336000000000000E10   -8.074138313531876E-4  -4.410212568473071E-4  
 2.338000000000000E10   -6.277330685406923E-4   6.317496299743652E-4  
 2.340000000000000E10    2.186728379456326E-4   6.106034852564335E-4  
 2.342000000000000E10    2.525435411371291E-4  -7.915413589216769E-4  
 2.344000000000000E10   -5.535048549063504E-4  -3.800282429438084E-4  
 2.346000000000000E10   -4.153205081820488E-4   7.005570805631578E-4  
 2.348000000000000E10    5.768439732491970E-4   6.992411799728870E-4  
 2.350000000000000E10    6.466624327003956E-4  -1.998880179598928E-4  
 2.352000000000000E10   -1.484359672758728E-4  -3.347791789565235E-4  
 2.354000000000000E10    1.292155502596870E-4   7.273619412444532E-4  
 2.356000000000000E10    3.760335384868085E-4   3.228114510420710E-4  
 2.358000000000000E10    4.279351560398936E-5   6.878783551655943E-6  
 2.360000000000000E10   -1.500139915151522E-4   1.862988719949499E-4  
 2.362000000000000E10   -3.900769661413506E-5   2.507196913938969E-4  
 2.364000000000000E10   -8.855935448082164E-5   1.352158960798988E-5  
 2.366000000000000E10   -9.385465818922967E-5  -6.901267397552147E-7  
 2.368000000000000E10   -1.526104024378583E-4   1.608800521353260E-4  
 2.370000000000000E10    1.535285846330226E-4   2.783193194773048E-4  
 2.372000000000000E10   -1.980749075300992E-4  -2.580188947831630E-6  
 2.374000000000000E10   -4.418910612002946E-5   3.654445754364133E-5  
 2.376000000000000E10    2.235416468465701E-4   5.173948593437672E-4  
 2.378000000000000E10    4.406686639413238E-4  -1.302963501075283E-4  
 2.380000000000000E10   -6.662054511252791E-5   6.683150422759354E-5  
 2.382000000000000E10   -3.475813136901707E-4   3.716672363225371E-4  
 2.384000000000000E10    3.440953441895545E-4   1.353604893665761E-4  
 2.386000000000000E10   -7.500597712351009E-5  -1.953842147486284E-4  
 2.388000000000000E10   -1.370393583783880E-4  -1.833305432228372E-4  
 2.390000000000000E10   -3.997020248789340E-4   2.466558944433928E-4  
 2.392000000000000E10    3.356744418852031E-4  -7.476854079868645E-5  
 2.394000000000000E10    1.616974477656186E-4  -1.863330253399909E-4  
 2.396000000000000E10   -2.472184132784605E-4  -3.112889244221151E-4  
 2.398000000000000E10    3.663864918053150E-4   1.780815509846434E-4  
 2.400000000000000E10    4.166327707935125E-4  -8.576591790188104E-5  
 2.402000000000000E10    1.258735137525946E-4  -4.506350960582495E-4  
 2.404000000000000E10   -5.847489228472114E-5  -4.040095154778101E-5  
 2.406000000000000E10    2.195873239543289E-4   6.816296809120104E-5  
 2.408000000000000E10    1.785626591299661E-5   6.635336467297748E-5  
 2.410000000000000E10   -8.689844253240153E-5  -6.202099029906094E-4  
 2.412000000000000E10    4.289781645638868E-5  -4.313311947043985E-4  
 2.414000000000000E10   -6.910892989253625E-5  -1.502533705206588E-4  
 2.416000000000000E10    2.784583775792271E-4  -1.891089777927846E-4  
 2.418000000000000E10    1.007757673505694E-4  -1.602148258825764E-4  
 2.420000000000000E10    2.556195249781013E-4   1.386029325658456E-4  
 2.422000000000000E10    1.434848236385733E-4   1.666188472881913E-4  
 2.424000000000000E10   -1.544066763017327E-4  -1.305789191974327E-4  
 2.426000000000000E10    1.769615664670710E-5   1.253062873729505E-5  
 2.428000000000000E10   -4.819887908524834E-5  -1.504265528637916E-4  
 2.430000000000000E10    2.259599859826267E-4  -4.457377362996340E-4  
 2.432000000000000E10    1.283894816879183E-4  -2.646641223691404E-4  
 2.434000000000000E10   -1.221084821736440E-4  -2.283091307617724E-4  
 2.436000000000000E10    3.926357312593609E-4   1.894575871119741E-5  
 2.438000000000000E10   -1.174079370684922E-4  -1.203284919029102E-4  
 2.440000000000000E10    1.047667174134404E-4  -5.766947651864030E-5  
 2.442000000000000E10   -1.665416348259896E-4   2.184628538088873E-4  
 2.444000000000000E10   -4.239150148350745E-4  -3.169464762322605E-4  
 2.446000000000000E10   -5.953677464276552E-5  -6.724810191371944E-6  
 2.448000000000000E10   -4.610449104802683E-5  -3.718654625117779E-6  
 2.450000000000000E10   -5.701406553271227E-5  -1.472482399549335E-4  
 2.452000000000000E10   -7.642527634743601E-5  -3.504094202071428E-4  
 2.454000000000000E10    1.784051564754918E-4   1.318927970714867E-4  
 2.456000000000000E10   -2.581877342890948E-4   3.622831427492201E-4  
 2.458000000000000E10    5.303020006977022E-4  -1.108826545532793E-4  
 2.460000000000000E10   -6.736304931109771E-5  -8.430346497334540E-5  
 2.462000000000000E10   -7.131936145015061E-4  -3.629155398812145E-4  
 2.464000000000000E10   -5.753263394581154E-7   5.832646857015789E-4  
 2.466000000000000E10    5.153119491296820E-5  -1.307765924138948E-4  
 2.468000000000000E10    2.167472266592085E-4  -6.437899428419769E-4  
 2.470000000000000E10   -3.599271003622562E-4  -1.476129109505564E-4  
 2.472000000000000E10   -3.874617686960846E-5   4.528940189629793E-4  
 2.474000000000000E10    1.833179703680798E-4   1.836410519899800E-4  
 2.476000000000000E10    4.445006779860705E-4  -2.830775920301676E-4  
 2.478000000000000E10   -4.115886695217341E-4   1.873056498880032E-5  
 2.480000000000000E10   -4.736708797281608E-5  -3.235179974581115E-5  
 2.482000000000000E10    9.887238411465660E-5   3.099492460023612E-4  
 2.484000000000000E10   -5.667066943715327E-5  -1.636328670429066E-4  
 2.486000000000000E10    2.740916679613292E-4  -3.409961936995387E-4  
 2.488000000000000E10    1.310333464061841E-4  -2.394233742961660E-4  
 2.490000000000000E10    2.457997470628470E-5   1.846821542130783E-4  
 2.492000000000000E10   -2.082172250084113E-5   7.529569120379165E-5  
 2.494000000000000E10    2.627854119054973E-4   1.257452640857082E-5  
 2.496000000000000E10   -1.485695684095845E-4  -1.593251945450902E-4  
 2.498000000000000E10   -2.477099187672138E-4  -2.170354309782852E-5  
 2.500000000000000E10   -3.337179659865797E-4   6.363014836097136E-5  
 2.502000000000000E10    3.074946871493012E-4  -1.903605734696612E-4  
 2.504000000000000E10   -8.757433533901349E-5  -4.578180378302932E-4  
 2.506000000000000E10   -2.243116177851334E-4  -2.282869099872187E-4  
 2.508000000000000E10    8.585012255934998E-5   3.739852691069245E-4  
 2.510000000000000E10    4.137987270951271E-4   1.690612552920356E-4  
 2.512000000000000E10    2.872023615054786E-4  -1.943400711752474E-4  
 2.514000000000000E10   -1.861887576524168E-4   7.619588723173365E-5  
 2.516000000000000E10   -3.230339498259127E-4   3.156648599542677E-4  
 2.518000000000000E10    3.073120897170156E-4   6.098236553953029E-5  
 2.520000000000000E10    1.265900355065242E-4  -8.776278264122084E-5  
 2.522000000000000E10   -2.159049909096211E-4  -5.113646038807929E-4  
 2.524000000000000E10    5.199098814046010E-5  -9.205409151036292E-5  
 2.526000000000000E10    1.902162148326170E-5   1.015786911011674E-4  
 2.528000000000000E10    3.866367042064667E-4  -1.522806705906987E-4  
 2.530000000000000E10    2.344104286748916E-4  -1.012869761325419E-4  
 2.532000000000000E10   -1.117875217460096E-4  -4.824337156605907E-5  
 2.534000000000000E10   -3.436988481553271E-5   1.488935413362924E-5  
 2.536000000000000E10    3.841368306893855E-4   4.757672650157474E-5  
 2.538000000000000E10    6.040705920895562E-5  -1.210728369187564E-4  
 2.540000000000000E10   -9.545672219246626E-5  -5.658877780660987E-4  
 2.542000000000000E10   -1.624436263227835E-4   2.906727895606309E-4  
 2.544000000000000E10   -1.419653126504272E-4   7.695495150983334E-5  
 2.546000000000000E10    5.392493330873549E-4  -3.145346418023109E-4  
 2.548000000000000E10   -1.640068876440637E-5  -2.201919705839828E-4  
 2.550000000000000E10   -2.597638813313097E-4  -1.697659754427150E-4  
 2.552000000000000E10    1.747778514982201E-5   6.125043728388846E-5  
 2.554000000000000E10    1.749358052620664E-4   1.331176608800888E-4  
 2.556000000000000E10   -1.327054342254996E-4  -7.037169416435063E-5  
 2.558000000000000E10   -6.681205491076980E-7  -1.753372634993866E-4  
 2.560000000000000E10    1.364962554362137E-5   8.674860873725265E-5  
 2.562000000000000E10    2.512339051463641E-5  -1.021591160679236E-4  
 2.564000000000000E10    1.564610574860126E-4  -1.751040690578520E-4  
 2.566000000000000E10    1.266852195840329E-4  -1.892473956104368E-4  
 2.568000000000000E10   -6.538847810588777E-5  -3.412990190554410E-4  
 2.570000000000000E10   -1.571726606925950E-4   1.255870010936633E-4  
 2.572000000000000E10   -1.082386370399036E-5   3.930465027224273E-4  
 2.574000000000000E10    2.712612622417510E-4   2.477403540979140E-6  
 2.576000000000000E10   -2.556162362452596E-4  -1.267909392481670E-4  
 2.578000000000000E10   -3.315148642286658E-4   2.320754429092631E-4  
 2.580000000000000E10    3.790883420151658E-5   2.148546191165224E-4  
 2.582000000000000E10   -1.230588713951875E-5  -1.269514614250511E-4  
 2.584000000000000E10   -2.598877472337335E-4  -3.306085418444127E-4  
 2.586000000000000E10   -2.637936268001795E-4   1.045827666530386E-4  
 2.588000000000000E10   -4.275267201592214E-6   1.158250452135690E-4  
 2.590000000000000E10    1.417326420778409E-4  -1.102769965655170E-4  
 2.592000000000000E10    1.410919503541663E-4   3.526549335219897E-5  
 2.594000000000000E10   -1.215027004946023E-4   4.689490742748603E-5  
 2.596000000000000E10    1.396631123498082E-4  -2.342568041058257E-4  
 2.598000000000000E10   -3.657733323052526E-4   1.824698265409097E-4  
 2.600000000000000E10   -2.946824242826551E-4   2.898720849771053E-4  
 2.602000000000000E10    1.184437933261506E-4   1.718974526738748E-4  
 2.604000000000000E10   -2.603917382657528E-4  -2.254102728329599E-4  
 2.606000000000000E10   -3.030676161870360E-4   3.126823285128921E-4  
 2.608000000000000E10    3.352668045408791E-6   2.452463086228818E-4  
 2.610000000000000E10    2.150047948816791E-4   4.670746784540825E-5  
 2.612000000000000E10   -4.266431787982583E-4  -2.242525806650519E-4  
 2.614000000000000E10   -2.705299812078010E-5   2.391181333223358E-4  
 2.616000000000000E10   -1.777594443410635E-4   5.331928841769695E-4  
 2.618000000000000E10   -2.940803096862510E-5  -1.963843678822741E-4  
 2.620000000000000E10   -1.360703608952463E-4   2.135547401849181E-4  
 2.622000000000000E10   -1.969106378965080E-4   1.864138757809997E-4  
 2.624000000000000E10    1.569183223182336E-4  -2.478292299201712E-5  
 2.626000000000000E10   -3.266170097049326E-4  -2.012425975408405E-4  
 2.628000000000000E10   -3.213699674233794E-4   4.955900949425995E-4  
 2.630000000000000E10    3.633610322140157E-4   8.969091140897945E-5  
 2.632000000000000E10    4.162526456639171E-4  -5.794456956209615E-5  
 2.634000000000000E10   -4.592016630340368E-4  -1.125976632465608E-4  
 2.636000000000000E10    3.276033967267722E-4   2.829163859132677E-4  
 2.638000000000000E10    3.117259475402534E-4   8.119081758195534E-5  
 2.640000000000000E10    6.814065272919834E-5  -4.979794030077756E-4  
 2.642000000000000E10   -2.004992711590603E-4   2.435960341244936E-4  
 2.644000000000000E10    5.611486994894221E-5   7.406796794384718E-5  
 2.646000000000000E10    2.895597135648131E-4   6.196243339218199E-5  
 2.648000000000000E10   -1.220297053805552E-4  -1.228435576194897E-4  
 2.650000000000000E10    7.176067447289825E-5   1.481011568102986E-4  
 2.652000000000000E10   -1.269680942641571E-4   2.696481824386865E-4  
 2.654000000000000E10    2.065104781650007E-4  -1.926291006384417E-4  
 2.656000000000000E10   -2.772530715446919E-4  -1.157813676400110E-4  
 2.658000000000000E10    1.860836346168071E-5   8.578490087529644E-5  
 2.660000000000000E10    2.143460296792910E-4   1.174790304503404E-4  
 2.662000000000000E10   -4.694443487096578E-5  -3.388507757335901E-4  
 2.664000000000000E10   -1.803193299565464E-5   1.639697584323585E-4  
 2.666000000000000E10   -1.157875303761102E-4   1.976171624846757E-4  
 2.668000000000000E10    4.106664564460516E-4   6.043042594683357E-5  
 2.670000000000000E10   -3.437071791267954E-5   4.104746403754689E-5  
 2.672000000000000E10    2.885852009057999E-4  -9.175758168566972E-5  
 2.674000000000000E10    2.516210224712268E-5   4.435115988599137E-5  
 2.676000000000000E10   -2.383790997555479E-4  -1.539243821753189E-4  
 2.678000000000000E10    7.289785344255506E-7   1.451421558158472E-4  
 2.680000000000000E10    3.003318561241031E-4  -1.757320205797441E-5  
 2.682000000000000E10   -6.435173418140039E-5  -2.295256272191182E-4  
 2.684000000000000E10   -4.129338776692748E-4  -1.140003587352112E-4  
 2.686000000000000E10   -6.653925083810464E-5   3.591761051211506E-4  
 2.688000000000000E10    1.567721919855103E-4   8.719668403500691E-5  
 2.690000000000000E10    1.543778198538348E-4  -3.462354652583599E-4  
 2.692000000000000E10   -2.950356283690780E-4   9.908292850013822E-5  
 2.694000000000000E10   -9.011138217829284E-7   1.725262263789773E-4  
 2.696000000000000E10    1.460466592106968E-4  -1.006812453852035E-5  
 2.698000000000000E10   -1.394582941429690E-4  -8.140684076352045E-5  
 2.700000000000000E10   -3.006434417329729E-4  -4.615056604961865E-5  
 2.702000000000000E10    4.500834984355606E-5   2.251545265608002E-5  
 2.704000000000000E10   -1.371222751913592E-4  -1.769607661117334E-5  
 2.706000000000000E10   -6.453615060308948E-5  -5.414621773525141E-5  
 2.708000000000000E10    4.468926344998181E-4  -1.124842401623027E-5  
 2.710000000000000E10    2.652732837304939E-5  -6.583762296941131E-5  
 2.712000000000000E10   -2.036625082837418E-4   9.690240403870121E-5  
 2.714000000000000E10   -7.924759847810492E-5   4.032564174849540E-4  
 2.716000000000000E10    2.041105908574536E-4   1.639664446884126E-6  
 2.718000000000000E10   -2.020106476265937E-4  -2.690617111511529E-4  
 2.720000000000000E10   -5.338979535736144E-4  -1.116486382670701E-4  
 2.722000000000000E10   -1.207967361551710E-4   2.485628647264093E-4  
 2.724000000000000E10    3.989296965301037E-4   1.261336728930473E-4  
 2.726000000000000E10   -4.445450031198561E-5  -4.036879399791360E-4  
 2.728000000000000E10   -3.363731666468084E-4  -3.470000956440345E-5  
 2.730000000000000E10    1.293396344408393E-4   4.694320668932051E-4  
 2.732000000000000E10    4.042471700813621E-4   3.518525918480009E-4  
 2.734000000000000E10    1.274525566259399E-4  -2.227687946287915E-4  
 2.736000000000000E10   -1.113889666157775E-4   1.147866641986184E-4  
 2.738000000000000E10   -1.821987680159509E-4   2.823891409207135E-4  
 2.740000000000000E10   -2.119220880558714E-5  -3.393328006495722E-5  
 2.742000000000000E10   -8.100038394331932E-5   1.269040658371523E-4  
 2.744000000000000E10    1.921866496559233E-4  -1.274927490158007E-4  
 2.746000000000000E10    2.167752827517688E-4  -1.406487281201407E-4  
 2.748000000000000E10   -1.213864015880972E-4  -2.542609036026988E-5  
 2.750000000000000E10    2.063598512904719E-4   3.105064679402858E-4  
 2.752000000000000E10    2.109148190356791E-4   2.951904389192350E-5  
 2.754000000000000E10    8.147481821652036E-6  -3.736446888069622E-5  
 2.756000000000000E10   -3.445047186687589E-4   9.200430213240907E-5  
