#  HZ   S   RI   R     50.00 
! Rohde & Schwarz ZVA40 4Ports - Version 3.90 - 1145.1110k42 SN: 100403
! Date: 2023-10-04 07:51:59
! Measurement: S12 
! 
 2.200000000000000E10   -4.594312631525099E-4   3.073775151278824E-4  
 2.202000000000000E10    3.349071776028723E-4   4.000876215286553E-4  
 2.204000000000000E10   -9.087623038794845E-5  -1.512447342975065E-4  
 2.206000000000000E10   -1.835626462707296E-4   2.363918247283436E-5  
 2.208000000000000E10    2.975331881316379E-5   7.817894802428782E-4  
 2.210000000000000E10    7.545932894572616E-4  -1.612946216482669E-4  
 2.212000000000000E10   -5.955448796157725E-5  -6.218972266651690E-4  
 2.214000000000000E10   -7.539164507761598E-4   3.885493788402528E-4  
 2.216000000000000E10    3.942750045098364E-4   8.546840399503708E-4  
 2.218000000000000E10    6.394040537998080E-4  -3.254840557929128E-4  
 2.220000000000000E10   -3.209729620721191E-4  -7.980425725691021E-4  
 2.222000000000000E10   -7.930470746941865E-4   2.193942782469094E-4  
 2.224000000000000E10    3.874386602547020E-4   4.858477041125298E-4  
 2.226000000000000E10    7.890260894782841E-4  -3.564859798643738E-4  
 2.228000000000000E10   -2.748659462668002E-4  -5.645283963531256E-4  
 2.230000000000000E10   -1.114836268243380E-4   1.803817867767066E-4  
 2.232000000000000E10    3.197038604412228E-4  -7.098334026522934E-5  
 2.234000000000000E10   -2.963549050036818E-4  -2.912827476393431E-4  
 2.236000000000000E10   -3.028322535101324E-4  -6.594700244022533E-5  
 2.238000000000000E10    6.825447053415701E-5   1.839844626374543E-4  
 2.240000000000000E10    1.507519336882979E-4  -6.565920193679631E-4  
 2.242000000000000E10   -2.866735158022493E-4  -8.950563642429188E-5  
 2.244000000000000E10    9.495406266069040E-5   6.616047467105091E-4  
 2.246000000000000E10    9.459253051318228E-4   1.303148310398683E-4  
 2.248000000000000E10    5.080617847852409E-5  -7.135567720979452E-4  
 2.250000000000000E10   -6.757210358045995E-4  -1.179474056698382E-4  
 2.252000000000000E10    2.162101191061083E-5   1.117700361646712E-3  
 2.254000000000000E10    6.998482858762145E-4  -1.371316320728511E-4  
 2.256000000000000E10    1.633801439311355E-4  -9.285690612159669E-4  
 2.258000000000000E10   -9.140198235400021E-4   8.760391210671514E-5  
 2.260000000000000E10    3.165441157761961E-4   4.032381402794272E-4  
 2.262000000000000E10    7.814425043761730E-4  -3.899053554050624E-4  
 2.264000000000000E10    5.051353582530282E-5  -6.640069768764079E-4  
 2.266000000000000E10   -6.425140309147537E-4   8.779858035268262E-5  
 2.268000000000000E10    4.543412069324404E-4   2.167110360460356E-4  
 2.270000000000000E10    9.213574958266690E-5  -1.850259286584333E-4  
 2.272000000000000E10   -3.673987812362611E-4  -4.806700162589550E-4  
 2.274000000000000E10   -2.364906868024264E-5   2.386162232141942E-4  
 2.276000000000000E10    2.090954803861678E-4  -2.779282804112881E-4  
 2.278000000000000E10   -3.474536788417026E-5  -5.124193266965449E-4  
 2.280000000000000E10   -1.554013288114220E-4   3.521631297189742E-4  
 2.282000000000000E10    3.928450460080057E-4   7.852968992665410E-4  
 2.284000000000000E10    3.442620800342411E-4  -3.260448283981532E-4  
 2.286000000000000E10   -4.309511568862945E-4  -3.307492879685015E-4  
 2.288000000000000E10   -8.063001587288454E-5   8.066849550232291E-4  
 2.290000000000000E10    1.021640724502504E-3   2.740436175372452E-4  
 2.292000000000000E10    1.909683342091739E-4  -9.447571937926114E-4  
 2.294000000000000E10   -7.161175017245114E-4  -3.840660210698843E-4  
 2.296000000000000E10    1.464417873648927E-4   8.294825674965978E-4  
 2.298000000000000E10    7.213600911200047E-4  -6.504559860331938E-5  
 2.300000000000000E10    3.461399464868009E-4  -9.007696062326431E-4  
 2.302000000000000E10   -6.052033859305084E-4   1.293329260079190E-4  
 2.304000000000000E10    1.124367827287642E-5   2.777447225525975E-4  
 2.306000000000000E10    5.052257911302149E-4   6.805142675148090E-6  
 2.308000000000000E10   -2.664740895852447E-4  -4.844312206842005E-4  
 2.310000000000000E10   -4.637131351046264E-4   6.271492748055607E-5  
 2.312000000000000E10   -2.179572038585320E-4   2.450975007377565E-4  
 2.314000000000000E10   -6.583919457625598E-5  -1.886522659333423E-4  
 2.316000000000000E10   -4.509909485932440E-4  -6.681591185042635E-5  
 2.318000000000000E10   -2.569786156527698E-4   1.012455613818020E-4  
 2.320000000000000E10    1.899011695059016E-4  -2.328886621398851E-4  
 2.322000000000000E10   -4.503574455156922E-4  -5.236766883172095E-4  
 2.324000000000000E10   -1.261350553249940E-4   5.789353745058179E-4  
 2.326000000000000E10    2.418089716229588E-4   1.285953476326540E-4  
 2.328000000000000E10    2.074980002362281E-4  -7.895597373135388E-4  
 2.330000000000000E10   -6.304417038336396E-4   1.317715650657192E-4  
 2.332000000000000E10   -1.574422203702852E-4   5.127790500409901E-4  
 2.334000000000000E10    5.044787540100515E-4   1.105746487155557E-4  
 2.336000000000000E10   -1.699325948720798E-4  -8.919461979530752E-4  
 2.338000000000000E10   -6.407959735952318E-4   1.653886138228700E-4  
 2.340000000000000E10   -2.152538363588974E-4   7.325547630898655E-4  
 2.342000000000000E10    8.482792181894183E-4  -1.682889851508662E-4  
 2.344000000000000E10   -1.469573908252642E-4  -6.116273580119014E-4  
 2.346000000000000E10   -5.168304196558893E-4  -4.108185385121033E-5  
 2.348000000000000E10   -2.835710620274767E-5   6.963493651710451E-4  
 2.350000000000000E10    5.097239627502859E-4  -2.245263458462432E-4  
 2.352000000000000E10   -2.260619294247590E-5  -2.429870073683560E-4  
 2.354000000000000E10    7.466705574188381E-5  -6.185584788909182E-5  
 2.356000000000000E10    2.194725857407320E-5   4.136560601182282E-4  
 2.358000000000000E10    1.038945629261434E-4  -1.011583444778808E-4  
 2.360000000000000E10    2.526227908674628E-4   6.000775465508923E-5  
 2.362000000000000E10    2.161033808079083E-5   2.394642942817882E-4  
 2.364000000000000E10    1.269845815841109E-4  -2.134001697413623E-4  
 2.366000000000000E10   -1.219041660078801E-4   5.257088196231052E-5  
 2.368000000000000E10    9.239223004442465E-7   6.351769552566111E-4  
 2.370000000000000E10    7.088922429829836E-4  -8.925602742237970E-5  
 2.372000000000000E10    2.065997105091810E-4  -5.248124361969531E-4  
 2.374000000000000E10   -3.925189375877380E-4   3.985471557825804E-4  
 2.376000000000000E10    9.683993266662583E-5   3.014925168827176E-4  
 2.378000000000000E10    7.085319375619292E-4   3.857452611555345E-5  
 2.380000000000000E10   -2.303783985553309E-4  -3.924812481272966E-4  
 2.382000000000000E10   -4.227663448546082E-4  -2.195991146436427E-5  
 2.384000000000000E10    3.352308340254240E-5   4.298175917938352E-4  
 2.386000000000000E10    3.694440529216081E-4   3.168037801515311E-5  
 2.388000000000000E10    1.925405813381076E-4  -2.804863324854523E-4  
 2.390000000000000E10   -2.462166885379702E-4   3.125293915218208E-6  
 2.392000000000000E10   -6.823600415373221E-5   1.753594406181946E-4  
 2.394000000000000E10    4.076924524269998E-4   7.852356793591753E-5  
 2.396000000000000E10    3.399539855308831E-4   1.798369630705565E-4  
 2.398000000000000E10   -3.833174996543676E-4  -1.695881946943700E-4  
 2.400000000000000E10   -2.586843766039237E-5   9.152901475317776E-5  
 2.402000000000000E10   -3.241680387873203E-4   2.233394188806415E-4  
 2.404000000000000E10    2.040374283751589E-6  -3.448505303822458E-4  
 2.406000000000000E10   -2.100980054819956E-4  -1.918976631714031E-4  
 2.408000000000000E10   -1.980685337912291E-4  -2.996253024321050E-4  
 2.410000000000000E10   -5.216258796281181E-5  -3.209412097930908E-4  
 2.412000000000000E10   -6.135177045507589E-6  -2.095701529469807E-5  
 2.414000000000000E10    2.968756962218322E-5   3.302752520539798E-5  
 2.416000000000000E10    4.866461677011102E-5  -7.458323671016842E-5  
 2.418000000000000E10   -1.352677645627409E-4  -2.307425120307016E-6  
 2.420000000000000E10   -4.757604910992086E-4  -2.040959661826491E-4  
 2.422000000000000E10   -8.217603317461908E-5  -8.532236097380519E-5  
 2.424000000000000E10    1.411288540111855E-4   1.158040413429262E-5  
 2.426000000000000E10   -2.432692563161254E-4  -3.500509774312377E-4  
 2.428000000000000E10   -8.248363883467391E-6  -7.576335337944329E-5  
 2.430000000000000E10    7.759375148452818E-5  -1.008542385534383E-4  
 2.432000000000000E10    3.077756264247000E-4  -9.546391083858907E-5  
 2.434000000000000E10    1.442027132725343E-4   2.124897873727605E-4  
 2.436000000000000E10    1.128407166106626E-4   2.071214112220332E-5  
 2.438000000000000E10    1.405066868755966E-4   3.464874316705391E-5  
 2.440000000000000E10   -1.338704023510218E-4   6.814593507442623E-5  
 2.442000000000000E10   -3.024603356607258E-4  -6.839277921244502E-5  
 2.444000000000000E10    7.870087574701756E-5   1.055921256920556E-5  
 2.446000000000000E10   -2.643699917825870E-5  -2.458966337144375E-4  
 2.448000000000000E10   -9.994814172387123E-5  -4.148876469116658E-4  
 2.450000000000000E10   -1.345018245046958E-4   2.208987862104550E-4  
 2.452000000000000E10    1.384611241519451E-4   1.426308735972270E-4  
 2.454000000000000E10    2.718902251217514E-4  -5.656021312461235E-5  
 2.456000000000000E10   -2.346675864828285E-5   7.364343764493242E-5  
 2.458000000000000E10   -5.037044757045806E-4   1.992963079828769E-4  
 2.460000000000000E10    3.809469126281329E-5   2.186863275710493E-5  
 2.462000000000000E10    9.753889025887474E-5   3.683605245896615E-5  
 2.464000000000000E10   -2.372082963120192E-4  -4.443685156729771E-6  
 2.466000000000000E10    9.065668564289808E-5   1.294359972234815E-4  
 2.468000000000000E10   -8.840351074468344E-5  -1.132605029852130E-4  
 2.470000000000000E10   -6.881875742692500E-5  -2.295497251907364E-4  
 2.472000000000000E10    2.983539707201999E-5   1.029854174703360E-4  
 2.474000000000000E10   -6.295050843618810E-5   2.273721329402179E-4  
 2.476000000000000E10    1.558512485644314E-5  -3.314404602861032E-5  
 2.478000000000000E10   -1.350736420135945E-4  -6.820268026785925E-5  
 2.480000000000000E10   -2.844589471351355E-4  -1.323573087574914E-4  
 2.482000000000000E10   -1.740414591040462E-4   5.901743134018034E-5  
 2.484000000000000E10   -1.088148346752860E-4   1.182295891339891E-4  
 2.486000000000000E10    2.263352071167901E-4   1.497561897849664E-4  
 2.488000000000000E10    3.989751712651923E-5   2.354349417146295E-4  
 2.490000000000000E10   -1.665517193032429E-4   2.542279617046006E-5  
 2.492000000000000E10    2.888154631364159E-5   3.837200929410756E-4  
 2.494000000000000E10    1.466108224121854E-4   2.746534883044660E-4  
 2.496000000000000E10    3.402192960493267E-4  -1.747336355037987E-4  
 2.498000000000000E10   -4.832250124309212E-5  -5.496785524883308E-5  
 2.500000000000000E10   -2.037123485933989E-4   1.598335511516780E-4  
 2.502000000000000E10    3.294161288067699E-4   1.029959967127070E-4  
 2.504000000000000E10    5.180057487450540E-4  -2.750217099674046E-4  
 2.506000000000000E10    1.336146488029044E-5  -2.017331426031888E-4  
 2.508000000000000E10    8.478041854687035E-5  -9.766294533619657E-5  
 2.510000000000000E10    2.724145306274295E-4   2.979170239996165E-4  
 2.512000000000000E10    1.868605468189344E-4  -1.353974366793409E-4  
 2.514000000000000E10    2.312989963684231E-4  -3.933828556910157E-4  
 2.516000000000000E10   -2.091605711029843E-4  -2.687346132006496E-4  
 2.518000000000000E10   -9.170721023110673E-5   2.555575292717549E-6  
 2.520000000000000E10    2.005937567446381E-4   2.097495234920643E-5  
 2.522000000000000E10    1.493769959779456E-4  -4.009681579191238E-4  
 2.524000000000000E10   -1.711814111331478E-4  -4.800405004061759E-4  
 2.526000000000000E10   -1.599328825250268E-4  -1.397489249939099E-4  
 2.528000000000000E10   -2.213672414654866E-4   3.364096046425402E-4  
 2.530000000000000E10    3.175000892952085E-5  -2.893049968406558E-4  
 2.532000000000000E10    2.444975252728909E-4  -2.239240566268563E-4  
 2.534000000000000E10   -3.295243659522384E-4  -2.627281064633280E-4  
 2.536000000000000E10   -1.658958353800699E-4  -2.516598942747805E-5  
 2.538000000000000E10    7.784629997331649E-5   1.937345514306799E-4  
 2.540000000000000E10    1.303636090597138E-4  -1.892102591227740E-4  
 2.542000000000000E10   -2.333212323719636E-4  -4.027199756819755E-4  
 2.544000000000000E10   -2.940160338766873E-4  -1.338127331109718E-4  
 2.546000000000000E10   -1.922212395584211E-4   5.423742113634944E-4  
 2.548000000000000E10    9.118102752836421E-5  -1.741730375215411E-4  
 2.550000000000000E10   -7.613460911670700E-5  -1.822537742555141E-4  
 2.552000000000000E10   -7.568047149106860E-4   8.798930502962321E-5  
 2.554000000000000E10    1.360859023407102E-4   1.798752928152680E-4  
 2.556000000000000E10    1.688017509877682E-4   2.797025372274220E-4  
 2.558000000000000E10    8.857445209287107E-5  -2.147492195945233E-4  
 2.560000000000000E10    3.319510506116785E-5   1.405672810506076E-4  
 2.562000000000000E10   -2.091635396936908E-4   9.967795631382614E-5  
 2.564000000000000E10    1.713253732305020E-4   2.830193989211693E-5  
 2.566000000000000E10   -4.029680712847039E-5  -2.459648749209009E-5  
 2.568000000000000E10   -7.766139606246725E-5  -9.327797306468710E-5  
 2.570000000000000E10   -1.359194429824129E-4  -1.485967659391463E-4  
 2.572000000000000E10    2.818770299199969E-4   1.135729689849541E-4  
 2.574000000000000E10    1.515014591859654E-4   6.980887701502070E-5  
 2.576000000000000E10    2.614705954329111E-5  -3.480899031274021E-4  
 2.578000000000000E10   -1.867804530775175E-4   5.431903628050350E-5  
 2.580000000000000E10    6.202419899636880E-5   1.004679143079557E-4  
 2.582000000000000E10    2.231654943898320E-4   1.062259252648801E-4  
 2.584000000000000E10   -1.158392624347471E-4  -3.396185929886997E-4  
 2.586000000000000E10    9.981985931517556E-5   1.863554061856121E-4  
 2.588000000000000E10   -2.146564074791968E-4   4.853072459809482E-4  
 2.590000000000000E10    2.060505357803777E-4  -2.061474660877138E-4  
 2.592000000000000E10    1.024339799187146E-4  -9.114020213019103E-5  
 2.594000000000000E10    1.236887037521228E-4  -1.243536826223135E-4  
 2.596000000000000E10   -1.314038127020467E-5  -9.805418085306883E-5  
 2.598000000000000E10   -1.046777542796917E-4  -1.312702806899324E-4  
 2.600000000000000E10    2.306415699422360E-4   3.055344568565488E-4  
 2.602000000000000E10   -4.744496254716069E-5  -3.771382616832852E-4  
 2.604000000000000E10    1.088133067241870E-4  -2.956578391604126E-4  
 2.606000000000000E10   -4.478241025935859E-4   1.471942669013515E-4  
 2.608000000000000E10    2.519270346965641E-4   1.662642025621608E-4  
 2.610000000000000E10    1.371867692796513E-4   6.551475235028192E-5  
 2.612000000000000E10   -2.305145171703771E-4  -2.493782376404852E-4  
 2.614000000000000E10   -4.080049402546138E-4   2.567670890130103E-4  
 2.616000000000000E10    1.949661964317784E-4   3.013026143889874E-4  
 2.618000000000000E10    1.749793300405145E-4   1.330962259089574E-4  
 2.620000000000000E10   -4.603988490998745E-4  -3.444871108513326E-4  
 2.622000000000000E10   -9.721764945425093E-5   2.332724543521181E-4  
 2.624000000000000E10   -4.889865158475004E-5   1.350572420051321E-4  
 2.626000000000000E10    4.345284105511382E-5  -2.846816205419600E-4  
 2.628000000000000E10   -2.896082587540150E-4   1.588013692526147E-4  
 2.630000000000000E10    1.208883404615335E-4   2.092911017825827E-4  
 2.632000000000000E10    1.802113547455519E-4  -1.218086108565331E-4  
 2.634000000000000E10   -1.008931030810345E-5   1.171558960777475E-5  
 2.636000000000000E10   -1.326164783677086E-4   4.425144870765507E-4  
 2.638000000000000E10    3.063166514039040E-4  -5.003476326237433E-5  
 2.640000000000000E10   -4.683272345573641E-5  -1.954141916939989E-4  
 2.642000000000000E10   -4.158583469688892E-4   1.252659421879798E-4  
 2.644000000000000E10   -1.587972219567746E-4   2.514645748306066E-4  
 2.646000000000000E10    1.270016218768433E-4  -1.260576245840639E-4  
 2.648000000000000E10   -6.260081136133522E-5  -1.286226324737072E-4  
 2.650000000000000E10   -3.165981615893543E-4  -4.397146039991640E-5  
 2.652000000000000E10    1.451097923563793E-4   7.491532596759498E-5  
 2.654000000000000E10    3.020141739398241E-4   9.813187352847308E-5  
 2.656000000000000E10    1.099952351069078E-4  -1.350774837192148E-4  
 2.658000000000000E10    2.065600274363533E-4   2.915996301453561E-4  
 2.660000000000000E10    1.644963776925579E-4  -1.988753319892567E-5  
 2.662000000000000E10   -1.385704963468015E-4  -1.211492781294510E-4  
 2.664000000000000E10   -5.851999958395027E-5   1.225387968588620E-4  
 2.666000000000000E10    1.905356766656041E-4   3.157972823828459E-4  
 2.668000000000000E10    2.259841676277574E-5  -3.333345230203122E-4  
 2.670000000000000E10    5.149372373125516E-5  -1.924918469740078E-4  
 2.672000000000000E10   -2.113258378813043E-4   3.162048233207315E-4  
 2.674000000000000E10    2.131735236616805E-4  -1.688866614131257E-4  
 2.676000000000000E10    2.666673099156469E-4  -1.507892739027739E-4  
 2.678000000000000E10   -1.742862514220178E-4   9.935469279298559E-5  
 2.680000000000000E10    5.579061053140322E-6   2.116750547429547E-4  
 2.682000000000000E10    2.788315177895129E-4   2.416903153061867E-4  
 2.684000000000000E10   -1.617227389942855E-4  -5.630620216834359E-5  
 2.686000000000000E10   -2.381115918979049E-4   3.524711428326555E-5  
 2.688000000000000E10    1.280076830880716E-4   2.980994177050889E-4  
 2.690000000000000E10    9.032871457748115E-5  -5.609935033135116E-5  
 2.692000000000000E10    1.372591650579125E-4  -3.207221452612430E-4  
 2.694000000000000E10    8.884052658686414E-5  -2.028312701440882E-5  
 2.696000000000000E10    5.889934982405976E-5   1.137019353336655E-5  
 2.698000000000000E10    3.654539614217356E-5  -1.144966227002442E-4  
 2.700000000000000E10   -1.384197094012052E-4   1.747649657772854E-4  
 2.702000000000000E10    9.840363782132044E-5   1.217805183841847E-4  
 2.704000000000000E10    1.547607644170057E-5  -2.157947455998510E-4  
 2.706000000000000E10   -3.624571836553514E-4   7.759621075820178E-5  
 2.708000000000000E10   -1.319660368608311E-4   1.144393681897782E-4  
 2.710000000000000E10    1.795456337276846E-4  -9.598112228559330E-5  
 2.712000000000000E10   -2.127870247932151E-4  -1.480800274293870E-4  
 2.714000000000000E10   -2.311616262886673E-4   2.721825439948589E-4  
 2.716000000000000E10    2.769689017441124E-4  -4.473463195608929E-5  
 2.718000000000000E10   -2.126075414707884E-4  -8.449984306935221E-5  
 2.720000000000000E10   -3.915572597179562E-4  -5.530021735467017E-5  
 2.722000000000000E10   -1.508178684161976E-4   2.174314431613311E-4  
 2.724000000000000E10   -1.161754480563104E-4   6.707029569952283E-6  
 2.726000000000000E10    5.963775038253516E-5   3.685590490931645E-5  
 2.728000000000000E10   -2.548334305174649E-4   1.117013671319000E-4  
 2.730000000000000E10   -6.533682608278468E-5   6.926857167854905E-5  
 2.732000000000000E10    1.367970398860052E-4   1.305428158957511E-4  
 2.734000000000000E10    1.401603822159814E-5  -5.771861106040888E-5  
 2.736000000000000E10   -9.669660357758403E-5   9.402266732649878E-5  
 2.738000000000000E10    2.082477112708148E-5  -1.302824093727395E-4  
 2.740000000000000E10    3.802362016358529E-6   2.110538043780252E-4  
 2.742000000000000E10    2.376695192651823E-5   2.743206860031933E-4  
 2.744000000000000E10    2.777728368528187E-4   5.553123264689930E-5  
 2.746000000000000E10    8.778501069173217E-6  -3.350595652591437E-4  
 2.748000000000000E10   -1.238320255652070E-4   1.403305359417573E-4  
 2.750000000000000E10   -4.954414180247113E-5   3.346914891153574E-4  
 2.752000000000000E10    3.839702985715121E-4   2.961343489005230E-5  
 2.754000000000000E10   -3.379586269147694E-5   5.292783953336766E-6  
 2.756000000000000E10   -4.529894504230470E-4  -1.109528966480866E-4  
