#  HZ   S   RI   R     50.00 
! Rohde & Schwarz ZVA40 4Ports - Version 3.90 - 1145.1110k42 SN: 100403
! Date: 2023-10-04 07:51:32
! Measurement: S12 
! 
 2.200000000000000E10   -5.513653741218150E-4   2.992865629494190E-4  
 2.202000000000000E10    4.021230561193079E-4   7.936577312648296E-4  
 2.204000000000000E10    5.086463643237948E-4  -6.723780534230173E-4  
 2.206000000000000E10   -4.590170574374497E-4  -8.552612271159887E-4  
 2.208000000000000E10   -7.541686645708978E-4   3.928305814042687E-4  
 2.210000000000000E10    8.752399589866400E-4   3.307801671326160E-4  
 2.212000000000000E10    3.319987445138395E-4  -7.954435423016548E-4  
 2.214000000000000E10   -6.264466210268438E-4  -5.173648241907358E-4  
 2.216000000000000E10   -3.558848984539509E-4   8.032498299144208E-4  
 2.218000000000000E10    6.903700996190310E-4   4.983431608707178E-6  
 2.220000000000000E10   -1.835223883972503E-5  -5.366079276427627E-4  
 2.222000000000000E10   -6.313713383860886E-4  -2.443486882839352E-4  
 2.224000000000000E10    2.424414560664445E-4   1.583565899636596E-4  
 2.226000000000000E10    1.586579164722934E-4  -4.463702207431197E-4  
 2.228000000000000E10   -4.144762060604990E-4  -1.996357023017481E-4  
 2.230000000000000E10   -1.707292358332779E-5   5.170279764570296E-4  
 2.232000000000000E10    4.460841300897300E-4  -1.639071415411308E-4  
 2.234000000000000E10   -1.100861918530427E-4  -4.302430606912822E-4  
 2.236000000000000E10   -6.360084516927600E-4   1.257249241461977E-4  
 2.238000000000000E10    1.309942599618807E-4   7.721881265752018E-4  
 2.240000000000000E10    5.653105326928198E-4  -2.914149372372776E-4  
 2.242000000000000E10   -7.935296162031591E-4  -8.053833735175431E-4  
 2.244000000000000E10   -8.891077595762909E-4   1.140236199717037E-4  
 2.246000000000000E10    6.008566706441343E-4   3.932622203137726E-4  
 2.248000000000000E10    6.334091885946691E-4  -6.753028719685972E-4  
 2.250000000000000E10   -5.309361731633544E-4  -6.877340492792428E-4  
 2.252000000000000E10   -6.744600250385702E-4   3.441081207711250E-4  
 2.254000000000000E10    3.865543840220198E-5   5.407062126323581E-4  
 2.256000000000000E10   -8.991059985419270E-6  -1.872790307970718E-4  
 2.258000000000000E10   -3.772669588215649E-4  -1.878334005596116E-4  
 2.260000000000000E10   -1.595915236975998E-4   1.341745701211039E-5  
 2.262000000000000E10   -2.709787622734439E-5  -2.693120623007417E-4  
 2.264000000000000E10   -5.146392868482508E-5  -2.911293704528362E-4  
 2.266000000000000E10   -1.928664423758164E-4   6.666333501925692E-5  
 2.268000000000000E10    6.077055004425347E-4   2.242533264507074E-5  
 2.270000000000000E10    5.979839988867752E-5  -4.814923449885100E-4  
 2.272000000000000E10   -5.529243499040604E-4   5.422046160674654E-5  
 2.274000000000000E10   -1.490084105171263E-4   7.137567736208439E-4  
 2.276000000000000E10    6.173246074467897E-4  -6.389161717379466E-5  
 2.278000000000000E10    1.443877044948749E-5  -8.861497044563294E-4  
 2.280000000000000E10   -7.994179031811655E-4  -8.109625923680142E-5  
 2.282000000000000E10   -6.030623335391283E-4   5.027232109569013E-4  
 2.284000000000000E10    7.190920296125114E-4  -2.367619454162195E-4  
 2.286000000000000E10   -1.895155146485195E-4  -7.738601416349411E-4  
 2.288000000000000E10   -8.315188460983336E-4   3.336849840707146E-5  
 2.290000000000000E10   -1.953028368006926E-5   3.698121581692249E-4  
 2.292000000000000E10    4.955443437211216E-4  -4.374226136860671E-6  
 2.294000000000000E10   -1.270516804652289E-4  -3.654048487078399E-4  
 2.296000000000000E10   -3.718222724273801E-4  -7.841324986657128E-5  
 2.298000000000000E10    7.888940308475867E-5   1.604850549483672E-4  
 2.300000000000000E10    9.856607357505709E-5  -1.415615552105010E-4  
 2.302000000000000E10   -1.228568871738389E-4  -1.805661595426500E-4  
 2.304000000000000E10    5.145385148352943E-5   1.717595005175099E-4  
 2.306000000000000E10    1.074084866559133E-4   3.013603782164864E-5  
 2.308000000000000E10   -3.758162783924490E-4  -2.188301150454208E-4  
 2.310000000000000E10   -1.296182599617168E-4   4.960692021995783E-4  
 2.312000000000000E10    4.141518147662282E-4   3.888733917847276E-4  
 2.314000000000000E10    1.765274646459147E-4  -6.497433059848845E-4  
 2.316000000000000E10   -6.600272026844323E-4   5.594794856733643E-5  
 2.318000000000000E10   -2.150752261513844E-4   7.112330640666187E-4  
 2.320000000000000E10    6.236013141460717E-4   3.420572029426694E-4  
 2.322000000000000E10   -4.355161217972636E-5  -4.767439386341721E-4  
 2.324000000000000E10   -5.714754806831479E-4  -9.424048585060518E-6  
 2.326000000000000E10   -5.929971812292934E-4   7.650753250345588E-4  
 2.328000000000000E10    5.230025271885097E-4   4.008209798485041E-4  
 2.330000000000000E10   -4.652910865843296E-4  -2.941258426290005E-4  
 2.332000000000000E10   -5.934187211096287E-4  -7.129900768632069E-5  
 2.334000000000000E10   -3.664265095721930E-4   4.701136786025018E-4  
 2.336000000000000E10    2.659862802829593E-4   1.893615699373186E-4  
 2.338000000000000E10   -2.143639721907675E-4   6.407815817510709E-5  
 2.340000000000000E10   -3.183048684149981E-4   7.192021439550445E-5  
 2.342000000000000E10   -2.806573465932161E-4   1.914235181175172E-4  
 2.344000000000000E10    4.393500421429053E-5  -2.211053360952064E-4  
 2.346000000000000E10   -1.318822905886918E-4   2.262991911265999E-4  
 2.348000000000000E10    2.243061462650076E-4   1.813420094549656E-4  
 2.350000000000000E10   -4.663843355956487E-5  -8.006975258467719E-5  
 2.352000000000000E10   -1.637320528971031E-4   4.606089714798145E-5  
 2.354000000000000E10   -6.367748574120924E-5   5.100730923004448E-4  
 2.356000000000000E10    3.953485866077244E-4   4.806917422683910E-5  
 2.358000000000000E10   -2.083183353533968E-4  -2.978221746161580E-4  
 2.360000000000000E10   -6.249627913348377E-4   1.084924588212743E-4  
 2.362000000000000E10    1.942139351740480E-4   5.947673344053328E-4  
 2.364000000000000E10    2.195888519054279E-4  -1.378711112920428E-5  
 2.366000000000000E10   -7.416760490741581E-5  -4.211825726088136E-4  
 2.368000000000000E10   -1.239175035152584E-4  -1.547548308735713E-4  
 2.370000000000000E10    2.256129664601758E-4   5.271502304822207E-4  
 2.372000000000000E10    3.136435407213867E-4  -3.663553798105568E-5  
 2.374000000000000E10    2.773808373603970E-4  -3.988476237282157E-4  
 2.376000000000000E10   -1.618962705833837E-4   9.594081348041073E-6  
 2.378000000000000E10    7.694523083046079E-5   5.579756689257920E-4  
 2.380000000000000E10    4.395387950353324E-4   1.298586721532047E-4  
 2.382000000000000E10    1.082372182281688E-4  -2.640102175064385E-4  
 2.384000000000000E10   -2.835378982126713E-4  -5.069834878668189E-5  
 2.386000000000000E10   -1.294984831474721E-4   3.159823536407203E-4  
 2.388000000000000E10    2.945096639450640E-4   2.264519862364978E-4  
 2.390000000000000E10    3.987740783486515E-4  -3.553687420208007E-4  
 2.392000000000000E10   -1.914626918733120E-4  -4.032399447169155E-4  
 2.394000000000000E10    7.333352641580859E-6   3.297136281616986E-4  
 2.396000000000000E10    3.814253141172230E-4   3.988623793702573E-4  
 2.398000000000000E10    4.718306881841272E-4  -1.752063690219075E-4  
 2.400000000000000E10   -2.754890592768788E-4  -1.035924578900449E-4  
 2.402000000000000E10   -4.654675431083888E-4   1.798370067263022E-4  
 2.404000000000000E10    4.692155926022679E-5   4.152250767219812E-4  
 2.406000000000000E10    3.264206752646714E-4   2.046881709247828E-4  
 2.408000000000000E10    1.465200912207365E-4  -3.765204164665192E-4  
 2.410000000000000E10   -3.000958531629294E-4  -1.607171434443444E-4  
 2.412000000000000E10   -1.597503578523174E-4   2.863481640815735E-4  
 2.414000000000000E10    3.087526129093021E-4   2.153643872588873E-4  
 2.416000000000000E10    3.156807506456971E-4  -4.968367284163833E-5  
 2.418000000000000E10   -6.037241109879687E-5  -5.295432856655680E-5  
 2.420000000000000E10   -5.043599521741271E-4   1.754441327648237E-4  
 2.422000000000000E10   -2.054934884654358E-4   2.269804244861007E-4  
 2.424000000000000E10    2.554180973675102E-4  -1.096000323741464E-5  
 2.426000000000000E10    7.580464625789318E-6  -6.594479782506824E-4  
 2.428000000000000E10   -4.253023944329470E-4  -1.000846532406285E-4  
 2.430000000000000E10   -3.487285575829446E-4  -1.438697945559397E-4  
 2.432000000000000E10    3.817367542069405E-4   1.845405931817368E-4  
 2.434000000000000E10    1.968008145922795E-4  -4.218347894493491E-4  
 2.436000000000000E10    1.050712216965621E-5   2.136697958121658E-6  
 2.438000000000000E10   -3.132683632429689E-4   1.492513838456944E-4  
 2.440000000000000E10    2.787182747852057E-4   3.627520345617086E-5  
 2.442000000000000E10   -1.827956439228728E-4   1.739667641231790E-4  
 2.444000000000000E10   -1.174827048089355E-5  -3.329931059852243E-4  
 2.446000000000000E10    1.722688466543332E-4  -2.433267509331927E-4  
 2.448000000000000E10   -2.199805167037994E-4  -1.208001267514192E-4  
 2.450000000000000E10    4.970538429915905E-5  -2.763660450000316E-4  
 2.452000000000000E10    3.188780683558434E-4  -1.134397971327417E-4  
 2.454000000000000E10    1.576782524352893E-4   6.740370008628815E-5  
 2.456000000000000E10   -8.131044887704775E-5  -1.297655398957431E-4  
 2.458000000000000E10    4.739908763440326E-5   3.246677515562624E-4  
 2.460000000000000E10   -2.120194549206644E-4   3.103378985542804E-4  
 2.462000000000000E10   -6.922359898453578E-5  -1.261207362404093E-4  
 2.464000000000000E10   -1.296529899263987E-5   8.954013901529834E-5  
 2.466000000000000E10    7.272895891219378E-5   9.329941531177610E-5  
 2.468000000000000E10   -6.863917951704934E-5  -2.056650555459783E-4  
 2.470000000000000E10    2.358993660891429E-4   1.189516915474087E-4  
 2.472000000000000E10   -1.718454732326791E-4   2.691907284315676E-4  
 2.474000000000000E10    3.153136640321463E-4   2.773915002762806E-5  
 2.476000000000000E10   -8.379556675208733E-5  -3.410225644984166E-6  
 2.478000000000000E10   -1.740157895255834E-4   2.383206447120756E-4  
 2.480000000000000E10   -2.105061139445752E-5   2.048958849627525E-4  
 2.482000000000000E10    9.262043749913573E-5  -6.746197323082015E-5  
 2.484000000000000E10   -1.519107026979327E-4  -2.597636485006660E-4  
 2.486000000000000E10   -1.093967875931412E-5  -1.805342180887237E-4  
 2.488000000000000E10   -5.837361823068932E-5   4.971730959368870E-5  
 2.490000000000000E10    9.153180144494399E-5  -8.164286555256695E-5  
 2.492000000000000E10    1.807182998163626E-4  -3.872385786962695E-5  
 2.494000000000000E10   -8.009860903257504E-5  -2.251455880468711E-4  
 2.496000000000000E10   -9.360494004795328E-5   1.606390142114833E-4  
 2.498000000000000E10   -3.236566844861955E-4  -5.148664422449656E-5  
 2.500000000000000E10    3.174010780639947E-4   1.160338433692232E-4  
 2.502000000000000E10   -9.304847480962053E-5  -8.174276445060968E-5  
 2.504000000000000E10   -1.355799613520503E-4   2.239589666714892E-4  
 2.506000000000000E10    5.588874046225101E-5   3.419785934966058E-4  
 2.508000000000000E10    1.145280657510739E-5   2.432899782434106E-4  
 2.510000000000000E10   -1.336257846560329E-4  -7.679764530621469E-5  
 2.512000000000000E10   -1.186668960144743E-4   1.865444501163438E-4  
 2.514000000000000E10   -2.009293675655499E-4   1.613734057173133E-4  
 2.516000000000000E10   -6.529546226374805E-6  -2.307637478224933E-4  
 2.518000000000000E10   -5.746747410739772E-5  -3.159936022711918E-5  
 2.520000000000000E10   -6.018841304467060E-5  -1.556485658511519E-4  
 2.522000000000000E10    1.732359669404104E-4  -2.817392669385299E-5  
 2.524000000000000E10    3.317458031233400E-4   1.089852376026101E-4  
 2.526000000000000E10   -3.617756738094613E-5  -1.345763885183260E-4  
 2.528000000000000E10   -2.320175990462303E-4  -1.807547378120944E-4  
 2.530000000000000E10   -6.791449413867667E-5   4.018635663669556E-4  
 2.532000000000000E10   -2.720264019444585E-4   9.790588228497654E-5  
 2.534000000000000E10    2.522589347790927E-4  -4.366349312476814E-4  
 2.536000000000000E10   -2.541964931879193E-4  -1.667386095505208E-4  
 2.538000000000000E10   -2.825766569003463E-4  -5.125567622599192E-5  
 2.540000000000000E10    3.042173921130598E-4  -6.382735591614619E-5  
 2.542000000000000E10    2.923100837506354E-4  -1.282551675103605E-4  
 2.544000000000000E10   -2.378013014094904E-4  -1.952164020622149E-4  
 2.546000000000000E10    6.276774456637213E-6   2.031417388934642E-4  
 2.548000000000000E10   -2.939853002317250E-4   3.015449910890311E-4  
 2.550000000000000E10    1.596676011104137E-4   7.183890556916595E-5  
 2.552000000000000E10   -2.199957962147892E-4  -1.289628380618524E-5  
 2.554000000000000E10   -4.410975379869342E-4  -2.457516093272716E-4  
 2.556000000000000E10   -3.214938042219728E-4   1.319504081038758E-4  
 2.558000000000000E10    3.570964909158647E-4   1.358002919005230E-4  
 2.560000000000000E10    1.751283125486225E-4   2.403802864137106E-5  
 2.562000000000000E10    5.601303200819530E-5  -3.753270430024713E-4  
 2.564000000000000E10   -2.397241041762754E-4   3.010988875757903E-4  
 2.566000000000000E10   -7.472707511624321E-5   3.011607041116804E-4  
 2.568000000000000E10    5.910517647862434E-4   1.500408980064094E-4  
 2.570000000000000E10   -2.818109533109237E-5  -4.088532587047666E-4  
 2.572000000000000E10   -3.112200647592545E-4  -3.336498775752261E-5  
 2.574000000000000E10    2.594259785837494E-5   2.154994726879522E-4  
 2.576000000000000E10    3.737659717444331E-4  -1.200757687911391E-4  
 2.578000000000000E10    7.776833081152290E-5  -2.703483041841537E-4  
 2.580000000000000E10   -2.575626131147146E-4  -1.530928420834243E-4  
 2.582000000000000E10   -5.208401489653625E-5   2.964662562590092E-4  
 2.584000000000000E10    2.036912774201483E-4   4.571263707475737E-5  
 2.586000000000000E10    8.677464938955382E-5   1.142772816820070E-5  
 2.588000000000000E10   -5.469795360113494E-5  -3.143627545796335E-4  
 2.590000000000000E10    5.272992348182015E-5   6.019367720000446E-5  
 2.592000000000000E10   -2.672989503480494E-4   8.903367415769026E-5  
 2.594000000000000E10    3.554266004357487E-4  -2.961814288937603E-6  
 2.596000000000000E10   -2.819736073433887E-5  -8.158772834576666E-5  
 2.598000000000000E10   -9.204041271004826E-5  -2.269105316372588E-4  
 2.600000000000000E10   -2.295479353051633E-4   1.903542142827064E-4  
 2.602000000000000E10    3.771246992982924E-4   2.166980120819062E-4  
 2.604000000000000E10    8.433451876044273E-5  -1.380814355798066E-4  
 2.606000000000000E10    4.797810149170800E-8  -1.855744194472209E-4  
 2.608000000000000E10   -2.061000704998151E-4   4.421538615133613E-4  
 2.610000000000000E10    1.664661831455305E-4  -4.998547956347466E-5  
 2.612000000000000E10    1.374850980937481E-4   7.474042649846524E-5  
 2.614000000000000E10   -1.304775796597824E-4  -8.594590326538310E-5  
 2.616000000000000E10    9.584648796590045E-5   3.292933688499034E-4  
 2.618000000000000E10   -9.829054033616558E-5  -1.685321767581627E-4  
 2.620000000000000E10    1.889760169433430E-4  -2.158512070309371E-4  
 2.622000000000000E10   -2.214844280388206E-4   4.873020589002408E-5  
 2.624000000000000E10   -1.208903540828032E-5   1.217855169670656E-4  
 2.626000000000000E10   -2.270460972795263E-4  -1.272127701668069E-4  
 2.628000000000000E10   -2.282880632265005E-5   9.986636229086798E-8  
 2.630000000000000E10    6.102033876231872E-5   2.836020139511675E-4  
 2.632000000000000E10   -3.498111618682742E-5  -1.156469588750042E-4  
 2.634000000000000E10   -2.489586040610448E-5   8.684943963999103E-7  
 2.636000000000000E10    5.401046109909657E-6   3.345407021697611E-4  
 2.638000000000000E10   -4.330881347414106E-5  -5.697649612557143E-5  
 2.640000000000000E10    1.010627674986608E-4   1.357117798761465E-5  
 2.642000000000000E10   -3.371923230588436E-4  -5.433199476101436E-5  
 2.644000000000000E10   -4.165482096141204E-6  -1.043964730342850E-4  
 2.646000000000000E10    5.844365296070464E-5   3.989888136857189E-5  
 2.648000000000000E10    1.048248668666929E-4  -3.983195056207478E-4  
 2.650000000000000E10   -1.115349878091365E-4  -4.545313640846871E-5  
 2.652000000000000E10   -1.008524195640348E-4   4.695104144047946E-4  
 2.654000000000000E10    3.432689368310093E-7  -2.737230679485947E-4  
 2.656000000000000E10    1.079992071026936E-4  -1.725534675642848E-4  
 2.658000000000000E10   -2.676298317965120E-4   2.476361405570060E-4  
 2.660000000000000E10    3.276404459029436E-5  -9.716565546113998E-5  
 2.662000000000000E10    9.263255924452096E-5   5.404715557233430E-5  
 2.664000000000000E10   -2.851401222869754E-4  -3.593809378799051E-5  
 2.666000000000000E10    1.118504515034147E-4   1.135127240559086E-4  
 2.668000000000000E10   -3.469139119260944E-5   5.669132588081993E-5  
 2.670000000000000E10   -9.948418301064521E-5  -1.481531653553248E-4  
 2.672000000000000E10   -3.000797914864961E-5   1.822443591663614E-4  
 2.674000000000000E10    2.410195156699047E-4   1.638034445932135E-4  
 2.676000000000000E10   -1.249399356311187E-4  -4.364511114545167E-4  
 2.678000000000000E10   -3.117402593488805E-5  -2.489642647560686E-4  
 2.680000000000000E10   -1.315101544605568E-4   9.900021541398019E-5  
 2.682000000000000E10    1.415428996551782E-4  -1.135424172389321E-4  
 2.684000000000000E10    1.193084026454017E-4  -1.112055470002815E-4  
 2.686000000000000E10   -1.068163546733558E-4   1.538003125460818E-4  
 2.688000000000000E10   -9.517704893369228E-5  -7.938556518638507E-5  
 2.690000000000000E10    2.692264388315380E-4   2.649519592523575E-5  
 2.692000000000000E10   -9.228212002199143E-5   4.387493027024902E-5  
 2.694000000000000E10   -7.415482104988769E-5   7.375035784207285E-5  
 2.696000000000000E10    6.545703217852861E-5  -1.032932123052888E-4  
 2.698000000000000E10   -1.579758827574551E-4  -1.437075115973130E-4  
 2.700000000000000E10   -1.358490117127076E-4   3.210582508472726E-5  
 2.702000000000000E10    2.402731624897569E-4   3.228413697797805E-4  
 2.704000000000000E10    1.338106958428398E-4  -1.891239662654698E-4  
 2.706000000000000E10   -3.685469209813164E-6   1.944207324413583E-4  
 2.708000000000000E10   -3.563894133549184E-4   1.187796369777061E-4  
 2.710000000000000E10    9.992282139137387E-5   4.062656953465194E-4  
 2.712000000000000E10   -1.388942182529718E-4  -7.958443893585354E-5  
 2.714000000000000E10   -3.189805647707544E-5  -1.499138161307201E-4  
 2.716000000000000E10   -2.741826756391674E-4   2.695413713809103E-4  
 2.718000000000000E10    2.600070147309452E-4  -5.091002094559372E-5  
 2.720000000000000E10    1.999122614506632E-4   1.396800507791340E-5  
 2.722000000000000E10   -6.749331078026444E-5  -7.001792255323380E-5  
 2.724000000000000E10   -1.469305861974135E-4   1.470926217734814E-4  
 2.726000000000000E10    8.278083987534046E-5   1.379989680572180E-5  
 2.728000000000000E10    7.423310307785869E-5   2.265029179397970E-4  
 2.730000000000000E10    5.727489042328671E-5   9.447120828554034E-5  
 2.732000000000000E10    4.048366008646553E-6  -4.607246592058800E-5  
 2.734000000000000E10   -1.774958655005321E-4   2.373038441874087E-4  
 2.736000000000000E10    1.484088861616328E-4   7.134855695767328E-5  
 2.738000000000000E10    3.879628202412278E-4   5.484153462020913E-6  
 2.740000000000000E10   -9.786666487343609E-5  -5.744077861891128E-5  
 2.742000000000000E10   -1.557131472509354E-4   1.127518116845749E-4  
 2.744000000000000E10    3.641454677563161E-4   1.910614664666355E-4  
 2.746000000000000E10    2.557998523116112E-4   6.878803833387792E-5  
 2.748000000000000E10   -2.716169692575932E-4  -3.929475496988744E-4  
 2.750000000000000E10    1.523070968687534E-4   2.606916532386094E-4  
 2.752000000000000E10   -1.528226130176336E-4   3.549573593772948E-4  
 2.754000000000000E10    2.369114372413606E-4  -4.227714089211077E-4  
 2.756000000000000E10    5.631296153296717E-5   6.626822869293392E-5  
