#  HZ   S   RI   R     50.00 
! Rohde & Schwarz ZVA40 4Ports - Version 3.90 - 1145.1110k42 SN: 100403
! Date: 2023-10-04 07:51:07
! Measurement: S12 
! 
 2.200000000000000E10   -6.868631462566555E-4   1.541697383800056E-5  
 2.202000000000000E10   -2.407142455922440E-4   7.934849709272385E-4  
 2.204000000000000E10    7.008896791376174E-4  -1.432720746379346E-4  
 2.206000000000000E10   -1.749547373037785E-4  -5.291072302497923E-4  
 2.208000000000000E10   -3.632962470874190E-4  -4.874863589066081E-5  
 2.210000000000000E10    3.447353665251285E-4   3.425549657549709E-4  
 2.212000000000000E10    2.273749705636874E-4  -3.637099580373615E-4  
 2.214000000000000E10   -1.350606471532956E-4  -1.944624673342332E-4  
 2.216000000000000E10    1.994418125832453E-4   2.125254977727309E-4  
 2.218000000000000E10    5.446121795102954E-4  -6.183497316669673E-5  
 2.220000000000000E10   -4.619215906132013E-4  -4.217010282445699E-4  
 2.222000000000000E10   -3.721393295563757E-4   3.755644138436765E-4  
 2.224000000000000E10    3.899179573636502E-4   2.508045581635088E-4  
 2.226000000000000E10    1.875808811746538E-4  -8.307598182000220E-4  
 2.228000000000000E10   -5.685343057848513E-4  -6.568419630639255E-4  
 2.230000000000000E10   -3.554316936060786E-4   6.405577296391130E-4  
 2.232000000000000E10    9.497242281213403E-4   1.376422005705535E-4  
 2.234000000000000E10    2.004140696953982E-4  -8.501868578605354E-4  
 2.236000000000000E10   -9.736365755088627E-4  -2.961767604574561E-4  
 2.238000000000000E10   -4.341370658949018E-4   7.410465041175485E-4  
 2.240000000000000E10    3.601516946218908E-4  -1.752657408360392E-5  
 2.242000000000000E10    6.033164027030580E-5  -9.015272371470928E-4  
 2.244000000000000E10   -7.251681527122855E-4   5.041554686613381E-5  
 2.246000000000000E10   -1.713986421236768E-4   4.158953961450607E-4  
 2.248000000000000E10    6.268551805987954E-4   1.904085656860843E-4  
 2.250000000000000E10   -5.495357254403643E-5  -4.682174476329237E-4  
 2.252000000000000E10   -5.135411047376692E-4   1.230251218657941E-4  
 2.254000000000000E10   -3.096259315498173E-4   5.290060071274638E-4  
 2.256000000000000E10    1.005068334052339E-4  -4.801429458893836E-4  
 2.258000000000000E10   -3.445221518632025E-4  -1.048920530593023E-4  
 2.260000000000000E10   -2.115506940754131E-4  -2.399059849267360E-5  
 2.262000000000000E10    3.177442704327405E-4  -9.169361874228343E-5  
 2.264000000000000E10   -5.731626970373327E-6  -5.780470091849566E-4  
 2.266000000000000E10   -1.884860248537734E-4   1.423335634171963E-4  
 2.268000000000000E10    6.599503103643656E-5   4.209286998957396E-4  
 2.270000000000000E10    3.331324842292815E-4  -1.510186557425186E-4  
 2.272000000000000E10   -5.880325916223228E-4  -1.680621207924560E-4  
 2.274000000000000E10   -4.816793370991945E-4   4.060897044837475E-4  
 2.276000000000000E10    1.509545654698741E-5   3.865518665406853E-4  
 2.278000000000000E10    5.094789084978402E-4  -3.129891119897366E-4  
 2.280000000000000E10   -5.717844469472766E-4  -5.213334225118160E-4  
 2.282000000000000E10   -4.064782406203449E-4   5.007660729461350E-5  
 2.284000000000000E10    4.207229940220714E-4   3.332624328322709E-4  
 2.286000000000000E10    2.817753411363810E-4  -2.655552816577256E-4  
 2.288000000000000E10   -1.102411915780976E-4  -1.787666406016797E-4  
 2.290000000000000E10   -2.114970848197117E-4   3.756355727091432E-4  
 2.292000000000000E10    1.221440616063774E-4   1.637684326851741E-4  
 2.294000000000000E10   -6.825862510595471E-5  -1.487141125835478E-4  
 2.296000000000000E10   -2.185548510169610E-4   2.847815339919180E-4  
 2.298000000000000E10   -7.280277350218967E-5   7.012800779193640E-5  
 2.300000000000000E10   -2.996954390255269E-5  -2.674171992111951E-4  
 2.302000000000000E10   -3.813255461864173E-4  -7.680802082177252E-5  
 2.304000000000000E10   -2.348944544792175E-4   1.673279039096087E-4  
 2.306000000000000E10    3.340737312100828E-4  -8.967337635112926E-5  
 2.308000000000000E10   -1.677743421168998E-4  -3.839576966129243E-4  
 2.310000000000000E10   -5.523433210328221E-4   2.130589418811724E-4  
 2.312000000000000E10    5.474641875480302E-5   4.473399894777685E-4  
 2.314000000000000E10    5.402019596658647E-4  -1.083274401025847E-5  
 2.316000000000000E10   -2.876329235732555E-4  -4.330594674684107E-4  
 2.318000000000000E10   -2.331898867851123E-4   2.748236292973161E-4  
 2.320000000000000E10    2.191093226429075E-4   6.371892523020506E-4  
 2.322000000000000E10    7.600274402648211E-4  -3.008660314662848E-5  
 2.324000000000000E10   -1.606832811376080E-4  -2.860449312720448E-4  
 2.326000000000000E10   -3.137783787678927E-4   2.256935986224562E-4  
 2.328000000000000E10    1.956173264261452E-6   5.722884670831263E-4  
 2.330000000000000E10    1.322765601798892E-4  -3.522371844155714E-5  
 2.332000000000000E10   -4.616727164830081E-5   1.173091004602611E-4  
 2.334000000000000E10   -1.180045364890248E-4  -1.896518806461245E-4  
 2.336000000000000E10   -1.090196601580828E-4   2.472490887157619E-4  
 2.338000000000000E10   -3.859766729874536E-5   1.843492063926533E-4  
 2.340000000000000E10    2.087232423946261E-4   3.757165977731347E-4  
 2.342000000000000E10    1.771279348758981E-4  -2.018801751546562E-4  
 2.344000000000000E10   -5.428619260783307E-6   3.462484528427012E-5  
 2.346000000000000E10   -4.043985391035676E-4   6.882793968543410E-4  
 2.348000000000000E10    4.772984830196947E-4   2.490387414582074E-4  
 2.350000000000000E10    9.999693429563195E-5  -3.704326809383929E-5  
 2.352000000000000E10   -3.724619746208191E-4  -2.598811406642199E-4  
 2.354000000000000E10   -2.153755776816979E-4   4.102720704395324E-4  
 2.356000000000000E10    1.556991628604010E-4   5.186406197026372E-4  
 2.358000000000000E10    4.742640885524452E-5  -1.176964724436402E-4  
 2.360000000000000E10    7.473425648640841E-5  -4.440648190211505E-4  
 2.362000000000000E10   -6.337735103443265E-4   3.999323816969991E-4  
 2.364000000000000E10    3.683127579279244E-5   2.171094529330730E-4  
 2.366000000000000E10    7.183543639257550E-4   1.875003363238648E-4  
 2.368000000000000E10   -2.209738886449486E-4  -5.067973979748786E-4  
 2.370000000000000E10   -2.512407954782248E-4  -6.360368570312858E-5  
 2.372000000000000E10   -1.654901643632911E-5   3.230411093682051E-4  
 2.374000000000000E10    3.743558772839606E-4   1.632795465411618E-4  
 2.376000000000000E10    1.731366937747225E-4  -4.971433663740754E-4  
 2.378000000000000E10   -3.183104854542762E-5   1.051465878845193E-4  
 2.380000000000000E10   -2.432926994515583E-4   3.926798235625029E-4  
 2.382000000000000E10   -6.646438123425469E-5   1.554058544570580E-4  
 2.384000000000000E10    2.481827687006444E-4  -2.237562875961885E-4  
 2.386000000000000E10   -2.187547070207074E-4  -4.071850562468171E-4  
 2.388000000000000E10   -1.804870262276381E-4   1.818949385778979E-4  
 2.390000000000000E10   -1.353258121525869E-4  -6.795187800889835E-5  
 2.392000000000000E10    4.293854872230440E-4  -1.793760602595285E-4  
 2.394000000000000E10    1.213319628732279E-4  -2.025200374191627E-4  
 2.396000000000000E10   -7.400994218187407E-5   1.362947659799829E-4  
 2.398000000000000E10   -1.483927098888671E-5   1.641566050238907E-4  
 2.400000000000000E10   -1.687246112851426E-4   8.272385457530618E-5  
 2.402000000000000E10    9.373670036438853E-5   1.043861484504305E-4  
 2.404000000000000E10   -3.193285374436528E-4   6.925886282260763E-6  
 2.406000000000000E10   -1.331539679085836E-4  -1.716483093332499E-4  
 2.408000000000000E10    2.724429941736162E-5   3.419384593144059E-4  
 2.410000000000000E10    3.267263236921281E-4  -2.200614981120452E-4  
 2.412000000000000E10    5.135319952387363E-5  -1.724979374557734E-4  
 2.414000000000000E10   -5.008931111660786E-5   1.713638193905354E-4  
 2.416000000000000E10    2.404422848485410E-4   4.839656176045537E-4  
 2.418000000000000E10    9.107619553105906E-5  -1.784394262358546E-4  
 2.420000000000000E10   -1.432103599654511E-4  -5.440411041490734E-5  
 2.422000000000000E10   -4.855808801949024E-4   2.538494300097227E-4  
 2.424000000000000E10    2.857567742466927E-4   4.362361505627632E-5  
 2.426000000000000E10    9.310570021625608E-5  -1.894417073344812E-4  
 2.428000000000000E10   -1.697658881312236E-4  -3.098653978668153E-4  
 2.430000000000000E10   -2.162414602935314E-4   1.833435453590937E-5  
 2.432000000000000E10    2.466522273607552E-4   3.174407174810767E-4  
 2.434000000000000E10    1.343694893876091E-4   9.901468729367480E-5  
 2.436000000000000E10    8.185885235434398E-5  -1.347879151580855E-4  
 2.438000000000000E10   -5.196985439397395E-4   3.569079563021660E-4  
 2.440000000000000E10   -3.792511051869951E-5   4.603569323080592E-5  
 2.442000000000000E10    1.538057986181229E-4   8.383470412809402E-5  
 2.444000000000000E10    1.874370937002823E-4  -2.308119874214754E-4  
 2.446000000000000E10   -2.411501045571640E-4  -3.210927243344486E-4  
 2.448000000000000E10    9.206612594425678E-5  -1.153044431703165E-4  
 2.450000000000000E10    2.818399225361645E-4   2.305309026269242E-4  
 2.452000000000000E10    3.992214624304324E-4  -3.227335109841079E-4  
 2.454000000000000E10    2.489167382009327E-4  -2.316399331903085E-4  
 2.456000000000000E10   -3.713248588610441E-4  -1.810806425055489E-4  
 2.458000000000000E10    3.613329681684263E-5   1.515591138741002E-4  
 2.460000000000000E10    3.639664791990072E-4   2.571635741333012E-5  
 2.462000000000000E10    2.541401190683246E-4  -3.690843877848238E-4  
 2.464000000000000E10   -9.411756764166057E-5  -3.090989775955677E-4  
 2.466000000000000E10    2.045920336968266E-5   2.035919169429690E-4  
 2.468000000000000E10    9.509879600955173E-5   3.358982794452459E-4  
 2.470000000000000E10    3.340587136335671E-4  -1.962282985914499E-4  
 2.472000000000000E10    4.432942296261899E-5  -3.103505514445715E-5  
 2.474000000000000E10   -2.952816139440984E-4  -2.043331624008715E-4  
 2.476000000000000E10   -1.408967218594626E-4   6.701830716338009E-5  
 2.478000000000000E10    8.364343375433236E-5   4.920228093396872E-5  
 2.480000000000000E10    2.165804617106915E-4  -3.206819528713822E-4  
 2.482000000000000E10   -3.036858288396616E-5  -1.145059723057784E-4  
 2.484000000000000E10    8.700449689058587E-5   1.161319087259471E-4  
 2.486000000000000E10    2.432696783216670E-4  -3.736180224223062E-5  
 2.488000000000000E10    1.082925809896551E-4   2.381383383180946E-4  
 2.490000000000000E10   -3.111713522230275E-5   1.252186048077419E-4  
 2.492000000000000E10   -2.544703056628350E-5   2.311533462489024E-4  
 2.494000000000000E10   -1.002130302367732E-4   2.125344180967659E-4  
 2.496000000000000E10   -1.094446997740306E-4  -2.525698801036924E-4  
 2.498000000000000E10   -1.493822055635974E-4   1.781247410690412E-4  
 2.500000000000000E10    8.849204459693283E-5  -6.703905819449574E-5  
 2.502000000000000E10    1.646257005631924E-4  -2.246158401248977E-4  
 2.504000000000000E10   -4.546398486127146E-5  -8.739298209547997E-5  
 2.506000000000000E10   -1.837126092141261E-6   2.557630650699139E-4  
 2.508000000000000E10    4.719332209788263E-4   4.671221176977269E-5  
 2.510000000000000E10    1.332185493083671E-4  -1.790028618415818E-4  
 2.512000000000000E10   -3.339260583743453E-4  -2.478057285770774E-4  
 2.514000000000000E10    5.333166700438596E-5   1.002405406325124E-4  
 2.516000000000000E10    7.376903522526845E-5   1.255303650395945E-4  
 2.518000000000000E10    4.796367720700800E-4  -2.485317236278206E-4  
 2.520000000000000E10    2.200128074036911E-4  -3.154276637360454E-4  
 2.522000000000000E10   -3.241315716877580E-4  -2.169262152165175E-4  
 2.524000000000000E10    7.130157609935850E-5   5.377327397582121E-6  
 2.526000000000000E10    3.825606545433402E-4   1.422902714693919E-4  
 2.528000000000000E10   -2.535241073928773E-4  -2.531529753468931E-4  
 2.530000000000000E10   -7.370744424406439E-5  -4.054816381540150E-4  
 2.532000000000000E10   -1.880851341411471E-4   3.049070301130996E-6  
 2.534000000000000E10   -1.746118869050406E-5  -1.018121911329217E-4  
 2.536000000000000E10    3.411431389395148E-4  -9.597413009032607E-5  
 2.538000000000000E10   -3.070956154260784E-5  -3.592325665522367E-4  
 2.540000000000000E10   -5.562500155065209E-5  -2.177149144699797E-4  
 2.542000000000000E10    2.398015931248665E-5   7.804406050127000E-5  
 2.544000000000000E10    1.133372788899578E-4   2.851352619472891E-4  
 2.546000000000000E10    4.002986679552123E-5  -3.231630253139883E-4  
 2.548000000000000E10    2.826723721227609E-5  -7.378793088719249E-5  
 2.550000000000000E10   -4.894480807706714E-4   3.260248049627990E-4  
 2.552000000000000E10    5.806874469271861E-6  -4.421826815814711E-5  
 2.554000000000000E10    3.289571614004672E-4  -1.805531064746901E-4  
 2.556000000000000E10   -1.936913467943668E-4  -2.443514822516590E-4  
 2.558000000000000E10   -1.306588819716126E-4   9.350755135528743E-5  
 2.560000000000000E10    3.454124962445349E-4   2.831088204402477E-4  
 2.562000000000000E10    1.165196517831646E-4  -5.656995563185774E-5  
 2.564000000000000E10   -2.001270913751796E-4  -2.377789787715301E-4  
 2.566000000000000E10   -1.999415690079331E-4   1.670286874286830E-4  
 2.568000000000000E10   -4.006278231827309E-6   1.114931146730669E-4  
 2.570000000000000E10    1.097199492505752E-5  -6.207709520822391E-5  
 2.572000000000000E10   -4.287656338419765E-4  -6.596423190785572E-5  
 2.574000000000000E10   -1.239164121216163E-4   2.688253880478442E-5  
 2.576000000000000E10   -1.216192249557935E-4   1.853336871135980E-4  
 2.578000000000000E10    3.130941331619397E-5  -2.786433833534829E-5  
 2.580000000000000E10    3.608860788517632E-5   3.089166784775443E-5  
 2.582000000000000E10   -1.462138025090098E-4   2.314488483534660E-5  
 2.584000000000000E10    4.375133855205604E-8   1.476901088608429E-4  
 2.586000000000000E10    2.220360329374671E-5   2.401355013716966E-4  
 2.588000000000000E10   -7.607909356011078E-5  -5.199237057240680E-5  
 2.590000000000000E10   -5.536006938200444E-5  -3.523407795000821E-4  
 2.592000000000000E10    2.022254193434492E-4   4.133323964197189E-4  
 2.594000000000000E10   -1.024656594381668E-4  -3.519786332617514E-5  
 2.596000000000000E10    4.127977881580591E-4  -2.768118065432645E-5  
 2.598000000000000E10    1.126188144553453E-4  -1.053807209245861E-4  
 2.600000000000000E10   -2.368318237131462E-4  -3.313439956400544E-4  
 2.602000000000000E10   -1.074050596798770E-4   7.634686335222796E-5  
 2.604000000000000E10    2.015169302467257E-4  -7.886636012699455E-5  
 2.606000000000000E10    5.462993794935755E-5  -3.774966753553599E-4  
 2.608000000000000E10   -1.348205260001123E-4  -4.611863987520337E-4  
 2.610000000000000E10   -2.459401439409703E-4   2.753814042080194E-4  
 2.612000000000000E10    3.609974010032602E-5  -9.003096056403592E-5  
 2.614000000000000E10    2.215670974692330E-4   6.227794074220583E-5  
 2.616000000000000E10   -2.952804206870496E-4   9.738019798533060E-6  
 2.618000000000000E10   -2.369294662685206E-7   8.899092790670693E-5  
 2.620000000000000E10   -1.729106006678194E-4   2.944469160865992E-4  
 2.622000000000000E10   -1.557565265102312E-4  -9.041533485287800E-5  
 2.624000000000000E10    9.992402192438021E-5   6.226397090358660E-5  
 2.626000000000000E10   -4.414588329382241E-5   7.130670383048710E-6  
 2.628000000000000E10    1.617919042473659E-5   8.109983173198998E-5  
 2.630000000000000E10    2.149418432964012E-4   9.427594341104850E-5  
 2.632000000000000E10    2.762783551588655E-4   2.281802590005100E-4  
 2.634000000000000E10    3.265346749685705E-4  -2.708085812628269E-4  
 2.636000000000000E10    3.988195021520369E-5   1.291085645789281E-4  
 2.638000000000000E10   -4.331459786044434E-5   2.116965770255774E-4  
 2.640000000000000E10    2.411499008303508E-4  -8.316663297591731E-5  
 2.642000000000000E10   -2.618395083118230E-4  -3.332114647491835E-5  
 2.644000000000000E10   -2.108280459651724E-4  -1.437140745110810E-4  
 2.646000000000000E10    7.187717710621655E-5  -3.034895598830190E-5  
 2.648000000000000E10   -5.725803021050524E-6   6.368317554006353E-5  
 2.650000000000000E10   -8.190807420760393E-5  -1.774182746885344E-4  
 2.652000000000000E10    6.590073462575674E-5   1.773188887455035E-5  
 2.654000000000000E10    2.922988642239943E-5   1.999042578972876E-4  
 2.656000000000000E10   -2.213478437624872E-4  -4.055130193592049E-5  
 2.658000000000000E10    1.197156088892371E-4  -5.037463051849045E-5  
 2.660000000000000E10   -1.974600745597854E-4   1.376296859234572E-4  
 2.662000000000000E10   -1.083902679965831E-4   8.396564226131886E-5  
 2.664000000000000E10    3.591749118641019E-4  -5.594791946350597E-5  
 2.666000000000000E10   -1.305094483541325E-4  -1.703713060123846E-4  
 2.668000000000000E10   -2.652161929290742E-4  -9.782559209270403E-5  
 2.670000000000000E10   -6.354712240863591E-5   3.307287697680295E-4  
 2.672000000000000E10   -1.943365350598469E-4  -3.195223325747065E-5  
 2.674000000000000E10    3.740696120075882E-4  -1.727763301460072E-4  
 2.676000000000000E10   -3.944208147004247E-4  -6.665277032880113E-5  
 2.678000000000000E10   -1.842680649133399E-4  -1.446190872229636E-4  
 2.680000000000000E10    2.586215850897133E-4   2.417456416878849E-4  
 2.682000000000000E10   -3.060869494220242E-5  -2.635559649206698E-4  
 2.684000000000000E10   -2.152111701434478E-4  -1.342865434708074E-4  
 2.686000000000000E10   -8.594134669692721E-6   1.986508432310075E-4  
 2.688000000000000E10    3.085019707214087E-4   2.048788446700200E-4  
 2.690000000000000E10   -2.303617293364368E-5  -1.938097557285801E-4  
 2.692000000000000E10   -1.170945179183036E-4  -1.898631307994947E-4  
 2.694000000000000E10   -2.574442769400775E-4   1.135383645305410E-4  
 2.696000000000000E10    2.158540301024914E-4  -1.159618113888428E-4  
 2.698000000000000E10   -1.348511141259223E-4  -2.005598798859865E-4  
 2.700000000000000E10   -9.111456165555865E-5  -7.484761590603739E-5  
 2.702000000000000E10    1.913774030981585E-5   1.449711126042530E-4  
 2.704000000000000E10    6.722782563883811E-5  -6.239867798285559E-5  
 2.706000000000000E10   -8.135131793096662E-5   7.714355160715058E-5  
 2.708000000000000E10   -3.998212196165696E-5  -8.940190809880733E-9  
 2.710000000000000E10    1.578074079588987E-5   1.682005677139387E-4  
 2.712000000000000E10   -9.337467781733722E-5  -3.723978079506196E-5  
 2.714000000000000E10   -1.086807242245413E-4   7.986398122739047E-5  
 2.716000000000000E10    1.348998011962976E-5  -8.460856042802334E-5  
 2.718000000000000E10    1.796491560526192E-4   5.919922841712833E-5  
 2.720000000000000E10   -1.006482198135927E-4  -3.679486108012497E-4  
 2.722000000000000E10    4.886838360107504E-5  -1.383069684379734E-5  
 2.724000000000000E10   -2.106270258082077E-4   2.642965700943023E-4  
 2.726000000000000E10    5.204135231906548E-5   2.817454151227139E-5  
 2.728000000000000E10   -2.720419433899224E-4   3.832502989098430E-5  
 2.730000000000000E10    1.867461251094937E-4   7.708756311330944E-5  
 2.732000000000000E10   -2.332718622710672E-6   2.160631993319839E-4  
 2.734000000000000E10   -3.432146695558913E-5  -3.551878326106817E-4  
 2.736000000000000E10    9.986949589801952E-5   2.357871853746474E-4  
 2.738000000000000E10   -5.102748764329590E-5  -3.015549191331957E-5  
 2.740000000000000E10    3.830480854958296E-4   9.811470226850361E-5  
 2.742000000000000E10   -3.596600145101547E-4   1.894404267659411E-4  
 2.744000000000000E10    4.825234100280795E-6   4.650632035918534E-5  
 2.746000000000000E10    2.989886270370334E-4   2.484918804839253E-4  
 2.748000000000000E10    1.421425549779087E-4  -1.376015570713207E-4  
 2.750000000000000E10   -2.515486812626477E-5  -1.099863657145761E-4  
 2.752000000000000E10    2.005809074034914E-4   1.372276892652735E-4  
 2.754000000000000E10    5.748373951064423E-5   3.501122118905187E-4  
 2.756000000000000E10    1.314876426476985E-4  -3.536228905431926E-4  
