#  HZ   S   RI   R     50.00 
! Rohde & Schwarz ZVA40 4Ports - Version 3.90 - 1145.1110k42 SN: 100403
! Date: 2023-10-04 07:50:39
! Measurement: S12 
! 
 2.200000000000000E10   -9.259567741537467E-5  -1.763733889674768E-4  
 2.202000000000000E10    2.131499495590106E-4   1.554899499751627E-4  
 2.204000000000000E10   -1.618926617084071E-4  -8.679114398546517E-5  
 2.206000000000000E10   -1.323077885899693E-4  -2.392196183791384E-4  
 2.208000000000000E10    2.861012035282329E-5   3.233874449506402E-4  
 2.210000000000000E10    2.513084036763758E-4  -4.437547759152949E-4  
 2.212000000000000E10   -5.320488126017153E-4  -5.161994486115873E-4  
 2.214000000000000E10   -5.310908891260624E-4   1.796251453924924E-4  
 2.216000000000000E10    3.847327898256481E-4   5.948158213868737E-4  
 2.218000000000000E10    5.704915383830667E-4  -5.547938635572791E-4  
 2.220000000000000E10   -3.366376622579992E-4  -4.619983665179461E-4  
 2.222000000000000E10   -9.651188738644123E-4   7.281775469891727E-4  
 2.224000000000000E10    2.645123749971390E-4   6.813631043769419E-4  
 2.226000000000000E10    6.543453200720251E-4  -1.981438545044512E-4  
 2.228000000000000E10   -5.618743598461151E-4  -7.979221409186721E-4  
 2.230000000000000E10   -5.016506765969098E-4   6.722800899296999E-4  
 2.232000000000000E10    5.301914061419666E-4   4.362675244919956E-4  
 2.234000000000000E10    5.450165481306613E-4  -9.684626274975017E-5  
 2.236000000000000E10   -5.672928527928889E-4  -3.612745786085725E-4  
 2.238000000000000E10   -3.588439431041479E-4   2.931345661636442E-4  
 2.240000000000000E10   -3.476735728327185E-4   3.574576985556632E-4  
 2.242000000000000E10    7.600274693686515E-5  -1.670571073191240E-4  
 2.244000000000000E10   -4.062392690684646E-4  -1.659569170442410E-5  
 2.246000000000000E10   -1.538167853141204E-4  -4.793371772393584E-4  
 2.248000000000000E10   -2.059349935734645E-5   2.390660229139030E-4  
 2.250000000000000E10   -3.941559698432684E-4   4.056197212776169E-5  
 2.252000000000000E10    1.544795522931963E-4   2.374771574977785E-4  
 2.254000000000000E10   -9.498446888756007E-5   7.499042112613097E-5  
 2.256000000000000E10   -1.312661479460076E-4  -1.995251368498430E-4  
 2.258000000000000E10   -7.511646253988147E-4   1.423723006155342E-4  
 2.260000000000000E10    1.179151149699464E-4   4.486292018555105E-4  
 2.262000000000000E10    3.895190020557493E-4   2.665020874701440E-4  
 2.264000000000000E10   -1.872654393082485E-4  -3.972605918534100E-4  
 2.266000000000000E10   -6.235168548300862E-4   1.289578940486535E-4  
 2.268000000000000E10    2.043776185018942E-4   4.705814062617719E-4  
 2.270000000000000E10    4.770890227518976E-4   1.717058767098934E-4  
 2.272000000000000E10   -1.824768842197955E-4  -2.902641426771879E-4  
 2.274000000000000E10   -4.572111938614398E-4   5.388198769651353E-5  
 2.276000000000000E10    5.115412204759195E-5   5.725997034460306E-4  
 2.278000000000000E10    4.533423052635044E-4   7.292188092833385E-5  
 2.280000000000000E10   -3.996669329353608E-5  -1.968446449609473E-4  
 2.282000000000000E10   -3.421157598495483E-4  -9.357133239973337E-5  
 2.284000000000000E10   -1.451614480174612E-5   3.765595902223140E-4  
 2.286000000000000E10    6.191413558553904E-5   3.843444283120334E-4  
 2.288000000000000E10   -4.416150331962854E-4   9.266584675060585E-5  
 2.290000000000000E10    1.602906704647467E-4   3.366958117112517E-4  
 2.292000000000000E10   -2.491255690983962E-5   1.463081862311810E-4  
 2.294000000000000E10   -3.421681467443705E-4   5.227776273386553E-5  
 2.296000000000000E10   -1.265445171156898E-4   2.761718351393938E-4  
 2.298000000000000E10    3.513825940899551E-4   6.048293289495632E-5  
 2.300000000000000E10    2.100218553096056E-4  -6.516407302115113E-5  
 2.302000000000000E10   -1.849559484981000E-4  -2.739883493632078E-4  
 2.304000000000000E10   -3.642596711870283E-4   4.514530301094055E-4  
 2.306000000000000E10    2.131825021933764E-4   3.234462055843324E-4  
 2.308000000000000E10    3.752994525711983E-4   3.927813304471783E-5  
 2.310000000000000E10   -4.559899680316448E-4  -5.595058319158852E-4  
 2.312000000000000E10   -3.907613572664559E-4   3.776485682465136E-4  
 2.314000000000000E10    1.228082837769762E-4   3.701079403981566E-4  
 2.316000000000000E10    4.346719069872052E-4  -4.151718749199063E-4  
 2.318000000000000E10   -3.615185269154608E-4  -3.656979242805392E-4  
 2.320000000000000E10   -2.595809055492282E-4   4.730081127490848E-5  
 2.322000000000000E10    1.868593426479492E-5   2.343025262234733E-4  
 2.324000000000000E10    6.211042637005448E-5  -1.621646952116862E-4  
 2.326000000000000E10   -9.063968900591135E-5   8.675802382640541E-5  
 2.328000000000000E10   -2.969350898638368E-4   1.027590624289587E-4  
 2.330000000000000E10   -1.173743148683570E-4   3.152680583298206E-4  
 2.332000000000000E10   -2.501731796655804E-4   2.847834839485586E-4  
 2.334000000000000E10    2.297808096045628E-4  -2.475149267411325E-5  
 2.336000000000000E10   -7.757847197353840E-5  -3.277482173871249E-4  
 2.338000000000000E10   -3.898578870575875E-4  -2.171919622924179E-4  
 2.340000000000000E10   -2.886879665311426E-4   6.196793983690441E-4  
 2.342000000000000E10    5.430486053228378E-4   4.157929506618530E-4  
 2.344000000000000E10    4.687103501055390E-4  -2.911998308263719E-4  
 2.346000000000000E10   -1.529571891296655E-4  -7.275380630744621E-5  
 2.348000000000000E10   -5.447301009553485E-5   9.789459872990847E-4  
 2.350000000000000E10    2.714580041356385E-4   1.840059994719923E-4  
 2.352000000000000E10    4.168749146629125E-4  -2.176259586121887E-4  
 2.354000000000000E10   -4.456148890312761E-4   1.140164240496233E-4  
 2.356000000000000E10   -2.287969437020365E-5   1.146916329162195E-4  
 2.358000000000000E10    1.883115328382701E-4   4.634564102161676E-4  
 2.360000000000000E10    5.210470408201218E-5  -2.580368018243462E-4  
 2.362000000000000E10   -1.142000473919325E-5   2.460940095261321E-6  
 2.364000000000000E10   -4.781965981237590E-5   2.537763502914459E-4  
 2.366000000000000E10    1.812693371903151E-4   2.703267964534462E-4  
 2.368000000000000E10    2.869766613002867E-4   2.181455638492480E-4  
 2.370000000000000E10    3.834881063085049E-4   7.376894700428238E-6  
 2.372000000000000E10   -2.818175998982042E-4   8.496461668983102E-5  
 2.374000000000000E10    4.410423207446002E-5   2.273251884616911E-4  
 2.376000000000000E10    3.588483086787164E-4   3.765096189454198E-4  
 2.378000000000000E10    1.458153856219724E-4  -1.828111271606758E-4  
 2.380000000000000E10   -3.004613390658051E-4   7.756916602374986E-5  
 2.382000000000000E10   -2.623270265758038E-4   3.329030005261302E-4  
 2.384000000000000E10    3.613152948673815E-4   2.767159894574434E-4  
 2.386000000000000E10    2.142831945093349E-4  -1.750431692926213E-4  
 2.388000000000000E10   -5.099092504678993E-6  -3.595582384150475E-4  
 2.390000000000000E10   -1.584784477017820E-4   2.326103422092274E-4  
 2.392000000000000E10    3.017820126842707E-4   3.838845004793257E-4  
 2.394000000000000E10    3.264840051997453E-4   2.183901779062580E-5  
 2.396000000000000E10    3.399201086722314E-4  -4.872460704063997E-5  
 2.398000000000000E10   -1.299100404139608E-4   1.388842792948708E-4  
 2.400000000000000E10   -1.943939132615924E-4   9.437511471332982E-5  
 2.402000000000000E10    4.002531059086323E-4   6.027064227964729E-5  
 2.404000000000000E10    2.557598636485636E-4  -3.629482234828174E-4  
 2.406000000000000E10   -2.385215775575489E-4  -4.157708608545363E-4  
 2.408000000000000E10   -2.434591297060251E-4   1.683482842054218E-4  
 2.410000000000000E10    4.183704731985927E-4   3.695919804158621E-5  
 2.412000000000000E10    5.614727851934731E-4   3.989804099546745E-5  
 2.414000000000000E10   -3.282159013906494E-5  -2.659319434314966E-4  
 2.416000000000000E10   -1.195208606077358E-4   2.875734353438020E-4  
 2.418000000000000E10    9.947780199581757E-5   6.703708204440773E-4  
 2.420000000000000E10    3.035296103917062E-4  -4.356917997938581E-5  
 2.422000000000000E10    1.543638500152156E-4  -3.591217682696879E-4  
 2.424000000000000E10   -2.925100270658732E-4  -1.126650895457715E-4  
 2.426000000000000E10    1.241402351297438E-4   1.933617022586986E-4  
 2.428000000000000E10    5.117944092489779E-4  -2.210686652688310E-4  
 2.430000000000000E10    2.355720207560808E-4  -3.120209730695933E-4  
 2.432000000000000E10    1.622911513550207E-4  -1.609118335181847E-4  
 2.434000000000000E10    2.564696769695729E-4   1.434207370039076E-4  
 2.436000000000000E10   -5.486832742462866E-5   2.023716660914943E-4  
 2.438000000000000E10    7.214441575342789E-5  -1.643661380512640E-4  
 2.440000000000000E10   -2.392200985923410E-5   1.636095403227955E-4  
 2.442000000000000E10   -4.032687575090677E-4  -3.204385939170606E-5  
 2.444000000000000E10    4.917359547107481E-5   8.171686204150319E-5  
 2.446000000000000E10    9.742999100126326E-5  -1.629672624403611E-4  
 2.448000000000000E10   -1.196971516037593E-5  -1.945851836353540E-4  
 2.450000000000000E10    1.316976340604015E-5  -1.497742050560191E-4  
 2.452000000000000E10    3.497678553685546E-4   2.829830373229925E-5  
 2.454000000000000E10   -5.769938434241340E-5  -1.786285429261625E-4  
 2.456000000000000E10   -1.604353565198835E-5   1.568286970723420E-4  
 2.458000000000000E10   -2.747885300777853E-4   2.011913602473214E-4  
 2.460000000000000E10   -2.000429813051596E-4  -6.166689126985148E-5  
 2.462000000000000E10   -7.293469388969243E-5  -5.582752055488527E-5  
 2.464000000000000E10   -1.501905790064484E-4  -3.917698340956122E-4  
 2.466000000000000E10    7.214902143459767E-5  -3.605895326472819E-4  
 2.468000000000000E10   -6.647910049650818E-5  -2.838271757354960E-5  
 2.470000000000000E10    1.868961262516677E-4  -2.882723492803052E-5  
 2.472000000000000E10    1.885773235699162E-4  -3.110288525931537E-5  
 2.474000000000000E10   -1.363608171232045E-4  -7.448685209965333E-5  
 2.476000000000000E10   -1.705099566606805E-4   7.920787902548909E-5  
 2.478000000000000E10    1.396529551129788E-4   1.738803548505530E-4  
 2.480000000000000E10    8.775933383731172E-5  -5.493964999914169E-5  
 2.482000000000000E10   -2.425488637527451E-4  -1.306164922425523E-4  
 2.484000000000000E10   -6.040868174750358E-5   2.835007944668178E-5  
 2.486000000000000E10   -1.007715036394075E-4   2.420985838398337E-4  
 2.488000000000000E10    1.682404545135796E-4  -1.324975164607167E-4  
 2.490000000000000E10    1.009996049106121E-4  -1.693976228125393E-4  
 2.492000000000000E10   -1.702358858892694E-4   1.795454227249138E-5  
 2.494000000000000E10    8.561940194340423E-5   3.224782994948328E-5  
 2.496000000000000E10    2.716207236517221E-4   9.940721065504476E-5  
 2.498000000000000E10    1.902983494801447E-4  -2.273656573379412E-4  
 2.500000000000000E10   -6.026428673067130E-5   7.000011100899428E-5  
 2.502000000000000E10   -2.006265276577324E-4   6.339343963190913E-5  
 2.504000000000000E10    3.934712440241128E-4   1.470349670853466E-4  
 2.506000000000000E10    5.885502559976885E-6   2.811535669025034E-4  
 2.508000000000000E10   -2.313546610821504E-5  -1.496496406616643E-4  
 2.510000000000000E10    2.720630254771095E-5  -1.307953934883699E-4  
 2.512000000000000E10   -3.782754938583821E-4   7.705483585596085E-5  
 2.514000000000000E10   -1.887638354673982E-4   7.877402094891295E-5  
 2.516000000000000E10    3.014190006069839E-4  -6.481603486463428E-5  
 2.518000000000000E10   -2.230950631201267E-4   1.248551998287439E-4  
 2.520000000000000E10   -2.360374492127448E-4  -2.070699410978705E-4  
 2.522000000000000E10    1.958662469405681E-4   8.763978985371068E-5  
 2.524000000000000E10    1.722324959700927E-4   2.309250121470541E-4  
 2.526000000000000E10   -1.250771019840613E-4  -2.049644244834781E-4  
 2.528000000000000E10   -5.862177931703627E-5  -4.115426418138668E-5  
 2.530000000000000E10   -4.035158781334758E-5   1.837532472563908E-4  
 2.532000000000000E10    8.463589620077983E-5  -1.143744084401988E-4  
 2.534000000000000E10    9.787651652004570E-5   9.205058449879289E-5  
 2.536000000000000E10    4.177054961473914E-6   5.592570232693106E-5  
 2.538000000000000E10    2.558772685006261E-4  -2.086036256514490E-4  
 2.540000000000000E10   -1.850916596595198E-4  -2.200826565967873E-5  
 2.542000000000000E10   -4.230667545925826E-4   8.843281648296397E-6  
 2.544000000000000E10    9.403388685313985E-5   5.232232797425240E-5  
 2.546000000000000E10    2.243456583528314E-5  -1.721764128888026E-4  
 2.548000000000000E10   -3.499476879369468E-4  -4.486165416892618E-4  
 2.550000000000000E10   -1.135448328568600E-4   2.542592301324476E-5  
 2.552000000000000E10   -1.657911925576627E-4   4.149718733970076E-4  
 2.554000000000000E10    3.006960905622691E-4  -1.515541080152616E-4  
 2.556000000000000E10    1.589102321304381E-4  -2.843651454895735E-4  
 2.558000000000000E10   -2.429987071081996E-4   5.076793604530394E-5  
 2.560000000000000E10    1.148846713476814E-4   4.814609419554472E-4  
 2.562000000000000E10    3.216358600184321E-4   2.331410214537755E-4  
 2.564000000000000E10    2.694607537705451E-4  -9.364867764816154E-6  
 2.566000000000000E10   -2.893063719966449E-5  -1.013424480333924E-4  
 2.568000000000000E10    7.839539466658607E-5   2.051354531431571E-4  
 2.570000000000000E10    5.942626012256369E-5  -2.786567347357050E-5  
 2.572000000000000E10    3.516615252010524E-4  -1.044624877977185E-4  
 2.574000000000000E10   -7.038860348984599E-5   1.405833609169349E-4  
 2.576000000000000E10   -1.892798172775656E-4  -3.215076285414398E-4  
 2.578000000000000E10    9.391980711370707E-5   4.304080794099718E-4  
 2.580000000000000E10   -7.348829967668280E-5  -2.645847962412518E-5  
 2.582000000000000E10    2.605985500849783E-4  -2.717538154684007E-4  
 2.584000000000000E10   -1.568756997585297E-4  -1.268324122065678E-4  
 2.586000000000000E10   -2.491676714271307E-4  -1.207223103847355E-4  
 2.588000000000000E10   -2.614223049022257E-4   2.509352925699204E-4  
 2.590000000000000E10    1.563917176099494E-4   1.569554442539811E-4  
 2.592000000000000E10    8.147451444528997E-5  -3.355954831931740E-4  
 2.594000000000000E10   -2.016500657191500E-4  -2.101504833262879E-5  
 2.596000000000000E10   -2.386249543633312E-4   5.680564208887518E-4  
 2.598000000000000E10    2.405122650088742E-4  -1.124398986576125E-4  
 2.600000000000000E10    1.714309910312295E-4   6.624894012929872E-5  
 2.602000000000000E10   -2.979176060762256E-4   1.090270088752732E-4  
 2.604000000000000E10   -4.112979513593018E-5   2.281314955325797E-4  
 2.606000000000000E10    1.007234677672386E-4   3.818701952695847E-4  
 2.608000000000000E10    1.778533915057778E-4  -2.078027173411101E-4  
 2.610000000000000E10   -4.449425614438951E-5  -1.160587635240518E-5  
 2.612000000000000E10   -1.155891077360138E-4   2.517448447179049E-4  
 2.614000000000000E10    9.364709694636986E-5  -6.965870124986395E-5  
 2.616000000000000E10    2.269054530188441E-4   1.511226037109736E-5  
 2.618000000000000E10   -1.507718843640760E-4  -7.039048068691045E-5  
 2.620000000000000E10   -1.079177400242770E-5  -9.754008351592347E-5  
 2.622000000000000E10    1.395223807776347E-4   6.828603363828734E-5  
 2.624000000000000E10   -1.844227372203022E-4  -1.423278881702572E-4  
 2.626000000000000E10   -5.864727063453756E-5  -2.485226432327181E-4  
 2.628000000000000E10   -3.348349309817422E-6  -2.557037426242914E-8  
 2.630000000000000E10   -7.437879685312510E-5   8.088375034276396E-5  
 2.632000000000000E10    1.140237145591527E-4   1.930478902067989E-6  
 2.634000000000000E10    2.345649991184473E-4  -3.773435309994966E-5  
 2.636000000000000E10   -1.374453713651747E-4   5.321403659763746E-5  
 2.638000000000000E10   -2.105560270138085E-4   1.004817459033802E-4  
 2.640000000000000E10    6.223924629011890E-6   9.778227104106918E-5  
 2.642000000000000E10   -5.212239557295106E-5  -1.370246754959226E-4  
 2.644000000000000E10   -1.084063042071648E-4  -2.715266018640250E-4  
 2.646000000000000E10   -3.671048034448177E-4  -9.777727245818824E-5  
 2.648000000000000E10    1.280349533772096E-4   3.770062176045030E-5  
 2.650000000000000E10    2.836084458976984E-4  -7.055174501147121E-5  
 2.652000000000000E10   -9.275004413211718E-5  -2.818867214955390E-4  
 2.654000000000000E10    4.208600330457557E-6  -8.062642882578075E-5  
 2.656000000000000E10    1.115137347369455E-4   2.797044289764017E-4  
 2.658000000000000E10    3.514287236612290E-4  -9.922827302943915E-5  
 2.660000000000000E10    1.215972079080530E-4  -9.561307524563745E-5  
 2.662000000000000E10   -2.887398295570165E-4   3.615543391788378E-5  
 2.664000000000000E10   -4.891245771432295E-5   1.332657848251984E-4  
 2.666000000000000E10    9.186831448459998E-5  -1.723352761473507E-4  
 2.668000000000000E10   -2.012017503147945E-4  -9.277583012590185E-5  
 2.670000000000000E10    7.199979881988838E-5  -1.906402176246047E-4  
 2.672000000000000E10    2.036690857494250E-4   2.296703896718100E-4  
 2.674000000000000E10   -1.832524285418913E-4  -2.002708351938054E-4  
 2.676000000000000E10    1.440920314053074E-4  -8.507273741997778E-5  
 2.678000000000000E10   -2.408245782135055E-4   1.459399791201577E-4  
 2.680000000000000E10   -1.630843507882673E-5  -1.701221190160140E-4  
 2.682000000000000E10   -5.250043977866881E-5  -5.305985177983530E-5  
 2.684000000000000E10   -1.898431364679709E-4  -1.683807349763811E-4  
 2.686000000000000E10   -9.672283340478316E-5  -3.178149881932768E-6  
 2.688000000000000E10    1.804212806746364E-4  -2.205567288910970E-4  
 2.690000000000000E10   -1.238542317878455E-4  -2.045892983915110E-7  
 2.692000000000000E10    3.801219645538367E-5  -4.508543861447834E-5  
 2.694000000000000E10    3.006518818438053E-4  -1.088928911485709E-4  
 2.696000000000000E10   -2.005093119805679E-4  -7.799451850587502E-5  
 2.698000000000000E10   -7.344486948568374E-5   1.191880510305055E-4  
 2.700000000000000E10   -3.379970803507604E-5   6.895550177432597E-5  
 2.702000000000000E10   -1.342036703135818E-4  -2.994613023474813E-4  
 2.704000000000000E10   -4.619428655132651E-4   2.858784137060866E-5  
 2.706000000000000E10    8.749825065024197E-5   4.232201536069624E-5  
 2.708000000000000E10    1.431669661542401E-4   1.381639885948971E-4  
 2.710000000000000E10   -1.714801328489557E-4  -3.062745090574026E-4  
 2.712000000000000E10   -2.226510987384245E-4   1.001576019916683E-4  
 2.714000000000000E10   -1.207402456202544E-4   3.274845366831869E-4  
 2.716000000000000E10    1.905586104840040E-4   2.760268107522279E-4  
 2.718000000000000E10   -1.943809475051239E-4  -8.356305625056848E-5  
 2.720000000000000E10   -1.260963763343170E-4   2.814679464790970E-5  
 2.722000000000000E10   -3.866626648232341E-4   5.313679575920105E-4  
 2.724000000000000E10    1.494877360528335E-4   1.243864826392382E-4  
 2.726000000000000E10    2.730021951720119E-4   3.356660454301164E-5  
 2.728000000000000E10   -3.192225995007902E-4  -4.329431976657361E-5  
 2.730000000000000E10   -2.140417200280353E-4   2.805989352054894E-4  
 2.732000000000000E10    2.122678561136127E-4   1.826689403969795E-4  
 2.734000000000000E10    9.541035979054868E-6  -1.631603954592720E-4  
 2.736000000000000E10   -2.991475339513272E-4  -6.899258005432785E-5  
 2.738000000000000E10   -4.565832568914630E-5   2.483688585925847E-4  
 2.740000000000000E10   -5.695058462151792E-6   9.420730930287391E-5  
 2.742000000000000E10    4.012679255538387E-6  -3.551056943251751E-5  
 2.744000000000000E10   -6.935613782843575E-5  -5.978184708510526E-5  
 2.746000000000000E10   -1.210339760291390E-4  -1.512949620519066E-5  
 2.748000000000000E10    1.410338154528290E-4  -1.489543774368940E-5  
 2.750000000000000E10    1.815937721403316E-4   1.645851734792814E-4  
 2.752000000000000E10    1.240501933352789E-5   2.283055619045626E-5  
 2.754000000000000E10    1.725428592180833E-4  -9.992812556447461E-5  
 2.756000000000000E10    2.088835390168242E-5   1.646479940973222E-4  
