#  HZ   S   RI   R     50.00 
! Rohde & Schwarz ZVA40 4Ports - Version 3.90 - 1145.1110k42 SN: 100403
! Date: 2023-10-04 07:50:16
! Measurement: S12 
! 
 2.200000000000000E10   -2.436227805446833E-4   2.910008515755180E-5  
 2.202000000000000E10    1.541108649689704E-4   7.357227150350809E-4  
 2.204000000000000E10    3.747740411199629E-4  -2.015581849263981E-4  
 2.206000000000000E10    2.666517684701830E-4   5.391813374444610E-6  
 2.208000000000000E10   -7.084927055984736E-4   2.845448325388134E-4  
 2.210000000000000E10    5.593110108748078E-4   3.053194959647954E-4  
 2.212000000000000E10    1.750512747094035E-4  -1.919392962008715E-4  
 2.214000000000000E10   -1.694839011179283E-4  -5.647702491842210E-4  
 2.216000000000000E10   -1.551422028569505E-4   4.643131687771529E-4  
 2.218000000000000E10    3.361995331943035E-4   1.768601032381412E-5  
 2.220000000000000E10    4.606468137353659E-4  -1.609270984772593E-4  
 2.222000000000000E10   -4.906303365714848E-5  -2.238007582491264E-4  
 2.224000000000000E10    2.234516723547131E-4   2.167878847103566E-4  
 2.226000000000000E10   -1.151676915469579E-4   4.599512249114923E-5  
 2.228000000000000E10   -2.348818088648841E-4   4.140129385632463E-5  
 2.230000000000000E10   -2.385915649938397E-5   1.926590775838122E-4  
 2.232000000000000E10    3.860155120491982E-4  -4.213186039123684E-4  
 2.234000000000000E10   -4.111480957362801E-4  -2.115973475156352E-4  
 2.236000000000000E10   -1.881464559119195E-4  -1.476216129958630E-4  
 2.238000000000000E10    3.659478388726711E-4   4.183479177299887E-4  
 2.240000000000000E10    4.525384865701199E-4  -3.299932286608964E-4  
 2.242000000000000E10   -8.383809472434223E-5  -5.598374991677702E-4  
 2.244000000000000E10   -4.207903402857482E-4   1.756874553393573E-4  
 2.246000000000000E10    5.048055318184197E-4   4.700665012933314E-4  
 2.248000000000000E10    3.865066100843251E-4  -3.901465388480574E-4  
 2.250000000000000E10   -1.211853145832720E-6  -5.705546936951578E-4  
 2.252000000000000E10   -4.439184558577836E-4   2.931066264864057E-4  
 2.254000000000000E10    1.207568202516995E-4   2.423076948616654E-4  
 2.256000000000000E10    1.667523611104116E-4   1.620405964786187E-4  
 2.258000000000000E10   -3.098646266153082E-5  -4.448180843610317E-4  
 2.260000000000000E10   -1.854087313404307E-4   1.143994741141796E-4  
 2.262000000000000E10   -1.954274339368567E-4   3.677401400636882E-4  
 2.264000000000000E10    2.999031275976449E-4  -5.734811202273704E-5  
 2.266000000000000E10    2.220248861704022E-4  -4.315468540880829E-4  
 2.268000000000000E10   -8.948165486799553E-5  -7.050446129142074E-7  
 2.270000000000000E10   -1.838528419284558E-6   1.702997687971219E-4  
 2.272000000000000E10    1.889515115180984E-4   2.655609860084951E-4  
 2.274000000000000E10    2.156030532205477E-4   2.805851690936834E-4  
 2.276000000000000E10    1.481563231209293E-4   4.264955350663513E-6  
 2.278000000000000E10    1.440969299437711E-5  -1.843611535150558E-4  
 2.280000000000000E10   -2.750637358985841E-4   5.011158646084368E-5  
 2.282000000000000E10    1.025755991577171E-4   1.164650020655245E-4  
 2.284000000000000E10    2.264834620291367E-4  -3.884403122356162E-5  
 2.286000000000000E10   -2.136017574230209E-4  -5.853995680809021E-4  
 2.288000000000000E10   -2.288301911903545E-4  -2.693945716600865E-4  
 2.290000000000000E10    6.777304224669933E-5   4.915244644507766E-4  
 2.292000000000000E10    5.129607743583620E-4  -2.554685925133526E-4  
 2.294000000000000E10    1.210781410918571E-4  -3.938142908737063E-4  
 2.296000000000000E10   -3.482898173388094E-4   5.965653690509498E-5  
 2.298000000000000E10   -1.083876704797149E-4   4.376083088573068E-4  
 2.300000000000000E10    2.124210150213912E-4  -8.119369158521295E-5  
 2.302000000000000E10    2.101945719914511E-4  -3.369829209987074E-4  
 2.304000000000000E10   -3.800902632065117E-4  -3.188379632774741E-4  
 2.306000000000000E10   -3.681462112581357E-5   7.272983930306509E-5  
 2.308000000000000E10    4.768303551827557E-5   1.535470364615321E-4  
 2.310000000000000E10    4.584487760439515E-4  -2.675676951184869E-4  
 2.312000000000000E10    9.825079177971929E-5   1.061496004695073E-4  
 2.314000000000000E10    2.209538943134248E-4  -3.227965862606652E-5  
 2.316000000000000E10    2.675130090210587E-4   1.704932656139135E-4  
 2.318000000000000E10   -2.284075344505254E-5   4.599226303980686E-5  
 2.320000000000000E10    2.858454827219248E-4   2.179159637307748E-4  
 2.322000000000000E10    1.484757667640224E-4  -1.400750625180081E-4  
 2.324000000000000E10   -9.462498564971611E-5  -1.182239939225838E-4  
 2.326000000000000E10   -3.083844203501940E-4   3.848903870675713E-4  
 2.328000000000000E10    3.685357514768839E-4   7.458030722773401E-6  
 2.330000000000000E10   -4.601115870173089E-5  -1.163810156867839E-4  
 2.332000000000000E10   -2.417448849882931E-4  -3.655948094092310E-4  
 2.334000000000000E10   -2.286740782437846E-4   1.664111478021368E-4  
 2.336000000000000E10    8.829915896058083E-5   5.478143066284247E-5  
 2.338000000000000E10    5.099880509078503E-4  -1.054881649906747E-4  
 2.340000000000000E10   -3.403059963602573E-4  -3.670440346468240E-4  
 2.342000000000000E10   -2.374996547587216E-4   5.137225380167365E-4  
 2.344000000000000E10    1.113842445192859E-4   3.992958518210799E-4  
 2.346000000000000E10    1.978142972802743E-4   1.249682391062379E-4  
 2.348000000000000E10   -3.029202707693912E-5   1.123891925089993E-4  
 2.350000000000000E10    6.578718603122979E-5  -2.076023083645850E-4  
 2.352000000000000E10   -1.525804109405726E-4   2.422422767267562E-5  
 2.354000000000000E10   -1.451082353014499E-4  -5.909897299716249E-5  
 2.356000000000000E10    3.800526901613921E-4  -4.505712422542274E-5  
 2.358000000000000E10    2.493797728675418E-5  -6.422153674066067E-4  
 2.360000000000000E10   -8.094023360172287E-5  -2.947716275230050E-4  
 2.362000000000000E10   -1.083992756321095E-4   3.789738984778523E-4  
 2.364000000000000E10    5.053395871073008E-4  -9.712117753224447E-5  
 2.366000000000000E10    2.468197199050337E-4  -5.020484677515924E-4  
 2.368000000000000E10   -3.978911263402551E-4  -3.644900571089238E-4  
 2.370000000000000E10   -2.875661593861878E-4   1.481636572862044E-4  
 2.372000000000000E10    7.503785309381783E-5   6.573680730070919E-5  
 2.374000000000000E10    1.881737407529727E-4  -4.434555594343692E-4  
 2.376000000000000E10   -3.337991074658930E-4  -4.705195315182209E-4  
 2.378000000000000E10    2.217474830104038E-4   6.531175313284621E-5  
 2.380000000000000E10    1.719589022286527E-6   1.459762279409915E-4  
 2.382000000000000E10   -9.690492333902512E-6  -3.163933870382607E-4  
 2.384000000000000E10    6.091337854741141E-5  -1.829802931752056E-4  
 2.386000000000000E10   -2.746442914940417E-4  -8.642295142635703E-5  
 2.388000000000000E10   -4.669170812121593E-5   1.091209851438180E-4  
 2.390000000000000E10    1.797218137653545E-4   1.722531742416322E-4  
 2.392000000000000E10    5.009542292100377E-5  -2.187476929975674E-4  
 2.394000000000000E10   -2.099152479786426E-4  -1.827845844672993E-4  
 2.396000000000000E10   -2.204138145316392E-4   3.483295440673828E-4  
 2.398000000000000E10    1.222156424773857E-4   6.656271580141038E-5  
 2.400000000000000E10    3.510164606268518E-5  -4.747711936943233E-4  
 2.402000000000000E10   -2.222303737653419E-4  -6.353374919854105E-5  
 2.404000000000000E10   -9.325071732746437E-5   4.596919752657414E-4  
 2.406000000000000E10    4.666455206461251E-4   1.355197309749201E-5  
 2.408000000000000E10    1.652762002777308E-4  -1.479051716160029E-4  
 2.410000000000000E10   -4.900298081338406E-4  -2.058248501271009E-4  
 2.412000000000000E10   -2.105064340867102E-4   3.113207058049738E-4  
 2.414000000000000E10    2.177594869863242E-4   1.684508170001209E-4  
 2.416000000000000E10    4.457259638002142E-5  -3.154757432639599E-4  
 2.418000000000000E10   -4.038906481582671E-4  -4.060337960254401E-4  
 2.420000000000000E10   -2.312815049663186E-4   3.143417707178742E-4  
 2.422000000000000E10    1.479931961512193E-4   5.603052559308708E-4  
 2.424000000000000E10    3.511231043376029E-4  -2.514947555027902E-4  
 2.426000000000000E10   -2.704697253648192E-4  -1.699109270703048E-4  
 2.428000000000000E10   -5.264170467853546E-4   1.574538910062984E-4  
 2.430000000000000E10    2.498916001059115E-4   1.972052996279672E-4  
 2.432000000000000E10    1.522981619928032E-4  -1.292789384024218E-4  
 2.434000000000000E10   -8.965007873484865E-5  -4.094442701898515E-4  
 2.436000000000000E10   -2.800525107886642E-4  -2.852941106539220E-4  
 2.438000000000000E10   -9.485640475759283E-5   1.216915916302241E-5  
 2.440000000000000E10    1.308413629885763E-4  -6.755426147719845E-5  
 2.442000000000000E10    2.086344902636483E-4  -4.386305809020996E-4  
 2.444000000000000E10   -3.017638518940657E-4  -1.552467438159511E-4  
 2.446000000000000E10   -2.699353208299726E-4  -3.037898022739682E-5  
 2.448000000000000E10   -9.240621875505894E-5   3.602296928875148E-4  
 2.450000000000000E10    1.273598172701895E-4  -1.633812462387141E-5  
 2.452000000000000E10   -1.458942278986797E-5  -5.667877267114818E-4  
 2.454000000000000E10   -4.257402033545077E-4  -2.863791887648404E-4  
 2.456000000000000E10   -2.072214847430587E-4   1.740160078043118E-4  
 2.458000000000000E10    2.470912586431950E-4  -1.828912936616689E-4  
 2.460000000000000E10    4.017749743070453E-4  -4.313821264076978E-4  
 2.462000000000000E10   -2.343469968764111E-4  -4.874297301284969E-4  
 2.464000000000000E10   -2.848048170562834E-4   9.792203491088003E-5  
 2.466000000000000E10    3.237335477024317E-4   3.340729454066604E-4  
 2.468000000000000E10    2.574583922978491E-4  -6.213844753801823E-4  
 2.470000000000000E10   -2.523628645576537E-4  -4.724138998426497E-4  
 2.472000000000000E10   -4.169440362602472E-4   2.983148442581296E-4  
 2.474000000000000E10    8.455960778519511E-5  -1.144002890214324E-4  
 2.476000000000000E10    2.506604359950870E-4  -2.761608047876507E-4  
 2.478000000000000E10   -5.523656727746129E-4  -6.534685235237703E-5  
 2.480000000000000E10    9.025489271152765E-5  -7.383033516816795E-5  
 2.482000000000000E10   -2.076318778563291E-4  -2.045126893790439E-5  
 2.484000000000000E10   -1.650027843425050E-5  -1.695065438980237E-4  
 2.486000000000000E10    7.188700692495331E-5   6.300557288341224E-5  
 2.488000000000000E10    4.388899833429605E-5  -2.932869538199157E-4  
 2.490000000000000E10    9.051759116118774E-5  -3.965222640545107E-5  
 2.492000000000000E10   -1.091805606847629E-4   2.488239078957122E-5  
 2.494000000000000E10    1.004483419819735E-4   2.895690386139904E-6  
 2.496000000000000E10    2.051099909294862E-5  -2.709868931560777E-5  
 2.498000000000000E10   -1.310372463194653E-4   1.242821599589661E-4  
 2.500000000000000E10   -1.990517339436337E-4   1.215785450767726E-4  
 2.502000000000000E10    3.944721829611808E-4  -7.362844189628959E-5  
 2.504000000000000E10   -2.001008979277685E-4   7.013574941083789E-5  
 2.506000000000000E10   -1.765705237630755E-4  -4.350930612417869E-5  
 2.508000000000000E10    1.891282008728012E-4   3.261339152231813E-4  
 2.510000000000000E10    1.740242078085430E-5  -1.268252090085298E-4  
 2.512000000000000E10   -1.436807069694623E-4  -3.116216976195574E-4  
 2.514000000000000E10    5.627746577374637E-5   1.883669174276292E-4  
 2.516000000000000E10    3.899747753166594E-5   3.794654330704361E-4  
 2.518000000000000E10    3.575129667297006E-4  -2.115828392561525E-4  
 2.520000000000000E10    2.867892908398062E-5  -8.361907384824008E-5  
 2.522000000000000E10   -3.099767491221428E-4   1.634400250623003E-4  
 2.524000000000000E10    2.059905964415520E-4   2.452349872328341E-4  
 2.526000000000000E10    2.132154440914746E-5   5.355388566385955E-5  
 2.528000000000000E10   -2.543070877436549E-4  -4.459836418391205E-5  
 2.530000000000000E10   -1.549678272567689E-4   1.011863932944834E-4  
 2.532000000000000E10   -8.014315972104669E-5   1.610698818694800E-4  
 2.534000000000000E10    1.397721644025296E-5  -2.780304930638522E-4  
 2.536000000000000E10    1.636082597542554E-4  -3.171102434862405E-5  
 2.538000000000000E10   -8.084428554866463E-5   2.286591043230146E-4  
 2.540000000000000E10    1.522298553027213E-4  -2.041829138761386E-4  
 2.542000000000000E10    1.241183554157033E-6  -1.182652067654999E-5  
 2.544000000000000E10   -1.127322539105080E-4   1.448645052732900E-4  
 2.546000000000000E10    8.863856783136725E-5   6.965472130104899E-5  
 2.548000000000000E10    3.938999361707829E-5  -9.788721217773855E-5  
 2.550000000000000E10   -6.583811045857146E-5   1.767668072716333E-5  
 2.552000000000000E10   -2.053094212897122E-4  -1.305747719015926E-4  
 2.554000000000000E10   -1.917497429531068E-4   7.044172525638714E-5  
 2.556000000000000E10   -2.367993583902717E-4   3.636038309196010E-5  
 2.558000000000000E10    2.195141860283911E-4  -8.508614700986072E-5  
 2.560000000000000E10   -9.369443432660773E-6   4.971369708073326E-5  
 2.562000000000000E10   -2.205657365266234E-4  -3.007446939591318E-4  
 2.564000000000000E10   -6.213075539562851E-5   1.263593003386632E-4  
 2.566000000000000E10    6.171094719320536E-5   6.404708528862102E-6  
 2.568000000000000E10   -1.330312989011873E-5  -3.009456850122660E-4  
 2.570000000000000E10   -1.373917039018124E-4  -2.965257153846324E-4  
 2.572000000000000E10   -8.428948785876855E-5   1.407990494044498E-4  
 2.574000000000000E10    1.900522911455482E-4   6.046947237337008E-5  
 2.576000000000000E10    3.712514590006322E-4  -9.813567157834768E-5  
 2.578000000000000E10   -2.037610101979226E-4  -3.753926721401513E-4  
 2.580000000000000E10   -3.367432800587267E-4  -1.256856921827421E-4  
 2.582000000000000E10   -4.823393101105467E-5   5.120527348481119E-4  
 2.584000000000000E10    3.035401459783316E-4  -1.596722722752020E-4  
 2.586000000000000E10    2.009915770031512E-4  -1.504394749645144E-4  
 2.588000000000000E10   -3.853389353025705E-4  -1.088645876734518E-5  
 2.590000000000000E10   -1.420235093974043E-5   8.985714521259069E-5  
 2.592000000000000E10    6.128532695583999E-4   1.321123854722828E-4  
 2.594000000000000E10    2.003754925681278E-4  -3.329561732243747E-4  
 2.596000000000000E10   -6.327764276647940E-5  -3.046647470910102E-4  
 2.598000000000000E10   -9.499163570581004E-5   3.618317714426667E-4  
 2.600000000000000E10    1.078733766917139E-4   9.029556531459093E-5  
 2.602000000000000E10    1.715527032501996E-4  -2.063852298306301E-4  
 2.604000000000000E10   -1.501858496339992E-4  -2.143117599189282E-4  
 2.606000000000000E10   -1.536093914182857E-4   7.743993046460673E-5  
 2.608000000000000E10   -1.095694533432834E-4   1.831549889175221E-5  
 2.610000000000000E10   -2.652341572684236E-5   1.379331515636295E-4  
 2.612000000000000E10   -3.835205643554218E-5  -6.280342495301738E-5  
 2.614000000000000E10    1.468392583774403E-4  -1.847494713729248E-4  
 2.616000000000000E10   -2.920090337283909E-4   2.704054350033402E-4  
 2.618000000000000E10    3.011696753674187E-5   2.254027931485325E-4  
 2.620000000000000E10    2.633538679219782E-4   2.940080885309726E-4  
 2.622000000000000E10   -1.747822389006615E-4  -2.224888303317130E-4  
 2.624000000000000E10   -3.352127387188375E-4  -6.219548595254310E-6  
 2.626000000000000E10   -2.351964067202061E-4   2.362902159802616E-4  
 2.628000000000000E10    8.126752072712407E-5   3.922244650311768E-4  
 2.630000000000000E10    2.123302983818576E-4  -1.570704625919461E-4  
 2.632000000000000E10   -1.264390175492736E-5  -2.256277948617935E-4  
 2.634000000000000E10   -2.211807295680046E-4   3.298505907878280E-4  
 2.636000000000000E10    3.547614032868296E-4   3.123890783172101E-4  
 2.638000000000000E10   -1.453998083889019E-5  -2.240319590782747E-4  
 2.640000000000000E10   -1.937806955538690E-4  -1.174253775388934E-4  
 2.642000000000000E10   -2.833452599588782E-4   3.552532871253789E-4  
 2.644000000000000E10    3.667319833766669E-5  -1.613500103303522E-6  
 2.646000000000000E10   -3.276021743658930E-5  -2.018251543631777E-4  
 2.648000000000000E10   -2.697104355320334E-4   2.092961221933365E-4  
 2.650000000000000E10    4.911615542368963E-5   2.333187003387138E-4  
 2.652000000000000E10    7.644628567504697E-6  -1.437606115359813E-4  
 2.654000000000000E10   -2.722576609812677E-4  -6.207733531482518E-5  
 2.656000000000000E10    6.589233817066997E-5   1.732302189338952E-4  
 2.658000000000000E10    2.545353490859270E-4   2.929651527665556E-4  
 2.660000000000000E10    4.100729711353779E-5   9.016016701934859E-5  
 2.662000000000000E10   -7.018070846243063E-6   2.453472407069057E-4  
 2.664000000000000E10   -1.062075243680738E-4   2.074223302770406E-4  
 2.666000000000000E10    6.461180419137236E-6   9.723537368699908E-5  
 2.668000000000000E10   -2.546463510952890E-4   8.548185724066570E-5  
 2.670000000000000E10    6.085174754844047E-5   2.376988559262827E-4  
 2.672000000000000E10   -1.142435576184653E-4  -1.285001198993996E-4  
 2.674000000000000E10    1.750255178194493E-4  -3.330759063828737E-4  
 2.676000000000000E10   -1.645025349716889E-6   2.723707875702530E-4  
 2.678000000000000E10    2.706141385715455E-4  -4.124614642933011E-4  
 2.680000000000000E10    4.751915694214404E-4   1.227346947416663E-4  
 2.682000000000000E10   -7.609040767420083E-5   7.315327820833772E-6  
 2.684000000000000E10    1.226130116265267E-4   1.260773715330288E-4  
 2.686000000000000E10   -5.804983447887935E-5   2.437839284539223E-4  
 2.688000000000000E10    1.160123283625580E-4  -3.784424188779667E-5  
 2.690000000000000E10   -1.479713973822072E-4  -2.675579744391143E-4  
 2.692000000000000E10    2.090905354634742E-6   2.342985862924252E-5  
 2.694000000000000E10    1.444431109121069E-4   8.981280552688986E-5  
 2.696000000000000E10    4.104098479729146E-4  -2.218808367615566E-4  
 2.698000000000000E10   -4.243270450388081E-5   5.061802221462131E-5  
 2.700000000000000E10   -1.012192005873658E-4   1.357582514174283E-4  
 2.702000000000000E10    2.831736055668443E-4   4.594963975250721E-4  
 2.704000000000000E10    7.749669020995498E-5  -2.248872187919915E-4  
 2.706000000000000E10   -9.738217340782285E-5  -1.277260980714345E-5  
 2.708000000000000E10   -1.349622762063518E-4   9.982578922063112E-5  
 2.710000000000000E10    2.785713004413992E-4  -9.017995762405917E-5  
 2.712000000000000E10   -4.372342664282769E-5  -2.453610068187118E-4  
 2.714000000000000E10   -7.665640441700816E-5  -2.085837331833318E-4  
 2.716000000000000E10   -5.127309850649908E-5   1.402195484843105E-4  
 2.718000000000000E10    2.332718868274242E-4  -9.322408732259646E-5  
 2.720000000000000E10    4.849808465223759E-5  -1.437131722923368E-4  
 2.722000000000000E10   -1.211272829095833E-4  -9.178792242892087E-5  
 2.724000000000000E10   -1.364283671136946E-4   1.704435417195782E-4  
 2.726000000000000E10   -1.480331411585212E-4   5.127758413436823E-5  
 2.728000000000000E10    4.164766869507730E-5   2.547327676438727E-5  
 2.730000000000000E10   -1.622813215362839E-5  -9.818839316722006E-5  
 2.732000000000000E10   -3.469930015853606E-5  -6.038846186129376E-5  
 2.734000000000000E10   -1.162734747595096E-6  -4.336540951044299E-5  
 2.736000000000000E10    1.421444321749732E-4  -1.341738243354484E-4  
 2.738000000000000E10   -7.365101191680878E-5   8.402240200666711E-5  
 2.740000000000000E10    7.796276622684673E-5   8.944701403379440E-5  
 2.742000000000000E10   -1.767126523191109E-4   2.129282365785912E-4  
 2.744000000000000E10    2.048602327704430E-4  -4.978521974408068E-5  
 2.746000000000000E10    2.432275687169749E-5   2.058737591141835E-4  
 2.748000000000000E10   -9.304672130383551E-5  -2.504235890228301E-4  
 2.750000000000000E10    9.503674664301798E-5   1.332666724920273E-4  
 2.752000000000000E10    1.253594405170588E-6   2.392239694017917E-4  
 2.754000000000000E10    4.166552971582860E-4   1.166922666016035E-4  
 2.756000000000000E10   -4.956636621500365E-5  -1.941043738042936E-4  
