#  HZ   S   RI   R     50.00 
! Rohde & Schwarz ZVA40 4Ports - Version 3.90 - 1145.1110k42 SN: 100403
! Date: 2023-10-04 07:49:58
! Measurement: S12 
! 
 2.200000000000000E10   -2.754059969447553E-4   7.872509013395757E-5  
 2.202000000000000E10   -2.867605944629759E-4   4.867970128543675E-4  
 2.204000000000000E10    2.437891234876588E-4   2.241330803371966E-4  
 2.206000000000000E10   -2.778649213723838E-4  -1.961846573976800E-4  
 2.208000000000000E10   -1.137848885264248E-4   9.619881893740967E-6  
 2.210000000000000E10   -1.011261920211837E-4   3.606065583880991E-4  
 2.212000000000000E10   -8.970857379608788E-6  -2.595040714368224E-4  
 2.214000000000000E10    2.742931064858567E-5   1.721240550978109E-4  
 2.216000000000000E10    1.437575119780377E-4   3.341173578519374E-5  
 2.218000000000000E10    4.108263528905809E-4  -8.435777999693528E-5  
 2.220000000000000E10   -8.946908928919584E-5  -5.830631562275812E-5  
 2.222000000000000E10   -2.562729605415370E-5   3.805311280302703E-4  
 2.224000000000000E10    3.901940654031932E-4  -3.156149250571616E-5  
 2.226000000000000E10    2.206507051596418E-4  -4.687143373303115E-4  
 2.228000000000000E10   -5.091542843729258E-4  -2.851609024219215E-4  
 2.230000000000000E10   -1.226140884682536E-4   5.256658187136054E-5  
 2.232000000000000E10    2.601161249913275E-4   9.674135799286887E-5  
 2.234000000000000E10   -6.539894820889458E-5  -6.145923398435116E-4  
 2.236000000000000E10   -7.796606223564595E-5  -1.686753676040098E-4  
 2.238000000000000E10   -3.013954556081444E-4   1.942646194947884E-4  
 2.240000000000000E10    2.292100689373910E-4  -9.708820289233699E-5  
 2.242000000000000E10   -6.454143294831738E-5  -2.171668747905642E-4  
 2.244000000000000E10   -3.873547248076648E-4   1.137199360528030E-4  
 2.246000000000000E10    7.197629747679457E-5   1.084851828636602E-4  
 2.248000000000000E10    2.565357135608792E-4   7.876942981965840E-5  
 2.250000000000000E10   -5.888240775675513E-5  -3.120097608189099E-5  
 2.252000000000000E10    3.527169610606507E-5   5.145329487277195E-5  
 2.254000000000000E10    4.752792301587760E-5   2.323738881386817E-4  
 2.256000000000000E10    1.160670362878591E-4   5.568167398450896E-5  
 2.258000000000000E10    6.912300887051970E-5   5.517853423953056E-5  
 2.260000000000000E10    1.580450480105355E-4  -2.103294973494485E-4  
 2.262000000000000E10   -2.873066478059627E-5  -4.773592809215188E-5  
 2.264000000000000E10    4.252483631717041E-5   2.195578708779067E-4  
 2.266000000000000E10    1.230888010468334E-4  -3.111422483925708E-5  
 2.268000000000000E10    3.193120064679533E-4   4.299861757317558E-5  
 2.270000000000000E10   -9.623904043110088E-5   2.274275320814923E-4  
 2.272000000000000E10   -1.550844754092395E-4   5.962750583421439E-5  
 2.274000000000000E10   -2.452523585816380E-5   5.079444963485003E-4  
 2.276000000000000E10    2.385431725997478E-4   1.763080799719319E-4  
 2.278000000000000E10   -1.661247733864002E-5  -1.952906750375405E-4  
 2.280000000000000E10   -5.456359940581024E-4   9.084511111723259E-5  
 2.282000000000000E10   -2.983947633765638E-4   2.876336802728474E-4  
 2.284000000000000E10    4.878075851593167E-4   1.665883464738727E-4  
 2.286000000000000E10    1.920696959132329E-4  -3.037361893802881E-4  
 2.288000000000000E10   -4.392656846903265E-4   1.708089694147930E-4  
 2.290000000000000E10    3.171559365000576E-4   1.870581618277356E-4  
 2.292000000000000E10    4.995611961930990E-4   5.459284875541925E-4  
 2.294000000000000E10   -3.471364470897242E-5  -2.913241914939135E-4  
 2.296000000000000E10   -1.202930070576258E-4   2.442207478452474E-4  
 2.298000000000000E10   -1.417079038219526E-4   1.888948463601992E-4  
 2.300000000000000E10    5.024085403420031E-4   3.940910391975194E-5  
 2.302000000000000E10    4.971856105839834E-5  -8.590136712882668E-5  
 2.304000000000000E10   -3.339964678161778E-5  -3.671991580631584E-4  
 2.306000000000000E10    6.248714635148644E-5   7.955756154842675E-5  
 2.308000000000000E10    3.963458293583244E-4  -1.330901432083920E-4  
 2.310000000000000E10    2.360717917326838E-4   3.584305886761285E-5  
 2.312000000000000E10   -1.564528065500781E-5  -2.463852870278060E-4  
 2.314000000000000E10    2.178443828597665E-4   9.963427146431059E-5  
 2.316000000000000E10   -7.847766391932964E-5  -5.851515652466333E-6  
 2.318000000000000E10    1.648889447096735E-4   4.187290323898196E-5  
 2.320000000000000E10   -6.439767457777634E-5   3.936232678825036E-5  
 2.322000000000000E10    1.949454599525780E-4  -1.656799868214876E-4  
 2.324000000000000E10   -1.549896696815267E-4   1.001883083517896E-5  
 2.326000000000000E10   -1.337531284661964E-4   2.391839225310832E-4  
 2.328000000000000E10    1.537432399345562E-4   2.377037017140538E-4  
 2.330000000000000E10   -1.046731485985220E-4  -2.027275186264888E-4  
 2.332000000000000E10   -3.133073623757809E-4   3.521993130561896E-5  
 2.334000000000000E10   -2.124779712175950E-5   7.994913175934926E-5  
 2.336000000000000E10    1.797498262021691E-4  -7.773961260681972E-5  
 2.338000000000000E10   -9.879126082523726E-6  -1.747911592246965E-4  
 2.340000000000000E10    7.240883860504255E-5  -8.959501428762451E-5  
 2.342000000000000E10   -1.114271508413367E-4   2.729244006332010E-4  
 2.344000000000000E10    1.706965849734843E-4  -2.872583281714469E-4  
 2.346000000000000E10   -2.090648376906756E-5   2.137685369234532E-4  
 2.348000000000000E10   -1.125415146816522E-4   1.522251695860177E-4  
 2.350000000000000E10    2.234251587651670E-4  -1.130604796344414E-4  
 2.352000000000000E10   -8.401726518059149E-5  -2.262399648316205E-4  
 2.354000000000000E10   -9.635915193939582E-5   8.587185584474355E-5  
 2.356000000000000E10    7.179862586781383E-5   1.182455598609522E-4  
 2.358000000000000E10    8.493751374771819E-5  -2.679857134353370E-4  
 2.360000000000000E10   -2.973590162582696E-4  -2.150594082195312E-4  
 2.362000000000000E10   -1.943628594744951E-4   9.032020170707256E-5  
 2.364000000000000E10    4.110116569790989E-4   2.958789409603924E-4  
 2.366000000000000E10    2.630632952786982E-4  -5.529777845367789E-4  
 2.368000000000000E10    1.156689104391262E-4  -8.972601062851027E-5  
 2.370000000000000E10   -4.843267743126489E-5   3.167163813486695E-4  
 2.372000000000000E10    3.151121491100639E-4   3.950292375520803E-5  
 2.374000000000000E10    3.449192445259541E-4  -4.694703384302557E-4  
 2.376000000000000E10    7.880823250161484E-5  -3.307436127215624E-4  
 2.378000000000000E10   -2.708042757149087E-6   2.364120591664687E-4  
 2.380000000000000E10    4.089876892976463E-5   2.276892482768744E-4  
 2.382000000000000E10    3.445190668571740E-4  -7.560363883385435E-5  
 2.384000000000000E10    2.263676724396646E-4  -1.495976612204686E-4  
 2.386000000000000E10   -1.807064545573667E-4  -1.992868928937241E-4  
 2.388000000000000E10    9.635381138650700E-5   2.724376099649817E-4  
 2.390000000000000E10    3.381819406058639E-4   7.538431964349002E-5  
 2.392000000000000E10    4.535416665021330E-4  -1.632466155570000E-4  
 2.394000000000000E10    9.815790690481663E-5  -2.727668324951083E-4  
 2.396000000000000E10   -2.568702620919794E-4   2.687465748749673E-4  
 2.398000000000000E10    3.360576738486998E-5   5.205118795856834E-4  
 2.400000000000000E10    6.116054137237370E-4  -1.425662630936131E-4  
 2.402000000000000E10    6.734835187671706E-5  -3.647568519227207E-4  
 2.404000000000000E10   -4.720556607935578E-4   1.921136281453073E-4  
 2.406000000000000E10    8.349320705747232E-5   4.514178726822138E-4  
 2.408000000000000E10    3.704709524754435E-4   5.361443618312478E-5  
 2.410000000000000E10    2.313566510565579E-4  -5.063372082076967E-4  
 2.412000000000000E10   -4.296425031498075E-4  -1.060234426404350E-4  
 2.414000000000000E10   -8.826993143884465E-5   3.937291621696204E-4  
 2.416000000000000E10    5.167528288438916E-4   5.789850547444075E-5  
 2.418000000000000E10    2.677339944057167E-5  -4.105973930563778E-4  
 2.420000000000000E10   -1.980882661882788E-4  -1.170829127659090E-4  
 2.422000000000000E10    1.525885891169310E-4   8.093031647149473E-5  
 2.424000000000000E10    1.121663808589801E-4   4.990230877410795E-7  
 2.426000000000000E10   -1.568229163240176E-5  -2.914900833275169E-4  
 2.428000000000000E10   -1.071708102244884E-4  -2.110926106979605E-5  
 2.430000000000000E10    2.056938537862152E-4  -2.976384712383151E-4  
 2.432000000000000E10    9.576456068316475E-5  -1.075316467904486E-4  
 2.434000000000000E10   -1.825899526011199E-4   1.231949499924667E-5  
 2.436000000000000E10    3.036046837223694E-5  -1.071021142706741E-5  
 2.438000000000000E10    1.330753439106047E-4  -1.807614171411842E-4  
 2.440000000000000E10   -1.127525247284211E-4  -1.791407412383705E-4  
 2.442000000000000E10    1.732279633870348E-4  -1.062077935785055E-4  
 2.444000000000000E10    2.761839423328638E-4  -7.681613351451233E-5  
 2.446000000000000E10    1.221296261064708E-4  -4.113928589504212E-4  
 2.448000000000000E10   -6.518969894386828E-5   8.668530063005164E-5  
 2.450000000000000E10    2.513844228815287E-4   2.558213309384883E-4  
 2.452000000000000E10    2.197263238485903E-4   2.224023410235532E-5  
 2.454000000000000E10   -1.688466436462477E-4  -1.358046865789220E-4  
 2.456000000000000E10   -1.819457538658753E-4   1.385565992677584E-4  
 2.458000000000000E10    1.564214762765914E-4   3.078175941482186E-4  
 2.460000000000000E10    4.330735537223518E-4  -2.474103239364922E-4  
 2.462000000000000E10   -3.907773352693766E-4  -4.320504958741367E-4  
 2.464000000000000E10   -4.987904103472829E-4   9.762842091731727E-5  
 2.466000000000000E10    3.862970334012061E-4   4.688559274654836E-4  
 2.468000000000000E10    3.510567476041615E-4  -3.503422194626182E-4  
 2.470000000000000E10   -1.844633952714503E-4  -4.594535857904702E-4  
 2.472000000000000E10   -4.035268793813884E-4   4.242092545609921E-4  
 2.474000000000000E10    2.447056758683175E-4   4.585146671161056E-4  
 2.476000000000000E10    4.384586645755917E-4  -2.505028969608247E-4  
 2.478000000000000E10   -9.709724690765142E-5  -3.510701644700021E-4  
 2.480000000000000E10   -3.180188068654388E-4   5.953424079052638E-6  
 2.482000000000000E10   -1.149527233792469E-4   9.986157965613529E-5  
 2.484000000000000E10    2.943926374427974E-4   2.317064936505631E-4  
 2.486000000000000E10    2.523707189538982E-5  -2.461135736666620E-4  
 2.488000000000000E10   -3.994741200585850E-5  -4.472799264476635E-5  
 2.490000000000000E10   -1.153853008872829E-4   1.499818172305822E-4  
 2.492000000000000E10   -9.610639244783670E-5   2.115188981406391E-4  
 2.494000000000000E10    2.164347097277641E-4  -1.058382531482494E-5  
 2.496000000000000E10   -5.098605834064074E-5  -3.393887891434133E-4  
 2.498000000000000E10   -2.310463169123977E-4  -1.434502191841602E-4  
 2.500000000000000E10   -2.422521210974082E-4   3.920854360330850E-4  
 2.502000000000000E10    2.322335785720497E-4   1.362731127301231E-4  
 2.504000000000000E10    5.578291020356119E-4  -3.053604450542480E-4  
 2.506000000000000E10   -3.225104010198265E-4  -2.085255255224183E-4  
 2.508000000000000E10   -3.199802013114095E-4   2.812565944623202E-4  
 2.510000000000000E10    1.806395594030619E-4   3.032131644431502E-4  
 2.512000000000000E10    8.526787860319018E-5  -4.152561596129090E-4  
 2.514000000000000E10   -5.635541165247560E-4  -1.785551867214963E-4  
 2.516000000000000E10   -6.551878323080018E-5   4.332838288974017E-4  
 2.518000000000000E10    1.674202358117327E-4   1.304644683841616E-4  
 2.520000000000000E10    1.401111367158592E-4  -3.833969531115145E-4  
 2.522000000000000E10   -6.862420559627935E-5   1.343778276350349E-4  
 2.524000000000000E10    1.745994377415627E-4   1.120620945584960E-4  
 2.526000000000000E10    1.974821643671021E-4   9.394668450113386E-5  
 2.528000000000000E10   -1.560770178912208E-4   4.124701081309468E-5  
 2.530000000000000E10    6.377990212058649E-5   3.235710028093308E-5  
 2.532000000000000E10   -3.238147110096179E-5   1.328594080405310E-4  
 2.534000000000000E10    1.301104493904859E-4   2.654831914696842E-4  
 2.536000000000000E10   -3.419402128201909E-5  -2.493718966434244E-5  
 2.538000000000000E10    2.596575941424817E-4   5.816527482238598E-5  
 2.540000000000000E10    1.648147372179665E-5   7.606373401358724E-5  
 2.542000000000000E10   -9.878437595034484E-6  -2.032798947766423E-4  
 2.544000000000000E10   -1.033630396705121E-4   2.123832673532888E-4  
 2.546000000000000E10    1.532533678982873E-5  -6.423702870961279E-5  
 2.548000000000000E10    1.606355654075742E-4   1.224395600729622E-5  
 2.550000000000000E10    3.511040631565265E-5   5.815722943225410E-6  
 2.552000000000000E10   -2.134934766218066E-5   8.802890079095960E-6  
 2.554000000000000E10    2.208504156442359E-4  -1.283446617890149E-4  
 2.556000000000000E10   -1.409406013408443E-5   1.724958747217897E-5  
 2.558000000000000E10   -2.896435908041894E-4   1.430059055564925E-4  
 2.560000000000000E10    2.716009621508420E-4   2.661887265276164E-4  
 2.562000000000000E10    7.652971544303000E-5   8.703957428224385E-5  
 2.564000000000000E10   -1.883861114038155E-4  -3.890092557412572E-5  
 2.566000000000000E10   -8.532042556907982E-5   1.883689692476764E-4  
 2.568000000000000E10   -6.974783900659531E-5  -3.715045386343263E-5  
 2.570000000000000E10    1.099240835173987E-4  -6.042070890543982E-5  
 2.572000000000000E10   -7.823226769687608E-5  -4.930036811856553E-5  
 2.574000000000000E10   -6.263121031224728E-5  -2.573850906628650E-5  
 2.576000000000000E10    2.296898746863008E-4   7.107409328455105E-5  
 2.578000000000000E10    3.010594518855214E-4  -2.359145437367261E-4  
 2.580000000000000E10   -2.601014057290740E-5  -2.774430904537439E-4  
 2.582000000000000E10   -7.721774636593182E-6   1.599337338120677E-5  
 2.584000000000000E10    1.823947968659923E-4  -1.751217059791088E-4  
 2.586000000000000E10    1.085173425963149E-4  -5.660046372213401E-5  
 2.588000000000000E10   -1.767111389199272E-4  -2.541598805692047E-4  
 2.590000000000000E10    8.285164949484170E-5  -8.823614916764200E-5  
 2.592000000000000E10    1.058423440554179E-4   1.689084747340530E-4  
 2.594000000000000E10    2.367751585552469E-4  -2.829442382790148E-4  
 2.596000000000000E10   -2.368025161558762E-4  -3.231673617847264E-4  
 2.598000000000000E10   -1.360660680802539E-4   5.937781679676846E-7  
 2.600000000000000E10    3.250531517551281E-5   1.905733952298760E-4  
 2.602000000000000E10    2.560871362220496E-4  -4.288991622161120E-4  
 2.604000000000000E10    1.068040655809455E-4   5.110487472848035E-5  
 2.606000000000000E10   -3.605285310186446E-4   4.113977047381923E-5  
 2.608000000000000E10    2.082265127683058E-4   1.250157947652042E-5  
 2.610000000000000E10    7.055686728563160E-5   6.291319004958496E-5  
 2.612000000000000E10   -1.903262309497222E-4  -2.219830639660358E-4  
 2.614000000000000E10    2.315351412107702E-5  -2.884251080104150E-5  
 2.616000000000000E10   -1.586674916325137E-4   1.688074189587496E-5  
 2.618000000000000E10   -2.717892357395613E-6   1.294190587941557E-4  
 2.620000000000000E10    1.203863939736038E-4   8.113227522699162E-5  
 2.622000000000000E10    3.583279249141924E-5  -9.741741814650595E-5  
 2.624000000000000E10   -1.970164885278791E-4  -1.130007804022171E-4  
 2.626000000000000E10   -3.816522657871246E-4   1.579032104928047E-4  
 2.628000000000000E10    7.213480421341956E-5   4.804337513633072E-4  
 2.630000000000000E10    2.533546648919582E-4  -3.155954473186284E-4  
 2.632000000000000E10   -3.512125404085964E-4  -2.095536474371329E-4  
 2.634000000000000E10   -4.593681369442493E-4   3.475034900475293E-4  
 2.636000000000000E10    2.782328519970179E-4   2.767402038443834E-4  
 2.638000000000000E10    2.406259882263839E-4  -2.211525425082073E-4  
 2.640000000000000E10   -3.260992234572768E-4  -2.411218592897058E-4  
 2.642000000000000E10   -4.270594508852810E-4   3.071656683459878E-4  
 2.644000000000000E10    1.899652561405674E-4   2.138946147169918E-4  
 2.646000000000000E10    2.555926039349288E-4  -1.996003993554041E-4  
 2.648000000000000E10   -3.996073792222887E-4  -2.062456187559292E-4  
 2.650000000000000E10   -3.450099029578269E-5   2.235461724922061E-4  
 2.652000000000000E10   -4.386851651361212E-5   5.043463897891343E-5  
 2.654000000000000E10    6.326410948531702E-5  -2.336994075449184E-4  
 2.656000000000000E10   -7.420813926728442E-5   1.009455809253268E-4  
 2.658000000000000E10    2.488048339728266E-4  -5.260034959064797E-5  
 2.660000000000000E10   -1.325106713920832E-4   1.073431776603684E-4  
 2.662000000000000E10   -2.205175405833870E-4   2.127840525645297E-5  
 2.664000000000000E10    2.882346743717790E-4   2.362451632507145E-4  
 2.666000000000000E10   -8.552752660762053E-6  -6.681383820250630E-5  
 2.668000000000000E10   -3.668258796096779E-5  -1.242817816091701E-4  
 2.670000000000000E10   -2.945640299003571E-4   2.182341268053278E-4  
 2.672000000000000E10    1.856928720371798E-4   2.208467340096831E-4  
 2.674000000000000E10    1.742894528433681E-4  -2.309052360942587E-4  
 2.676000000000000E10   -1.434011501260102E-4  -3.464632900431752E-4  
 2.678000000000000E10   -7.522393570980057E-5   2.767467522062361E-4  
 2.680000000000000E10    3.763492277357727E-4   1.022585856844671E-4  
 2.682000000000000E10   -3.484975968603976E-5   9.643913654144853E-5  
 2.684000000000000E10   -3.687036805786192E-4   1.106563577195630E-4  
 2.686000000000000E10    2.103296428686008E-4   4.660286067519337E-4  
 2.688000000000000E10    1.499733043601736E-4   1.645079464651644E-4  
 2.690000000000000E10    7.440598710672930E-5  -1.521621743449941E-4  
 2.692000000000000E10   -1.548358995933086E-4   4.022582652396523E-5  
 2.694000000000000E10    1.092665042961016E-4   5.672488259733655E-5  
 2.696000000000000E10    2.187759819207713E-4  -9.501129534328356E-5  
 2.698000000000000E10   -1.274893147638068E-4  -4.910288262180984E-4  
 2.700000000000000E10    8.038377563934773E-5   1.736699632601813E-4  
 2.702000000000000E10    3.443702880758792E-4   2.190403320128098E-4  
 2.704000000000000E10    1.530527806608006E-4  -3.042570606339723E-4  
 2.706000000000000E10   -2.598210121504962E-4  -3.040705341845751E-4  
 2.708000000000000E10   -2.122496662195772E-4   3.370625781826675E-4  
 2.710000000000000E10    7.531089067924768E-5   1.015997040667571E-4  
 2.712000000000000E10    2.098158875014633E-4  -1.781831088010222E-4  
 2.714000000000000E10   -2.688054228201509E-4  -2.601635933388025E-4  
 2.716000000000000E10   -1.056774272001348E-4  -5.756155223934911E-5  
 2.718000000000000E10   -6.433631824620534E-6   2.076723176287487E-4  
 2.720000000000000E10    1.292717643082142E-4  -1.402078632963821E-4  
 2.722000000000000E10   -1.165048743132502E-4  -2.531216887291521E-4  
 2.724000000000000E10    1.756173514877446E-5  -1.022583528538235E-4  
 2.726000000000000E10    4.897683083981974E-6   2.634880656842142E-4  
 2.728000000000000E10   -1.689211603661533E-5  -2.067814493784681E-4  
 2.730000000000000E10   -3.440708314883523E-5   1.027158286888152E-4  
 2.732000000000000E10   -9.379123366670683E-5  -1.928261481225491E-4  
 2.734000000000000E10    6.072764153941535E-5  -4.492654625209980E-5  
 2.736000000000000E10    9.430633326701354E-6   7.346048369072378E-5  
 2.738000000000000E10    7.720813300693408E-5   8.711010013939813E-5  
 2.740000000000000E10   -2.099450466630515E-5   1.879239280242473E-4  
 2.742000000000000E10    1.344762495136820E-5   2.955166273750365E-4  
 2.744000000000000E10   -3.019396172021516E-5   1.253334776265547E-4  
 2.746000000000000E10    9.232819138560444E-5   9.141283226199448E-5  
 2.748000000000000E10   -6.089881208026782E-5   8.742495265323669E-5  
 2.750000000000000E10   -4.557460670184810E-6  -1.587298611411825E-4  
 2.752000000000000E10   -6.429375935113058E-5   2.104673694702797E-5  
 2.754000000000000E10   -1.121366731240414E-4  -5.164690810488537E-5  
 2.756000000000000E10    2.597392449388281E-5   1.223953768203501E-5  
