#  HZ   S   RI   R     50.00 
! Rohde & Schwarz ZVA40 4Ports - Version 3.90 - 1145.1110k42 SN: 100403
! Date: 2023-10-04 07:49:23
! Measurement: S12 
! 
 2.200000000000000E10   -8.085097069852054E-4  -2.664088679011911E-4  
 2.202000000000000E10    6.377237150445581E-5   3.608676488511264E-4  
 2.204000000000000E10    4.941538791172206E-4  -7.921639735286590E-7  
 2.206000000000000E10   -1.866581296781078E-4  -6.768572493456304E-4  
 2.208000000000000E10   -6.909460644237697E-4   5.552947186515667E-5  
 2.210000000000000E10    2.840271044988185E-4   6.241906667128205E-4  
 2.212000000000000E10    7.906791870482266E-4  -1.297089911531657E-4  
 2.214000000000000E10   -1.719233114272356E-4  -7.160890963859856E-4  
 2.216000000000000E10   -4.900118801742792E-4   1.170353498309851E-4  
 2.218000000000000E10    1.777391298674047E-4   5.823990795761347E-4  
 2.220000000000000E10    7.237156969495118E-4  -1.847556559368968E-4  
 2.222000000000000E10   -4.563899419736117E-4  -4.168490704614669E-4  
 2.224000000000000E10   -4.638971586246043E-4   4.766040001413785E-5  
 2.226000000000000E10    5.476002697832882E-4   3.786321030929685E-4  
 2.228000000000000E10   -2.845141898433212E-5  -3.477101854514331E-4  
 2.230000000000000E10   -2.044385473709554E-4  -3.850335779134184E-4  
 2.232000000000000E10   -4.751224696519785E-5   1.265570754185319E-4  
 2.234000000000000E10    2.028922463068739E-4  -1.238415279658511E-4  
 2.236000000000000E10    4.725155667983927E-5  -2.201420575147495E-4  
 2.238000000000000E10   -1.376063883071765E-4  -9.307976870331913E-5  
 2.240000000000000E10    1.516524789622054E-4   3.483783802948892E-4  
 2.242000000000000E10    3.180444473400712E-4  -2.385404222877696E-4  
 2.244000000000000E10   -2.819034853018820E-4  -1.458763144910336E-4  
 2.246000000000000E10   -3.587203682400286E-4   3.108786477241665E-4  
 2.248000000000000E10    2.835060877259821E-4   1.575350761413574E-4  
 2.250000000000000E10   -8.926387818064541E-5  -3.538859600666910E-4  
 2.252000000000000E10   -6.700037920381874E-5  -3.499424201436341E-4  
 2.254000000000000E10   -2.955157542601228E-4   3.154548176098615E-4  
 2.256000000000000E10    4.089497670065612E-4  -1.148661540355533E-4  
 2.258000000000000E10   -9.810497431317344E-5  -2.499397087376565E-4  
 2.260000000000000E10   -4.639803955797106E-4   2.319093910045922E-4  
 2.262000000000000E10    1.314779074164107E-4   5.281105404719710E-4  
 2.264000000000000E10    2.178022841690108E-4  -1.331290404777974E-4  
 2.266000000000000E10   -1.436860475223512E-4  -4.703721206169576E-4  
 2.268000000000000E10   -4.586805589497089E-4   4.134314367547631E-4  
 2.270000000000000E10    1.499606296420097E-4   2.539090928621590E-4  
 2.272000000000000E10    2.413407055428252E-4  -2.176530833821744E-4  
 2.274000000000000E10   -3.083688498008996E-4  -4.008224350400269E-4  
 2.276000000000000E10   -3.436571569181979E-4   4.488420381676406E-4  
 2.278000000000000E10    2.005239948630333E-4   1.138527077273466E-4  
 2.280000000000000E10    1.656803069636226E-4  -4.079267091583461E-4  
 2.282000000000000E10   -3.516145516186953E-4  -1.449073170078918E-4  
 2.284000000000000E10   -1.655131927691400E-4   1.666247408138588E-4  
 2.286000000000000E10    4.204279975965619E-4   1.711852673906833E-4  
 2.288000000000000E10   -3.400036366656423E-4  -2.743685618042946E-4  
 2.290000000000000E10   -2.071585768135265E-4   3.633457527030259E-4  
 2.292000000000000E10    8.912509656511247E-5   5.428886506706476E-4  
 2.294000000000000E10    1.698482519714162E-4   1.535433257231489E-4  
 2.296000000000000E10   -4.182217235211283E-4   1.016066235024482E-4  
 2.298000000000000E10   -2.156921254936606E-4   2.655101125128567E-4  
 2.300000000000000E10    5.630721352645196E-5   2.992213121615350E-4  
 2.302000000000000E10   -9.136931475950405E-5  -1.422159402864054E-4  
 2.304000000000000E10   -3.576929739210755E-4  -2.927934110630304E-4  
 2.306000000000000E10   -1.073574167094193E-4   1.360812166240066E-4  
 2.308000000000000E10    1.965655974345282E-4   2.507609606254846E-4  
 2.310000000000000E10    2.483819553162903E-4  -3.497393627185375E-4  
 2.312000000000000E10   -2.084268926410005E-4   3.143996218568645E-5  
 2.314000000000000E10   -8.396681369049475E-5   4.506271798163652E-4  
 2.316000000000000E10    3.776755474973470E-4   2.567931660450995E-4  
 2.318000000000000E10    1.424121146555990E-4  -2.064790460281074E-4  
 2.320000000000000E10   -1.019548653857783E-4   1.019984392769402E-5  
 2.322000000000000E10   -2.120839053532109E-4   2.254162827739492E-4  
 2.324000000000000E10    1.591217005625367E-4  -9.239108476322144E-5  
 2.326000000000000E10   -1.175742145278491E-4  -1.329491933574900E-4  
 2.328000000000000E10   -1.423299981979653E-4   8.256183355115354E-5  
 2.330000000000000E10    3.711984390974976E-5   1.251897338079289E-4  
 2.332000000000000E10    8.381367661058903E-5  -3.867116465698928E-4  
 2.334000000000000E10    1.262092700926587E-4   2.551974321249872E-4  
 2.336000000000000E10    1.418570172972977E-4   2.013175108004361E-4  
 2.338000000000000E10    3.869509964715689E-4  -1.320881419815123E-4  
 2.340000000000000E10   -6.525048956973478E-5  -4.980901940143667E-5  
 2.342000000000000E10   -2.705460792640224E-5   1.341309107374400E-4  
 2.344000000000000E10    3.659349749796093E-4   7.540226943092421E-5  
 2.346000000000000E10    1.586370199220255E-4  -2.332020521862432E-4  
 2.348000000000000E10   -7.083384844008833E-5  -2.603565808385611E-4  
 2.350000000000000E10   -1.741165906423703E-4   1.414785801898688E-4  
 2.352000000000000E10    4.233414656482637E-4  -5.909090032218956E-5  
 2.354000000000000E10    2.697379386518151E-5  -1.717481063678861E-4  
 2.356000000000000E10   -1.021690550260246E-4  -7.674926018808037E-5  
 2.358000000000000E10   -2.967194268421736E-5   1.838880125433207E-4  
 2.360000000000000E10    2.704741782508791E-4  -7.603572885273024E-5  
 2.362000000000000E10    1.780414277163800E-5  -9.218788909493014E-5  
 2.364000000000000E10   -2.853747864719480E-4  -1.130255404859781E-4  
 2.366000000000000E10   -1.367192908219295E-5   1.818127639126033E-4  
 2.368000000000000E10    1.416441082255915E-4  -1.090716759790666E-4  
 2.370000000000000E10   -1.052906081895344E-4   2.861443317669909E-5  
 2.372000000000000E10   -4.719108983408660E-5   1.864473015302792E-4  
 2.374000000000000E10    3.265080740675330E-4   7.952858140924946E-5  
 2.376000000000000E10    6.351215415634215E-5  -1.947897981153801E-4  
 2.378000000000000E10   -7.118287612684071E-5  -1.500541256973520E-4  
 2.380000000000000E10   -1.128384683397599E-4   2.293408033438027E-4  
 2.382000000000000E10    2.346726396353915E-4  -1.327049540122971E-4  
 2.384000000000000E10    1.043599695549347E-4  -1.451789576094598E-4  
 2.386000000000000E10   -3.394562809262425E-4  -4.413057176861912E-4  
 2.388000000000000E10   -1.153082484961487E-5   5.221623578108847E-4  
 2.390000000000000E10    3.012495290022343E-4   1.469046401325613E-4  
 2.392000000000000E10    2.706118684727699E-4  -2.100938436342403E-4  
 2.394000000000000E10   -2.495902590453625E-4  -4.238411565893330E-5  
 2.396000000000000E10   -1.829663960961625E-4   1.666073803789914E-4  
 2.398000000000000E10   -5.586010229308158E-5   4.431673733051866E-4  
 2.400000000000000E10    3.830132191069424E-4  -2.956620010081679E-4  
 2.402000000000000E10   -2.068781323032454E-4  -2.324634697288275E-4  
 2.404000000000000E10   -3.187541733495891E-4   1.440497144358233E-4  
 2.406000000000000E10    2.539253327995539E-4  -1.558626900077798E-5  
 2.408000000000000E10    2.766294055618346E-4  -2.854843623936176E-4  
 2.410000000000000E10    1.508393470430747E-4  -3.827475302387029E-4  
 2.412000000000000E10   -1.908044796437025E-4  -1.010803753160872E-4  
 2.414000000000000E10   -1.756571291480213E-4   2.022851112997159E-4  
 2.416000000000000E10    4.400747275212780E-5  -2.999386197188869E-5  
 2.418000000000000E10   -9.924903679348063E-6  -1.841244811657816E-4  
 2.420000000000000E10    8.401409104408231E-6  -3.170810814481229E-4  
 2.422000000000000E10    4.696390988101484E-6   8.340826752828434E-5  
 2.424000000000000E10    1.940844958880916E-5   3.818132245214656E-5  
 2.426000000000000E10    4.713528614956886E-4  -1.619297836441547E-5  
 2.428000000000000E10    2.548978955019265E-5  -3.767258313018829E-4  
 2.430000000000000E10   -2.800880174618214E-4  -3.185415407642722E-4  
 2.432000000000000E10   -2.203103504143655E-4   4.861824272666127E-4  
 2.434000000000000E10    1.860048068920150E-4   1.693182857707143E-4  
 2.436000000000000E10   -1.092052334570326E-4  -3.998710308223963E-4  
 2.438000000000000E10   -6.278112414292991E-4  -2.331138966837898E-4  
 2.440000000000000E10   -2.823225804604590E-4   2.831263700500131E-4  
 2.442000000000000E10    1.662521535763517E-4  -1.583743323863018E-5  
 2.444000000000000E10    8.911729673855007E-5  -2.275301376357675E-4  
 2.446000000000000E10   -2.559211279731244E-4  -2.161602315027267E-4  
 2.448000000000000E10    1.217088065459393E-4   3.001985896844417E-4  
 2.450000000000000E10    1.224603183800355E-4   2.743973454926163E-4  
 2.452000000000000E10    1.537570096843410E-5  -2.814742329064757E-4  
 2.454000000000000E10   -7.061016367515549E-5  -2.470296203682665E-5  
 2.456000000000000E10   -1.584887359058484E-4  -2.167986713175196E-5  
 2.458000000000000E10   -7.825148350093514E-5   1.146037247963250E-4  
 2.460000000000000E10    1.353151892544702E-4   1.692728546913713E-4  
 2.462000000000000E10    1.317044661846012E-4  -1.653682993492112E-4  
 2.464000000000000E10    1.142781839007512E-4   6.368041067617014E-5  
 2.466000000000000E10    4.997278301743791E-5   1.661067799432203E-4  
 2.468000000000000E10    2.043592830887064E-4   2.138333911716472E-5  
 2.470000000000000E10    1.564285412314348E-5  -1.708386407699436E-4  
 2.472000000000000E10   -2.207294455729425E-4  -5.497566689882660E-6  
 2.474000000000000E10   -4.141855606576428E-5  -1.891097053885460E-4  
 2.476000000000000E10   -2.199053778895177E-5   2.473129143254482E-6  
 2.478000000000000E10   -7.151566387619823E-5  -1.760191225912422E-4  
 2.480000000000000E10   -4.327552596805617E-5  -2.236155851278454E-4  
 2.482000000000000E10   -1.007694118015934E-5   2.230362879345194E-4  
 2.484000000000000E10    4.044287197757512E-5  -5.982064976706170E-5  
 2.486000000000000E10    1.569863379700109E-4  -2.029346214840189E-4  
 2.488000000000000E10   -4.286575713194907E-4  -1.044510208885185E-4  
 2.490000000000000E10   -2.372063318034634E-4   2.308150433236733E-4  
 2.492000000000000E10    1.409918913850561E-4   9.522611799184233E-5  
 2.494000000000000E10    9.451860023546033E-6  -1.886651443783194E-4  
 2.496000000000000E10   -2.877572842407972E-4  -1.479199709137902E-4  
 2.498000000000000E10   -8.964878361439332E-5  -1.163674096460454E-4  
 2.500000000000000E10    2.226216456620023E-4   1.387510856147856E-4  
 2.502000000000000E10    1.733758545015007E-4  -3.192143340129405E-4  
 2.504000000000000E10   -8.169916691258550E-5  -4.151534449192695E-5  
 2.506000000000000E10   -4.185325451544486E-5   1.825761282816529E-4  
 2.508000000000000E10    2.514665538910776E-4   9.903391037369147E-5  
 2.510000000000000E10   -1.247056352440268E-4   1.522328057035338E-5  
 2.512000000000000E10   -1.238085678778589E-4  -1.200387632707134E-4  
 2.514000000000000E10   -1.817306620068848E-4   1.081496957340278E-4  
 2.516000000000000E10   -1.271266373805702E-4   1.492520677857101E-4  
 2.518000000000000E10    7.685483433306217E-5  -4.506465120357461E-5  
 2.520000000000000E10    2.681224759726320E-5  -6.024927643011324E-5  
 2.522000000000000E10   -1.291490189032629E-4   1.239800330949947E-4  
 2.524000000000000E10   -5.839092409587465E-5  -8.280862675746903E-5  
 2.526000000000000E10    3.564435974112712E-5   1.291140797547996E-4  
 2.528000000000000E10    1.053909545589704E-5   6.756261541340791E-7  
 2.530000000000000E10   -1.013541332213208E-4  -2.388607244938612E-4  
 2.532000000000000E10   -9.268073881685268E-6   3.184455272275955E-4  
 2.534000000000000E10    1.539053482702002E-4  -9.522301843389869E-5  
 2.536000000000000E10    2.685489598661661E-4  -2.464473072905093E-4  
 2.538000000000000E10   -1.859424373833463E-4   3.264338147346280E-6  
 2.540000000000000E10   -6.688318535452709E-5   1.128547082771547E-4  
 2.542000000000000E10    3.441775916144252E-4   8.275637082988396E-5  
 2.544000000000000E10    9.133505955105647E-5  -2.362317027291283E-4  
 2.546000000000000E10   -2.183583565056324E-4   1.618910937395413E-5  
 2.548000000000000E10    8.247435471275821E-5   2.370418515056372E-4  
 2.550000000000000E10    3.645977412816137E-4  -3.769231989281252E-5  
 2.552000000000000E10   -7.887550600571558E-5  -2.615802804939449E-4  
 2.554000000000000E10   -1.160734100267291E-4  -2.495156368240714E-4  
 2.556000000000000E10   -6.202710210345686E-5   2.036352962022647E-4  
 2.558000000000000E10    1.927660487126559E-4  -9.272325405618176E-5  
 2.560000000000000E10   -6.585314986295998E-5   3.443210061959690E-6  
 2.562000000000000E10   -1.354283540422330E-5  -1.432090793969110E-4  
 2.564000000000000E10   -1.102181522583123E-5   2.572477023932152E-5  
 2.566000000000000E10   -8.543314470443875E-5   1.150312600657344E-4  
 2.568000000000000E10    7.555970660177991E-5   5.982126822345890E-5  
 2.570000000000000E10    7.193464261945337E-5  -2.126177714671940E-4  
 2.572000000000000E10   -2.750113781075925E-4  -2.373005263507366E-4  
 2.574000000000000E10   -2.660727186594158E-4   4.078225174453110E-5  
 2.576000000000000E10    6.395741365849972E-5   1.923477539094165E-4  
 2.578000000000000E10    2.945020387414843E-4  -3.783681604545564E-4  
 2.580000000000000E10   -1.274886744795367E-4  -4.159986565355212E-4  
 2.582000000000000E10   -3.797791141550988E-4   1.776527496986091E-4  
 2.584000000000000E10    3.961367183364928E-4   2.467369777150452E-4  
 2.586000000000000E10   -1.114602855523117E-5  -1.999170053750277E-4  
 2.588000000000000E10   -2.315946476301178E-4  -3.472585231065750E-4  
 2.590000000000000E10   -1.062141818692908E-4   2.295473823323846E-4  
 2.592000000000000E10    2.719483200053219E-5  -1.915856046252884E-5  
 2.594000000000000E10    1.792810508050025E-4  -2.337914629606530E-4  
 2.596000000000000E10   -1.639504334889352E-4  -3.055925772059709E-4  
 2.598000000000000E10   -1.316443522227928E-4   1.080667716450989E-4  
 2.600000000000000E10    1.128630683524534E-4  -4.420374898472801E-5  
 2.602000000000000E10    6.146638042991981E-5  -1.053319556376664E-5  
 2.604000000000000E10   -1.569311571074650E-4  -5.549334309762344E-5  
 2.606000000000000E10    8.640875603305176E-5   3.987243690062314E-5  
 2.608000000000000E10   -1.847733510658145E-4  -5.121509457239881E-5  
 2.610000000000000E10   -4.621682455763221E-5   6.830259371781722E-5  
 2.612000000000000E10    2.921832128777169E-5   2.848371332220268E-5  
 2.614000000000000E10    3.043086326215416E-4  -1.168465460068546E-4  
 2.616000000000000E10   -1.021397547447123E-4   5.452506957226433E-5  
 2.618000000000000E10   -8.195304690161720E-5  -2.003894769586623E-5  
 2.620000000000000E10    1.399774282617727E-5   3.176352183800191E-4  
 2.622000000000000E10   -4.057271780766314E-6  -2.019395906245336E-4  
 2.624000000000000E10   -1.056250257533975E-4   1.350659003946930E-4  
 2.626000000000000E10   -1.424336369382218E-4  -1.052280931617133E-4  
 2.628000000000000E10    1.508574205217883E-4  -3.065774217247963E-5  
 2.630000000000000E10   -3.134698999929242E-5   2.659026649780572E-4  
 2.632000000000000E10    8.460800745524466E-5   1.429414260201156E-5  
 2.634000000000000E10    2.634611737448722E-4   9.903059253701940E-5  
 2.636000000000000E10   -8.461286779493094E-5   1.372848637402058E-4  
 2.638000000000000E10   -2.371354094066192E-5   6.312454934231937E-5  
 2.640000000000000E10    1.725489710224792E-4   8.694272401044145E-5  
 2.642000000000000E10   -2.078100369544700E-4  -1.210788759635761E-4  
 2.644000000000000E10   -2.033749333349988E-4  -2.021880645770580E-4  
 2.646000000000000E10   -9.837435209192336E-5   1.426612725481391E-4  
 2.648000000000000E10   -2.434575435472652E-4  -2.118363954650704E-5  
 2.650000000000000E10    2.387259155511856E-4  -8.864078699843958E-5  
 2.652000000000000E10    6.730909080943093E-5  -5.581249934039079E-5  
 2.654000000000000E10   -2.510741178411990E-4  -4.973418526788009E-6  
 2.656000000000000E10    1.916168839670718E-4  -4.305229595047422E-5  
 2.658000000000000E10    1.316870184382424E-4   1.294824760407209E-4  
 2.660000000000000E10   -1.585624122526497E-4  -5.079579204902984E-5  
 2.662000000000000E10   -9.774613135959953E-5   7.614929199917242E-5  
 2.664000000000000E10   -1.083359311451204E-4  -2.047087182290852E-4  
 2.666000000000000E10    8.146066829795018E-5   5.315513590176124E-6  
 2.668000000000000E10   -6.131603731773794E-5   7.376421854132786E-5  
 2.670000000000000E10    9.874895476968959E-5  -1.332746469415724E-4  
 2.672000000000000E10    5.856607822352089E-5  -1.632288913242519E-4  
 2.674000000000000E10   -7.221757550723851E-5   2.044825087068602E-4  
 2.676000000000000E10    2.131040309905075E-5   2.265646326122806E-4  
 2.678000000000000E10    8.788598643150181E-5  -4.210692713968456E-4  
 2.680000000000000E10    3.624294549808838E-5   1.262557925656438E-4  
 2.682000000000000E10   -3.032811218872666E-4  -1.015990565065295E-4  
 2.684000000000000E10    3.075680870097131E-4  -5.759883788414300E-5  
 2.686000000000000E10   -1.591940963407978E-4  -1.281485892832279E-4  
 2.688000000000000E10    1.611422485439107E-4  -1.087604832719080E-4  
 2.690000000000000E10    1.215601951116696E-4   1.532781461719424E-4  
 2.692000000000000E10    1.641669223317877E-4  -2.466352088958956E-5  
 2.694000000000000E10    8.934653692449501E-7   7.417170127155259E-5  
 2.696000000000000E10    1.439530169591308E-4  -6.805658631492406E-5  
 2.698000000000000E10   -1.525278785265982E-4   5.027276711189188E-5  
 2.700000000000000E10   -4.854128055740148E-4  -7.165473653003573E-5  
 2.702000000000000E10    1.201264603878371E-4   2.648061126819812E-5  
 2.704000000000000E10    1.741979504004121E-4   4.301370063330978E-5  
 2.706000000000000E10   -1.152942058979534E-4  -2.569942735135555E-4  
 2.708000000000000E10   -9.598311589797959E-5   1.823588099796325E-4  
 2.710000000000000E10    2.380401274422184E-4   3.030173247680068E-4  
 2.712000000000000E10    1.382754853693768E-4  -2.514185689506121E-5  
 2.714000000000000E10    1.114285478251986E-4  -3.150092379655689E-5  
 2.716000000000000E10    1.521459125797264E-5   3.861903969664127E-4  
 2.718000000000000E10    7.375593122560531E-5   5.716821397072636E-5  
 2.720000000000000E10    1.976239291252568E-4  -6.336237856885418E-5  
 2.722000000000000E10   -3.097945227636956E-5  -7.544869004050270E-5  
 2.724000000000000E10   -1.179213868454099E-4  -7.218844984890893E-5  
 2.726000000000000E10    1.520315709058195E-4   1.843351055867970E-4  
 2.728000000000000E10    1.423391222488135E-4   1.058808193192817E-4  
 2.730000000000000E10    3.716170613188297E-5  -8.724445069674403E-5  
 2.732000000000000E10    1.079558842320694E-5   2.096915413858369E-4  
 2.734000000000000E10   -5.735392551287077E-5  -2.362295163038652E-5  
 2.736000000000000E10    2.679033786989749E-4  -4.274897582945414E-5  
 2.738000000000000E10   -2.074701333185658E-4   1.301587763009593E-4  
 2.740000000000000E10   -9.505393973086029E-5  -1.260498102055863E-4  
 2.742000000000000E10    8.001721653272398E-6  -2.151082844648045E-5  
 2.744000000000000E10   -1.106558484025300E-4   6.126447260612622E-5  
 2.746000000000000E10   -9.450121433474124E-5   1.235458184964955E-4  
 2.748000000000000E10    2.159976575057954E-4  -1.548032159917057E-4  
 2.750000000000000E10    1.670134042797145E-5   7.347286009462550E-5  
 2.752000000000000E10   -2.944996522273868E-4   1.302260789088905E-4  
 2.754000000000000E10    2.998438139911741E-4   3.178856859449297E-4  
 2.756000000000000E10    8.802291267784312E-5  -1.889390987344086E-4  
