#  HZ   S   RI   R     50.00 
! Rohde & Schwarz ZVA40 4Ports - Version 3.90 - 1145.1110k42 SN: 100403
! Date: 2023-10-04 07:48:55
! Measurement: S12 
! 
 2.200000000000000E10    1.762887113727629E-4  -1.969793665921316E-4  
 2.202000000000000E10   -1.246347383130342E-4  -6.602128996746615E-5  
 2.204000000000000E10    2.369849971728399E-4   3.692953032441437E-4  
 2.206000000000000E10    3.756686637643725E-4   1.934526226250455E-4  
 2.208000000000000E10    4.676235257647932E-4  -2.476682129781693E-4  
 2.210000000000000E10   -3.363598953001201E-4   6.289799057412893E-5  
 2.212000000000000E10   -1.811918773455545E-4   3.020303265657276E-4  
 2.214000000000000E10    3.232844173908234E-4   3.771357296500355E-4  
 2.216000000000000E10    2.939661208074540E-4  -1.593135675648227E-4  
 2.218000000000000E10   -3.217549237888306E-4  -4.886295064352453E-4  
 2.220000000000000E10   -3.646709083113819E-4   2.203422773163766E-4  
 2.222000000000000E10    3.414152015466243E-4   1.952721504494548E-4  
 2.224000000000000E10    3.964799980167300E-4  -2.597326529212296E-4  
 2.226000000000000E10   -7.621109398314729E-5  -4.794505657628179E-4  
 2.228000000000000E10   -4.386233340483159E-4   1.748540671542287E-4  
 2.230000000000000E10    9.369670806336217E-6   7.191935583250597E-5  
 2.232000000000000E10    1.432919525541365E-4  -2.334128221264109E-4  
 2.234000000000000E10   -2.708388201426715E-4  -4.200169641990215E-4  
 2.236000000000000E10   -2.126462495652959E-4   1.120602028095163E-4  
 2.238000000000000E10   -1.438998879166320E-4  -1.383592316415161E-4  
 2.240000000000000E10    3.520570317050442E-5  -9.302499529439956E-5  
 2.242000000000000E10   -8.014798368094489E-5   7.856747834011912E-5  
 2.244000000000000E10   -4.366017310530879E-5   9.886494808597490E-5  
 2.246000000000000E10   -2.277370185765903E-5  -2.818724315147847E-4  
 2.248000000000000E10   -3.393093065824360E-4  -3.278397198300809E-4  
 2.250000000000000E10   -1.835772854974493E-4   3.321236727060750E-5  
 2.252000000000000E10    1.641826092964038E-4   2.104361628880724E-4  
 2.254000000000000E10    4.514220199780539E-5  -5.299318581819534E-4  
 2.256000000000000E10   -2.827531425282359E-4  -2.211239770986140E-4  
 2.258000000000000E10   -1.416431186953560E-4   2.201358438469470E-4  
 2.260000000000000E10    3.087380318902433E-4   1.385833165841177E-4  
 2.262000000000000E10    2.300756314070895E-4  -2.102474172716029E-5  
 2.264000000000000E10   -8.713006536709145E-5  -6.978340388741344E-5  
 2.266000000000000E10   -1.911267645482440E-5   2.202286123065278E-4  
 2.268000000000000E10    1.081560549209826E-4  -2.132814697688445E-4  
 2.270000000000000E10    1.365183270536363E-4  -3.982209309469909E-4  
 2.272000000000000E10   -4.662465653382242E-5  -3.708127187564969E-4  
 2.274000000000000E10   -2.181718591600657E-4  -1.038129194057547E-4  
 2.276000000000000E10   -1.171456315205433E-4   1.202809744427213E-5  
 2.278000000000000E10    6.274173210840672E-5  -2.313470613444224E-4  
 2.280000000000000E10    1.197547680931166E-4   9.576981028658338E-6  
 2.282000000000000E10    6.892163946758956E-5   2.092686008836608E-5  
 2.284000000000000E10   -9.297024371335283E-5  -1.794453169168264E-6  
 2.286000000000000E10   -4.859104956267402E-5   1.544436090625823E-4  
 2.288000000000000E10   -5.836633135913871E-5  -8.468263672511966E-7  
 2.290000000000000E10   -5.285400766297244E-5  -1.877497561508790E-5  
 2.292000000000000E10   -2.520379493944347E-4   7.672496576560661E-5  
 2.294000000000000E10   -3.421941946726292E-4   1.021268326439895E-4  
 2.296000000000000E10   -3.711724639288150E-5   9.170519479084760E-5  
 2.298000000000000E10    2.120148419635370E-4  -1.229865883942694E-4  
 2.300000000000000E10   -2.029408933594823E-4  -1.533284521428868E-4  
 2.302000000000000E10   -5.589810825767927E-5   4.437727511685807E-6  
 2.304000000000000E10    2.318065817235038E-4   9.613533620722592E-5  
 2.306000000000000E10    1.452571013942361E-4  -8.290604455396533E-5  
 2.308000000000000E10    3.496227463983814E-6  -1.961478410521522E-4  
 2.310000000000000E10   -3.158910258207470E-4   2.549681521486491E-4  
 2.312000000000000E10    6.477547867689282E-5   1.396558654960245E-4  
 2.314000000000000E10    3.489945083856583E-4   8.102477295324206E-5  
 2.316000000000000E10   -3.265747727709822E-5  -2.676591429917608E-5  
 2.318000000000000E10   -3.689135191962123E-4   2.764394594123587E-5  
 2.320000000000000E10   -1.057448534993455E-4   1.986397692235187E-4  
 2.322000000000000E10    1.268241903744638E-4  -9.585602674633265E-5  
 2.324000000000000E10   -1.946258853422478E-4  -5.213092299527489E-5  
 2.326000000000000E10   -2.315783931408078E-4   1.918894558912143E-4  
 2.328000000000000E10    5.057550151832402E-5   1.217680837726221E-4  
 2.330000000000000E10    7.604752318002284E-5   8.244586206274107E-5  
 2.332000000000000E10    5.211557436268777E-5  -4.198866008664481E-5  
 2.334000000000000E10   -1.690384960966185E-4   3.689829609356821E-4  
 2.336000000000000E10    2.650954411365092E-4  -2.528898039599881E-5  
 2.338000000000000E10   -6.311934703262523E-5  -2.091561327688396E-4  
 2.340000000000000E10   -4.224816802889109E-4  -1.643309078644961E-4  
 2.342000000000000E10   -8.143659943016246E-5   3.804998996201903E-4  
 2.344000000000000E10    3.138549509458244E-4   6.794770888518542E-5  
 2.346000000000000E10   -1.698452251730487E-5  -4.126314888708293E-4  
 2.348000000000000E10   -4.355412675067782E-4   3.993828431703150E-4  
 2.350000000000000E10    2.050639159278944E-4   2.984452003147453E-4  
 2.352000000000000E10    4.622915002983064E-4  -3.336341760586947E-4  
 2.354000000000000E10   -3.234505129512399E-4  -3.028915380127728E-4  
 2.356000000000000E10   -2.810197765938938E-4   3.627776750363410E-4  
 2.358000000000000E10    3.767229500226677E-4   1.799682795535773E-4  
 2.360000000000000E10    1.172222328023054E-4  -1.974626648006961E-4  
 2.362000000000000E10   -3.297319053672254E-4  -9.232088814314921E-6  
 2.364000000000000E10   -1.320945157203823E-4   1.366840879200026E-4  
 2.366000000000000E10    3.786960151046515E-4  -3.160590858897194E-5  
 2.368000000000000E10   -1.028916158247739E-4  -3.517165605444461E-4  
 2.370000000000000E10   -5.384356336435303E-5   1.197512028738856E-4  
 2.372000000000000E10    2.914254437200725E-4   2.296037273481488E-4  
 2.374000000000000E10   -3.377851498953532E-6  -6.581550405826420E-5  
 2.376000000000000E10    5.738649997510947E-5   3.593734290916473E-4  
 2.378000000000000E10    8.923103450797498E-5   5.091457860544324E-4  
 2.380000000000000E10    2.551224897615612E-4   1.531974994577467E-4  
 2.382000000000000E10   -4.919257480651140E-5  -8.714872092241421E-5  
 2.384000000000000E10   -1.580111274961382E-4   2.942296268884093E-4  
 2.386000000000000E10   -7.478729821741581E-5   3.893871908076108E-4  
 2.388000000000000E10    3.258132201153785E-4  -2.076039527310059E-4  
 2.390000000000000E10   -2.820524969138205E-4  -4.061877261847258E-4  
 2.392000000000000E10   -4.663996514864266E-4   3.614633169490844E-4  
 2.394000000000000E10    5.324506200850010E-4   1.318168942816556E-4  
 2.396000000000000E10    4.749736399389803E-4  -3.044920449610800E-4  
 2.398000000000000E10   -1.779414305929095E-4  -9.050096559803933E-5  
 2.400000000000000E10   -2.880449028452858E-5   4.146339197177440E-4  
 2.402000000000000E10    2.257908636238426E-4   4.093767784070224E-4  
 2.404000000000000E10    5.235544449533336E-5  -1.458936749259010E-4  
 2.406000000000000E10   -2.687894739210606E-4   1.203264328069054E-4  
 2.408000000000000E10    3.389782432350330E-5   2.168395149055868E-4  
 2.410000000000000E10    1.028392580337822E-5   1.212272545672022E-4  
 2.412000000000000E10    8.704944889359467E-7  -1.581220421940088E-4  
 2.414000000000000E10    8.361551590496674E-5   8.516616071574390E-5  
 2.416000000000000E10    6.821384886279702E-5  -2.811558370012790E-4  
 2.418000000000000E10   -1.069427671609446E-4   1.143800836871378E-4  
 2.420000000000000E10    3.918263973901048E-5   2.501861017663032E-4  
 2.422000000000000E10    3.792815259657800E-4  -1.554570189910010E-4  
 2.424000000000000E10   -1.757272402755916E-4  -1.166779038612731E-4  
 2.426000000000000E10   -3.245024126954377E-4   1.815561554394662E-4  
 2.428000000000000E10    5.018926458433271E-5   2.658131998032332E-4  
 2.430000000000000E10    3.739223757293075E-4  -1.595063949935138E-4  
 2.432000000000000E10   -8.115440869005397E-5  -1.645201555220410E-4  
 2.434000000000000E10   -3.648917772807181E-4   9.217957995133475E-5  
 2.436000000000000E10   -4.260294736013748E-5  -4.497892859944841E-6  
 2.438000000000000E10    1.680622808635235E-4  -1.315272529609501E-4  
 2.440000000000000E10    8.534540393156931E-5  -3.011368098668754E-4  
 2.442000000000000E10   -1.883818331407383E-4  -1.226189197041094E-4  
 2.444000000000000E10    3.041147283511236E-5   2.651498652994633E-5  
 2.446000000000000E10    1.110757293645293E-4   1.851586566772312E-4  
 2.448000000000000E10    7.095508044585586E-5  -1.730974909150973E-4  
 2.450000000000000E10   -1.092896127374843E-4  -2.025452122325078E-4  
 2.452000000000000E10   -3.682801907416433E-4   8.775961759965867E-5  
 2.454000000000000E10   -4.100665682926774E-5   1.733852695906535E-4  
 2.456000000000000E10    1.077191045624204E-4  -2.324570668861270E-4  
 2.458000000000000E10   -1.344401971437037E-4  -3.821586142294109E-4  
 2.460000000000000E10   -5.824184627272189E-4  -1.356409047730267E-4  
 2.462000000000000E10   -1.471233990741894E-4   4.295072285458446E-4  
 2.464000000000000E10    3.868166531901807E-4   1.355719432467595E-4  
 2.466000000000000E10   -3.883047320414335E-4  -5.680727190338075E-4  
 2.468000000000000E10   -6.208828417584300E-4   1.057347471942194E-4  
 2.470000000000000E10   -1.362415932817385E-4   4.968004650436342E-4  
 2.472000000000000E10    4.457757459022105E-4  -1.321652525803074E-4  
 2.474000000000000E10   -1.656207168707624E-4  -3.245143452659249E-4  
 2.476000000000000E10   -4.078667261637747E-4   4.575483399094082E-5  
 2.478000000000000E10    3.192730582668446E-5   4.975273041054606E-4  
 2.480000000000000E10    3.029081854037941E-4   5.904631507291924E-6  
 2.482000000000000E10    2.695846196729690E-4  -3.213540476281196E-4  
 2.484000000000000E10   -5.099896807223558E-4  -4.452137363841757E-5  
 2.486000000000000E10   -1.266036124434322E-4   3.218719502910972E-4  
 2.488000000000000E10    2.483093121554703E-4   2.175949921365827E-4  
 2.490000000000000E10    6.918102008057758E-5  -2.742900978773832E-4  
 2.492000000000000E10   -1.681588619248942E-4  -8.965034066932276E-5  
 2.494000000000000E10   -1.507853303337470E-4  -1.561265526106581E-4  
 2.496000000000000E10    3.530805406626314E-5  -9.631263674236834E-5  
 2.498000000000000E10    1.576026988914236E-4  -8.155814430210739E-5  
 2.500000000000000E10    1.677140971878544E-4  -1.397146552335471E-4  
 2.502000000000000E10   -3.042455646209419E-4  -1.142436231020838E-4  
 2.504000000000000E10   -3.776971134357154E-4   2.662306651473045E-4  
 2.506000000000000E10    3.202257794328034E-4   5.182438180781901E-4  
 2.508000000000000E10    1.172499250969850E-4  -3.705926355905831E-4  
 2.510000000000000E10   -3.599975025281310E-4  -4.608674789778888E-4  
 2.512000000000000E10   -3.714112390298396E-4   3.000750439241529E-4  
 2.514000000000000E10    3.290216263849288E-4   2.249916433356702E-4  
 2.516000000000000E10    3.116981824859977E-4  -1.752862881403416E-4  
 2.518000000000000E10   -2.380538790021092E-4  -3.330805338919163E-4  
 2.520000000000000E10   -2.084237203234807E-4   3.961854090448469E-4  
 2.522000000000000E10    1.759355654940009E-4   4.484338860493153E-4  
 2.524000000000000E10    2.875687787309289E-4  -1.225992891704664E-4  
 2.526000000000000E10   -3.823486040346324E-4  -4.987239371985197E-4  
 2.528000000000000E10   -5.152571247890592E-4   1.463042281102389E-4  
 2.530000000000000E10    1.628544850973412E-4   5.034132627770305E-4  
 2.532000000000000E10    4.107269924134016E-4  -1.361462636850774E-4  
 2.534000000000000E10   -9.130580110650044E-6  -2.539293782319874E-4  
 2.536000000000000E10   -1.209078691317700E-4  -1.327112404396758E-4  
 2.538000000000000E10   -2.814348044921644E-5   3.809260670095682E-5  
 2.540000000000000E10   -1.044323380483547E-5   2.150668115064036E-5  
 2.542000000000000E10    2.226380020147190E-4  -8.235170389525592E-5  
 2.544000000000000E10   -8.692006667843089E-5  -1.719007996143773E-4  
 2.546000000000000E10   -3.534990537445992E-4   7.081678631948307E-5  
 2.548000000000000E10    1.587211227160879E-5   3.667346027214080E-4  
 2.550000000000000E10    3.980798355769366E-4  -1.015544330584817E-4  
 2.552000000000000E10   -8.469259773846716E-5  -3.122175985481590E-4  
 2.554000000000000E10   -2.342759980820119E-4  -4.218872345518321E-5  
 2.556000000000000E10    1.194048854813445E-5   2.388658322161064E-4  
 2.558000000000000E10    2.637724101077765E-4   9.757732914295048E-5  
 2.560000000000000E10    5.865028924745275E-7  -4.644615983124822E-4  
 2.562000000000000E10   -1.419362524757162E-4  -9.958840382751077E-5  
 2.564000000000000E10    2.173359644075390E-5   3.998542088083923E-4  
 2.566000000000000E10    5.918160895816982E-4   1.799638266675174E-5  
 2.568000000000000E10   -4.935000470140949E-5  -3.673169121611863E-4  
 2.570000000000000E10   -4.848436219617724E-4  -3.196742454747437E-6  
 2.572000000000000E10    2.630883136589546E-5   2.040099789155647E-4  
 2.574000000000000E10    2.314974408363923E-4  -1.723181339912117E-4  
 2.576000000000000E10    1.288049097638577E-4  -3.531182592269033E-4  
 2.578000000000000E10   -5.050214167567901E-5  -2.185084158554673E-4  
 2.580000000000000E10    1.326314813923091E-4   3.063360054511577E-5  
 2.582000000000000E10    2.564664173405618E-4  -1.733692042762414E-4  
 2.584000000000000E10    2.290361408086028E-5  -1.762188330758363E-4  
 2.586000000000000E10   -1.440880150767043E-4  -5.343399607227184E-5  
 2.588000000000000E10    1.329360820818692E-4  -3.498858859529719E-5  
 2.590000000000000E10   -2.279609179822728E-4   1.883462246041745E-4  
 2.592000000000000E10    4.799610178451985E-5  -1.059352725860663E-4  
 2.594000000000000E10    2.680770921870135E-5  -5.139993845659774E-6  
 2.596000000000000E10   -2.373864117544144E-4  -9.086795034818351E-5  
 2.598000000000000E10    8.467375300824642E-5   1.398831809638068E-4  
 2.600000000000000E10    2.250337565783411E-4   3.617947731981985E-5  
 2.602000000000000E10    1.538051765237469E-5  -3.075088025070727E-4  
 2.604000000000000E10   -2.873708435799927E-4  -8.627871284261346E-5  
 2.606000000000000E10   -3.145815207972191E-5   3.541038313414902E-4  
 2.608000000000000E10    2.977325057145208E-4   5.621043601422571E-5  
 2.610000000000000E10    2.297471510246396E-4  -3.234468458686024E-4  
 2.612000000000000E10   -4.075380857102573E-4  -1.961763773579150E-4  
 2.614000000000000E10    3.133719656034373E-5   4.650378541555256E-4  
 2.616000000000000E10    2.974229573737830E-4   1.239770208485425E-4  
 2.618000000000000E10   -3.510959140839987E-5  -3.988109529018402E-4  
 2.620000000000000E10   -5.321843782439828E-4  -3.343848584336229E-5  
 2.622000000000000E10   -3.121142071904615E-5   1.573093031765893E-4  
 2.624000000000000E10    2.186250640079379E-4  -1.310629304498434E-4  
 2.626000000000000E10   -1.349559024674818E-4  -4.920489154756069E-4  
 2.628000000000000E10   -6.399405538104475E-5  -1.134577614720911E-4  
 2.630000000000000E10   -9.560996113577858E-5   9.664459503255785E-5  
 2.632000000000000E10    8.383406384382397E-5  -3.984137947554700E-5  
 2.634000000000000E10    1.353162806481123E-4   2.363041312491987E-5  
 2.636000000000000E10   -2.338187005079817E-5   3.405220240892959E-6  
 2.638000000000000E10   -6.981093611102551E-5  -4.194372377241962E-5  
 2.640000000000000E10    1.076997432392091E-5  -1.333939599135192E-5  
 2.642000000000000E10   -8.074135257629678E-5  -2.716753806453198E-4  
 2.644000000000000E10    1.059213027474470E-4  -2.717681054491550E-4  
 2.646000000000000E10   -2.956302751044859E-6  -1.723278837744147E-4  
 2.648000000000000E10    2.716595736274030E-5  -2.583153836894780E-4  
 2.650000000000000E10    3.846898107440211E-5   5.730832344852388E-5  
 2.652000000000000E10    2.546730975154787E-4  -2.124443881257321E-6  
 2.654000000000000E10    2.508241959731095E-5  -2.075473166769370E-4  
 2.656000000000000E10   -1.520338992122561E-4   5.109911944600754E-5  
 2.658000000000000E10    4.151419489062391E-5   1.914372405735776E-4  
 2.660000000000000E10   -3.697549254866317E-5  -1.565780839882791E-4  
 2.662000000000000E10   -3.100965404883027E-4  -1.694298553047702E-4  
 2.664000000000000E10   -1.168732123915106E-4   1.150738171418198E-5  
 2.666000000000000E10    3.111736732535064E-4   9.576070442562923E-5  
 2.668000000000000E10    1.473262673243880E-4  -2.019458188442513E-4  
 2.670000000000000E10   -2.829061122611165E-4   5.202874672249891E-5  
 2.672000000000000E10    4.310411441110773E-6   2.292582503287122E-4  
 2.674000000000000E10    2.704538346733898E-4   2.606238995213062E-4  
 2.676000000000000E10   -5.156503175385296E-5  -2.956967000500299E-5  
 2.678000000000000E10   -2.164096222259104E-4  -3.552328416844830E-5  
 2.680000000000000E10    1.540511584607884E-5   2.405449340585619E-4  
 2.682000000000000E10   -2.437522744003218E-5  -4.978680226486176E-5  
 2.684000000000000E10   -3.149472831864841E-6   8.386339322896674E-5  
 2.686000000000000E10   -4.744119723909535E-5   7.813583215465769E-5  
 2.688000000000000E10   -5.597423296421766E-6   7.936621841508895E-5  
 2.690000000000000E10   -8.336175233125687E-5  -1.185662426905765E-6  
 2.692000000000000E10    1.034432934829965E-4   1.092534512281418E-4  
 2.694000000000000E10    1.136158971348777E-4   7.342169556068257E-5  
 2.696000000000000E10    3.081409522565082E-5  -1.581597753101960E-4  
 2.698000000000000E10   -1.146577233157586E-5  -5.150655124452896E-5  
 2.700000000000000E10    7.873914728406817E-5   1.910091086756438E-4  
 2.702000000000000E10    3.205552347935736E-4  -1.693476224318147E-4  
 2.704000000000000E10   -1.506013504695147E-4  -1.561219105497003E-4  
 2.706000000000000E10   -2.697425952646881E-4   1.768963265931234E-4  
 2.708000000000000E10    2.575281541794539E-4   2.259014727314934E-4  
 2.710000000000000E10    2.103785809595138E-4  -1.614032807992771E-4  
 2.712000000000000E10   -2.615995472297072E-4  -1.706470357021317E-4  
 2.714000000000000E10   -2.439338859403506E-4   1.723207387840375E-4  
 2.716000000000000E10   -3.746819629668607E-6   4.359516315162182E-4  
 2.718000000000000E10    2.194084372604266E-4  -3.971234400523827E-5  
 2.720000000000000E10   -1.485582033637911E-4  -2.831238962244242E-4  
 2.722000000000000E10   -1.209747133543715E-4   4.208424343232764E-6  
 2.724000000000000E10    1.697941042948514E-4   1.820499019231647E-4  
 2.726000000000000E10    2.118839620379731E-4  -2.330872521270067E-4  
 2.728000000000000E10   -1.471986615797505E-4  -1.791755639715120E-4  
 2.730000000000000E10   -1.032368527376093E-4  -4.753972098114900E-5  
 2.732000000000000E10    1.396688276145142E-6   8.690038521308452E-5  
 2.734000000000000E10   -6.280915113165975E-5   1.080664787878050E-5  
 2.736000000000000E10    2.382048696745187E-4   4.037775215692818E-5  
 2.738000000000000E10    2.156038499379065E-5  -1.557272917125374E-4  
 2.740000000000000E10   -2.506725722923875E-4  -1.071517326636240E-4  
 2.742000000000000E10   -1.359478483209387E-4   8.571473881602287E-5  
 2.744000000000000E10    2.178008580813184E-4   6.399815174518153E-5  
 2.746000000000000E10    3.829093475360423E-5  -3.109765239059925E-4  
 2.748000000000000E10   -1.747881178744137E-4  -3.540629040799104E-5  
 2.750000000000000E10   -6.232449231902137E-5   2.165853366022930E-4  
 2.752000000000000E10    1.014814260997810E-4  -2.305305679328740E-5  
 2.754000000000000E10    1.320474693784490E-4  -2.283347130287439E-4  
 2.756000000000000E10   -2.726867096498609E-4  -1.690358185442165E-4  
