#  HZ   S   RI   R     50.00 
! Rohde & Schwarz ZVA40 4Ports - Version 3.90 - 1145.1110k42 SN: 100403
! Date: 2023-10-04 07:48:27
! Measurement: S12 
! 
 2.200000000000000E10    2.205743658123538E-4  -1.325679186265916E-4  
 2.202000000000000E10   -3.099503228440881E-4   3.467050264589489E-4  
 2.204000000000000E10    2.395841001998633E-4   2.089346380671486E-4  
 2.206000000000000E10    2.698297612369061E-4  -9.864562889561057E-5  
 2.208000000000000E10   -3.253851609770209E-4  -1.354615087620914E-4  
 2.210000000000000E10   -2.296076563652605E-4   1.327675563516095E-4  
 2.212000000000000E10    3.900747688021511E-4   4.970186273567379E-4  
 2.214000000000000E10    2.616737619973719E-4  -1.229117333423346E-4  
 2.216000000000000E10   -2.930998161900789E-4  -1.433601137250662E-4  
 2.218000000000000E10   -1.017715403577313E-4   3.080340975429863E-4  
 2.220000000000000E10    2.675274736247957E-4   1.089376455638558E-4  
 2.222000000000000E10    1.821763726184145E-4  -2.543205337133259E-4  
 2.224000000000000E10   -3.077686415053904E-4  -1.594849600223824E-4  
 2.226000000000000E10    2.274599537486211E-4   5.937952300882898E-5  
 2.228000000000000E10    1.844654761953279E-4   2.324006927665323E-4  
 2.230000000000000E10    1.033621811075136E-4  -1.866596576292068E-4  
 2.232000000000000E10   -4.849282049690373E-5   3.930244711227715E-4  
 2.234000000000000E10    9.421573486179113E-5   2.134517417289317E-4  
 2.236000000000000E10   -2.626917557790875E-4   7.995646592462435E-5  
 2.238000000000000E10   -1.431130658602342E-4  -1.122427784139291E-5  
 2.240000000000000E10   -1.495715241617290E-5   1.221004058606923E-4  
 2.242000000000000E10    6.878603016957641E-6  -2.482339914422482E-4  
 2.244000000000000E10   -3.191202704329044E-4  -2.822298847604543E-4  
 2.246000000000000E10   -2.651583927217871E-4   3.865141188725829E-4  
 2.248000000000000E10    3.498449223116040E-4  -1.254773233085871E-4  
 2.250000000000000E10    2.782891388051212E-4  -4.839729226659983E-4  
 2.252000000000000E10   -1.846427912823856E-4  -2.649592352099717E-4  
 2.254000000000000E10   -1.604898570803925E-4   4.113813920412213E-4  
 2.256000000000000E10    4.981904057785869E-4   1.910802966449410E-4  
 2.258000000000000E10    3.736708313226700E-4  -2.187129139201716E-4  
 2.260000000000000E10   -3.019786090590060E-4  -4.379878519102931E-4  
 2.262000000000000E10   -6.919616134837270E-5   2.456189249642193E-4  
 2.264000000000000E10    2.842284447979182E-4   2.689683169592172E-4  
 2.266000000000000E10    3.678117936942726E-4  -3.866031474899501E-4  
 2.268000000000000E10   -4.108704160898924E-4  -1.822884078137577E-4  
 2.270000000000000E10   -2.908692113123834E-4   1.896270550787449E-4  
 2.272000000000000E10    3.409458149690181E-4   1.720252912491560E-4  
 2.274000000000000E10    2.930308110080659E-4  -3.442258166614920E-4  
 2.276000000000000E10   -1.098488937714137E-4  -1.507817214587703E-4  
 2.278000000000000E10   -4.512730811256915E-5   2.104799059452489E-4  
 2.280000000000000E10    4.969708970747888E-4  -1.693832200544421E-5  
 2.282000000000000E10    9.271167800761759E-5  -1.569367741467431E-4  
 2.284000000000000E10   -7.825182547094300E-5  -2.226866126875393E-5  
 2.286000000000000E10   -5.647473517456092E-5   4.255702660884708E-4  
 2.288000000000000E10    2.139286661986262E-4  -1.486487890360877E-4  
 2.290000000000000E10   -3.178558254148811E-4  -2.340179053135216E-4  
 2.292000000000000E10   -2.366532717132941E-4  -2.963127190014347E-5  
 2.294000000000000E10    1.032463405863382E-4   2.677713382581715E-5  
 2.296000000000000E10    1.801504549803212E-4  -3.692078171297908E-4  
 2.298000000000000E10   -2.044123102677986E-4  -1.093123428290710E-4  
 2.300000000000000E10    7.610757893417031E-5  -4.749993604491465E-5  
 2.302000000000000E10    1.867824612418190E-4   2.098598342854530E-4  
 2.304000000000000E10    1.773057592799887E-4  -3.021421725861728E-4  
 2.306000000000000E10   -2.471743209753186E-4  -1.091167723643594E-4  
 2.308000000000000E10   -6.859435234218836E-5   5.651734682032839E-5  
 2.310000000000000E10    3.816231328528374E-4  -5.580507786362432E-5  
 2.312000000000000E10   -8.582747977925465E-5  -3.658196656033397E-4  
 2.314000000000000E10   -4.513405656325631E-5   1.011683489196003E-4  
 2.316000000000000E10    2.681883634068072E-4   1.171740514109843E-4  
 2.318000000000000E10    6.986072548897937E-5  -4.925072425976396E-4  
 2.320000000000000E10   -5.976945394650102E-4   9.997102461056784E-5  
 2.322000000000000E10   -1.561317913001403E-4   1.219518435391365E-5  
 2.324000000000000E10    4.604957648552954E-4  -2.610248629935086E-4  
 2.326000000000000E10   -1.028971091727726E-4  -6.587362149730325E-4  
 2.328000000000000E10   -4.433789872564375E-4   2.310335839865729E-4  
 2.330000000000000E10    1.982286776183173E-4   4.554995684884489E-4  
 2.332000000000000E10    5.890146712772548E-4  -2.241486072307453E-4  
 2.334000000000000E10   -3.608071128837764E-4  -6.039197905920446E-4  
 2.336000000000000E10   -5.638764705508947E-4   4.147897998336703E-4  
 2.338000000000000E10    2.002091350732371E-4   4.838208842556924E-4  
 2.340000000000000E10    3.876911650877446E-4  -2.789732243400067E-4  
 2.342000000000000E10   -5.535781965591013E-4  -4.038200713694096E-4  
 2.344000000000000E10   -5.006402498111129E-4   4.200939438305795E-4  
 2.346000000000000E10    2.068476314889267E-4   2.092994254780933E-4  
 2.348000000000000E10    1.087067430489697E-4  -3.109561221208423E-4  
 2.350000000000000E10   -2.400129451416433E-4   3.927888610633090E-5  
 2.352000000000000E10    1.081129812519066E-4   2.195346751250327E-4  
 2.354000000000000E10   -1.906282268464565E-4   8.292750862892717E-5  
 2.356000000000000E10    1.337142657575896E-5  -2.057391247944906E-5  
 2.358000000000000E10    2.594078541733325E-4   2.175235422328115E-4  
 2.360000000000000E10   -4.994460596208228E-6  -8.039544627536088E-5  
 2.362000000000000E10   -1.149351446656510E-4  -1.439599000150338E-4  
 2.364000000000000E10   -3.659540961962193E-4   1.851224515121430E-4  
 2.366000000000000E10    2.697382878977805E-4   2.124574239132926E-4  
 2.368000000000000E10    3.311482723802328E-4  -2.116127143381164E-4  
 2.370000000000000E10   -3.455376136116684E-4  -9.823503205552697E-5  
 2.372000000000000E10   -3.413410740904510E-4   2.854941703844816E-4  
 2.374000000000000E10    2.789198479149491E-4   1.256410178029910E-4  
 2.376000000000000E10   -6.116022177593550E-6  -2.646864159032702E-4  
 2.378000000000000E10   -5.030032480135560E-4  -2.374328323639929E-4  
 2.380000000000000E10   -1.572583423694596E-4   4.206068697385490E-4  
 2.382000000000000E10    7.697630644543096E-5  -5.132361548021436E-5  
 2.384000000000000E10    9.811883501242846E-5   1.046276156557724E-4  
 2.386000000000000E10   -4.130482848268002E-4  -8.528817124897614E-5  
 2.388000000000000E10   -2.778535126708448E-4  -7.629457832081243E-5  
 2.390000000000000E10    1.170499963336624E-4  -1.044673626893200E-4  
 2.392000000000000E10   -1.550577144371346E-4  -1.968776923604310E-4  
 2.394000000000000E10   -2.744566518231295E-5   1.053333326126449E-4  
 2.396000000000000E10   -2.985479368362576E-4   1.275732938665897E-4  
 2.398000000000000E10   -1.688324700808153E-4   3.411311263334937E-5  
 2.400000000000000E10   -1.131040971813491E-5   2.956590615212917E-4  
 2.402000000000000E10    2.280283370055258E-4   3.171224088873714E-4  
 2.404000000000000E10   -2.960626734420657E-4  -7.025287777651101E-5  
 2.406000000000000E10   -3.142633431707509E-5   1.191429764730856E-4  
 2.408000000000000E10    2.348838461330161E-4   7.676720269955695E-5  
 2.410000000000000E10   -1.134740159614012E-4  -4.071511502843350E-4  
 2.412000000000000E10   -1.537250209366903E-4  -1.185283035738394E-4  
 2.414000000000000E10   -1.509054418420419E-4   5.284938379190862E-4  
 2.416000000000000E10    2.956315001938492E-4   8.526689634891227E-5  
 2.418000000000000E10   -1.658742075960618E-5  -2.598985738586634E-4  
 2.420000000000000E10   -2.137612173100933E-4   1.068792626028881E-4  
 2.422000000000000E10    1.800506652216427E-5   2.773946907836944E-4  
 2.424000000000000E10    1.177687299787067E-4   4.933041782351211E-5  
 2.426000000000000E10   -2.569221396697685E-5  -2.540087189117912E-5  
 2.428000000000000E10   -2.314432786079124E-4   1.641343260416761E-4  
 2.430000000000000E10    1.181186235044152E-4   8.846603304846212E-5  
 2.432000000000000E10   -2.487584060872905E-5   2.503358518879395E-5  
 2.434000000000000E10   -2.127488260157406E-4   1.288899511564523E-4  
 2.436000000000000E10    2.058549871435389E-4  -3.670462683658116E-5  
 2.438000000000000E10    1.653358631301671E-4  -2.515499363653362E-5  
 2.440000000000000E10   -2.714361762627959E-4  -2.770148275885731E-4  
 2.442000000000000E10   -1.204528416565154E-5   4.041928332298994E-4  
 2.444000000000000E10    4.027337417937815E-4  -1.506655917182798E-5  
 2.446000000000000E10   -1.678024855209515E-4  -4.047846305184066E-4  
 2.448000000000000E10   -4.219601687509567E-4   1.153432967839763E-4  
 2.450000000000000E10    7.179346721386537E-5   3.024690377060324E-4  
 2.452000000000000E10    3.754167410079390E-4  -5.999002605676651E-4  
 2.454000000000000E10   -1.460620405850932E-4  -7.600117824040353E-4  
 2.456000000000000E10   -2.305862872162834E-4   2.709372201934457E-4  
 2.458000000000000E10    5.888050072826445E-4   2.805707335937768E-4  
 2.460000000000000E10    5.129114651936106E-5  -2.043488493654877E-4  
 2.462000000000000E10   -2.303130022482947E-4  -9.913846588460729E-5  
 2.464000000000000E10   -2.295862213941291E-4   1.716753322398290E-4  
 2.466000000000000E10    2.672817499842495E-4   1.767678768374026E-4  
 2.468000000000000E10    8.493181667290628E-5  -2.157215349143371E-4  
 2.470000000000000E10   -3.344965516589582E-4  -2.517394605092704E-4  
 2.472000000000000E10   -1.273946836590767E-4  -2.474646680639125E-5  
 2.474000000000000E10    4.358986552688293E-5  -9.255090844817460E-5  
 2.476000000000000E10    2.211936516687274E-4  -2.432910259813070E-4  
 2.478000000000000E10   -1.206035158247687E-4  -6.833753286628053E-5  
 2.480000000000000E10    6.925741035956889E-5   9.694667096482590E-5  
 2.482000000000000E10    1.387215888826177E-6  -3.585654849302955E-5  
 2.484000000000000E10   -1.185210276162252E-4  -2.490220067556948E-4  
 2.486000000000000E10    2.422848956484813E-5  -5.182287350180559E-5  
 2.488000000000000E10    1.406921801390126E-4  -2.144853933714330E-4  
 2.490000000000000E10   -9.986364602809772E-5  -7.731282676104456E-5  
 2.492000000000000E10    2.177627538912930E-5   3.995607257820666E-4  
 2.494000000000000E10    5.021140677854419E-4  -1.982268258871045E-5  
 2.496000000000000E10    3.527720036800019E-5  -4.262907605152577E-4  
 2.498000000000000E10   -4.145204438827932E-4   1.912911830004305E-5  
 2.500000000000000E10   -1.459271879866719E-4   3.319093666505069E-4  
 2.502000000000000E10    4.099580401089042E-4  -2.142260927939788E-4  
 2.504000000000000E10   -1.237926044268534E-4  -5.130229983478785E-4  
 2.506000000000000E10   -3.883056924678385E-4   9.317799413111061E-5  
 2.508000000000000E10    2.504456642782316E-5   2.073756186291575E-4  
 2.510000000000000E10    4.340381128713489E-4   5.300356497173198E-5  
 2.512000000000000E10    5.180945663596503E-5  -2.546999021433294E-4  
 2.514000000000000E10   -2.308154944330454E-4  -3.942643888876773E-5  
 2.516000000000000E10   -7.830695722077508E-6   4.482354270294309E-4  
 2.518000000000000E10    2.772643056232482E-4   2.667347689566668E-5  
 2.520000000000000E10    3.555433431756683E-5  -2.684379869606346E-4  
 2.522000000000000E10   -1.338914007646963E-4  -2.386917549301870E-5  
 2.524000000000000E10    9.928015060722828E-5   1.345385098829866E-4  
 2.526000000000000E10    1.740666048135608E-4  -1.187026209663600E-4  
 2.528000000000000E10   -9.947872604243457E-5  -2.559070417191833E-4  
 2.530000000000000E10   -3.161304994137026E-5   6.584865786862792E-6  
 2.532000000000000E10    9.027228225022554E-5   2.237141052319203E-5  
 2.534000000000000E10   -1.242285215994343E-4  -1.400979672325775E-4  
 2.536000000000000E10   -5.535492527997121E-5  -9.663533273851499E-5  
 2.538000000000000E10   -2.028034359682351E-4  -2.221895701950416E-4  
 2.540000000000000E10   -9.821190178627148E-5  -3.378147084731609E-4  
 2.542000000000000E10   -2.662510780737648E-7   8.250503742601723E-5  
 2.544000000000000E10    5.424838309409097E-5   3.477575546639855E-6  
 2.546000000000000E10    1.618096284801140E-4  -2.933000723714940E-5  
 2.548000000000000E10   -2.369826834183186E-4  -1.130297750933096E-4  
 2.550000000000000E10    7.229318725876510E-5   1.420758926542476E-4  
 2.552000000000000E10    1.950905607372988E-5  -8.886866271495819E-5  
 2.554000000000000E10   -4.660111153498292E-5  -2.147927298210561E-4  
 2.556000000000000E10   -3.332812048029155E-4   8.345634705619887E-5  
 2.558000000000000E10    2.433202898828313E-4  -4.149340747972019E-5  
 2.560000000000000E10    1.750358642311767E-4  -5.207049980526790E-6  
 2.562000000000000E10    1.115603809012100E-4  -6.449288048315793E-5  
 2.564000000000000E10    3.954727435484529E-5   1.259707369172247E-5  
 2.566000000000000E10    1.572818582644686E-4  -4.025251655548345E-6  
 2.568000000000000E10   -1.288405037485063E-4  -5.114963641972281E-5  
 2.570000000000000E10   -3.873710520565510E-4  -1.351137470919639E-4  
 2.572000000000000E10   -9.488400974078104E-5   1.392071280861273E-4  
 2.574000000000000E10   -1.032017898978666E-4  -1.815179857658222E-4  
 2.576000000000000E10    1.764192420523614E-4  -1.217535900650546E-4  
 2.578000000000000E10    7.048995030345395E-5   2.899281680583954E-4  
 2.580000000000000E10    2.762781514320523E-4  -1.216886903421255E-5  
 2.582000000000000E10   -1.180119143100455E-4  -6.932971155038104E-5  
 2.584000000000000E10   -3.868867061100900E-4   7.812189141986892E-5  
 2.586000000000000E10   -2.530043275328353E-5   2.439790841890499E-4  
 2.588000000000000E10    2.854690828826278E-4   7.269417255884036E-5  
 2.590000000000000E10   -1.781393220881000E-4  -2.934892254415900E-4  
 2.592000000000000E10   -4.177126975264400E-4   1.365174975944683E-4  
 2.594000000000000E10    2.644642372615635E-4   2.939988044090569E-4  
 2.596000000000000E10    2.994562964886427E-4  -1.966297131730244E-4  
 2.598000000000000E10   -4.154708876740187E-4  -1.329977530986071E-4  
 2.600000000000000E10   -1.964638067875058E-4   1.336154091404751E-4  
 2.602000000000000E10    3.198018384864554E-5   2.641667670104653E-4  
 2.604000000000000E10    1.814538845792413E-4  -2.202335017500445E-4  
 2.606000000000000E10   -9.403563308296725E-5  -2.842150279320777E-4  
 2.608000000000000E10   -2.350770082557574E-4   2.389558358117938E-4  
 2.610000000000000E10    2.536998072173446E-4  -2.781609055091394E-6  
 2.612000000000000E10   -5.813961251988076E-5  -2.558866690378636E-4  
 2.614000000000000E10   -1.878898328868672E-4   2.021909749601036E-4  
 2.616000000000000E10    2.502184361219406E-4   1.192064810311422E-4  
 2.618000000000000E10   -8.081008786575694E-7  -1.411597768310458E-4  
 2.620000000000000E10   -2.395484625594690E-4   7.761173037579283E-5  
 2.622000000000000E10    1.302922755712643E-4   2.150891959900037E-4  
 2.624000000000000E10    2.933255163952708E-4  -7.454708247678354E-5  
 2.626000000000000E10   -2.740171657933388E-5  -3.979643515776843E-4  
 2.628000000000000E10   -4.460912605281919E-4   2.385118277743459E-4  
 2.630000000000000E10    7.734148675808683E-5   3.978451713919640E-4  
 2.632000000000000E10    3.787269524764270E-4  -1.631558698136360E-4  
 2.634000000000000E10   -2.128430969605688E-5  -4.465247329790145E-4  
 2.636000000000000E10   -3.736638172995299E-4   3.321847470942885E-4  
 2.638000000000000E10    2.237888984382153E-4   3.897700808010995E-4  
 2.640000000000000E10    3.291227912995964E-4  -2.642679028213024E-4  
 2.642000000000000E10   -2.360631769988686E-4  -3.867353079840541E-4  
 2.644000000000000E10   -3.554545692168176E-4   3.585188824217767E-4  
 2.646000000000000E10    2.655326679814607E-4   3.071143291890621E-4  
 2.648000000000000E10    3.819709309027530E-5  -5.587742780335248E-4  
 2.650000000000000E10   -3.981076588388532E-4  -2.048015740001574E-4  
 2.652000000000000E10    2.699716560528032E-6   4.999356460757554E-4  
 2.654000000000000E10    2.956231473945081E-4   3.008283965755254E-4  
 2.656000000000000E10   -6.428227789001539E-5  -1.607177255209535E-4  
 2.658000000000000E10   -2.860124222934246E-4   6.309347372734919E-5  
 2.660000000000000E10   -1.501024817116559E-4   2.344020322198048E-4  
 2.662000000000000E10    3.661810114863329E-5  -1.383929484291002E-4  
 2.664000000000000E10   -1.489737624069676E-4  -2.179877337766811E-4  
 2.666000000000000E10   -1.349850645055994E-4  -1.021772623062134E-4  
 2.668000000000000E10    7.294952229131013E-5  -1.524128892924637E-4  
 2.670000000000000E10    1.715175167191774E-4   5.124802191858180E-5  
 2.672000000000000E10   -9.697995119495317E-5   9.941165444615763E-6  
 2.674000000000000E10    9.695511107565835E-5   8.098343096207827E-5  
 2.676000000000000E10    9.218080958817154E-5  -7.935557368909940E-5  
 2.678000000000000E10    6.678684258076828E-6  -2.339774800930172E-4  
 2.680000000000000E10   -1.498253841418773E-4   1.928744022734463E-4  
 2.682000000000000E10   -9.216438775183633E-5   1.286189944949001E-4  
 2.684000000000000E10    2.807808778015897E-5  -1.845560327637941E-4  
 2.686000000000000E10   -1.107581338146702E-4  -7.489920244552195E-5  
 2.688000000000000E10    1.097093627322465E-4   1.587081787874922E-4  
 2.690000000000000E10    2.431150787742809E-4  -9.045381739269942E-5  
 2.692000000000000E10    3.634759650594788E-6  -9.631602006265894E-5  
 2.694000000000000E10   -1.604653953108937E-4   1.359597081318498E-4  
 2.696000000000000E10    6.827304605394602E-5   2.078213583445177E-4  
 2.698000000000000E10    1.896042085718364E-4  -2.609765797387809E-4  
 2.700000000000000E10   -3.021677912329324E-5  -6.386263703461736E-5  
 2.702000000000000E10   -2.145029866369441E-4   2.624160842970014E-4  
 2.704000000000000E10    1.887725811684504E-4  -8.392021118197590E-5  
 2.706000000000000E10    1.618617970962077E-4   5.315882663126104E-5  
 2.708000000000000E10   -1.193635107483715E-4  -3.423126763664186E-4  
 2.710000000000000E10   -3.230727452319115E-4  -4.747243292513304E-5  
 2.712000000000000E10    9.166372910840437E-5   2.770826977211982E-4  
 2.714000000000000E10    2.276456507388502E-4  -1.932414452312514E-4  
 2.716000000000000E10   -3.506342545733787E-5  -2.393198374193162E-4  
 2.718000000000000E10   -1.791896793292835E-4   1.928073033923283E-4  
 2.720000000000000E10    6.175564340082929E-5   1.342054601991549E-4  
 2.722000000000000E10    3.374559746589512E-4  -1.326994970440865E-4  
 2.724000000000000E10    6.801371000619838E-6  -1.198794270749204E-4  
 2.726000000000000E10   -2.260034962091595E-4   3.613215812947601E-5  
 2.728000000000000E10    8.721707854419947E-5   2.334341697860509E-4  
 2.730000000000000E10    3.861452569253743E-4  -2.325679452042095E-5  
 2.732000000000000E10    1.923879899550229E-4  -2.936657401733100E-4  
 2.734000000000000E10   -6.755821232218295E-5   7.232080679386854E-5  
 2.736000000000000E10    3.905667472281493E-5   3.470759838819504E-4  
 2.738000000000000E10    3.287088184151799E-4  -3.219638529117219E-5  
 2.740000000000000E10   -1.311251398874447E-4  -2.035578363575041E-4  
 2.742000000000000E10   -2.485048898961395E-4   1.095146362786181E-4  
 2.744000000000000E10   -1.494838797952980E-4   3.675970947369933E-4  
 2.746000000000000E10    2.143808087566868E-4  -1.118672080338001E-4  
 2.748000000000000E10    7.756381091894582E-5  -8.908200834412128E-5  
 2.750000000000000E10   -1.368512603221461E-4   5.594260073849000E-5  
 2.752000000000000E10    5.860209785168991E-5   1.085815456463024E-4  
 2.754000000000000E10    3.414848470129073E-5  -5.774101373390295E-5  
 2.756000000000000E10    1.167834343505092E-4  -7.348493090830743E-5  
