#  HZ   S   RI   R     50.00 
! Rohde & Schwarz ZVA40 4Ports - Version 3.90 - 1145.1110k42 SN: 100403
! Date: 2023-10-04 07:47:59
! Measurement: S12 
! 
 2.200000000000000E10   -1.417299354216084E-4  -4.773026739712805E-5  
 2.202000000000000E10   -2.262380876345560E-4   9.120613685809076E-5  
 2.204000000000000E10    4.689920388045721E-5   3.052810207009316E-4  
 2.206000000000000E10    3.116038569714874E-4  -2.146701735910028E-4  
 2.208000000000000E10   -4.290505603421480E-4  -1.757736463332549E-4  
 2.210000000000000E10   -4.883121582679451E-4   3.509137022774667E-4  
 2.212000000000000E10    1.460206694900990E-4   3.451414813753218E-4  
 2.214000000000000E10    5.910795298404992E-4  -4.000518820248544E-4  
 2.216000000000000E10   -5.201596068218350E-4  -3.736826183740050E-4  
 2.218000000000000E10   -4.411010304465890E-4   4.864493384957314E-4  
 2.220000000000000E10    5.380805814638734E-4   4.424383805599064E-4  
 2.222000000000000E10    6.862322334200144E-4  -5.880136741325259E-4  
 2.224000000000000E10   -4.314176330808550E-4  -7.037979667074978E-4  
 2.226000000000000E10   -3.136043087579310E-4   7.627050508745015E-4  
 2.228000000000000E10    6.739129312336445E-4   5.300472839735448E-4  
 2.230000000000000E10    7.001239573583007E-4  -4.671248316299170E-4  
 2.232000000000000E10   -4.639034741558135E-4  -3.815467935055494E-4  
 2.234000000000000E10   -3.115976578556001E-4   6.219609058462083E-4  
 2.236000000000000E10    3.900724987033755E-4   3.598555922508240E-4  
 2.238000000000000E10    2.347116096643731E-4  -1.322574098594487E-4  
 2.240000000000000E10   -1.174280405393802E-4  -2.267100644530729E-4  
 2.242000000000000E10   -3.702568355947733E-4   1.259557466255501E-4  
 2.244000000000000E10   -7.767896022414789E-5   5.285288807499455E-6  
 2.246000000000000E10    1.356656430289149E-4   1.639283582335338E-4  
 2.248000000000000E10    2.947935718111694E-4  -1.997724029934034E-4  
 2.250000000000000E10    2.852225152309984E-4  -1.962961978279054E-4  
 2.252000000000000E10   -3.207662375643849E-4  -1.272456865990534E-4  
 2.254000000000000E10   -1.384028291795403E-4   3.305964346509427E-4  
 2.256000000000000E10    5.613393150269985E-4   4.110645386390388E-4  
 2.258000000000000E10    3.711376630235463E-4  -5.216007702983916E-4  
 2.260000000000000E10   -7.836250588297844E-4  -4.636813537217677E-4  
 2.262000000000000E10   -5.733972648158670E-4   5.970743950456381E-4  
 2.264000000000000E10    6.889293435961008E-4   4.111936723347753E-4  
 2.266000000000000E10    5.132667720317841E-4  -9.391029598191381E-4  
 2.268000000000000E10   -8.416675264015794E-4  -3.629415587056428E-4  
 2.270000000000000E10   -3.189043782185763E-4   8.233955595642328E-4  
 2.272000000000000E10    1.058333902619779E-3   4.707581538241357E-4  
 2.274000000000000E10    1.584998244652525E-4  -6.921153981238604E-4  
 2.276000000000000E10   -7.990660378709436E-4  -3.768497845157981E-4  
 2.278000000000000E10   -2.850344462785870E-4   9.964013006538153E-4  
 2.280000000000000E10    6.334814243018627E-4   2.245141804451123E-4  
 2.282000000000000E10    5.003816331736744E-4  -5.981450085528195E-4  
 2.284000000000000E10   -6.174473091959953E-4  -1.279659627471119E-4  
 2.286000000000000E10   -8.186261402443051E-5   4.447162791620940E-4  
 2.288000000000000E10    6.004502647556365E-4  -9.512382530374453E-5  
 2.290000000000000E10   -8.114730007946491E-5  -3.930009843315929E-4  
 2.292000000000000E10   -2.167505881516263E-4  -4.510234430199489E-5  
 2.294000000000000E10    1.789961388567463E-4   2.056098164757714E-4  
 2.296000000000000E10    3.576905583031476E-4  -3.380578709766269E-4  
 2.298000000000000E10   -1.929161662701517E-4  -3.681508824229240E-4  
 2.300000000000000E10   -2.852686156984419E-4   4.232539795339108E-4  
 2.302000000000000E10    2.853105834219605E-4   1.791989052435383E-4  
 2.304000000000000E10    5.335321839083917E-5  -3.024083853233606E-4  
 2.306000000000000E10   -6.740733515471220E-4   7.784026820445433E-5  
 2.308000000000000E10    7.532723975600675E-5   5.670187529176474E-4  
 2.310000000000000E10    4.023670335300267E-4   1.275663234991953E-4  
 2.312000000000000E10   -2.725523081608117E-4  -4.110766749363393E-4  
 2.314000000000000E10   -5.842605605721474E-4   1.535679766675457E-4  
 2.316000000000000E10    4.493233063840307E-5   3.507722576614469E-4  
 2.318000000000000E10    2.454189234413207E-4  -3.326901060063392E-4  
 2.320000000000000E10   -2.747956023085862E-4  -4.314657708164305E-4  
 2.322000000000000E10   -2.252658450743184E-4   3.897776477970183E-4  
 2.324000000000000E10    3.045521734748036E-4   3.533534763846546E-4  
 2.326000000000000E10    1.679551933193579E-4  -3.816828248091042E-4  
 2.328000000000000E10   -3.561168559826911E-4   7.564475527033210E-5  
 2.330000000000000E10   -1.676139072515070E-4   4.786447389051318E-4  
 2.332000000000000E10    2.968278131447732E-4  -1.906714169308543E-5  
 2.334000000000000E10   -1.226445601787418E-4  -4.023323708679527E-4  
 2.336000000000000E10   -2.926028682850301E-4   1.906169491121545E-4  
 2.338000000000000E10    2.278308238601312E-4   2.430289314361289E-4  
 2.340000000000000E10    1.519468205515295E-4  -1.662544964347035E-4  
 2.342000000000000E10   -3.926690842490643E-4  -3.045776975341141E-4  
 2.344000000000000E10   -1.512798480689526E-4   3.746356524061412E-4  
 2.346000000000000E10    4.815486317966133E-4   3.170664131175727E-4  
 2.348000000000000E10    2.191657040384598E-5  -5.379938520491123E-4  
 2.350000000000000E10   -3.967728698626161E-4   2.003336703637615E-4  
 2.352000000000000E10    1.448082548449747E-5   4.053399898111820E-4  
 2.354000000000000E10    3.743316920008510E-4   1.524617400718853E-4  
 2.356000000000000E10   -3.872857996611856E-5  -1.782145991455764E-4  
 2.358000000000000E10   -1.968670694623143E-4   3.032233216799796E-4  
 2.360000000000000E10    1.869442348834127E-4   3.402806760277599E-4  
 2.362000000000000E10    3.728516458068043E-4  -2.221188042312861E-4  
 2.364000000000000E10   -2.721055061556399E-4  -3.529891546349973E-4  
 2.366000000000000E10   -7.585690036648884E-5   2.746961836237460E-4  
 2.368000000000000E10    2.389509172644466E-4   3.666869306471199E-4  
 2.370000000000000E10    7.001386256888509E-5  -3.512164403218776E-4  
 2.372000000000000E10   -2.383190148975700E-4   8.318280742969364E-5  
 2.374000000000000E10    9.087135549634695E-5   3.722412802744657E-4  
 2.376000000000000E10    4.010349221061915E-4   1.098840730264783E-4  
 2.378000000000000E10   -1.305793557548896E-4  -3.297060902696103E-4  
 2.380000000000000E10   -4.115365154575557E-4   2.063366118818522E-4  
 2.382000000000000E10    3.493387193884701E-4   1.649262412684038E-4  
 2.384000000000000E10    1.762702595442534E-4  -3.075726854149252E-4  
 2.386000000000000E10   -2.267855161335319E-4  -2.842064423020929E-4  
 2.388000000000000E10   -2.596061967778951E-4   2.673887356650084E-4  
 2.390000000000000E10    1.755651610437781E-4   2.483857315382920E-5  
 2.392000000000000E10    6.181146454764530E-5  -4.242866125423461E-4  
 2.394000000000000E10   -2.713517460506409E-4  -3.606768441386521E-4  
 2.396000000000000E10   -2.205079217674211E-4   2.140067954314873E-4  
 2.398000000000000E10    2.772920997813344E-4   5.252836126601324E-5  
 2.400000000000000E10    7.590386667288840E-5  -3.162059001624584E-4  
 2.402000000000000E10   -2.349342103116214E-4   4.399294630275108E-5  
 2.404000000000000E10   -1.710087672108784E-4  -5.988755583530292E-5  
 2.406000000000000E10    3.875821857945994E-5  -5.976682587061077E-5  
 2.408000000000000E10   -2.765968474705005E-6   2.273087193316314E-5  
 2.410000000000000E10   -1.629565522307530E-4   3.263310645706952E-5  
 2.412000000000000E10   -8.587599586462602E-5  -1.387730299029499E-4  
 2.414000000000000E10   -3.666465345304459E-4   1.512202143203467E-4  
 2.416000000000000E10    2.965099993161857E-4   1.070801590685733E-4  
 2.418000000000000E10    1.383447670377791E-4  -2.089564804919064E-4  
 2.420000000000000E10   -3.445332404226065E-4  -3.256883064750582E-4  
 2.422000000000000E10   -9.781718290469144E-6   3.464296460151672E-4  
 2.424000000000000E10    1.829585526138544E-4   1.115548002417199E-4  
 2.426000000000000E10    2.543976297602058E-4  -2.942894934676588E-4  
 2.428000000000000E10   -9.620944911148399E-5  -1.090537480195053E-4  
 2.430000000000000E10   -1.507949673396070E-5   2.999117132276297E-4  
 2.432000000000000E10    2.353228192077950E-4   2.027457667281851E-4  
 2.434000000000000E10    1.415093720424920E-4  -2.660160535015166E-4  
 2.436000000000000E10   -1.245135645149276E-4  -3.072088293265551E-4  
 2.438000000000000E10   -2.655306016094983E-4  -6.448311614803970E-5  
 2.440000000000000E10    2.624740882311016E-4   2.954650262836367E-4  
 2.442000000000000E10    2.815678599290550E-4  -4.189914034213871E-5  
 2.444000000000000E10    9.302982653025538E-5  -1.449138217139989E-4  
 2.446000000000000E10   -5.744807422161102E-4  -5.299858094076626E-5  
 2.448000000000000E10   -5.639034952764632E-6   2.696420997381210E-4  
 2.450000000000000E10    3.218015190213919E-4  -4.334261757321656E-5  
 2.452000000000000E10    5.325690290192142E-5  -5.907111335545778E-4  
 2.454000000000000E10   -2.484927244950086E-4  -1.617204543435946E-4  
 2.456000000000000E10    1.159914754680358E-4   2.770897408481687E-4  
 2.458000000000000E10    2.929940528701991E-4  -1.839249162003398E-4  
 2.460000000000000E10   -1.042895237333141E-4  -3.131803241558373E-4  
 2.462000000000000E10   -2.220140158897266E-4   5.049899482401088E-5  
 2.464000000000000E10   -1.247436885023490E-4   2.937079407274723E-4  
 2.466000000000000E10    4.699316632468253E-4  -7.492033910239115E-5  
 2.468000000000000E10   -3.766091936086013E-7  -4.552272439468652E-4  
 2.470000000000000E10   -4.760904121212661E-4   9.290489106206223E-5  
 2.472000000000000E10    2.195294946432114E-4   1.817787560867146E-4  
 2.474000000000000E10    4.949661670252681E-4  -5.070398765383288E-5  
 2.476000000000000E10   -2.359207283006981E-4  -5.742998910136521E-4  
 2.478000000000000E10   -4.664754378609359E-4   1.972356549231336E-4  
 2.480000000000000E10    1.778410514816642E-4   3.660636721178889E-4  
 2.482000000000000E10    1.907214173115790E-4  -4.953358438797295E-4  
 2.484000000000000E10   -3.436164406593889E-4  -3.239420766476542E-4  
 2.486000000000000E10   -1.993908081203699E-4   3.655881446320564E-4  
 2.488000000000000E10    2.020014508161694E-4   1.988859148696065E-4  
 2.490000000000000E10    1.850551634561271E-4  -3.721724206116051E-4  
 2.492000000000000E10   -2.364237152505666E-4  -1.899713097373024E-4  
 2.494000000000000E10    2.235013525933027E-4   1.365206844639033E-5  
 2.496000000000000E10    1.876223395811394E-4   1.893198641482741E-4  
 2.498000000000000E10    8.332250581588596E-5  -8.257376612164080E-5  
 2.500000000000000E10   -1.124265545513481E-4  -5.659089219989255E-5  
 2.502000000000000E10    6.484718323918060E-5  -3.321558688185178E-5  
 2.504000000000000E10    1.745348417898640E-4  -4.736642586067319E-5  
 2.506000000000000E10   -1.397111482219771E-4   4.823970448342152E-5  
 2.508000000000000E10    3.042049647774547E-4  -5.088829857413657E-5  
 2.510000000000000E10    2.009152958635241E-4  -2.287257375428453E-4  
 2.512000000000000E10   -4.074444877915084E-4  -2.889034512918443E-4  
 2.514000000000000E10    4.523660754784942E-5   4.169378080405295E-4  
 2.516000000000000E10    2.825555275194347E-4   1.748158683767542E-4  
 2.518000000000000E10    1.963655522558838E-4  -4.625266010407358E-4  
 2.520000000000000E10   -3.606763202697039E-4   1.228698383783922E-4  
 2.522000000000000E10   -7.873231515986845E-5   3.730665484908968E-4  
 2.524000000000000E10    4.958929494023323E-4   1.424902293365449E-4  
 2.526000000000000E10    1.530224981252104E-4  -6.281805690377951E-4  
 2.528000000000000E10   -4.791003884747624E-4  -7.483285298803821E-5  
 2.530000000000000E10   -6.748488522134721E-5   5.891119944863021E-4  
 2.532000000000000E10    8.059773244895041E-4   3.539615136105567E-5  
 2.534000000000000E10   -1.106263080146164E-4  -8.403497631661594E-4  
 2.536000000000000E10   -5.486020236276090E-4  -1.162136395578273E-4  
 2.538000000000000E10    1.263914455194026E-4   5.928289028815925E-4  
 2.540000000000000E10    4.594342026393861E-4  -2.324349043192342E-4  
 2.542000000000000E10   -2.153573004761711E-4  -5.066980957053602E-4  
 2.544000000000000E10   -3.451462252996862E-4   2.627594803925604E-4  
 2.546000000000000E10    1.988859730772674E-4   5.292847636155784E-4  
 2.548000000000000E10    3.227201232220978E-4  -1.890741259558126E-4  
 2.550000000000000E10   -3.583641955628991E-4  -2.763220982160419E-4  
 2.552000000000000E10   -4.756810376420617E-4   1.039995186147280E-4  
 2.554000000000000E10    3.427135816309601E-4   2.321531064808369E-4  
 2.556000000000000E10   -3.400611603865400E-5   3.299751188023947E-5  
 2.558000000000000E10    1.234600931638852E-4  -1.264337188331410E-4  
 2.560000000000000E10    2.031761323451065E-5   1.965744449989870E-4  
 2.562000000000000E10    1.401320623699576E-4   1.111567980842665E-4  
 2.564000000000000E10   -5.458796658786014E-5   3.685507635964314E-6  
 2.566000000000000E10   -5.270307883620262E-5   8.414749754592776E-5  
 2.568000000000000E10    8.796012593847991E-7  -1.954846084117889E-5  
 2.570000000000000E10   -2.573982346802950E-4  -4.304412868805230E-4  
 2.572000000000000E10   -2.305415255250409E-4   2.748696715570986E-4  
 2.574000000000000E10    1.699216372799128E-4   1.339582959190011E-4  
 2.576000000000000E10    4.056628094986081E-4  -5.293570575304329E-4  
 2.578000000000000E10   -5.065249861218035E-4  -4.160995013080537E-4  
 2.580000000000000E10   -4.337904101703316E-4   3.118223394267261E-4  
 2.582000000000000E10    4.192805790808052E-4   4.035968449898064E-4  
 2.584000000000000E10    2.206508506787941E-4  -5.502845160663128E-4  
 2.586000000000000E10   -5.630872328765690E-4  -2.402811660431325E-4  
 2.588000000000000E10   -1.750369992805645E-4   5.201065796427429E-4  
 2.590000000000000E10    6.217242334969342E-4   1.333575055468828E-4  
 2.592000000000000E10    1.386394578730688E-4  -3.166845417581499E-4  
 2.594000000000000E10   -4.104606632608920E-4  -2.563809393905103E-4  
 2.596000000000000E10   -7.927776459837332E-5   2.481701667420566E-4  
 2.598000000000000E10    2.856712380889803E-4   2.757541369646788E-4  
 2.600000000000000E10    1.163068300229497E-4  -4.118124779779464E-4  
 2.602000000000000E10   -4.360473249107599E-4  -3.708056465256959E-4  
 2.604000000000000E10   -1.978259388124570E-4   4.836080188397318E-4  
 2.606000000000000E10    2.297208411619067E-4   1.766334171406925E-4  
 2.608000000000000E10    2.651348477229476E-4  -3.341108676977456E-4  
 2.610000000000000E10   -4.901983193121851E-4  -9.972949919756502E-5  
 2.612000000000000E10   -2.740976633504033E-4   6.324732385110110E-5  
 2.614000000000000E10    9.049946675077081E-5   2.461429685354233E-4  
 2.616000000000000E10    9.586034866515547E-5   1.698264350125101E-5  
 2.618000000000000E10    2.166572812711820E-6  -3.067438083235174E-4  
 2.620000000000000E10   -2.583281311672181E-4   1.013960936688818E-4  
 2.622000000000000E10    7.749114593025297E-5   4.707912012236193E-5  
 2.624000000000000E10    2.284672373207286E-4  -6.007203774061054E-5  
 2.626000000000000E10   -1.124829432228580E-4  -2.746602694969624E-4  
 2.628000000000000E10   -2.906356821767986E-4  -1.378812248731265E-5  
 2.630000000000000E10   -2.437792136333883E-4   2.951806236524135E-4  
 2.632000000000000E10    3.167561662849039E-4   4.543749382719398E-4  
 2.634000000000000E10    2.033471537288278E-4  -2.197174908360466E-4  
 2.636000000000000E10   -1.848927786340937E-4  -1.579953095642850E-4  
 2.638000000000000E10   -1.831471163313836E-4   2.150807704310864E-4  
 2.640000000000000E10    1.679094420978800E-4   4.145766797591932E-5  
 2.642000000000000E10    1.077867054846138E-4  -2.275889128213748E-4  
 2.644000000000000E10   -3.345636650919914E-4  -1.912216248456389E-4  
 2.646000000000000E10   -2.209729609603528E-5   1.514702307758853E-5  
 2.648000000000000E10    9.097335714614019E-5   2.531947102397680E-4  
 2.650000000000000E10    2.164739416912198E-4  -2.725771309997072E-6  
 2.652000000000000E10    5.225447603152134E-5  -1.584721612744033E-4  
 2.654000000000000E10   -2.333588781766594E-4  -2.244415372842923E-5  
 2.656000000000000E10   -4.170184911345132E-5   3.717297222465277E-4  
 2.658000000000000E10    2.926571178250015E-4   6.673387542832643E-5  
 2.660000000000000E10   -3.181192732881755E-5  -3.695531631819904E-4  
 2.662000000000000E10   -3.670993319246918E-4  -2.103772567352280E-4  
 2.664000000000000E10    5.563441845879424E-6   1.840184995671734E-4  
 2.666000000000000E10    2.267497620778158E-4   9.495909762335941E-5  
 2.668000000000000E10    1.005716694635339E-4  -3.170247073285282E-4  
 2.670000000000000E10   -3.520954051055014E-4  -6.849453347967938E-5  
 2.672000000000000E10    3.285568527644500E-5   5.047341983299702E-5  
 2.674000000000000E10    2.720078337006271E-4   5.206317291595042E-5  
 2.676000000000000E10    1.130455057136715E-4  -3.963931230828166E-4  
 2.678000000000000E10   -1.980900851776823E-4  -9.685935219749808E-5  
 2.680000000000000E10   -1.025869423756376E-4   1.684824383119121E-4  
 2.682000000000000E10    2.951412461698055E-4   1.109548429667484E-5  
 2.684000000000000E10   -7.762901805108413E-5  -3.440954606048763E-4  
 2.686000000000000E10   -2.007455186685547E-4   7.546917186118662E-5  
 2.688000000000000E10   -2.007891889661551E-4   9.496317215962336E-5  
 2.690000000000000E10    1.488448469899595E-4  -1.537685020593926E-4  
 2.692000000000000E10   -8.671043906360865E-5  -9.465403854846954E-5  
 2.694000000000000E10   -1.882353244582191E-4  -2.084027255477849E-5  
 2.696000000000000E10   -2.307461909367703E-5   1.548512373119593E-4  
 2.698000000000000E10   -1.011546919471584E-5  -1.221722923219204E-4  
 2.700000000000000E10   -5.068425889476202E-5  -1.973646976693999E-5  
 2.702000000000000E10   -2.405071863904595E-4  -8.426304702879861E-5  
 2.704000000000000E10   -6.790646875742823E-5   1.641963717702311E-5  
 2.706000000000000E10    6.020269938744605E-5  -1.038978589349426E-4  
 2.708000000000000E10   -1.222655896526703E-6  -3.231845403206535E-5  
 2.710000000000000E10   -2.231038524769247E-5  -4.333480683271773E-5  
 2.712000000000000E10    1.111958481487818E-4   7.867582462495193E-5  
 2.714000000000000E10    7.968482532305643E-5   7.461321365553886E-5  
 2.716000000000000E10   -3.142834248137660E-5   8.722410711925477E-5  
 2.718000000000000E10   -3.721303801285103E-5  -1.931077422341332E-4  
 2.720000000000000E10    5.729077383875847E-5   6.743996345903724E-5  
 2.722000000000000E10   -1.800526842998806E-5   2.352836236241274E-5  
 2.724000000000000E10    3.980415203841403E-5   5.097094981465489E-5  
 2.726000000000000E10   -2.005397072935011E-5  -1.228849941981025E-5  
 2.728000000000000E10   -2.021795517066494E-4  -1.781410974217579E-4  
 2.730000000000000E10   -2.784703428915236E-5   1.007282480713911E-4  
 2.732000000000000E10    8.385408000322059E-5   7.950205326778814E-5  
 2.734000000000000E10    1.185224391520023E-4  -1.274532551178709E-4  
 2.736000000000000E10   -2.171133528463543E-4  -2.280155022162944E-4  
 2.738000000000000E10   -6.325689173536375E-5   1.972257887246087E-4  
 2.740000000000000E10    3.385955060366541E-4   5.282378333504312E-5  
 2.742000000000000E10    1.847113308031112E-4  -3.364300355315208E-4  
 2.744000000000000E10   -4.454922745935619E-4   1.687968760961667E-4  
 2.746000000000000E10    3.640162503870670E-6   3.864754689857364E-4  
 2.748000000000000E10    2.980209246743470E-4   2.090103407681454E-5  
 2.750000000000000E10   -1.040482238749974E-4  -2.473552303854376E-4  
 2.752000000000000E10   -4.490883729886264E-4  -1.774949778337032E-4  
 2.754000000000000E10   -8.872528997017071E-5   3.607596154324710E-4  
 2.756000000000000E10    1.870291598606855E-4  -1.128736221289728E-5  
