#  HZ   S   RI   R     50.00 
! Rohde & Schwarz ZVA40 4Ports - Version 3.90 - 1145.1110k42 SN: 100403
! Date: 2023-09-30 05:59:59
! Measurement: S12 
! 
 2.000000000000000E10   -3.526262285990606E-4   4.609232973123549E-4  
 2.000200000000000E10   -2.614472415633459E-4   2.441471504401651E-4  
 2.000400000000000E10   -3.427816259740309E-4   7.589121987602240E-5  
 2.000600000000000E10   -4.617299488391943E-4   5.026579039064913E-5  
 2.000800000000000E10   -4.934493495350461E-4   4.081630709638126E-5  
 2.001000000000000E10   -5.991160254962397E-4  -6.017643549192373E-5  
 2.001200000000000E10   -9.056043219916089E-4  -5.967242877036999E-5  
 2.001400000000000E10   -1.188501573983897E-3   2.116398423189423E-4  
 2.001600000000000E10   -1.293579717786090E-3   6.097618581115162E-4  
 2.001800000000000E10   -1.245880615844246E-3   1.028617116784590E-3  
 2.002000000000000E10   -1.069331706145916E-3   1.475609730916266E-3  
 2.002200000000000E10   -6.279635654720466E-4   1.913206285142631E-3  
 2.002400000000000E10   -8.971979014456617E-7   2.138230803220638E-3  
 2.002600000000000E10    7.449016842450245E-4   2.073792206752397E-3  
 2.002800000000000E10    1.405222979783278E-3   1.590545783464546E-3  
 2.003000000000000E10    1.676456309187922E-3   8.776863768138645E-4  
 2.003200000000000E10    1.572521718261318E-3   2.101758725016613E-4  
 2.003400000000000E10    1.192426595044854E-3  -2.328852473776839E-4  
 2.003600000000000E10    7.781743605746123E-4  -3.726863580917143E-4  
 2.003800000000000E10    4.366555845769884E-4  -3.224135071111310E-4  
 2.004000000000000E10    2.084593213390044E-4  -1.296942318396914E-4  
 2.004200000000000E10    1.760986360562793E-4   1.304938106784642E-4  
 2.004400000000000E10    3.223238793863201E-4   2.984806953304012E-4  
 2.004600000000000E10    5.268685119596351E-4   3.508817664075782E-4  
 2.004800000000000E10    7.737996609120822E-4   2.507070898389746E-4  
 2.005000000000000E10    9.045174472370491E-4  -5.516482800512584E-6  
 2.005200000000000E10    8.870716596312344E-4  -2.556647730535993E-4  
 2.005400000000000E10    8.011239146850564E-4  -5.042992334454272E-4  
 2.005600000000000E10    5.608484426511707E-4  -7.211814150263169E-4  
 2.005800000000000E10    2.536180422317506E-4  -7.603903237414147E-4  
 2.006000000000000E10   -3.012998941914818E-5  -6.957360029244997E-4  
 2.006200000000000E10   -3.275908035556693E-4  -4.496613537776137E-4  
 2.006400000000000E10   -3.634844714184728E-4   1.039018142073084E-5  
 2.006600000000000E10   -7.317564219945064E-5   3.522500710240525E-4  
 2.006800000000000E10    3.656787931748666E-4   4.558967271911529E-4  
 2.007000000000000E10    8.062559352411084E-4   2.555656557293642E-4  
 2.007200000000000E10    1.057167865103336E-3  -1.629638443135424E-4  
 2.007400000000000E10    1.090688029923657E-3  -6.527558491977506E-4  
 2.007600000000000E10    8.622763202827932E-4  -1.179770098685248E-3  
 2.007800000000000E10    3.363967133549416E-4  -1.503644264421202E-3  
 2.008000000000000E10   -2.578298261849925E-4  -1.510853106724495E-3  
 2.008200000000000E10   -7.768401743683799E-4  -1.248132000828794E-3  
 2.008400000000000E10   -1.093919184544368E-3  -7.546855833120752E-4  
 2.008600000000000E10   -1.048497086516619E-3  -1.893161089800836E-4  
 2.008800000000000E10   -7.388996068436582E-4   1.586963734588394E-4  
 2.009000000000000E10   -3.482580638517423E-4   2.572524435817486E-4  
 2.009200000000000E10   -1.335299508397234E-5   7.383742271866165E-5  
 2.009400000000000E10    5.343749392725457E-5  -2.890069460891656E-4  
 2.009600000000000E10   -1.902458388700155E-4  -5.575117946222504E-4  
 2.009800000000000E10   -5.474144534729731E-4  -5.626678464342354E-4  
 2.010000000000000E10   -7.900531038682671E-4  -3.265981896005181E-4  
 2.010200000000000E10   -8.277715171190677E-4  -5.667837289673817E-5  
 2.010400000000000E10   -7.868052553477764E-4   1.047626079715803E-4  
 2.010600000000000E10   -8.285955655533465E-4   2.623289336832902E-4  
 2.010800000000000E10   -7.905652269464155E-4   6.217304539923006E-4  
 2.011000000000000E10   -4.140853085952710E-4   9.375448700395263E-4  
 2.011200000000000E10    1.158921522182680E-4   9.492418202477886E-4  
 2.011400000000000E10    5.569088236423451E-4   6.067015447676826E-4  
 2.011600000000000E10    6.332674127541993E-4   9.232156159867750E-5  
 2.011800000000000E10    4.765016269553062E-4  -2.127718836211612E-4  
 2.012000000000000E10    3.771788351894545E-4  -4.729354863913909E-4  
 2.012200000000000E10    9.465149979707454E-5  -8.296277667063615E-4  
 2.012400000000000E10   -4.848311026939644E-4  -9.938918661003666E-4  
 2.012600000000000E10   -1.132810072251469E-3  -7.379547696851285E-4  
 2.012800000000000E10   -1.507917279227351E-3  -1.237587663629586E-4  
 2.013000000000000E10   -1.470328834489263E-3   5.341330556734242E-4  
 2.013200000000000E10   -1.187355902560007E-3   9.987339741258068E-4  
 2.013400000000000E10   -8.292083674620685E-4   1.303413767033645E-3  
 2.013600000000000E10   -4.186840157092178E-4   1.485504266023434E-3  
 2.013800000000000E10    5.345634567337926E-5   1.531593445314926E-3  
 2.014000000000000E10    4.916530062192858E-4   1.326457600958651E-3  
 2.014200000000000E10    6.793338832537379E-4   1.019388155432836E-3  
 2.014400000000000E10    7.492769964645967E-4   7.983760250777159E-4  
 2.014600000000000E10    7.638098629187640E-4   6.273931133494737E-4  
 2.014800000000000E10    7.892964302144804E-4   5.566040440861406E-4  
 2.015000000000000E10    9.391380771843890E-4   4.377009687686050E-4  
 2.015200000000000E10    9.983697928221298E-4   1.343588545961499E-4  
 2.015400000000000E10    8.433928453508125E-4  -9.409457249199860E-5  
 2.015600000000000E10    6.954911426088728E-4  -1.731988139948812E-4  
 2.015800000000000E10    5.720870245043864E-4  -2.292321339155902E-4  
 2.016000000000000E10    4.440162534047061E-4  -2.297536864647643E-4  
 2.016200000000000E10    3.543777549081133E-4  -1.925592526208547E-4  
 2.016400000000000E10    2.836511110219207E-4  -1.030175361348436E-4  
 2.016600000000000E10    3.192018575898507E-4   6.830982554361090E-6  
 2.016800000000000E10    4.235822237329286E-4   2.592082939850598E-5  
 2.017000000000000E10    4.784813349810469E-4  -3.952749740091877E-7  
 2.017200000000000E10    5.323509301340669E-4  -2.332006397906441E-5  
 2.017400000000000E10    5.755936655184739E-4  -2.999370893761076E-5  
 2.017600000000000E10    6.920518326611260E-4  -3.653519421451283E-5  
 2.017800000000000E10    8.529277670288085E-4  -1.059920890793002E-4  
 2.018000000000000E10    1.038800118667448E-3  -2.597891062124698E-4  
 2.018200000000000E10    1.223319370123278E-3  -5.793070492436821E-4  
 2.018400000000000E10    1.238328856202888E-3  -1.076811947045987E-3  
 2.018600000000000E10    9.491192936242994E-4  -1.573469658045205E-3  
 2.018800000000000E10    4.523763547494310E-4  -1.860703976402300E-3  
 2.019000000000000E10   -6.976339109965782E-5  -1.920532460646642E-3  
 2.019200000000000E10   -5.255926304744005E-4  -1.805048604951336E-3  
 2.019400000000000E10   -8.767989364722647E-4  -1.633537162049128E-3  
 2.019600000000000E10   -1.275331673620167E-3  -1.413774301357061E-3  
 2.019800000000000E10   -1.561880420366756E-3  -9.134702997759380E-4  
 2.020000000000000E10   -1.479855519855693E-3  -4.239874448176928E-4  
 2.020200000000000E10   -1.294087728315411E-3  -2.162959457234273E-4  
 2.020400000000000E10   -1.257504519731998E-3  -9.973024292145889E-5  
 2.020600000000000E10   -1.209823851990464E-3   1.250600260600962E-4  
 2.020800000000000E10   -1.013544412335329E-3   2.891924046824569E-4  
 2.021000000000000E10   -8.462300463941328E-4   2.730073981245394E-4  
 2.021200000000000E10   -8.577258377131798E-4   2.321511408832717E-4  
 2.021400000000000E10   -9.053570997751224E-4   3.463714748556590E-4  
 2.021600000000000E10   -8.021273376103220E-4   5.164865032001658E-4  
 2.021800000000000E10   -6.231693674794191E-4   5.121118491355590E-4  
 2.022000000000000E10   -6.012940775933419E-4   4.215773518371670E-4  
 2.022200000000000E10   -6.973039070368103E-4   4.316751800508687E-4  
 2.022400000000000E10   -7.714636982355668E-4   5.992268423873190E-4  
 2.022600000000000E10   -6.748713910460351E-4   7.962584107729944E-4  
 2.022800000000000E10   -5.151220250683177E-4   8.785842555489290E-4  
 2.023000000000000E10   -4.009607851542707E-4   9.266592823253331E-4  
 2.023200000000000E10   -2.502851160494047E-4   9.657535457898256E-4  
 2.023400000000000E10   -1.400867534674096E-4   9.139347730213171E-4  
 2.023600000000000E10   -9.438785585182297E-5   9.016510314928045E-4  
 2.023800000000000E10   -4.075125623874882E-5   8.702382619618288E-4  
 2.024000000000000E10   -8.819448617710875E-5   8.895469905400185E-4  
 2.024200000000000E10   -9.366686514839106E-5   1.040781336805383E-3  
 2.024400000000000E10    2.785385534702459E-5   1.226233832844926E-3  
 2.024600000000000E10    2.455737748810805E-4   1.415283953437796E-3  
 2.024800000000000E10    6.376648855644783E-4   1.542556581330568E-3  
 2.025000000000000E10    1.109744277315019E-3   1.452500721663667E-3  
 2.025200000000000E10    1.549901156168845E-3   1.133972169875494E-3  
 2.025400000000000E10    1.766386869907764E-3   5.887661657478951E-4  
 2.025600000000000E10    1.651180104443807E-3   8.169370315488579E-5  
 2.025800000000000E10    1.391840016937600E-3  -1.601082971347650E-4  
 2.026000000000000E10    1.280726976469818E-3  -3.023995181656051E-4  
 2.026200000000000E10    1.062107831799213E-3  -5.196315196797901E-4  
 2.026400000000000E10    6.957958109338246E-4  -4.943897489678863E-4  
 2.026600000000000E10    5.340919098481105E-4  -1.979221606389923E-4  
 2.026800000000000E10    7.144633025916644E-4   1.061896851871722E-4  
 2.027000000000000E10    1.138355865849480E-3   1.470908357545199E-4  
 2.027200000000000E10    1.512134728106710E-3  -1.169508529667260E-4  
 2.027400000000000E10    1.753502916450754E-3  -5.872735497302780E-4  
 2.027600000000000E10    1.742836285812093E-3  -1.205797104550301E-3  
 2.027800000000000E10    1.455528159543593E-3  -1.815690350568473E-3  
 2.028000000000000E10    8.369894855623699E-4  -2.304458048274896E-3  
 2.028200000000000E10    1.627965554068973E-6  -2.370233757026569E-3  
 2.028400000000000E10   -6.617540017430234E-4  -2.023674324671546E-3  
 2.028600000000000E10   -1.003162962127501E-3  -1.482130381226315E-3  
 2.028800000000000E10   -1.010667456769669E-3  -1.003759179818095E-3  
 2.029000000000000E10   -8.928353285968858E-4  -7.084966757140443E-4  
 2.029200000000000E10   -7.636385151024553E-4  -4.854985457587018E-4  
 2.029400000000000E10   -4.713324168717347E-4  -3.395716283594337E-4  
 2.029600000000000E10   -1.349279232657837E-4  -5.386744648418445E-4  
 2.029800000000000E10   -1.286019874594636E-4  -9.694951165430408E-4  
 2.030000000000000E10   -4.498543783761432E-4  -1.297695154538469E-3  
 2.030200000000000E10   -9.384858713211862E-4  -1.402411103245142E-3  
 2.030400000000000E10   -1.459110045038769E-3  -1.198760034624666E-3  
 2.030600000000000E10   -1.761365502937226E-3  -8.008325877346042E-4  
 2.030800000000000E10   -1.882616162463540E-3  -3.947187137801925E-4  
 2.031000000000000E10   -1.938444365232143E-3  -1.554570250909182E-5  
 2.031200000000000E10   -1.863332875190300E-3   4.129527683471144E-4  
 2.031400000000000E10   -1.586438946257517E-3   6.986352887090447E-4  
 2.031600000000000E10   -1.396125572192900E-3   7.877306829291865E-4  
 2.031800000000000E10   -1.284109670333843E-3   8.383472298192891E-4  
 2.032000000000000E10   -1.300122513758619E-3   8.889386477852596E-4  
 2.032200000000000E10   -1.413810261643646E-3   1.129124792585506E-3  
 2.032400000000000E10   -1.352966449207892E-3   1.583796261927063E-3  
 2.032600000000000E10   -9.922172696847909E-4   2.036277174126630E-3  
 2.032800000000000E10   -4.434140309387093E-4   2.238038172057258E-3  
 2.033000000000000E10    3.356927531498118E-5   2.229865595061199E-3  
 2.033200000000000E10    4.450583856236461E-4   2.223102952872856E-3  
 2.033400000000000E10    1.025074420343092E-3   2.166094702311678E-3  
 2.033600000000000E10    1.500726192085264E-3   1.843749915561885E-3  
 2.033800000000000E10    1.908756999618267E-3   9.192131899433226E-4  
 2.034000000000000E10    1.706982563770576E-3   2.816552354109994E-4  
 2.034200000000000E10    1.333751965708340E-3  -7.717754891592961E-5  
 2.034400000000000E10    9.676115117327512E-4  -1.756683743820849E-4  
 2.034600000000000E10    7.563474778626202E-4  -1.109288848900787E-4  
 2.034800000000000E10    6.573486846882038E-4  -8.816266988126067E-5  
 2.035000000000000E10    5.250893554516155E-4  -3.692379874582339E-5  
 2.035200000000000E10    4.841744884824488E-4   9.040077643612334E-5  
 2.035400000000000E10    5.165150653353380E-4   1.773859051970046E-4  
 2.035600000000000E10    5.726732516542098E-4   2.804807501155596E-4  
 2.035800000000000E10    7.562974222019177E-4   3.512116375643928E-4  
 2.036000000000000E10    9.872258712018721E-4   2.714493548684717E-4  
 2.036200000000000E10    1.118619093971993E-3   9.053319427245326E-5  
 2.036400000000000E10    1.190097976564625E-3  -4.246049526158520E-5  
 2.036600000000000E10    1.353412134399592E-3  -1.902991146426627E-4  
 2.036800000000000E10    1.505175308188458E-3  -5.437131640091564E-4  
 2.037000000000000E10    1.435183138925459E-3  -9.915103947269006E-4  
 2.037200000000000E10    1.169953678483778E-3  -1.373030545560178E-3  
 2.037400000000000E10    7.801606758766507E-4  -1.571009383169088E-3  
 2.037600000000000E10    4.388997405858407E-4  -1.615700361528308E-3  
 2.037800000000000E10    1.542418822058239E-4  -1.610031072849975E-3  
 2.038000000000000E10   -1.012537108698243E-4  -1.584391721998358E-3  
 2.038200000000000E10   -4.039315151395196E-4  -1.545342982927929E-3  
 2.038400000000000E10   -7.004215902037449E-4  -1.341290775427116E-3  
 2.038600000000000E10   -8.236388072381374E-4  -1.061445605284464E-3  
 2.038800000000000E10   -8.488692109191899E-4  -8.572938068179748E-4  
 2.039000000000000E10   -8.381636291853755E-4  -7.099666225344022E-4  
 2.039200000000000E10   -8.267850820418255E-4  -6.348484812049061E-4  
 2.039400000000000E10   -8.560854169898860E-4  -5.538291467215020E-4  
 2.039600000000000E10   -8.398150810751365E-4  -4.985600903100837E-4  
 2.039800000000000E10   -9.054331833005835E-4  -5.096366774749862E-4  
 2.040000000000000E10   -1.075787086590825E-3  -4.457234304975626E-4  
 2.040200000000000E10   -1.223198805322417E-3  -2.089942025657014E-4  
 2.040400000000000E10   -1.184934049081344E-3   8.817794258612683E-5  
 2.040600000000000E10   -1.016914676422535E-3   2.862471812096428E-4  
 2.040800000000000E10   -8.193030292017086E-4   3.623434466888215E-4  
 2.041000000000000E10   -6.561869699666698E-4   3.121399857223511E-4  
 2.041200000000000E10   -6.028243094017289E-4   2.049535964649416E-4  
 2.041400000000000E10   -6.289832771767395E-4   8.088613386190088E-5  
 2.041600000000000E10   -7.944999497691814E-4  -1.741971436954772E-5  
 2.041800000000000E10   -1.101554223465074E-3   2.887034203760203E-5  
 2.042000000000000E10   -1.354092952931550E-3   3.351555675626853E-4  
 2.042200000000000E10   -1.450820160333535E-3   7.502889627000414E-4  
 2.042400000000000E10   -1.365256486127225E-3   1.244651467957124E-3  
 2.042600000000000E10   -1.003657662623318E-3   1.687462296889210E-3  
 2.042800000000000E10   -4.696675730783273E-4   1.894096122499464E-3  
 2.043000000000000E10    5.420791004589264E-5   1.856610264116409E-3  
 2.043200000000000E10    4.533560988452573E-4   1.604446008637179E-3  
 2.043400000000000E10    6.450872189473305E-4   1.298241703004771E-3  
 2.043600000000000E10    6.987371810257734E-4   1.036891644035928E-3  
 2.043800000000000E10    6.700979044735639E-4   8.719122710191370E-4  
 2.044000000000000E10    6.263712849122350E-4   7.805495223594742E-4  
 2.044200000000000E10    5.755119839407939E-4   7.886184962664710E-4  
 2.044400000000000E10    6.469751512102072E-4   8.720293835790186E-4  
 2.044600000000000E10    8.191289839986851E-4   8.722031887297805E-4  
 2.044800000000000E10    9.917469852015978E-4   8.109616332686776E-4  
 2.045000000000000E10    1.200834417461156E-3   7.091182086181258E-4  
 2.045200000000000E10    1.434216963798955E-3   4.722365971250528E-4  
 2.045400000000000E10    1.522664883170359E-3   6.812496283468123E-5  
 2.045600000000000E10    1.358355501862459E-3  -2.762970658743974E-4  
 2.045800000000000E10    1.144534275447446E-3  -4.675434487703145E-4  
 2.046000000000000E10    9.351921801467907E-4  -5.769777018738919E-4  
 2.046200000000000E10    7.120529802892787E-4  -6.343643611809399E-4  
 2.046400000000000E10    4.307539780859940E-4  -5.445297262693105E-4  
 2.046600000000000E10    3.424491827589914E-4  -2.324049069968944E-4  
 2.046800000000000E10    5.727038634010986E-4  -1.280351791188497E-5  
 2.047000000000000E10    8.713313451845964E-4  -7.492828006508350E-5  
 2.047200000000000E10    1.043334325227064E-3  -2.994189140297713E-4  
 2.047400000000000E10    1.084694418148324E-3  -5.304402458175451E-4  
 2.047600000000000E10    1.133592384692774E-3  -7.512634180592713E-4  
 2.047800000000000E10    1.120502326505211E-3  -1.126295516028899E-3  
 2.048000000000000E10    8.255846133853658E-4  -1.507441751618793E-3  
 2.048200000000000E10    3.802985473057613E-4  -1.632805436119555E-3  
 2.048400000000000E10    2.763638817324822E-5  -1.534278855121273E-3  
 2.048600000000000E10   -1.394161920033140E-4  -1.380098932538149E-3  
 2.048800000000000E10   -2.182539904978700E-4  -1.330433309823256E-3  
 2.049000000000000E10   -3.729787754207306E-4  -1.326390434889426E-3  
 2.049200000000000E10   -5.212409731024037E-4  -1.262673317371574E-3  
 2.049400000000000E10   -6.162490690592986E-4  -1.191650064860259E-3  
 2.049600000000000E10   -7.070356978091264E-4  -1.182761228736003E-3  
 2.049800000000000E10   -8.742085260901719E-4  -1.208552841649248E-3  
 2.050000000000000E10   -1.143679426395239E-3  -1.166691328655573E-3  
 2.050200000000000E10   -1.401786314692516E-3  -9.712219214008098E-4  
 2.050400000000000E10   -1.525021928612567E-3  -7.370451672771513E-4  
 2.050600000000000E10   -1.624161018893219E-3  -5.824654932042155E-4  
 2.050800000000000E10   -1.823052019686401E-3  -4.217571837209545E-4  
 2.051000000000000E10   -2.102398714384703E-3  -7.037903684763069E-5  
 2.051200000000000E10   -2.175505322950754E-3   5.312101089552721E-4  
 2.051400000000000E10   -1.920182212526401E-3   1.091081892736960E-3  
 2.051600000000000E10   -1.501786768019483E-3   1.454536987558075E-3  
 2.051800000000000E10   -1.023197465956937E-3   1.676245331586313E-3  
 2.052000000000000E10   -4.438752033752939E-4   1.722061690556765E-3  
 2.052200000000000E10    1.156907483352168E-4   1.399103501344709E-3  
 2.052400000000000E10    3.048948523235170E-4   8.006466283226931E-4  
 2.052600000000000E10   -9.297086664758943E-6   3.148302365249763E-4  
 2.052800000000000E10   -4.929177622710970E-4   3.363004255668214E-4  
 2.053000000000000E10   -6.668491570065324E-4   6.333343837332756E-4  
 2.053200000000000E10   -6.559884425913021E-4   8.133831637204029E-4  
 2.053400000000000E10   -7.161494582922316E-4   9.731877076152400E-4  
 2.053600000000000E10   -7.258218694491759E-4   1.276569491949884E-3  
 2.053800000000000E10   -5.723667259214084E-4   1.615367193634839E-3  
 2.054000000000000E10   -2.905963014870470E-4   1.897645799442132E-3  
 2.054200000000000E10    1.038239824909898E-4   2.132389246782942E-3  
 2.054400000000000E10    6.246939095843234E-4   2.212375998242922E-3  
 2.054600000000000E10    1.127523957859430E-3   2.079739145133426E-3  
 2.054800000000000E10    1.514206850405232E-3   1.834756229197014E-3  
 2.055000000000000E10    1.828089975458814E-3   1.584442116879930E-3  
 2.055200000000000E10    2.176224440710025E-3   1.264873768792708E-3  
 2.055400000000000E10    2.407934574204684E-3   7.935691119833821E-4  
 2.055600000000000E10    2.447058862649249E-3   3.163782598924698E-4  
