#  HZ   S   RI   R     50.00 
! Rohde & Schwarz ZVA40 4Ports - Version 3.90 - 1145.1110k42 SN: 100403
! Date: 2023-09-30 07:36:56
! Measurement: S12 
! 
 2.000000000000000E10   -1.076263261300128E-3  -2.243506642755837E-3  
 2.000200000000000E10   -1.313271222556660E-3  -1.995826496572849E-3  
 2.000400000000000E10   -1.464626433704478E-3  -1.803375376757354E-3  
 2.000600000000000E10   -1.674988108425871E-3  -1.738917748681783E-3  
 2.000800000000000E10   -2.033421339197278E-3  -1.652890508397805E-3  
 2.001000000000000E10   -2.481550142324764E-3  -1.436723290720413E-3  
 2.001200000000000E10   -2.973233148539748E-3  -1.032447064829989E-3  
 2.001400000000000E10   -3.381104713060451E-3  -3.769300186070847E-4  
 2.001600000000000E10   -3.538855136160315E-3   4.472607508815021E-4  
 2.001800000000000E10   -3.446696390403667E-3   1.293089817749971E-3  
 2.002000000000000E10   -3.128824746429255E-3   2.136899349018754E-3  
 2.002200000000000E10   -2.450412967186137E-3   2.903657902928494E-3  
 2.002400000000000E10   -1.602552055289635E-3   3.334997059332229E-3  
 2.002600000000000E10   -7.297558339931757E-4   3.403742641375879E-3  
 2.002800000000000E10   -4.174111089066361E-5   3.212649846113645E-3  
 2.003000000000000E10    4.045138640719671E-4   2.951413432245668E-3  
 2.003200000000000E10    7.379857892227707E-4   2.768944784381798E-3  
 2.003400000000000E10    1.055297499896553E-3   2.644772795634867E-3  
 2.003600000000000E10    1.425540483795066E-3   2.553757237775243E-3  
 2.003800000000000E10    1.906398752654960E-3   2.392930006892737E-3  
 2.004000000000000E10    2.418103698373348E-3   2.047290165088127E-3  
 2.004200000000000E10    2.817073015373397E-3   1.490584164965272E-3  
 2.004400000000000E10    2.965751978174259E-3   8.516131785580373E-4  
 2.004600000000000E10    2.932726473305781E-3   3.521086695824851E-4  
 2.004800000000000E10    2.937671595012638E-3  -7.271291542029449E-5  
 2.005000000000000E10    2.903925937463738E-3  -5.873250335177006E-4  
 2.005200000000000E10    2.702309569663403E-3  -1.090379176662177E-3  
 2.005400000000000E10    2.404261380315746E-3  -1.484773299055752E-3  
 2.005600000000000E10    2.059661390459820E-3  -1.778233688986075E-3  
 2.005800000000000E10    1.729286293825559E-3  -1.946247854556635E-3  
 2.006000000000000E10    1.453515192404748E-3  -2.032944166366912E-3  
 2.006200000000000E10    1.332323230562505E-3  -2.101051677953843E-3  
 2.006400000000000E10    1.291531911716475E-3  -2.346289100288484E-3  
 2.006600000000000E10    1.111041722474843E-3  -2.805657344316435E-3  
 2.006800000000000E10    6.349032684242091E-4  -3.269211359279772E-3  
 2.007000000000000E10   -2.232848366309384E-5  -3.581558425279528E-3  
 2.007200000000000E10   -8.315923140761699E-4  -3.742267022602821E-3  
 2.007400000000000E10   -1.764327107464712E-3  -3.599813518897990E-3  
 2.007600000000000E10   -2.616269538379755E-3  -3.125489767694202E-3  
 2.007800000000000E10   -3.248839206303333E-3  -2.373256083586010E-3  
 2.008000000000000E10   -3.538096394240444E-3  -1.527433882962186E-3  
 2.008200000000000E10   -3.540243423857435E-3  -7.636482405607529E-4  
 2.008400000000000E10   -3.360464344517413E-3  -1.754625852476261E-4  
 2.008600000000000E10   -3.172902315979941E-3   1.734951513516917E-4  
 2.008800000000000E10   -3.157836382871080E-3   4.277190665411337E-4  
 2.009000000000000E10   -3.275350702893207E-3   8.017192080114976E-4  
 2.009200000000000E10   -3.359900267338791E-3   1.394430510238181E-3  
 2.009400000000000E10   -3.225673224168215E-3   2.150867627922266E-3  
 2.009600000000000E10   -2.831638110770350E-3   2.878431876659903E-3  
 2.009800000000000E10   -2.181905851397678E-3   3.510518853537925E-3  
 2.010000000000000E10   -1.344096017876996E-3   3.906471496181059E-3  
 2.010200000000000E10   -4.478816073518218E-4   4.014319848968178E-3  
 2.010400000000000E10    3.642285674651925E-4   3.831611551656303E-3  
 2.010600000000000E10    9.780641703711274E-4   3.494604651370993E-3  
 2.010800000000000E10    1.424932339339078E-3   3.124754771814796E-3  
 2.011000000000000E10    1.740453999318451E-3   2.776005674557268E-3  
 2.011200000000000E10    1.982351029200430E-3   2.480984939484563E-3  
 2.011400000000000E10    2.218573400625369E-3   2.251957074717700E-3  
 2.011600000000000E10    2.505333491809288E-3   2.042608588282119E-3  
 2.011800000000000E10    2.864186189489952E-3   1.757094360677117E-3  
 2.012000000000000E10    3.197433615104973E-3   1.389528023941042E-3  
 2.012200000000000E10    3.525843881019986E-3   9.559147839958662E-4  
 2.012400000000000E10    3.871594246642780E-3   3.835831535693253E-4  
 2.012600000000000E10    4.100282435679073E-3  -4.213756983366110E-4  
 2.012800000000000E10    4.012857662778918E-3  -1.352914129750325E-3  
 2.013000000000000E10    3.608778799516234E-3  -2.177078924878300E-3  
 2.013200000000000E10    3.020678923188466E-3  -2.798672428543697E-3  
 2.013400000000000E10    2.383844188159907E-3  -3.204012968676478E-3  
 2.013600000000000E10    1.757383450552466E-3  -3.460038764017970E-3  
 2.013800000000000E10    1.163875793885866E-3  -3.633804817188171E-3  
 2.014000000000000E10    5.213986310878345E-4  -3.711657355102442E-3  
 2.014200000000000E10   -4.834813210202328E-5  -3.616745451582878E-3  
 2.014400000000000E10   -4.664608667649482E-4  -3.498937539169201E-3  
 2.014600000000000E10   -8.737116642989260E-4  -3.498207836576128E-3  
 2.014800000000000E10   -1.429514505628186E-3  -3.475820116767068E-3  
 2.015000000000000E10   -2.040119078119621E-3  -3.323913497761062E-3  
 2.015200000000000E10   -2.707130496833942E-3  -3.017828361518912E-3  
 2.015400000000000E10   -3.310946962664945E-3  -2.512842812077398E-3  
 2.015600000000000E10   -3.775010034759913E-3  -1.824654668079560E-3  
 2.015800000000000E10   -4.035411845769268E-3  -1.084150895350717E-3  
 2.016000000000000E10   -4.156726304570770E-3  -3.301789301986454E-4  
 2.016200000000000E10   -4.116662308419095E-3   4.461928898517492E-4  
 2.016400000000000E10   -3.909461113885413E-3   1.153187036984321E-3  
 2.016600000000000E10   -3.601586814746542E-3   1.769002018936103E-3  
 2.016800000000000E10   -3.236279707257299E-3   2.282335958929755E-3  
 2.017000000000000E10   -2.873329574537771E-3   2.749477833653665E-3  
 2.017200000000000E10   -2.456169376228413E-3   3.273013655944860E-3  
 2.017400000000000E10   -1.836468473309190E-3   3.800364253703345E-3  
 2.017600000000000E10   -9.671250267619521E-4   4.117783192020536E-3  
 2.017800000000000E10   -1.038596263449476E-4   4.108671332641688E-3  
 2.018000000000000E10    6.038577127707981E-4   3.910864942965894E-3  
 2.018200000000000E10    1.220108230148958E-3   3.670030873512426E-3  
 2.018400000000000E10    1.806818526039003E-3   3.378861351837684E-3  
 2.018600000000000E10    2.375859819932344E-3   2.934455361195212E-3  
 2.018800000000000E10    2.767857717269594E-3   2.336557589340559E-3  
 2.019000000000000E10    2.925820126738251E-3   1.777594214128698E-3  
 2.019200000000000E10    3.029459535973201E-3   1.331920324473571E-3  
 2.019400000000000E10    3.147692982827458E-3   9.081753173581891E-4  
 2.019600000000000E10    3.229065580415234E-3   4.531685470222087E-4  
 2.019800000000000E10    3.232533461432022E-3   9.603417108444087E-7  
 2.020000000000000E10    3.242935762373358E-3  -3.987995155578027E-4  
 2.020200000000000E10    3.277825146264542E-3  -8.806429730516484E-4  
 2.020400000000000E10    3.242395736979938E-3  -1.475173234615460E-3  
 2.020600000000000E10    3.021561621869480E-3  -2.170479179539348E-3  
 2.020800000000000E10    2.520525666632363E-3  -2.818824052929433E-3  
 2.021000000000000E10    1.821463067526578E-3  -3.226800451508647E-3  
 2.021200000000000E10    1.134138248282350E-3  -3.381756357272808E-3  
 2.021400000000000E10    5.327010393697577E-4  -3.381520649976566E-3  
 2.021600000000000E10    6.589717988519117E-5  -3.294283671225850E-3  
 2.021800000000000E10   -3.276778579787294E-4  -3.294624839447807E-3  
 2.022000000000000E10   -8.021526693637401E-4  -3.325945921671868E-3  
 2.022200000000000E10   -1.377401505651823E-3  -3.274082630697753E-3  
 2.022400000000000E10   -1.987843884328142E-3  -3.125946663001817E-3  
 2.022600000000000E10   -2.678421500589814E-3  -2.838756131609750E-3  
 2.022800000000000E10   -3.360579780455348E-3  -2.288874888639614E-3  
 2.023000000000000E10   -3.875432758285130E-3  -1.504208635799434E-3  
 2.023200000000000E10   -4.150652997869503E-3  -5.711245719800357E-4  
 2.023400000000000E10   -4.151051447953951E-3   4.334582646681226E-4  
 2.023600000000000E10   -3.809997864954826E-3   1.416016546056166E-3  
 2.023800000000000E10   -3.104855316643170E-3   2.162167495809299E-3  
 2.024000000000000E10   -2.327293668543957E-3   2.495751308805013E-3  
 2.024200000000000E10   -1.655603784707059E-3   2.548482616632679E-3  
 2.024400000000000E10   -1.196423766073295E-3   2.399190065476470E-3  
 2.024600000000000E10   -1.025128317585210E-3   2.290779754573593E-3  
 2.024800000000000E10   -9.358636799377206E-4   2.401353465017023E-3  
 2.025000000000000E10   -7.406609902162734E-4   2.660065137588674E-3  
 2.025200000000000E10   -3.660034148837032E-4   2.969684709279501E-3  
 2.025400000000000E10    1.972694824887712E-4   3.172524341802774E-3  
 2.025600000000000E10    8.440204373195946E-4   3.211244976800782E-3  
 2.025800000000000E10    1.523644214038518E-3   3.092182296375705E-3  
 2.026000000000000E10    2.206544118962669E-3   2.773766818476745E-3  
 2.026200000000000E10    2.811409846717674E-3   2.236880483340467E-3  
 2.026400000000000E10    3.211556860314704E-3   1.493259114858206E-3  
 2.026600000000000E10    3.267543444487377E-3   7.294144302997462E-4  
 2.026800000000000E10    3.140392584892010E-3   1.859332509484530E-4  
 2.027000000000000E10    3.088555763011095E-3  -2.203221441387477E-4  
 2.027200000000000E10    3.088230465397846E-3  -7.031101427565352E-4  
 2.027400000000000E10    2.942643698352398E-3  -1.254971000555982E-3  
 2.027600000000000E10    2.689006556789207E-3  -1.716578883248905E-3  
 2.027800000000000E10    2.453721893919312E-3  -2.152613808197896E-3  
 2.028000000000000E10    2.125391368140756E-3  -2.671369007198425E-3  
 2.028200000000000E10    1.597772380367165E-3  -3.162576825421993E-3  
 2.028400000000000E10    9.226516889021801E-4  -3.512436444341425E-3  
 2.028600000000000E10    1.245347712620802E-4  -3.710224494561463E-3  
 2.028800000000000E10   -7.520020092191507E-4  -3.626310346317453E-3  
 2.029000000000000E10   -1.515475192698664E-3  -3.258640670622553E-3  
 2.029200000000000E10   -2.052407898619202E-3  -2.734695944182947E-3  
 2.029400000000000E10   -2.384296160311291E-3  -2.238476598984604E-3  
 2.029600000000000E10   -2.682393829725346E-3  -1.783756544974484E-3  
 2.029800000000000E10   -2.954791672825882E-3  -1.228208829597360E-3  
 2.030000000000000E10   -3.044161669574862E-3  -6.187266893392925E-4  
 2.030200000000000E10   -2.992911290063957E-3  -7.235130553478141E-5  
 2.030400000000000E10   -2.861901180456615E-3   4.108014090714239E-4  
 2.030600000000000E10   -2.675677416242877E-3   8.068954483772004E-4  
 2.030800000000000E10   -2.507210897070453E-3   1.148356444491276E-3  
 2.031000000000000E10   -2.347748793972651E-3   1.488326995103887E-3  
 2.031200000000000E10   -2.150375434611360E-3   1.879781293157073E-3  
 2.031400000000000E10   -1.863677609270995E-3   2.311675432569432E-3  
 2.031600000000000E10   -1.401991073185712E-3   2.723550262300685E-3  
 2.031800000000000E10   -7.743314983982947E-4   2.928025085608290E-3  
 2.032000000000000E10   -1.826366127920171E-4   2.914907083443638E-3  
 2.032200000000000E10    3.374579267492517E-4   2.801726194455734E-3  
 2.032400000000000E10    7.766335017116858E-4   2.550730019181729E-3  
 2.032600000000000E10    1.012147904029670E-3   2.262543724487474E-3  
 2.032800000000000E10    1.138545877567965E-3   2.126175675345558E-3  
 2.033000000000000E10    1.358541829987949E-3   2.121687667700423E-3  
 2.033200000000000E10    1.715522055476399E-3   2.068179424467264E-3  
 2.033400000000000E10    2.133362552958581E-3   1.945207802295289E-3  
 2.033600000000000E10    2.476294205773336E-3   1.946400144286346E-3  
 2.033800000000000E10    3.213534886101192E-3   1.169882857879551E-3  
 2.034000000000000E10    3.528601137716525E-3   3.690147097384565E-4  
 2.034200000000000E10    3.494817723123545E-3  -4.487519490340759E-4  
 2.034400000000000E10    3.260483680777860E-3  -1.138245483612863E-3  
 2.034600000000000E10    2.918407179690417E-3  -1.693238757567230E-3  
 2.034800000000000E10    2.512237220957250E-3  -2.147109600414551E-3  
 2.035000000000000E10    2.063444940987370E-3  -2.484895710613399E-3  
 2.035200000000000E10    1.635511835620848E-3  -2.723305170958340E-3  
 2.035400000000000E10    1.228176144837992E-3  -2.942460077422839E-3  
 2.035600000000000E10    7.628018940914013E-4  -3.162100261667980E-3  
 2.035800000000000E10    2.237578185710813E-4  -3.296189492223251E-3  
 2.036000000000000E10   -3.317190139708077E-4  -3.342545097421261E-3  
 2.036200000000000E10   -9.529398454604037E-4  -3.332501208470800E-3  
 2.036400000000000E10   -1.630455923179837E-3  -3.153674677572682E-3  
 2.036600000000000E10   -2.252874961013571E-3  -2.752670295820794E-3  
 2.036800000000000E10   -2.714685904439281E-3  -2.195078091166817E-3  
 2.037000000000000E10   -2.993075384459896E-3  -1.611319303633277E-3  
 2.037200000000000E10   -3.164081923920638E-3  -1.022885683894624E-3  
 2.037400000000000E10   -3.196510599319239E-3  -4.012521308936460E-4  
 2.037600000000000E10   -3.023057695900640E-3   1.444794880120326E-4  
 2.037800000000000E10   -2.792886168739186E-3   4.782492197492616E-4  
 2.038000000000000E10   -2.668481577861653E-3   7.010421219407904E-4  
 2.038200000000000E10   -2.625197023698860E-3   9.441706887258264E-4  
 2.038400000000000E10   -2.654673315866475E-3   1.248941269216280E-3  
 2.038600000000000E10   -2.698272867131092E-3   1.706433054925865E-3  
 2.038800000000000E10   -2.579038408898835E-3   2.364415025621671E-3  
 2.039000000000000E10   -2.171390855468453E-3   3.054342697726224E-3  
 2.039200000000000E10   -1.504359024238581E-3   3.599112709744386E-3  
 2.039400000000000E10   -6.578027949087332E-4   3.950281301217589E-3  
 2.039600000000000E10    3.156976470553789E-4   4.014305039339958E-3  
 2.039800000000000E10    1.221056640692440E-3   3.689945833799632E-3  
 2.040000000000000E10    1.896936138684458E-3   3.148307281042426E-3  
 2.040200000000000E10    2.297015822752921E-3   2.483106746396933E-3  
 2.040400000000000E10    2.366515103613926E-3   1.856837539372169E-3  
 2.040600000000000E10    2.242320388807628E-3   1.527279195625712E-3  
 2.040800000000000E10    2.294721893737851E-3   1.486225295110194E-3  
 2.041000000000000E10    2.604311607533543E-3   1.376291105485806E-3  
 2.041200000000000E10    3.001610434373804E-3   1.087754955264727E-3  
 2.041400000000000E10    3.392306187389364E-3   6.091076736905758E-4  
 2.041600000000000E10    3.671275750237425E-3  -9.175190898234011E-5  
 2.041800000000000E10    3.702867921747077E-3  -9.432549387809346E-4  
 2.042000000000000E10    3.409233034387257E-3  -1.777951630476690E-3  
 2.042200000000000E10    2.875537321461022E-3  -2.423262630058373E-3  
 2.042400000000000E10    2.268504675421721E-3  -2.836165302974134E-3  
 2.042600000000000E10    1.670460666044182E-3  -3.103139630829674E-3  
 2.042800000000000E10    1.046205686623381E-3  -3.261359453637360E-3  
 2.043000000000000E10    4.585074594755305E-4  -3.238473839626612E-3  
 2.043200000000000E10   -1.382124034109931E-5  -3.139722558970630E-3  
 2.043400000000000E10   -4.193333325703325E-4  -3.054350249776173E-3  
 2.043600000000000E10   -8.118311586448971E-4  -2.955963606382399E-3  
 2.043800000000000E10   -1.196998775947688E-3  -2.837174610140023E-3  
 2.044000000000000E10   -1.604508861359925E-3  -2.702843522143295E-3  
 2.044200000000000E10   -2.040233712534842E-3  -2.526193977198424E-3  
 2.044400000000000E10   -2.524931192694176E-3  -2.265212551163963E-3  
 2.044600000000000E10   -3.029017898732037E-3  -1.852662187333064E-3  
 2.044800000000000E10   -3.442519152297948E-3  -1.262993578210836E-3  
 2.045000000000000E10   -3.721868999424748E-3  -5.383182678412881E-4  
 2.045200000000000E10   -3.814680577985731E-3   2.910558973633838E-4  
 2.045400000000000E10   -3.626280583326564E-3   1.168123742095002E-3  
 2.045600000000000E10   -3.106658597690792E-3   1.937159653890496E-3  
 2.045800000000000E10   -2.360866793558575E-3   2.338562560421193E-3  
 2.046000000000000E10   -1.750176799605105E-3   2.354121437723631E-3  
 2.046200000000000E10   -1.413159310854483E-3   2.269137988411323E-3  
 2.046400000000000E10   -1.283153330566124E-3   2.250053629567576E-3  
 2.046600000000000E10   -1.258544801547348E-3   2.457748602110779E-3  
 2.046800000000000E10   -1.046137309262285E-3   2.902961988789875E-3  
 2.047000000000000E10   -5.369760157885707E-4   3.340206954904367E-3  
 2.047200000000000E10    1.937536513794474E-4   3.611670851256348E-3  
 2.047400000000000E10    1.075861965194343E-3   3.614674442407173E-3  
 2.047600000000000E10    1.939702244796855E-3   3.270824382038855E-3  
 2.047800000000000E10    2.596271478490135E-3   2.642232662675114E-3  
 2.048000000000000E10    2.943057347275384E-3   1.892129104262801E-3  
 2.048200000000000E10    2.999541431577697E-3   1.215250129791215E-3  
 2.048400000000000E10    2.935623569224851E-3   7.304057780852345E-4  
 2.048600000000000E10    2.890228693148419E-3   3.408430859456273E-4  
 2.048800000000000E10    2.834218635061938E-3   1.277763641912350E-5  
 2.049000000000000E10    2.858732034013782E-3  -2.637300037419360E-4  
 2.049200000000000E10    2.978452993041113E-3  -6.512174291420714E-4  
 2.049400000000000E10    3.040620712644307E-3  -1.236993483814841E-3  
 2.049600000000000E10    2.826380650735497E-3  -1.927093755607035E-3  
 2.049800000000000E10    2.393024966119017E-3  -2.483740590379511E-3  
 2.050000000000000E10    1.891399436967531E-3  -2.906339571629140E-3  
 2.050200000000000E10    1.312638689478150E-3  -3.269787317279865E-3  
 2.050400000000000E10    5.986000417535057E-4  -3.506477743038787E-3  
 2.050600000000000E10   -1.854374388025335E-4  -3.484906614911615E-3  
 2.050800000000000E10   -8.362148282905153E-4  -3.239056398635100E-3  
 2.051000000000000E10   -1.322221156704255E-3  -2.931432571529552E-3  
 2.051200000000000E10   -1.746662874119465E-3  -2.623753876344463E-3  
 2.051400000000000E10   -2.145082998606516E-3  -2.269150490138169E-3  
 2.051600000000000E10   -2.492103212102941E-3  -1.820739110845544E-3  
 2.051800000000000E10   -2.692187120734371E-3  -1.285521327577309E-3  
 2.052000000000000E10   -2.716688659695650E-3  -8.147159951842117E-4  
 2.052200000000000E10   -2.720907668338045E-3  -4.794626024789738E-4  
 2.052400000000000E10   -2.819890339193992E-3  -1.646172203845046E-4  
 2.052600000000000E10   -2.953820047033819E-3   2.638517833168370E-4  
 2.052800000000000E10   -2.991495371628173E-3   8.339175237900337E-4  
 2.053000000000000E10   -2.866237137259141E-3   1.481276411046798E-3  
 2.053200000000000E10   -2.492720000291593E-3   2.145457543916851E-3  
 2.053400000000000E10   -1.835666058550697E-3   2.615032815730961E-3  
 2.053600000000000E10   -1.122790832150190E-3   2.714266130436779E-3  
 2.053800000000000E10   -6.302303861298991E-4   2.569397841046724E-3  
 2.054000000000000E10   -3.671559062741451E-4   2.431706324256516E-3  
 2.054200000000000E10   -2.077090614424091E-4   2.421550969022359E-3  
 2.054400000000000E10   -3.375747946272244E-5   2.543944354013732E-3  
 2.054600000000000E10    3.006211572421305E-4   2.778705556923848E-3  
 2.054800000000000E10    8.608299477277542E-4   2.952900730810259E-3  
 2.055000000000000E10    1.568736598649463E-3   2.877577448608510E-3  
 2.055200000000000E10    2.236074207098228E-3   2.562245702977026E-3  
 2.055400000000000E10    2.805941185240625E-3   2.042321620580666E-3  
 2.055600000000000E10    3.180936812634437E-3   1.374399922016181E-3  
