#  HZ   S   RI   R     50.00 
! Rohde & Schwarz ZVA40 4Ports - Version 3.90 - 1145.1110k42 SN: 100403
! Date: 2023-09-30 08:13:43
! Measurement: S12 
! 
 2.000000000000000E10    4.439191166979370E-4  -5.855294009738752E-4  
 2.000200000000000E10    3.394070639890503E-4  -6.499025683021499E-4  
 2.000400000000000E10    2.231962511191312E-4  -6.846330107087229E-4  
 2.000600000000000E10    1.329955524729726E-4  -6.987512625392338E-4  
 2.000800000000000E10    7.246472782007225E-5  -7.439070890587767E-4  
 2.001000000000000E10   -3.477573382601110E-5  -8.279454297542396E-4  
 2.001200000000000E10   -1.963424585615953E-4  -9.000966842413335E-4  
 2.001400000000000E10   -4.084836815112958E-4  -9.326088219822719E-4  
 2.001600000000000E10   -6.606475991861817E-4  -9.079568976810497E-4  
 2.001800000000000E10   -9.363542642413713E-4  -7.862643753814348E-4  
 2.002000000000000E10   -1.153102606126005E-3  -5.578221562319214E-4  
 2.002200000000000E10   -1.312522003395919E-3  -2.651846606299356E-4  
 2.002400000000000E10   -1.394053154174739E-3   7.961571904948063E-5  
 2.002600000000000E10   -1.326256400463807E-3   4.421714747647449E-4  
 2.002800000000000E10   -1.132546885249516E-3   7.330596844730011E-4  
 2.003000000000000E10   -8.857205987688923E-4   9.027157475966169E-4  
 2.003200000000000E10   -6.657105265419453E-4   9.445439127166405E-4  
 2.003400000000000E10   -5.649133173690228E-4   9.521386442619970E-4  
 2.003600000000000E10   -5.054596143515563E-4   1.057635712204679E-3  
 2.003800000000000E10   -3.454799064825210E-4   1.230392520784517E-3  
 2.004000000000000E10   -6.568931882264128E-5   1.304409248456149E-3  
 2.004200000000000E10    1.750530861023569E-4   1.239693396499205E-3  
 2.004400000000000E10    2.823767703067486E-4   1.151731193729678E-3  
 2.004600000000000E10    3.543498896073305E-4   1.191528661245691E-3  
 2.004800000000000E10    5.625914098716072E-4   1.308226560053967E-3  
 2.005000000000000E10    9.105234759665416E-4   1.297597325295681E-3  
 2.005200000000000E10    1.257134762035041E-3   1.107497810849725E-3  
 2.005400000000000E10    1.463345353931786E-3   8.048082049006296E-4  
 2.005600000000000E10    1.528750525264678E-3   5.355519286677386E-4  
 2.005800000000000E10    1.593352953601454E-3   3.806866798464722E-4  
 2.006000000000000E10    1.775338427712859E-3   1.985648305773628E-4  
 2.006200000000000E10    1.971304817536142E-3  -1.398429669146368E-4  
 2.006400000000000E10    2.048913639770119E-3  -6.062004211749227E-4  
 2.006600000000000E10    1.937927968529373E-3  -1.118324589740268E-3  
 2.006800000000000E10    1.661534191597826E-3  -1.563260618787054E-3  
 2.007000000000000E10    1.279270288670307E-3  -1.904939183033577E-3  
 2.007200000000000E10    8.186254697516698E-4  -2.119159703930045E-3  
 2.007400000000000E10    3.565786958319294E-4  -2.170911067335915E-3  
 2.007600000000000E10   -4.869350869065883E-5  -2.128299326520778E-3  
 2.007800000000000E10   -4.141036570647421E-4  -2.010126271840277E-3  
 2.008000000000000E10   -6.976934078922691E-4  -1.837649004181288E-3  
 2.008200000000000E10   -9.047500752791256E-4  -1.664739557885564E-3  
 2.008400000000000E10   -1.072877954002916E-3  -1.509819745401685E-3  
 2.008600000000000E10   -1.233146820675012E-3  -1.379075412228397E-3  
 2.008800000000000E10   -1.406095551596999E-3  -1.258305401171234E-3  
 2.009000000000000E10   -1.605324122980646E-3  -1.121118832932468E-3  
 2.009200000000000E10   -1.811358803377008E-3  -9.416900122700883E-4  
 2.009400000000000E10   -2.046318604130934E-3  -7.134669361365065E-4  
 2.009600000000000E10   -2.267536014905281E-3  -3.879443119394877E-4  
 2.009800000000000E10   -2.404180294119368E-3   3.872306973792038E-5  
 2.010000000000000E10   -2.423391086827965E-3   5.022614243027758E-4  
 2.010200000000000E10   -2.332807960959072E-3   9.412362983070157E-4  
 2.010400000000000E10   -2.176077452416844E-3   1.362490263410399E-3  
 2.010600000000000E10   -1.930401555211831E-3   1.757538594453710E-3  
 2.010800000000000E10   -1.614108103629945E-3   2.093216411309762E-3  
 2.011000000000000E10   -1.239099305885637E-3   2.367789479294209E-3  
 2.011200000000000E10   -8.205333285110641E-4   2.562257849939669E-3  
 2.011400000000000E10   -3.945071847376629E-4   2.691397134853692E-3  
 2.011600000000000E10    4.491857810317244E-5   2.763113491631780E-3  
 2.011800000000000E10    5.384152311286774E-4   2.778506698108150E-3  
 2.012000000000000E10    1.062286705381384E-3   2.703836785890293E-3  
 2.012200000000000E10    1.598615831405355E-3   2.446766614129251E-3  
 2.012400000000000E10    1.978861155961322E-3   2.043454878806110E-3  
 2.012600000000000E10    2.209802709716888E-3   1.680561373745002E-3  
 2.012800000000000E10    2.452280432212405E-3   1.356413824715270E-3  
 2.013000000000000E10    2.692116503861393E-3   9.313675857541837E-4  
 2.013200000000000E10    2.800949744607943E-3   4.221314957393145E-4  
 2.013400000000000E10    2.785799266472959E-3  -3.559361786480066E-5  
 2.013600000000000E10    2.731535453851849E-3  -4.547797085970273E-4  
 2.013800000000000E10    2.629429897812412E-3  -8.702496404313445E-4  
 2.014000000000000E10    2.476353123979955E-3  -1.260897110181826E-3  
 2.014200000000000E10    2.297389360135934E-3  -1.639259174867705E-3  
 2.014400000000000E10    2.049981529884480E-3  -2.036023266010772E-3  
 2.014600000000000E10    1.679880847265688E-3  -2.420922569536506E-3  
 2.014800000000000E10    1.196248566171399E-3  -2.697864178874166E-3  
 2.015000000000000E10    6.584308256011619E-4  -2.823497752801397E-3  
 2.015200000000000E10    1.467012208258856E-4  -2.794801725199280E-3  
 2.015400000000000E10   -2.528262297607814E-4  -2.660504007075227E-3  
 2.015600000000000E10   -5.420216664404610E-4  -2.522939668455603E-3  
 2.015800000000000E10   -7.940780295680394E-4  -2.452166903444059E-3  
 2.016000000000000E10   -1.096050696282264E-3  -2.436323467160297E-3  
 2.016200000000000E10   -1.490525365054791E-3  -2.376879232158725E-3  
 2.016400000000000E10   -1.930630558593101E-3  -2.193159432640287E-3  
 2.016600000000000E10   -2.323076847217883E-3  -1.907903483265101E-3  
 2.016800000000000E10   -2.700771543177036E-3  -1.581117679093007E-3  
 2.017000000000000E10   -3.093622720973092E-3  -1.124760338745874E-3  
 2.017200000000000E10   -3.376854468713904E-3  -4.787185071035511E-4  
 2.017400000000000E10   -3.433058693445170E-3   2.483494836257053E-4  
 2.017600000000000E10   -3.264107185262194E-3   9.572103230921149E-4  
 2.017800000000000E10   -2.924492920764078E-3   1.526994611708809E-3  
 2.018000000000000E10   -2.511333877462346E-3   1.945140394304818E-3  
 2.018200000000000E10   -2.079815762561804E-3   2.218546119812837E-3  
 2.018400000000000E10   -1.710464988676600E-3   2.402622211147358E-3  
 2.018600000000000E10   -1.385897912131616E-3   2.583947595018105E-3  
 2.018800000000000E10   -1.027666603522996E-3   2.798271488745803E-3  
 2.019000000000000E10   -5.772331093478852E-4   2.969322885573876E-3  
 2.019200000000000E10   -6.718139798951281E-5   3.023100295675429E-3  
 2.019400000000000E10    4.052674135301749E-4   2.954430826280293E-3  
 2.019600000000000E10    7.938623931622306E-4   2.844442565444357E-3  
 2.019800000000000E10    1.152854723660816E-3   2.756814394980009E-3  
 2.020000000000000E10    1.574700953727885E-3   2.695918599989069E-3  
 2.020200000000000E10    2.126062074290057E-3   2.507383173175191E-3  
 2.020400000000000E10    2.640962534985961E-3   2.109118534933116E-3  
 2.020600000000000E10    3.029519701751302E-3   1.578202569649144E-3  
 2.020800000000000E10    3.277898165943138E-3   9.764048467373065E-4  
 2.021000000000000E10    3.366772520641623E-3   3.288184941664036E-4  
 2.021200000000000E10    3.288053875835038E-3  -2.587447806059630E-4  
 2.021400000000000E10    3.155069998250427E-3  -7.745158666470301E-4  
 2.021600000000000E10    2.957852974061632E-3  -1.270244946410760E-3  
 2.021800000000000E10    2.669772449775797E-3  -1.698304557154486E-3  
 2.022000000000000E10    2.355761955743589E-3  -2.047812439791712E-3  
 2.022200000000000E10    2.029715165757910E-3  -2.357207200135210E-3  
 2.022400000000000E10    1.673087915150834E-3  -2.671396058090253E-3  
 2.022600000000000E10    1.231592365244176E-3  -2.926984809695621E-3  
 2.022800000000000E10    7.480109372049754E-4  -3.101134699802109E-3  
 2.023000000000000E10    2.499830047332045E-4  -3.216497348475282E-3  
 2.023200000000000E10   -3.143008889362971E-4  -3.247580430749336E-3  
 2.023400000000000E10   -8.954776634477511E-4  -3.125740439354104E-3  
 2.023600000000000E10   -1.384195060399088E-3  -2.873374495095738E-3  
 2.023800000000000E10   -1.773320404749385E-3  -2.584036955213314E-3  
 2.024000000000000E10   -2.090340468355717E-3  -2.292378812568708E-3  
 2.024200000000000E10   -2.396356080880316E-3  -2.003919221932088E-3  
 2.024400000000000E10   -2.729295698611864E-3  -1.693024637733740E-3  
 2.024600000000000E10   -3.086586284379220E-3  -1.295484700466602E-3  
 2.024800000000000E10   -3.395111582847646E-3  -7.165587411586164E-4  
 2.025000000000000E10   -3.496409772387528E-3  -2.743585190041058E-5  
 2.025200000000000E10   -3.423921906342028E-3   5.943038261804553E-4  
 2.025400000000000E10   -3.281618925572325E-3   1.180040037722637E-3  
 2.025600000000000E10   -3.013690540601393E-3   1.776210103555038E-3  
 2.025800000000000E10   -2.612949454702120E-3   2.278470261071563E-3  
 2.026000000000000E10   -2.147679118647652E-3   2.665685183555853E-3  
 2.026200000000000E10   -1.642076865393902E-3   2.960359304951727E-3  
 2.026400000000000E10   -1.102252359839287E-3   3.180871899396573E-3  
 2.026600000000000E10   -5.043943539397237E-4   3.285886228078603E-3  
 2.026800000000000E10    4.912065845865804E-5   3.241141880501157E-3  
 2.027000000000000E10    5.436740365255392E-4   3.152736075027456E-3  
 2.027200000000000E10    1.026320236185990E-3   3.030644137418840E-3  
 2.027400000000000E10    1.516038806776982E-3   2.813463448280674E-3  
 2.027600000000000E10    1.966669573750239E-3   2.526361754099088E-3  
 2.027800000000000E10    2.385159177794222E-3   2.140222997490514E-3  
 2.028000000000000E10    2.710107430786456E-3   1.649200457336052E-3  
 2.028200000000000E10    2.893725039796259E-3   1.115685545489751E-3  
 2.028400000000000E10    2.966587699052913E-3   5.995789441833524E-4  
 2.028600000000000E10    2.936986747279144E-3   1.082541206980065E-4  
 2.028800000000000E10    2.839874241447437E-3  -3.107349342203674E-4  
 2.029000000000000E10    2.747584418591690E-3  -6.679564519004489E-4  
 2.029200000000000E10    2.673511653843313E-3  -1.047050069404076E-3  
 2.029400000000000E10    2.550415073370545E-3  -1.480187885652739E-3  
 2.029600000000000E10    2.315080122653985E-3  -1.950321430150199E-3  
 2.029800000000000E10    1.936979166746896E-3  -2.367953442033131E-3  
 2.030000000000000E10    1.497567259417550E-3  -2.691272364705324E-3  
 2.030200000000000E10    9.682144446498203E-4  -2.938688521748536E-3  
 2.030400000000000E10    3.998051064944251E-4  -3.034717469642101E-3  
 2.030600000000000E10   -1.381367102213618E-4  -3.019907453571937E-3  
 2.030800000000000E10   -6.524884868348625E-4  -2.922326407777571E-3  
 2.031000000000000E10   -1.133225874038749E-3  -2.749056191268938E-3  
 2.031200000000000E10   -1.575261644712872E-3  -2.498094208516957E-3  
 2.031400000000000E10   -1.963321786916664E-3  -2.203316048233100E-3  
 2.031600000000000E10   -2.344732230311725E-3  -1.870515488807525E-3  
 2.031800000000000E10   -2.679161983609570E-3  -1.395826141268067E-3  
 2.032000000000000E10   -2.882574720937300E-3  -8.388662502849401E-4  
 2.032200000000000E10   -2.942769459737336E-3  -2.625631371581606E-4  
 2.032400000000000E10   -2.879305681430350E-3   2.625906220974744E-4  
 2.032600000000000E10   -2.777908099962876E-3   7.478082136998675E-4  
 2.032800000000000E10   -2.589441072872862E-3   1.288810107835555E-3  
 2.033000000000000E10   -2.224005668199366E-3   1.784375193276873E-3  
 2.033200000000000E10   -1.733396693679745E-3   2.132622590782500E-3  
 2.033400000000000E10   -1.169464085978578E-3   2.329749066527150E-3  
 2.033600000000000E10   -8.324024283126732E-4   2.190788462055421E-3  
 2.033800000000000E10   -3.010444225139920E-4   2.080538638720806E-3  
 2.034000000000000E10   -1.203339368410053E-4   1.991729096358626E-3  
 2.034200000000000E10    5.309535008525313E-5   1.949745475397172E-3  
 2.034400000000000E10    2.025177464340305E-4   1.962596462380736E-3  
 2.034600000000000E10    4.089657372378144E-4   2.059924982582125E-3  
 2.034800000000000E10    7.460936197406058E-4   2.172659995174014E-3  
 2.035000000000000E10    1.247552827404745E-3   2.187674034693766E-3  
 2.035200000000000E10    1.824992053593144E-3   1.972917818677688E-3  
 2.035400000000000E10    2.287761745027627E-3   1.524855744211758E-3  
 2.035600000000000E10    2.589351710441968E-3   9.962234295221300E-4  
 2.035800000000000E10    2.772973358625173E-3   3.945170247955273E-4  
 2.036000000000000E10    2.757031688143878E-3  -2.736399210552275E-4  
 2.036200000000000E10    2.521565255184210E-3  -8.739042473511085E-4  
 2.036400000000000E10    2.156019820625182E-3  -1.304980315415808E-3  
 2.036600000000000E10    1.759747219392047E-3  -1.575836610902687E-3  
 2.036800000000000E10    1.413012974346339E-3  -1.745262002956956E-3  
 2.037000000000000E10    1.089154486406031E-3  -1.869305322011895E-3  
 2.037200000000000E10    7.837266617879298E-4  -1.963151789885972E-3  
 2.037400000000000E10    4.843963980242512E-4  -2.040850310240749E-3  
 2.037600000000000E10    1.502606361914596E-4  -2.093236833122926E-3  
 2.037800000000000E10   -1.893906158595366E-4  -2.085536279712901E-3  
 2.038000000000000E10   -5.385556343678574E-4  -2.036893701118643E-3  
 2.038200000000000E10   -8.808134992920930E-4  -1.902656275148049E-3  
 2.038400000000000E10   -1.172722941673322E-3  -1.731846490131788E-3  
 2.038600000000000E10   -1.443350818996145E-3  -1.531261670383452E-3  
 2.038800000000000E10   -1.711817614095690E-3  -1.304008583966918E-3  
 2.039000000000000E10   -1.964634422563736E-3  -9.989505981839938E-4  
 2.039200000000000E10   -2.160307816456169E-3  -6.164620676523053E-4  
 2.039400000000000E10   -2.257362729227467E-3  -1.778094470594987E-4  
 2.039600000000000E10   -2.251741149166230E-3   2.575535894013292E-4  
 2.039800000000000E10   -2.149479115213487E-3   6.798903049878844E-4  
 2.040000000000000E10   -1.969169556429973E-3   1.061736701557155E-3  
 2.040200000000000E10   -1.747510459874069E-3   1.392567853313158E-3  
 2.040400000000000E10   -1.473082186644416E-3   1.708715208013317E-3  
 2.040600000000000E10   -1.101940877293730E-3   1.964851494731898E-3  
 2.040800000000000E10   -6.899873935816234E-4   2.120358672693106E-3  
 2.041000000000000E10   -2.575439977662383E-4   2.167798095582756E-3  
 2.041200000000000E10    1.295188065561089E-4   2.100489425058852E-3  
 2.041400000000000E10    4.251874365516358E-4   2.007426222199494E-3  
 2.041600000000000E10    7.221900624728534E-4   1.929116321169351E-3  
 2.041800000000000E10    1.028998050056716E-3   1.797476753372756E-3  
 2.042000000000000E10    1.310245447979201E-3   1.638713569878298E-3  
 2.042200000000000E10    1.595990708837508E-3   1.447055857127365E-3  
 2.042400000000000E10    1.897623595149103E-3   1.201227901887698E-3  
 2.042600000000000E10    2.186501057971269E-3   8.222728114575292E-4  
 2.042800000000000E10    2.318599954902708E-3   3.460988162003865E-4  
 2.043000000000000E10    2.336904712268625E-3  -1.068610253203111E-4  
 2.043200000000000E10    2.291874937069270E-3  -5.591387443574914E-4  
 2.043400000000000E10    2.125658363520059E-3  -1.014068453732950E-3  
 2.043600000000000E10    1.842804322939896E-3  -1.370753378328688E-3  
 2.043800000000000E10    1.538086437874736E-3  -1.610056797501408E-3  
 2.044000000000000E10    1.268134737275019E-3  -1.795302673762943E-3  
 2.044200000000000E10    1.014700932196865E-3  -1.976467790375931E-3  
 2.044400000000000E10    7.370866873461118E-4  -2.187249917866862E-3  
 2.044600000000000E10    3.626835839360847E-4  -2.406565803471505E-3  
 2.044800000000000E10   -1.498060221189054E-4  -2.524160528444793E-3  
 2.045000000000000E10   -6.997399215584072E-4  -2.473770527799643E-3  
 2.045200000000000E10   -1.183681808908326E-3  -2.270490300278521E-3  
 2.045400000000000E10   -1.572972312976300E-3  -1.976676756393172E-3  
 2.045600000000000E10   -1.886233632786223E-3  -1.663016080360214E-3  
 2.045800000000000E10   -2.162796774226988E-3  -1.313718599830839E-3  
 2.046000000000000E10   -2.372228725580676E-3  -8.861776765332598E-4  
 2.046200000000000E10   -2.481884668917463E-3  -4.684475092695693E-4  
 2.046400000000000E10   -2.549904258233294E-3  -4.775682841402962E-5  
 2.046600000000000E10   -2.545203329714785E-3   4.229531032075495E-4  
 2.046800000000000E10   -2.428927195011875E-3   8.463061572328061E-4  
 2.047000000000000E10   -2.311202793874243E-3   1.235498009775345E-3  
 2.047200000000000E10   -2.151007630610054E-3   1.673035851028626E-3  
 2.047400000000000E10   -1.858478344588958E-3   2.149182335137038E-3  
 2.047600000000000E10   -1.381008601105847E-3   2.564045781790052E-3  
 2.047800000000000E10   -7.697898396966515E-4   2.800935253677239E-3  
 2.048000000000000E10   -1.612936300309483E-4   2.799012775169088E-3  
 2.048200000000000E10    3.259944167578143E-4   2.664824059438043E-3  
 2.048400000000000E10    7.025406912036327E-4   2.512283407634607E-3  
 2.048600000000000E10    1.050428488425090E-3   2.371595089989982E-3  
 2.048800000000000E10    1.420994523114636E-3   2.215005428088959E-3  
 2.049000000000000E10    1.801678743405755E-3   1.971085030075082E-3  
 2.049200000000000E10    2.112893296721934E-3   1.625188440166078E-3  
 2.049400000000000E10    2.315005229719607E-3   1.279292518886639E-3  
 2.049600000000000E10    2.520660268910192E-3   9.493734212217503E-4  
 2.049800000000000E10    2.723435173627354E-3   5.514627539504771E-4  
 2.050000000000000E10    2.843424964442366E-3   7.793687115580023E-5  
 2.050200000000000E10    2.869922927826487E-3  -4.332984098543582E-4  
 2.050400000000000E10    2.787555726298986E-3  -9.534595722162687E-4  
 2.050600000000000E10    2.606706449546510E-3  -1.442295475316420E-3  
 2.050800000000000E10    2.350707120388279E-3  -1.881210470560474E-3  
 2.051000000000000E10    2.020630735456558E-3  -2.292533916458284E-3  
 2.051200000000000E10    1.637109554931437E-3  -2.644827974285387E-3  
 2.051400000000000E10    1.172900147457996E-3  -2.963208352506441E-3  
 2.051600000000000E10    5.907242068568196E-4  -3.205716782528439E-3  
 2.051800000000000E10   -5.598790490721121E-5  -3.264874144058549E-3  
 2.052000000000000E10   -6.334860886775317E-4  -3.158205436297628E-3  
 2.052200000000000E10   -1.131439376859492E-3  -3.007453507741648E-3  
 2.052400000000000E10   -1.662905981274902E-3  -2.813332495611060E-3  
 2.052600000000000E10   -2.167973593357173E-3  -2.476700209563797E-3  
 2.052800000000000E10   -2.588834892809357E-3  -2.033342747741678E-3  
 2.053000000000000E10   -2.902747234974027E-3  -1.507070733297028E-3  
 2.053200000000000E10   -3.061523095992345E-3  -9.201207187503262E-4  
 2.053400000000000E10   -3.051944444767394E-3  -4.060658739559706E-4  
 2.053600000000000E10   -3.029171431644664E-3  -1.443885017949974E-6  
 2.053800000000000E10   -3.041244355928749E-3   4.034497820835896E-4  
 2.054000000000000E10   -3.038151150436173E-3   8.750972970045458E-4  
 2.054200000000000E10   -2.932465252795962E-3   1.404328956380867E-3  
 2.054400000000000E10   -2.707392371110159E-3   1.933895794507540E-3  
 2.054600000000000E10   -2.370804649117793E-3   2.445211138888840E-3  
 2.054800000000000E10   -1.897450898794693E-3   2.904462426961334E-3  
 2.055000000000000E10   -1.287073967442504E-3   3.241684707917865E-3  
 2.055200000000000E10   -6.075294277598951E-4   3.391847128340670E-3  
 2.055400000000000E10    5.158690432820071E-5   3.327417906715551E-3  
 2.055600000000000E10    5.691613345886736E-4   3.130649457607720E-3  
