#  HZ   S   RI   R     50.00 
! Rohde & Schwarz ZVA40 4Ports - Version 3.90 - 1145.1110k42 SN: 100403
! Date: 2023-09-30 06:18:19
! Measurement: S12 
! 
 2.000000000000000E10   -1.506067747365415E-3  -2.097547129098494E-4  
 2.000200000000000E10   -1.294271922177744E-3   1.469886021537433E-4  
 2.000400000000000E10   -8.566542827035644E-4   2.701331640496915E-4  
 2.000600000000000E10   -5.087789106929246E-4   8.756245475942764E-6  
 2.000800000000000E10   -5.430829907279110E-4  -4.372572910940601E-4  
 2.001000000000000E10   -9.537085462764394E-4  -6.887329194967804E-4  
 2.001200000000000E10   -1.469097391894071E-3  -6.155880578090012E-4  
 2.001400000000000E10   -1.905006607844919E-3  -2.287386933146334E-4  
 2.001600000000000E10   -2.087335266285278E-3   3.444638067623589E-4  
 2.001800000000000E10   -2.038927176195791E-3   9.195754266286981E-4  
 2.002000000000000E10   -1.792912976197639E-3   1.458179890877791E-3  
 2.002200000000000E10   -1.329925442032774E-3   1.871605580444953E-3  
 2.002400000000000E10   -8.646106980211559E-4   2.102150298168403E-3  
 2.002600000000000E10   -3.200787139527884E-4   2.235814468441563E-3  
 2.002800000000000E10    2.857205817978034E-4   2.146259824137961E-3  
 2.003000000000000E10    7.551952014449416E-4   1.780691851419638E-3  
 2.003200000000000E10    9.487755787055412E-4   1.352275550953209E-3  
 2.003400000000000E10    9.655517091962142E-4   9.901240881228725E-4  
 2.003600000000000E10    8.430238422547823E-4   7.579423466489587E-4  
 2.003800000000000E10    7.581481515818161E-4   7.349575040102700E-4  
 2.004000000000000E10    8.278973890817057E-4   6.639133461607094E-4  
 2.004200000000000E10    7.793358360679730E-4   5.514387942601283E-4  
 2.004400000000000E10    7.243703099694417E-4   6.085661615625593E-4  
 2.004600000000000E10    8.712405279959100E-4   7.348610649782436E-4  
 2.004800000000000E10    1.175139489248027E-3   6.927173764299675E-4  
 2.005000000000000E10    1.457733475835422E-3   4.417208435927162E-4  
 2.005200000000000E10    1.582102588622660E-3   8.106077062175555E-5  
 2.005400000000000E10    1.566658972360149E-3  -2.893413227514738E-4  
 2.005600000000000E10    1.484774390639891E-3  -6.177494340337539E-4  
 2.005800000000000E10    1.307049861146290E-3  -1.007947882864467E-3  
 2.006000000000000E10    8.609701351720542E-4  -1.293293728892849E-3  
 2.006200000000000E10    3.690145325884989E-4  -1.195785483571498E-3  
 2.006400000000000E10    2.502935522083581E-4  -9.325161695631808E-4  
 2.006600000000000E10    3.054889577041405E-4  -9.581810646223830E-4  
 2.006800000000000E10    1.270300119137895E-4  -1.103825137836007E-3  
 2.007000000000000E10   -1.407671816394172E-4  -1.078774173688805E-3  
 2.007200000000000E10   -3.653706300712788E-4  -9.834763675150367E-4  
 2.007400000000000E10   -5.581505079646369E-4  -7.844401742004179E-4  
 2.007600000000000E10   -6.497998515390477E-4  -5.688992959166496E-4  
 2.007800000000000E10   -7.003160435353637E-4  -2.857747515569346E-4  
 2.008000000000000E10   -5.212043871995357E-4   1.225651554223570E-5  
 2.008200000000000E10   -2.006156882212322E-4   7.676691942860731E-5  
 2.008400000000000E10    2.169574103579656E-5  -1.091741712753957E-4  
 2.008600000000000E10    1.256748113768244E-5  -3.433610332888997E-4  
 2.008800000000000E10   -1.302070931932367E-4  -4.852029589900682E-4  
 2.009000000000000E10   -2.975892398090921E-4  -5.001237169641836E-4  
 2.009200000000000E10   -4.291000538640584E-4  -4.485778766011361E-4  
 2.009400000000000E10   -5.067867433345667E-4  -3.738538617503982E-4  
 2.009600000000000E10   -5.521787295025109E-4  -3.068499806968989E-4  
 2.009800000000000E10   -5.737535939406868E-4  -3.025107254311743E-4  
 2.010000000000000E10   -7.117882456628372E-4  -3.349253021573323E-4  
 2.010200000000000E10   -9.448089903433237E-4  -2.684608072189429E-4  
 2.010400000000000E10   -1.234655171588937E-3  -3.755834578695095E-5  
 2.010600000000000E10   -1.363745021221239E-3   4.179166094805922E-4  
 2.010800000000000E10   -1.264914408792276E-3   8.929347377159901E-4  
 2.011000000000000E10   -1.015164823964973E-3   1.338330057301493E-3  
 2.011200000000000E10   -5.482978127940334E-4   1.730059106944968E-3  
 2.011400000000000E10    1.361364919006325E-4   1.857252590081601E-3  
 2.011600000000000E10    7.544102306428378E-4   1.642944382049363E-3  
 2.011800000000000E10    1.198992262599354E-3   1.256995540240153E-3  
 2.012000000000000E10    1.452572693681255E-3   8.092162218183730E-4  
 2.012200000000000E10    1.611084955158499E-3   3.554744008529561E-4  
 2.012400000000000E10    1.675461067502239E-3  -1.801620952058899E-4  
 2.012600000000000E10    1.509097926577859E-3  -7.888722004450587E-4  
 2.012800000000000E10    1.086164253361857E-3  -1.281535873960285E-3  
 2.013000000000000E10    4.611624392627783E-4  -1.585750128964417E-3  
 2.013200000000000E10   -2.506569470629453E-4  -1.549041294655234E-3  
 2.013400000000000E10   -8.448782913919539E-4  -1.197188314201674E-3  
 2.013600000000000E10   -1.205605180037527E-3  -6.156052486558600E-4  
 2.013800000000000E10   -1.217279130530864E-3   6.228072469148721E-5  
 2.014000000000000E10   -8.422210153849852E-4   5.880774466228639E-4  
 2.014200000000000E10   -3.361915397803715E-4   7.878234968371027E-4  
 2.014400000000000E10    1.768549603628145E-4   7.177304424532693E-4  
 2.014600000000000E10    5.376581578471483E-4   3.440346632230363E-4  
 2.014800000000000E10    5.715280540733482E-4  -1.242172802419632E-4  
 2.015000000000000E10    3.196793304199910E-4  -5.049682402236014E-4  
 2.015200000000000E10   -1.240220773313397E-4  -6.235765972031242E-4  
 2.015400000000000E10   -4.973981953970549E-4  -4.253310095232014E-4  
 2.015600000000000E10   -6.304893184326805E-4  -6.032805709307894E-5  
 2.015800000000000E10   -4.926275410675733E-4   2.654626948724569E-4  
 2.016000000000000E10   -1.878026641020529E-4   3.523831895107403E-4  
 2.016200000000000E10   -1.841237001267599E-5   1.882059275373689E-4  
 2.016400000000000E10   -2.862309119472395E-5   3.653348123180033E-5  
 2.016600000000000E10   -9.985732191049715E-5  -1.054883018731622E-4  
 2.016800000000000E10   -3.441571003915170E-4  -2.509552024008243E-4  
 2.017000000000000E10   -7.871870032127006E-4  -1.585795871401860E-4  
 2.017200000000000E10   -1.141920725531386E-3   3.473931584095554E-4  
 2.017400000000000E10   -1.095248427892148E-3   1.030751077303571E-3  
 2.017600000000000E10   -7.210727860213232E-4   1.632743986614565E-3  
 2.017800000000000E10   -5.270967704715673E-5   2.081844579882606E-3  
 2.018000000000000E10    8.773868790442131E-4   2.182371052342815E-3  
 2.018200000000000E10    1.781820887204640E-3   1.747175154943539E-3  
 2.018400000000000E10    2.310743476759657E-3   9.803925773109816E-4  
 2.018600000000000E10    2.475280482084293E-3   1.809569373282389E-4  
 2.018800000000000E10    2.424855096425508E-3  -5.860166539863269E-4  
 2.019000000000000E10    2.103529006049103E-3  -1.344722653198253E-3  
 2.019200000000000E10    1.480672757007893E-3  -1.860131592430855E-3  
 2.019400000000000E10    8.200166946304846E-4  -2.040560024407884E-3  
 2.019600000000000E10    2.524379973510863E-4  -2.036707209301172E-3  
 2.019800000000000E10   -2.545682217108686E-4  -1.896764508083545E-3  
 2.020000000000000E10   -6.802503062749209E-4  -1.613883117987890E-3  
 2.020200000000000E10   -9.017447932691399E-4  -1.200293484336174E-3  
 2.020400000000000E10   -8.502216534063946E-4  -8.774679986979948E-4  
 2.020600000000000E10   -7.680627799668274E-4  -8.234956924785325E-4  
 2.020800000000000E10   -8.623705883984520E-4  -8.319623703139880E-4  
 2.021000000000000E10   -1.043303507954857E-3  -7.818581296448698E-4  
 2.021200000000000E10   -1.274015953218434E-3  -6.413258273445665E-4  
 2.021400000000000E10   -1.508788902028195E-3  -3.664680668996161E-4  
 2.021600000000000E10   -1.621330898801154E-3   1.125490614245599E-4  
 2.021800000000000E10   -1.404210633408405E-3   5.666186543110944E-4  
 2.022000000000000E10   -1.079159041392285E-3   7.888784318053817E-4  
 2.022200000000000E10   -7.798457308244948E-4   8.543361370540405E-4  
 2.022400000000000E10   -5.495320325902968E-4   7.809971167119820E-4  
 2.022600000000000E10   -4.868974616227815E-4   6.833846194757582E-4  
 2.022800000000000E10   -5.113327376340647E-4   6.796182870885641E-4  
 2.023000000000000E10   -5.160467039997853E-4   7.879856543933079E-4  
 2.023200000000000E10   -4.448100410813638E-4   9.140645739424147E-4  
 2.023400000000000E10   -3.304425105387518E-4   1.040045265579142E-3  
 2.023600000000000E10   -1.802672017991588E-4   1.154319721928034E-3  
 2.023800000000000E10    7.497357526186102E-5   1.300319278573208E-3  
 2.024000000000000E10    4.706391785678459E-4   1.254054715994489E-3  
 2.024200000000000E10    7.228039096156618E-4   9.842178382985613E-4  
 2.024400000000000E10    7.361640819012705E-4   7.582216458092381E-4  
 2.024600000000000E10    7.661980313976293E-4   6.915711033258221E-4  
 2.024800000000000E10    8.784112058695121E-4   6.062570309892630E-4  
 2.025000000000000E10    9.955441341009833E-4   4.476754606292261E-4  
 2.025200000000000E10    1.040607409832451E-3   2.470911407536813E-4  
 2.025400000000000E10    1.018046517054017E-3   4.117864816742513E-5  
 2.025600000000000E10    9.106300270184672E-4  -9.461642154374623E-5  
 2.025800000000000E10    8.625607089695708E-4  -1.661669607325967E-4  
 2.026000000000000E10    7.782976964954406E-4  -2.867315269426885E-4  
 2.026200000000000E10    6.245819514952291E-4  -2.862936855115248E-4  
 2.026400000000000E10    6.379825346591456E-4  -1.537487265909017E-4  
 2.026600000000000E10    8.004551293905363E-4  -1.956957785802684E-4  
 2.026800000000000E10    8.279487954343777E-4  -3.470565140123046E-4  
 2.027000000000000E10    8.341373546468474E-4  -3.713596379961064E-4  
 2.027200000000000E10    1.025754516407662E-3  -4.352053305333560E-4  
 2.027400000000000E10    1.269658074913397E-3  -7.765351047724373E-4  
 2.027600000000000E10    1.248826538102745E-3  -1.378069357617763E-3  
 2.027800000000000E10    8.187064115038581E-4  -1.919683546757028E-3  
 2.028000000000000E10    2.050361475538729E-4  -2.104950583086915E-3  
 2.028200000000000E10   -2.280280043120590E-4  -2.097072859468000E-3  
 2.028400000000000E10   -6.841268114540645E-4  -2.219759047496331E-3  
 2.028600000000000E10   -1.492745921572934E-3  -2.159209302328223E-3  
 2.028800000000000E10   -2.265089163197408E-3  -1.522815993377009E-3  
 2.029000000000000E10   -2.544795026547733E-3  -5.449367979306639E-4  
 2.029200000000000E10   -2.312620744212713E-3   3.093760288976047E-4  
 2.029400000000000E10   -1.842048956301386E-3   8.827352722010414E-4  
 2.029600000000000E10   -1.280333610820459E-3   1.261760350637882E-3  
 2.029800000000000E10   -5.433340506389936E-4   1.412059664154837E-3  
 2.030000000000000E10    2.453000447618503E-4   1.043832865206615E-3  
 2.030200000000000E10    5.135427146468879E-4   2.126289291351958E-4  
 2.030400000000000E10    1.289977551503599E-4  -4.594545865858780E-4  
 2.030600000000000E10   -4.867004109564208E-4  -6.497207366502023E-4  
 2.030800000000000E10   -1.031845741607244E-3  -4.933531756860390E-4  
 2.031000000000000E10   -1.413354023004483E-3  -9.311740279370962E-5  
 2.031200000000000E10   -1.553491945447880E-3   4.422551902166132E-4  
 2.031400000000000E10   -1.398580925212009E-3   9.944649865329322E-4  
 2.031600000000000E10   -9.977159468797876E-4   1.308197120918047E-3  
 2.031800000000000E10   -6.376227057663070E-4   1.330971398717027E-3  
 2.032000000000000E10   -4.502103301881778E-4   1.260706891694005E-3  
 2.032200000000000E10   -4.386175494051011E-4   1.208478688097759E-3  
 2.032400000000000E10   -5.121686184080756E-4   1.368103761077335E-3  
 2.032600000000000E10   -4.412767147996811E-4   1.664837234021374E-3  
 2.032800000000000E10   -2.655135960120273E-4   2.032750324235579E-3  
 2.033000000000000E10    1.638832575422306E-4   2.511868454763019E-3  
 2.033200000000000E10    1.010995268174338E-3   2.832370316912879E-3  
 2.033400000000000E10    2.103788207987546E-3   2.665580510762401E-3  
 2.033600000000000E10    2.832473176277801E-3   2.188778096502997E-3  
 2.033800000000000E10    3.493123435262009E-3   8.522932841479276E-4  
 2.034000000000000E10    3.563907142686867E-3  -1.851675789343256E-4  
 2.034200000000000E10    3.332352630420126E-3  -1.214231320872566E-3  
 2.034400000000000E10    2.724530027883437E-3  -2.135317355417265E-3  
 2.034600000000000E10    1.806513962024340E-3  -2.753601543888342E-3  
 2.034800000000000E10    7.147783554890155E-4  -2.946976504143937E-3  
 2.035000000000000E10   -3.053397295915234E-4  -2.606077157407155E-3  
 2.035200000000000E10   -9.232173658180467E-4  -1.920806759707831E-3  
 2.035400000000000E10   -1.125203396709776E-3  -1.202027409403751E-3  
 2.035600000000000E10   -1.040500153901908E-3  -5.747277518699970E-4  
 2.035800000000000E10   -6.852166092428091E-4  -1.001790068133330E-4  
 2.036000000000000E10   -1.189027047100811E-4  -1.679831441569131E-5  
 2.036200000000000E10    1.891534371430918E-4  -3.913966699231777E-4  
 2.036400000000000E10    5.823892406754198E-5  -7.022721038617085E-4  
 2.036600000000000E10   -1.482010565262689E-4  -7.952807437997401E-4  
 2.036800000000000E10   -3.447173493239737E-4  -7.867640739269634E-4  
 2.037000000000000E10   -5.116505005717345E-4  -6.779544226539118E-4  
 2.037200000000000E10   -6.015056226499031E-4  -5.287223954950681E-4  
 2.037400000000000E10   -5.995124722391781E-4  -3.452055361248582E-4  
 2.037600000000000E10   -4.525198324372371E-4  -2.419185965926832E-4  
 2.037800000000000E10   -2.871549635746942E-4  -3.570621050686820E-4  
 2.038000000000000E10   -3.417722381140018E-4  -6.171927945499813E-4  
 2.038200000000000E10   -6.373100467229615E-4  -8.005431374624646E-4  
 2.038400000000000E10   -1.083311854363233E-3  -7.790347710396283E-4  
 2.038600000000000E10   -1.523890545233908E-3  -4.494664399368715E-4  
 2.038800000000000E10   -1.740030481787270E-3   1.136343471779443E-4  
 2.039000000000000E10   -1.666003693404122E-3   7.257293405083186E-4  
 2.039200000000000E10   -1.341041755972087E-3   1.255864047870855E-3  
 2.039400000000000E10   -7.932635868527810E-4   1.609090659025158E-3  
 2.039600000000000E10   -1.861030848485511E-4   1.657331628214093E-3  
 2.039800000000000E10    3.273658925379858E-4   1.478780738594624E-3  
 2.040000000000000E10    6.877507276455445E-4   1.147175698098337E-3  
 2.040200000000000E10    8.366372189969292E-4   7.699795464254861E-4  
 2.040400000000000E10    8.664878989694775E-4   4.643670236763005E-4  
 2.040600000000000E10    8.070640610495408E-4   2.264103769422089E-4  
 2.040800000000000E10    7.760168303957453E-4   1.034833955370792E-4  
 2.041000000000000E10    8.173506871924538E-4  -6.454303783784104E-5  
 2.041200000000000E10    8.469545953927514E-4  -3.342387182171356E-4  
 2.041400000000000E10    6.884039084173256E-4  -7.132367067303181E-4  
 2.041600000000000E10    3.140098833993534E-4  -9.413289302293688E-4  
 2.041800000000000E10   -1.164183701487011E-4  -9.847530320933689E-4  
 2.042000000000000E10   -4.897664760361152E-4  -7.879605107607725E-4  
 2.042200000000000E10   -6.455274524187164E-4  -5.344529019695323E-4  
 2.042400000000000E10   -7.543141906678033E-4  -3.961050931124989E-4  
 2.042600000000000E10   -9.772749444144340E-4  -1.837405384302272E-4  
 2.042800000000000E10   -1.099310694776869E-3   2.807025108310123E-4  
 2.043000000000000E10   -8.651024890733480E-4   7.856651093656249E-4  
 2.043200000000000E10   -3.533269144489092E-4   1.010124097250028E-3  
 2.043400000000000E10    1.083901273662672E-4   8.718146718675889E-4  
 2.043600000000000E10    3.495505641880177E-4   5.550768102645660E-4  
 2.043800000000000E10    3.572518227447838E-4   2.366558149269413E-4  
 2.044000000000000E10    2.319382435245154E-4  -1.140555071857402E-5  
 2.044200000000000E10   -2.364959489900763E-5  -1.681056728641548E-4  
 2.044400000000000E10   -3.791004668510065E-4  -1.595783399637965E-4  
 2.044600000000000E10   -7.496180875110553E-4   1.114075453456674E-4  
 2.044800000000000E10   -8.953093764145906E-4   6.849600002280015E-4  
 2.045000000000000E10   -5.980297371792553E-4   1.267546116547200E-3  
 2.045200000000000E10   -4.774235616091989E-5   1.538832629834923E-3  
 2.045400000000000E10    4.924282202137193E-4   1.558960706732303E-3  
 2.045600000000000E10    1.043749200476609E-3   1.408557790146001E-3  
 2.045800000000000E10    1.527971797878642E-3   9.640963846126500E-4  
 2.046000000000000E10    1.708309572024614E-3   2.989428472016437E-4  
 2.046200000000000E10    1.470740506579577E-3  -3.423139410224595E-4  
 2.046400000000000E10    9.013291383342416E-4  -6.433854686032294E-4  
 2.046600000000000E10    4.109274629126711E-4  -4.393929706499177E-4  
 2.046800000000000E10    3.144353816490403E-4  -6.510409191540357E-5  
 2.047000000000000E10    4.807159739949525E-4   1.786477526741319E-4  
 2.047200000000000E10    7.213153048391825E-4   2.547234980621664E-4  
 2.047400000000000E10    9.959087537359775E-4   2.668881114013973E-4  
 2.047600000000000E10    1.414754593140064E-3   1.008219350544214E-4  
 2.047800000000000E10    1.673079803083431E-3  -4.552446918689344E-4  
 2.048000000000000E10    1.466373815110850E-3  -1.000565443545015E-3  
 2.048200000000000E10    1.145491802539466E-3  -1.203683045913614E-3  
 2.048400000000000E10    1.023781533500910E-3  -1.294646261536918E-3  
 2.048600000000000E10    9.381040195826611E-4  -1.546531805798687E-3  
 2.048800000000000E10    6.825027560508718E-4  -1.835356206795540E-3  
 2.049000000000000E10    2.946415603375185E-4  -1.976705171041138E-3  
 2.049200000000000E10   -2.157891954255994E-5  -1.960878591382114E-3  
 2.049400000000000E10   -2.034821652122108E-4  -1.958607614484942E-3  
 2.049600000000000E10   -4.130413902146819E-4  -2.110934509416604E-3  
 2.049800000000000E10   -8.339707801209436E-4  -2.250793225008482E-3  
 2.050000000000000E10   -1.338488370568422E-3  -2.205530739297078E-3  
 2.050200000000000E10   -1.801761050761381E-3  -2.049605538472240E-3  
 2.050400000000000E10   -2.282440278847704E-3  -1.854373774248425E-3  
 2.050600000000000E10   -2.887772386889530E-3  -1.512022775175070E-3  
 2.050800000000000E10   -3.495835008266985E-3  -8.079536041072809E-4  
 2.051000000000000E10   -3.749560171677987E-3   2.791793372463853E-4  
 2.051200000000000E10   -3.418007347338388E-3   1.385069341451312E-3  
 2.051400000000000E10   -2.693338433237561E-3   2.105651136173733E-3  
 2.051600000000000E10   -1.922799602060260E-3   2.460435509593568E-3  
 2.051800000000000E10   -1.161628225034564E-3   2.587139168029180E-3  
 2.052000000000000E10   -4.034229042769718E-4   2.427331537505767E-3  
 2.052200000000000E10    1.351807883440573E-4   1.901350014833316E-3  
 2.052400000000000E10    1.652962807319293E-4   1.285404728006632E-3  
 2.052600000000000E10   -1.599948686395610E-4   9.708745642462753E-4  
 2.052800000000000E10   -5.020554695105010E-4   1.057696610717758E-3  
 2.053000000000000E10   -6.431773256197785E-4   1.368979777886759E-3  
 2.053200000000000E10   -5.753806554020279E-4   1.706700615182380E-3  
 2.053400000000000E10   -3.758042698091582E-4   2.033100923050840E-3  
 2.053600000000000E10    6.896540192794350E-6   2.331895025440198E-3  
 2.053800000000000E10    5.342651964431267E-4   2.434264678618385E-3  
 2.054000000000000E10    1.042387236229826E-3   2.329609680044672E-3  
 2.054200000000000E10    1.418464781956785E-3   2.095845652135910E-3  
 2.054400000000000E10    1.666189297171552E-3   1.885194015452394E-3  
 2.054600000000000E10    1.967367395298969E-3   1.738011322794078E-3  
 2.054800000000000E10    2.338086321432984E-3   1.503229936259990E-3  
 2.055000000000000E10    2.687089187610323E-3   1.117615882151401E-3  
 2.055200000000000E10    2.949730361897128E-3   6.118292941063189E-4  
 2.055400000000000E10    3.033087757599515E-3   2.777181549768113E-5  
 2.055600000000000E10    2.983769654607379E-3  -4.902601445217058E-4  
