#  HZ   S   RI   R     50.00 
! Rohde & Schwarz ZVA40 4Ports - Version 3.90 - 1145.1110k42 SN: 100403
! Date: 2023-09-30 08:11:44
! Measurement: S12 
! 
 2.000000000000000E10   -1.486890800178024E-2  -9.650155665479845E-2  
 2.000200000000000E10   -3.004043128649749E-2  -9.340377142767849E-2  
 2.000400000000000E10   -4.541317429896027E-2  -8.724714708985071E-2  
 2.000600000000000E10   -5.980520925233777E-2  -7.836955030132334E-2  
 2.000800000000000E10   -7.221051290542720E-2  -6.725725763578311E-2  
 2.001000000000000E10   -8.286087942971016E-2  -5.386637719829279E-2  
 2.001200000000000E10   -9.081294706792227E-2  -3.915268212393315E-2  
 2.001400000000000E10   -9.624051653567549E-2  -2.298557294075300E-2  
 2.001600000000000E10   -9.877775752917786E-2  -6.379271781001332E-3  
 2.001800000000000E10   -9.843847652617035E-2   1.058002951660138E-2  
 2.002000000000000E10   -9.509692604090998E-2   2.725318210156040E-2  
 2.002200000000000E10   -8.840000500649584E-2   4.419241566083232E-2  
 2.002400000000000E10   -7.973248249573092E-2   5.827422127992966E-2  
 2.002600000000000E10   -6.871729970632431E-2   7.082174367143186E-2  
 2.002800000000000E10   -5.566967329820325E-2   8.136692334853955E-2  
 2.003000000000000E10   -4.126629501812852E-2   8.937801451690132E-2  
 2.003200000000000E10   -2.565666161831869E-2   9.488344444605007E-2  
 2.003400000000000E10   -9.535710252804412E-3   9.777726280359468E-2  
 2.003600000000000E10    6.999542023245610E-3   9.807447029280239E-2  
 2.003800000000000E10    2.324718907202931E-2   9.567342227760059E-2  
 2.004000000000000E10    3.909339138128249E-2   9.057811062031815E-2  
 2.004200000000000E10    5.395047643418231E-2   8.275345774903166E-2  
 2.004400000000000E10    6.726517582122302E-2   7.250336782813455E-2  
 2.004600000000000E10    7.866240144252888E-2   5.990594482218833E-2  
 2.004800000000000E10    8.762537546295744E-2   4.569501306301228E-2  
 2.005000000000000E10    9.390696489380332E-2   3.022327388977019E-2  
 2.005200000000000E10    9.754290702234518E-2   1.386386717984365E-2  
 2.005400000000000E10    9.839391408579287E-2  -2.639930849770535E-3  
 2.005600000000000E10    9.655031026649760E-2  -1.906217716951102E-2  
 2.005800000000000E10    9.211641317041815E-2  -3.471171612683965E-2  
 2.006000000000000E10    8.489927724105996E-2  -5.003325002047370E-2  
 2.006200000000000E10    7.556512364525747E-2  -6.340827616072160E-2  
 2.006400000000000E10    6.388472540497400E-2  -7.537983667240004E-2  
 2.006600000000000E10    5.037100309064033E-2  -8.517725590938405E-2  
 2.006800000000000E10    3.517141380523186E-2  -9.265572625409539E-2  
 2.007000000000000E10    1.889118442169651E-2  -9.731863883665071E-2  
 2.007200000000000E10    2.167751103644713E-3  -9.908416132759058E-2  
 2.007400000000000E10   -1.461711195248567E-2  -9.799001437782644E-2  
 2.007600000000000E10   -3.086415225419353E-2  -9.410846590736878E-2  
 2.007800000000000E10   -4.650354340066091E-2  -8.738750351867995E-2  
 2.008000000000000E10   -6.040595275629697E-2  -7.832195281737137E-2  
 2.008200000000000E10   -7.260677575465475E-2  -6.704013360639552E-2  
 2.008400000000000E10   -8.278150395901171E-2  -5.390154114346501E-2  
 2.008600000000000E10   -9.066716982558487E-2  -3.917187619247446E-2  
 2.008800000000000E10   -9.591774184939850E-2  -2.333471837109036E-2  
 2.009000000000000E10   -9.840707758898927E-2  -7.078862957491158E-3  
 2.009200000000000E10   -9.820062855865841E-2   9.523877873165073E-3  
 2.009400000000000E10   -9.526579757913044E-2   2.594164118279755E-2  
 2.009600000000000E10   -8.968392080935270E-2   4.138551883069032E-2  
 2.009800000000000E10   -8.152225832648621E-2   5.601588704431228E-2  
 2.010000000000000E10   -7.115418461560660E-2   6.888310344158161E-2  
 2.010200000000000E10   -5.849672941670716E-2   8.012234955467371E-2  
 2.010400000000000E10   -4.419579881890267E-2   8.888930217910152E-2  
 2.010600000000000E10   -2.845428832928013E-2   9.516461968258413E-2  
 2.010800000000000E10   -1.207274412646870E-2   9.856049379544224E-2  
 2.011000000000000E10    4.720908270277524E-3   9.919898184361284E-2  
 2.011200000000000E10    2.153278494131963E-2   9.693583911842664E-2  
 2.011400000000000E10    3.747855173019334E-2   9.196705225672852E-2  
 2.011600000000000E10    5.236348844672863E-2   8.434741727745475E-2  
 2.011800000000000E10    6.608751725199347E-2   7.413159238253766E-2  
 2.012000000000000E10    7.754045088486308E-2   6.195930806663574E-2  
 2.012200000000000E10    8.688077118688924E-2   4.784715401326406E-2  
 2.012400000000000E10    9.350376961830278E-2   3.255910794478495E-2  
 2.012600000000000E10    9.749003023481502E-2   1.626130820485790E-2  
 2.012800000000000E10    9.871047200012492E-2  -1.716919313573501E-4  
 2.013000000000000E10    9.725786712502695E-2  -1.664199398436201E-2  
 2.013200000000000E10    9.305734635353308E-2  -3.275944733209517E-2  
 2.013400000000000E10    8.629904243504016E-2  -4.781192736840707E-2  
 2.013600000000000E10    7.684269783210146E-2  -6.179456167675941E-2  
 2.013800000000000E10    6.544398081714181E-2  -7.366618074248468E-2  
 2.014000000000000E10    5.201259505635646E-2  -8.362367294752604E-2  
 2.014200000000000E10    3.736110834407382E-2  -9.107947331492522E-2  
 2.014400000000000E10    2.164100231896621E-2  -9.607849192771949E-2  
 2.014600000000000E10    5.108121644141716E-3  -9.833158263072175E-2  
 2.014800000000000E10   -1.137753548190018E-2  -9.768316481529878E-2  
 2.015000000000000E10   -2.754732619700200E-2  -9.427056163481291E-2  
 2.015200000000000E10   -4.285296418409834E-2  -8.830156914845526E-2  
 2.015400000000000E10   -5.676526539317267E-2  -8.006574462538832E-2  
 2.015600000000000E10   -6.953467315239181E-2  -6.943023154042768E-2  
 2.015800000000000E10   -8.017308560677409E-2  -5.697955440169446E-2  
 2.016000000000000E10   -8.875163092998049E-2  -4.284605151702402E-2  
 2.016200000000000E10   -9.483783295234155E-2  -2.753302846810810E-2  
 2.016400000000000E10   -9.832642864134415E-2  -1.117035102228637E-2  
 2.016600000000000E10   -9.893419877355593E-2   5.665316142969662E-3  
 2.016800000000000E10   -9.669317684941606E-2   2.220794173646557E-2  
 2.017000000000000E10   -9.166541351512192E-2   3.822275578369275E-2  
 2.017200000000000E10   -8.393756051517591E-2   5.336602496866447E-2  
 2.017400000000000E10   -7.380930430740869E-2   6.669785284020338E-2  
 2.017600000000000E10   -6.119445209047760E-2   7.847622957099341E-2  
 2.017800000000000E10   -4.716560683861738E-2   8.759287544443122E-2  
 2.018000000000000E10   -3.167906055200520E-2   9.428698994699658E-2  
 2.018200000000000E10   -1.530770538140567E-2   9.819470759554440E-2  
 2.018400000000000E10    1.463648237251376E-3   9.930285045244294E-2  
 2.018600000000000E10    1.817553775716330E-2   9.761786945998861E-2  
 2.018800000000000E10    3.429305693794726E-2   9.319582863599676E-2  
 2.019000000000000E10    4.955477910359048E-2   8.607230532043975E-2  
 2.019200000000000E10    6.342364873551430E-2   7.641595658587713E-2  
 2.019400000000000E10    7.534116664309454E-2   6.458618498701566E-2  
 2.019600000000000E10    8.519152859519703E-2   5.082786261735577E-2  
 2.019800000000000E10    9.244063634904053E-2   3.571364857941171E-2  
 2.020000000000000E10    9.706013295399203E-2   1.991019177727085E-2  
 2.020200000000000E10    9.905047695632391E-2   3.229272982257214E-3  
 2.020400000000000E10    9.817142128113152E-2  -1.362182188201670E-2  
 2.020600000000000E10    9.428370499725369E-2  -3.008043180910976E-2  
 2.020800000000000E10    8.776790954966388E-2  -4.536143276426528E-2  
 2.021000000000000E10    7.878186748242565E-2  -5.938693714614705E-2  
 2.021200000000000E10    6.754290461063277E-2  -7.181434671956218E-2  
 2.021400000000000E10    5.452111456415455E-2  -8.196903165612093E-2  
 2.021600000000000E10    3.981395987653275E-2  -8.993044874073439E-2  
 2.021800000000000E10    2.410078783799347E-2  -9.515360635494501E-2  
 2.022000000000000E10    7.987746163592883E-3  -9.764283425359899E-2  
 2.022200000000000E10   -8.487378479593494E-3  -9.753998429618802E-2  
 2.022400000000000E10   -2.457303237161465E-2  -9.475375186255061E-2  
 2.022600000000000E10   -4.014079641358298E-2  -8.925390916024381E-2  
 2.022800000000000E10   -5.450953244072802E-2  -8.124386962072241E-2  
 2.023000000000000E10   -6.729528869348518E-2  -7.098926279470701E-2  
 2.023200000000000E10   -7.822171765263353E-2  -5.867956035353575E-2  
 2.023400000000000E10   -8.690223255534124E-2  -4.464511667341199E-2  
 2.023600000000000E10   -9.305905710835953E-2  -2.948128461674245E-2  
 2.023800000000000E10   -9.664657223794251E-2  -1.351455393599480E-2  
 2.024000000000000E10   -9.756821116315868E-2   2.573421683586593E-3  
 2.024200000000000E10   -9.572543336012948E-2   1.906301331321808E-2  
 2.024400000000000E10   -9.112323689090100E-2   3.481839835698277E-2  
 2.024600000000000E10   -8.399268294585369E-2   4.942387555205066E-2  
 2.024800000000000E10   -7.456606585970196E-2   6.273043466366532E-2  
 2.025000000000000E10   -6.300275839923124E-2   7.431909344855324E-2  
 2.025200000000000E10   -4.990004537397998E-2   8.373303702897442E-2  
 2.025400000000000E10   -3.535644656577829E-2   9.096561534782498E-2  
 2.025600000000000E10   -1.967967355689422E-2   9.572921642905020E-2  
 2.025800000000000E10   -3.418312082578146E-3   9.791073943034777E-2  
 2.026000000000000E10    1.283298002595996E-2   9.730195869688690E-2  
 2.026200000000000E10    2.912025963678909E-2   9.397435767442386E-2  
 2.026400000000000E10    4.467142759309167E-2   8.788276143852414E-2  
 2.026600000000000E10    5.895565319031301E-2   7.926500744685008E-2  
 2.026800000000000E10    7.163037613858686E-2   6.822988262147081E-2  
 2.027000000000000E10    8.229643475071830E-2   5.521921483373120E-2  
 2.027200000000000E10    9.053868774510325E-2   4.071961687541358E-2  
 2.027400000000000E10    9.638509280029151E-2   2.467312188210093E-2  
 2.027600000000000E10    9.928069603009808E-2   7.927155571001331E-3  
 2.027800000000000E10    9.926269898403167E-2  -9.214345363207643E-3  
 2.028000000000000E10    9.621471613577419E-2  -2.598683630164405E-2  
 2.028200000000000E10    9.034137320834643E-2  -4.203655603109674E-2  
 2.028400000000000E10    8.176242006550002E-2  -5.680581679798504E-2  
 2.028600000000000E10    7.079509312519486E-2  -6.982810233873378E-2  
 2.028800000000000E10    5.773519757823363E-2  -8.071104371021697E-2  
 2.029000000000000E10    4.296458224332873E-2  -8.924293355564032E-2  
 2.029200000000000E10    2.745438913657587E-2  -9.492610827272324E-2  
 2.029400000000000E10    1.103033493543372E-2  -9.803733444603603E-2  
 2.029600000000000E10   -5.685651335042528E-3  -9.830924237652028E-2  
 2.029800000000000E10   -2.210100606904899E-2  -9.585423575425510E-2  
 2.030000000000000E10   -3.773028736360880E-2  -9.081075371851594E-2  
 2.030200000000000E10   -5.253044001938658E-2  -8.316053968275528E-2  
 2.030400000000000E10   -6.574692423138165E-2  -7.312870373805475E-2  
 2.030600000000000E10   -7.717818791361013E-2  -6.090460761284579E-2  
 2.030800000000000E10   -8.628173912421831E-2  -4.706204204450039E-2  
 2.031000000000000E10   -9.299313420430679E-2  -3.168008270727537E-2  
 2.031200000000000E10   -9.691200468384301E-2  -1.550248403538225E-2  
 2.031400000000000E10   -9.797599433721559E-2   1.140129380534941E-3  
 2.031600000000000E10   -9.628101506419091E-2   1.705623137546175E-2  
 2.031800000000000E10   -9.205857315835313E-2   3.289115558551718E-2  
 2.032000000000000E10   -8.505431912195537E-2   4.796070408094787E-2  
 2.032200000000000E10   -7.562393996954837E-2   6.157710344948397E-2  
 2.032400000000000E10   -6.420284690898362E-2   7.316958487279132E-2  
 2.032600000000000E10   -5.103315462055522E-2   8.281015520587490E-2  
 2.032800000000000E10   -3.636239110830717E-2   9.017550692159836E-2  
 2.033000000000000E10   -2.077210743012607E-2   9.492557330263987E-2  
 2.033200000000000E10   -4.418427379487597E-3   9.705853455405725E-2  
 2.033400000000000E10    1.195666255922516E-2   9.641988796897826E-2  
 2.033600000000000E10    1.919374103855068E-2   9.526842747737024E-2  
 2.033800000000000E10    4.351692484580168E-2   8.662321096244446E-2  
 2.034000000000000E10    5.721795991076746E-2   7.806462988386867E-2  
 2.034200000000000E10    6.942845790706165E-2   6.732642628460320E-2  
 2.034400000000000E10    7.960690533087361E-2   5.476538071968429E-2  
 2.034600000000000E10    8.755604358952943E-2   4.090230867171266E-2  
 2.034800000000000E10    9.325022140375600E-2   2.573952821918450E-2  
 2.035000000000000E10    9.639047134614832E-2   9.861431426100799E-3  
 2.035200000000000E10    9.688898523103502E-2  -6.338821405312367E-3  
 2.035400000000000E10    9.457862425542719E-2  -2.270300659531184E-2  
 2.035600000000000E10    8.950656881725402E-2  -3.836094284158458E-2  
 2.035800000000000E10    8.187897698583264E-2  -5.291593338822360E-2  
 2.036000000000000E10    7.175329516658405E-2  -6.612281866838358E-2  
 2.036200000000000E10    5.956802025921115E-2  -7.728530471326012E-2  
 2.036400000000000E10    4.566958183648383E-2  -8.620479048511238E-2  
 2.036600000000000E10    3.051504983162575E-2  -9.268545241839929E-2  
 2.036800000000000E10    1.461372952729423E-2  -9.652110571097065E-2  
 2.037000000000000E10   -1.897231518175108E-3  -9.759604983341766E-2  
 2.037200000000000E10   -1.828623323130265E-2  -9.603544108307305E-2  
 2.037400000000000E10   -3.420307879878280E-2  -9.172126541453299E-2  
 2.037600000000000E10   -4.928915915311501E-2  -8.470220709152293E-2  
 2.037800000000000E10   -6.297723199128016E-2  -7.508406048503488E-2  
 2.038000000000000E10   -7.479948928953581E-2  -6.333438314201084E-2  
 2.038200000000000E10   -8.436916379158391E-2  -4.975872831934384E-2  
 2.038400000000000E10   -9.147291745314275E-2  -3.496598509052164E-2  
 2.038600000000000E10   -9.608215806987880E-2  -1.904598595749095E-2  
 2.038800000000000E10   -9.798401804018306E-2  -2.480655976400379E-3  
 2.039000000000000E10   -9.705811041604456E-2   1.382388167209314E-2  
 2.039200000000000E10   -9.333210022184041E-2   3.017442732637175E-2  
 2.039400000000000E10   -8.690556692011456E-2   4.561136430959807E-2  
 2.039600000000000E10   -7.803953448876869E-2   5.955272385953604E-2  
 2.039800000000000E10   -6.671150373469548E-2   7.192820875092518E-2  
 2.040000000000000E10   -5.362004390012799E-2   8.198294862525672E-2  
 2.040200000000000E10   -3.909116017938370E-2   8.968870942389307E-2  
 2.040400000000000E10   -2.336706785433196E-2   9.493133530981422E-2  
 2.040600000000000E10   -7.141518270086703E-3   9.744859501126700E-2  
 2.040800000000000E10    9.282499316706744E-3   9.720303347844431E-2  
 2.041000000000000E10    2.551346322309497E-2   9.423363547061861E-2  
 2.041200000000000E10    4.076985788974907E-2   8.867741558763827E-2  
 2.041400000000000E10    5.505742779436808E-2   8.071953360762944E-2  
 2.041600000000000E10    6.792411894955264E-2   7.051258747115440E-2  
 2.041800000000000E10    7.902674705035404E-2   5.805843792239118E-2  
 2.042000000000000E10    8.762860620776758E-2   4.402070386555842E-2  
 2.042200000000000E10    9.379311098415231E-2   2.869201990318833E-2  
 2.042400000000000E10    9.728516077185856E-2   1.250197781419367E-2  
 2.042600000000000E10    9.807013636467718E-2  -4.031363149353691E-3  
 2.042800000000000E10    9.607592523847482E-2  -2.035425737019838E-2  
 2.043000000000000E10    9.141621055957877E-2  -3.629331287315135E-2  
 2.043200000000000E10    8.414263362733535E-2  -5.127879697020381E-2  
 2.043400000000000E10    7.443569597856717E-2  -6.488090313402116E-2  
 2.043600000000000E10    6.250635998866087E-2  -7.659407463529420E-2  
 2.043800000000000E10    4.876490230116334E-2  -8.612327883041338E-2  
 2.044000000000000E10    3.345045186221518E-2  -9.320150626798610E-2  
 2.044200000000000E10    1.717751994848279E-2  -9.754576374255856E-2  
 2.044400000000000E10    4.723588425283260E-4  -9.913916900501879E-2  
 2.044600000000000E10   -1.628808752911708E-2  -9.788359257732837E-2  
 2.044800000000000E10   -3.294770175333050E-2  -9.368945519211198E-2  
 2.045000000000000E10   -4.830993150344276E-2  -8.666342234210878E-2  
 2.045200000000000E10   -6.215818354261211E-2  -7.718185904667049E-2  
 2.045400000000000E10   -7.429345595302461E-2  -6.542447973153448E-2  
 2.045600000000000E10   -8.412522474788453E-2  -5.203898581512237E-2  
 2.045800000000000E10   -9.162381629680574E-2  -3.715234971040998E-2  
 2.046000000000000E10   -9.654967747816064E-2  -2.103155880747427E-2  
 2.046200000000000E10   -9.861121475560294E-2  -4.558903134287863E-3  
 2.046400000000000E10   -9.789246091449651E-2   1.203204338682818E-2  
 2.046600000000000E10   -9.444929000840215E-2   2.843646423241349E-2  
 2.046800000000000E10   -8.834229055391800E-2   4.389928559809719E-2  
 2.047000000000000E10   -7.961250262127984E-2   5.826936820270703E-2  
 2.047200000000000E10   -6.878742726564845E-2   7.075735426856658E-2  
 2.047400000000000E10   -5.582903222843944E-2   8.132103896667056E-2  
 2.047600000000000E10   -4.127712430756933E-2   8.950582586116426E-2  
 2.047800000000000E10   -2.560921789670324E-2   9.508841539633893E-2  
 2.048000000000000E10   -9.268580456820046E-3   9.791167284467203E-2  
 2.048200000000000E10    7.229534277601308E-3   9.792902625187601E-2  
 2.048400000000000E10    2.343299427841781E-2   9.536593862876101E-2  
 2.048600000000000E10    3.902422185692550E-2   9.013886634595983E-2  
 2.048800000000000E10    5.370976014474130E-2   8.236378022168510E-2  
 2.049000000000000E10    6.670746117639499E-2   7.234501397168196E-2  
 2.049200000000000E10    7.808810671102417E-2   6.005629241146288E-2  
 2.049400000000000E10    8.700482812328977E-2   4.625843768700052E-2  
 2.049600000000000E10    9.362497337070513E-2   3.107693700429017E-2  
 2.049800000000000E10    9.767153961681918E-2   1.489764715067508E-2  
 2.050000000000000E10    9.889058418875152E-2  -1.683550608946095E-3  
 2.050200000000000E10    9.733193972419267E-2  -1.830669796025312E-2  
 2.050400000000000E10    9.294191625941875E-2  -3.466019847749247E-2  
 2.050600000000000E10    8.586301281537212E-2  -4.988415719652537E-2  
 2.050800000000000E10    7.624202067987201E-2  -6.371053698322357E-2  
 2.051000000000000E10    6.429724144197024E-2  -7.582378368032650E-2  
 2.051200000000000E10    5.063412810160954E-2  -8.555750212592517E-2  
 2.051400000000000E10    3.541049263795654E-2  -9.293024430318025E-2  
 2.051600000000000E10    1.907164211439035E-2  -9.759947270577393E-2  
 2.051800000000000E10    2.350399361358667E-3  -9.928614321191617E-2  
 2.052000000000000E10   -1.443589518206969E-2  -9.813115605424409E-2  
 2.052200000000000E10   -3.076069446806092E-2  -9.420558690656854E-2  
 2.052400000000000E10   -4.589747142848982E-2  -8.782416863846465E-2  
 2.052600000000000E10   -6.008370926882178E-2  -7.883722051657877E-2  
 2.052800000000000E10   -7.253111009735140E-2  -6.765928831092834E-2  
 2.053000000000000E10   -8.287545214532771E-2  -5.462486022477779E-2  
 2.053200000000000E10   -9.104686713499408E-2  -3.973637888515492E-2  
 2.053400000000000E10   -9.642570475342073E-2  -2.379134184351702E-2  
 2.053600000000000E10   -9.898779985154664E-2  -7.300681335136984E-3  
 2.053800000000000E10   -9.875064049551464E-2   9.614627569007668E-3  
 2.054000000000000E10   -9.564048200368774E-2   2.608900528467569E-2  
 2.054200000000000E10   -8.992607582225941E-2   4.166213386561373E-2  
 2.054400000000000E10   -8.158652390390431E-2   5.622278062765546E-2  
 2.054600000000000E10   -7.099115566461667E-2   6.906406232209092E-2  
 2.054800000000000E10   -5.848233007954092E-2   7.999213436421708E-2  
 2.055000000000000E10   -4.412197111797050E-2   8.874179097509953E-2  
 2.055200000000000E10   -2.873499774270588E-2   9.481893509803542E-2  
 2.055400000000000E10   -1.232342670190863E-2   9.838491978714008E-2  
 2.055600000000000E10    4.422963268128253E-3   9.913815847871838E-2  
