#  HZ   S   RI   R     50.00 
! Rohde & Schwarz ZVA40 4Ports - Version 3.90 - 1145.1110k42 SN: 100403
! Date: 2023-09-30 06:16:40
! Measurement: S12 
! 
 2.000000000000000E10   -6.991168386264714E-2   7.472427087083267E-2  
 2.000200000000000E10   -5.725251055910362E-2   8.512855707470668E-2  
 2.000400000000000E10   -4.203136715609118E-2   9.358970378143812E-2  
 2.000600000000000E10   -2.542229873177753E-2   9.936350121438878E-2  
 2.000800000000000E10   -8.295862678232189E-3   1.021423354713237E-1  
 2.001000000000000E10    9.328060541607303E-3   1.019848200498421E-1  
 2.001200000000000E10    2.632977276225124E-2   9.892393774996186E-2  
 2.001400000000000E10    4.280119034733206E-2   9.312054790523032E-2  
 2.001600000000000E10    5.819423882790679E-2   8.441616808410239E-2  
 2.001800000000000E10    7.170503922085603E-2   7.310245325773601E-2  
 2.002000000000000E10    8.301441347013309E-2   5.964436658130440E-2  
 2.002200000000000E10    9.239314129481216E-2   4.344554096053769E-2  
 2.002400000000000E10    9.836011136160687E-2   2.714366282219378E-2  
 2.002600000000000E10    1.013215211782857E-1   1.011509916101765E-2  
 2.002800000000000E10    1.013378277776377E-1  -7.217939873392008E-3  
 2.003000000000000E10    9.850003787342351E-2  -2.402602874649972E-2  
 2.003200000000000E10    9.292854512509341E-2  -4.016974839418010E-2  
 2.003400000000000E10    8.477380614022537E-2  -5.515747928704300E-2  
 2.003600000000000E10    7.426541461627266E-2  -6.861903703741126E-2  
 2.003800000000000E10    6.175731757640218E-2  -8.010053506447888E-2  
 2.004000000000000E10    4.735948364799887E-2  -8.949238771792649E-2  
 2.004200000000000E10    3.137513114290772E-2  -9.629994652970414E-2  
 2.004400000000000E10    1.446150944331310E-2  -1.002279884270517E-1  
 2.004600000000000E10   -2.731509864439890E-3  -1.009871014129740E-1  
 2.004800000000000E10   -1.992588824225542E-2  -9.879378444905457E-2  
 2.005000000000000E10   -3.611713179079815E-2  -9.383704171715568E-2  
 2.005200000000000E10   -5.120935360718683E-2  -8.647488249952209E-2  
 2.005400000000000E10   -6.508917807446608E-2  -7.668737120015963E-2  
 2.005600000000000E10   -7.717726861663643E-2  -6.456894744530770E-2  
 2.005800000000000E10   -8.695884101604813E-2  -5.054732429427976E-2  
 2.006000000000000E10   -9.416581476926823E-2  -3.520615307724955E-2  
 2.006200000000000E10   -9.883373606888475E-2  -1.872626960805374E-2  
 2.006400000000000E10   -1.005752056778235E-1  -1.912218262933676E-3  
 2.006600000000000E10   -9.950972622375859E-2   1.519821845166699E-2  
 2.006800000000000E10   -9.553798104465994E-2   3.184162397319509E-2  
 2.007000000000000E10   -8.869058847580644E-2   4.770407565694523E-2  
 2.007200000000000E10   -7.922422899745145E-2   6.201662832318378E-2  
 2.007400000000000E10   -6.762992952857587E-2   7.453434435680220E-2  
 2.007600000000000E10   -5.392972782295578E-2   8.490665975105399E-2  
 2.007800000000000E10   -3.867122247890655E-2   9.278529634820243E-2  
 2.008000000000000E10   -2.229876030360512E-2   9.792927522017240E-2  
 2.008200000000000E10   -5.231978288444637E-3   1.000589292653624E-1  
 2.008400000000000E10    1.143310606747401E-2   9.925371472364987E-2  
 2.008600000000000E10    2.784138527503774E-2   9.566402364759297E-2  
 2.008800000000000E10    4.334374502081569E-2   8.969574913361875E-2  
 2.009000000000000E10    5.765536653296024E-2   8.145568487494792E-2  
 2.009200000000000E10    7.073891471503291E-2   7.073756733470914E-2  
 2.009400000000000E10    8.183486308838585E-2   5.778468620822602E-2  
 2.009600000000000E10    9.062838357144082E-2   4.293470739813220E-2  
 2.009800000000000E10    9.648187063157629E-2   2.718971123779295E-2  
 2.010000000000000E10    9.965991766462552E-2   1.025868731330229E-2  
 2.010200000000000E10    9.985092487203785E-2  -6.826467998910977E-3  
 2.010400000000000E10    9.708129134539731E-2  -2.346837778857703E-2  
 2.010600000000000E10    9.160108149453797E-2  -3.924489240409541E-2  
 2.010800000000000E10    8.371524808177622E-2  -5.388346110228496E-2  
 2.011000000000000E10    7.362092021908143E-2  -6.710637944671467E-2  
 2.011200000000000E10    6.163725015186995E-2  -7.845350997347733E-2  
 2.011400000000000E10    4.789414951009455E-2  -8.792642584053984E-2  
 2.011600000000000E10    3.236309104706129E-2  -9.512972262569071E-2  
 2.011800000000000E10    1.571268636213700E-2  -9.951602501114398E-2  
 2.012000000000000E10   -1.427979239596732E-3  -1.009232526051818E-1  
 2.012200000000000E10   -1.867823684998866E-2  -9.923776676622795E-2  
 2.012400000000000E10   -3.516209804834317E-2  -9.460351471230988E-2  
 2.012600000000000E10   -5.074768313057931E-2  -8.726738937417847E-2  
 2.012800000000000E10   -6.468253103759122E-2  -7.749676100820561E-2  
 2.013000000000000E10   -7.694038161310296E-2  -6.544096580577986E-2  
 2.013200000000000E10   -8.686166744238283E-2  -5.157869051811122E-2  
 2.013400000000000E10   -9.440195422234926E-2  -3.603776766302939E-2  
 2.013600000000000E10   -9.916485169273642E-2  -1.938792548251115E-2  
 2.013800000000000E10   -1.009813806269637E-1  -2.507883730516603E-3  
 2.014000000000000E10   -9.996260236650403E-2   1.465121863156168E-2  
 2.014200000000000E10   -9.615921675885299E-2   3.131909917195443E-2  
 2.014400000000000E10   -8.949233084868401E-2   4.719868835880715E-2  
 2.014600000000000E10   -8.014861918991223E-2   6.172834297698646E-2  
 2.014800000000000E10   -6.851623843109111E-2   7.425102485089960E-2  
 2.015000000000000E10   -5.484283847955972E-2   8.466895863438134E-2  
 2.015200000000000E10   -3.975156459717619E-2   9.258380344834130E-2  
 2.015400000000000E10   -2.373248564962376E-2   9.789891823096261E-2  
 2.015600000000000E10   -6.770473482318989E-3   1.005367436120084E-1  
 2.015800000000000E10    1.021576574593675E-2   1.001512069568638E-1  
 2.016000000000000E10    2.707117130588312E-2   9.686782546746631E-2  
 2.016200000000000E10    4.280204481272627E-2   9.087140031248646E-2  
 2.016400000000000E10    5.725579209660242E-2   8.245594414046659E-2  
 2.016600000000000E10    7.024315237024296E-2   7.171258801926311E-2  
 2.016800000000000E10    8.135656193427407E-2   5.894160459480288E-2  
 2.017000000000000E10    9.009188560043328E-2   4.455594940225987E-2  
 2.017200000000000E10    9.640705560827396E-2   2.882486604239500E-2  
 2.017400000000000E10    9.996726502288027E-2   1.230451480814536E-2  
 2.017600000000000E10    1.006932964907535E-1  -5.091924891200484E-3  
 2.017800000000000E10    9.845593872776683E-2  -2.182213128654768E-2  
 2.018000000000000E10    9.340799012666609E-2  -3.800423103848698E-2  
 2.018200000000000E10    8.565989103718125E-2  -5.327938102609234E-2  
 2.018400000000000E10    7.555922919609170E-2  -6.686785412864676E-2  
 2.018600000000000E10    6.326940850190799E-2  -7.858804857405048E-2  
 2.018800000000000E10    4.921507835734409E-2  -8.812197659450474E-2  
 2.019000000000000E10    3.385156166948768E-2  -9.522030555802444E-2  
 2.019200000000000E10    1.739448155688274E-2  -9.973023225231856E-2  
 2.019400000000000E10    2.028133579931339E-4  -1.014375568042569E-1  
 2.019600000000000E10   -1.694753952067750E-2  -1.002267107122116E-1  
 2.019800000000000E10   -3.383009695896179E-2  -9.600856949537442E-2  
 2.020000000000000E10   -4.944326066174075E-2  -8.907463287443207E-2  
 2.020200000000000E10   -6.407199481303598E-2  -7.925722129533044E-2  
 2.020400000000000E10   -7.651762407388860E-2  -6.728769872617554E-2  
 2.020600000000000E10   -8.678207852289464E-2  -5.348356187847538E-2  
 2.020800000000000E10   -9.458348986663784E-2  -3.790701121169574E-2  
 2.021000000000000E10   -9.955000787227229E-2  -2.118823597824617E-2  
 2.021200000000000E10   -1.015121430216700E-1  -4.096099190674708E-3  
 2.021400000000000E10   -1.006566384036639E-1   1.300440105854647E-2  
 2.021600000000000E10   -9.700773564290514E-2   2.957026345098415E-2  
 2.021800000000000E10   -9.062116435153575E-2   4.551049198940736E-2  
 2.022000000000000E10   -8.177786581705503E-2   5.996482396357226E-2  
 2.022200000000000E10   -7.057805673053760E-2   7.297425284302461E-2  
 2.022400000000000E10   -5.719573552622964E-2   8.388242818642488E-2  
 2.022600000000000E10   -4.232584415239502E-2   9.228229332012876E-2  
 2.022800000000000E10   -2.618859699879965E-2   9.812022463544733E-2  
 2.023000000000000E10   -9.152786161639023E-3   1.011764550294402E-1  
 2.023200000000000E10    8.072516968978779E-3   1.012601465291668E-1  
 2.023400000000000E10    2.515370160227227E-2   9.829267668867378E-2  
 2.023600000000000E10    4.116706993852025E-2   9.249937302528055E-2  
 2.023800000000000E10    5.602903387247561E-2   8.417323929208059E-2  
 2.024000000000000E10    6.934485740503878E-2   7.352024691274720E-2  
 2.024200000000000E10    8.045246929844872E-2   6.087013351862934E-2  
 2.024400000000000E10    8.937214101967965E-2   4.649833956127684E-2  
 2.024600000000000E10    9.579525187044732E-2   3.105054683879490E-2  
 2.024800000000000E10    9.969083569655107E-2   1.476479308739768E-2  
 2.025000000000000E10    1.009538072158776E-1  -2.184299435478905E-3  
 2.025200000000000E10    9.946784269658371E-2  -1.903326660306336E-2  
 2.025400000000000E10    9.498317771220362E-2  -3.558325440038596E-2  
 2.025600000000000E10    8.745691585310458E-2  -5.142678491032212E-2  
 2.025800000000000E10    7.753612612307063E-2  -6.526898676311703E-2  
 2.026000000000000E10    6.532696572085603E-2  -7.727989728491619E-2  
 2.026200000000000E10    5.145076458487466E-2  -8.691169234664919E-2  
 2.026400000000000E10    3.628537458249359E-2  -9.421520225122954E-2  
 2.026600000000000E10    2.016194740052028E-2  -9.898868830432708E-2  
 2.026800000000000E10    3.385671332850764E-3  -1.011594328655856E-1  
 2.027000000000000E10   -1.351642028084306E-2  -1.004735836657748E-1  
 2.027200000000000E10   -3.027479730791437E-2  -9.695268061563128E-2  
 2.027400000000000E10   -4.610701822260420E-2  -9.074138234826215E-2  
 2.027600000000000E10   -6.099250712108340E-2  -8.191709093767030E-2  
 2.027800000000000E10   -7.422825212802253E-2  -7.058907842514868E-2  
 2.028000000000000E10   -8.536462270342875E-2  -5.708885181283628E-2  
 2.028200000000000E10   -9.399034728926026E-2  -4.163763341738642E-2  
 2.028400000000000E10   -9.979480131541063E-2  -2.489483561953433E-2  
 2.028600000000000E10   -1.025421314079030E-1  -7.521109114669515E-3  
 2.028800000000000E10   -1.022325116935637E-1   1.015167329371696E-2  
 2.029000000000000E10   -9.885962266112827E-2   2.736335904925084E-2  
 2.029200000000000E10   -9.261392867746517E-2   4.365322538027407E-2  
 2.029400000000000E10   -8.372450953450102E-2   5.853617280698271E-2  
 2.029600000000000E10   -7.255381249715356E-2   7.175309176966446E-2  
 2.029800000000000E10   -5.920360373659092E-2   8.287200528195093E-2  
 2.030000000000000E10   -4.450811455471232E-2   9.137521022985269E-2  
 2.030200000000000E10   -2.863621806114355E-2   9.730960604092750E-2  
 2.030400000000000E10   -1.194745196848346E-2   1.007166277233168E-1  
 2.030600000000000E10    4.929660571794988E-3   1.014209651395143E-1  
 2.030800000000000E10    2.185232804454197E-2   9.940132301892793E-2  
 2.031000000000000E10    3.853616738756401E-2   9.440830481199193E-2  
 2.031200000000000E10    5.403615065960160E-2   8.660629060089867E-2  
 2.031400000000000E10    6.807370239398368E-2   7.606810549254411E-2  
 2.031600000000000E10    7.964723129608686E-2   6.355030617465970E-2  
 2.031800000000000E10    8.903096752986023E-2   4.912578277543002E-2  
 2.032000000000000E10    9.580074795016902E-2   3.329176243616833E-2  
 2.032200000000000E10    9.976358734549901E-2   1.673964058468711E-2  
 2.032400000000000E10    1.009677043948960E-1  -1.227257437496215E-4  
 2.032600000000000E10    9.954468927342158E-2  -1.693857491421834E-2  
 2.032800000000000E10    9.540436742637219E-2  -3.331695602322714E-2  
 2.033000000000000E10    8.851181135620584E-2  -4.896851693654578E-2  
 2.033200000000000E10    7.894311273243626E-2  -6.331362327573681E-2  
 2.033400000000000E10    6.729488901055947E-2  -7.565870607510208E-2  
 2.033600000000000E10    6.141931264844065E-2  -8.078999341096221E-2  
 2.033800000000000E10    3.771652127593591E-2  -9.432646504537030E-2  
 2.034000000000000E10    2.116639174866052E-2  -9.932615974257764E-2  
 2.034200000000000E10    3.742635061098872E-3  -1.013844785613115E-1  
 2.034400000000000E10   -1.368609751480780E-2  -1.002692403595789E-1  
 2.034600000000000E10   -3.035121026840313E-2  -9.615527377204207E-2  
 2.034800000000000E10   -4.592891423008098E-2  -8.931716736232481E-2  
 2.035000000000000E10   -6.007835763011178E-2  -8.009247530685186E-2  
 2.035200000000000E10   -7.231049045347282E-2  -6.875071202666820E-2  
 2.035400000000000E10   -8.251195350384580E-2  -5.567708194139356E-2  
 2.035600000000000E10   -9.049408242319929E-2  -4.130243531368525E-2  
 2.035800000000000E10   -9.617004581072475E-2  -2.568833672018916E-2  
 2.036000000000000E10   -9.913082988156594E-2  -9.336533336610746E-3  
 2.036200000000000E10   -9.945467794064848E-2   7.385381686333634E-3  
 2.036400000000000E10   -9.692474721749581E-2   2.406996611565563E-2  
 2.036600000000000E10   -9.159277056674242E-2   4.007663876912126E-2  
 2.036800000000000E10   -8.363272329150626E-2   5.477802081148171E-2  
 2.037000000000000E10   -7.319223076002615E-2   6.823458581565083E-2  
 2.037200000000000E10   -6.080330717685316E-2   7.967522589475057E-2  
 2.037400000000000E10   -4.650453280784842E-2   8.883886386362366E-2  
 2.037600000000000E10   -3.078282415432983E-2   9.546999302253957E-2  
 2.037800000000000E10   -1.405780103866283E-2   9.923591771571907E-2  
 2.038000000000000E10    2.594707776799673E-3   1.001180951248026E-1  
 2.038200000000000E10    1.936424368368508E-2   9.832458768882348E-2  
 2.038400000000000E10    3.555130390521163E-2   9.388163679036812E-2  
 2.038600000000000E10    5.092396951256486E-2   8.680772754485402E-2  
 2.038800000000000E10    6.529034248917701E-2   7.711961499399600E-2  
 2.039000000000000E10    7.764897468944798E-2   6.507431116776255E-2  
 2.039200000000000E10    8.776619183466954E-2   5.075043673329319E-2  
 2.039400000000000E10    9.512199564680920E-2   3.472188609953150E-2  
 2.039600000000000E10    9.944902514337300E-2   1.808907711648775E-2  
 2.039800000000000E10    1.008085701972560E-1   1.008678862176913E-3  
 2.040000000000000E10    9.936421562674337E-2  -1.594228862974428E-2  
 2.040200000000000E10    9.521157033828692E-2  -3.228971923164935E-2  
 2.040400000000000E10    8.835221159271137E-2  -4.780507973167258E-2  
 2.040600000000000E10    7.907956864281854E-2  -6.192724028128863E-2  
 2.040800000000000E10    6.754689518932458E-2  -7.438964496918951E-2  
 2.041000000000000E10    5.406970834509391E-2  -8.473792197429467E-2  
 2.041200000000000E10    3.918901674102324E-2  -9.274253162595013E-2  
 2.041400000000000E10    2.308106573186530E-2  -9.815561804635653E-2  
 2.041600000000000E10    6.046098784591367E-3  -1.008627660311745E-1  
 2.041800000000000E10   -1.116654993616036E-2  -1.004960830352031E-1  
 2.042000000000000E10   -2.802396548407436E-2  -9.717750926765192E-2  
 2.042200000000000E10   -4.416200682415591E-2  -9.093804730467230E-2  
 2.042400000000000E10   -5.882035630596298E-2  -8.219541461131302E-2  
 2.042600000000000E10   -7.179077132922332E-2  -7.106335713615614E-2  
 2.042800000000000E10   -8.282297074096905E-2  -5.773741772001993E-2  
 2.043000000000000E10   -9.119445019489761E-2  -4.300835329046881E-2  
 2.043200000000000E10   -9.703826779836972E-2  -2.717328076580870E-2  
 2.043400000000000E10   -1.003311848097866E-1  -1.042499206714505E-2  
 2.043600000000000E10   -1.008060854130046E-1   6.235613369715654E-3  
 2.043800000000000E10   -9.857677143997144E-2   2.296234119597470E-2  
 2.044000000000000E10   -9.354678417786427E-2   3.950815426154718E-2  
 2.044200000000000E10   -8.583591476271543E-2   5.485130132738757E-2  
 2.044400000000000E10   -7.535681047349702E-2   6.881431675071918E-2  
 2.044600000000000E10   -6.264125694602857E-2   8.079361878157028E-2  
 2.044800000000000E10   -4.797405674979131E-2   9.048220288385500E-2  
 2.045000000000000E10   -3.161251944907388E-2   9.742528380602405E-2  
 2.045200000000000E10   -1.451404998752503E-2   1.012003707661183E-1  
 2.045400000000000E10    2.781651564505238E-3   1.019885287025052E-1  
 2.045600000000000E10    1.981021909157689E-2   9.992906507999039E-2  
 2.045800000000000E10    3.619081440266677E-2   9.522289101548456E-2  
 2.046000000000000E10    5.167792402891957E-2   8.776016644902085E-2  
 2.046200000000000E10    6.580844172814596E-2   7.773556914464117E-2  
 2.046400000000000E10    7.777754139359919E-2   6.562691293196399E-2  
 2.046600000000000E10    8.776911372595682E-2   5.170672167245647E-2  
 2.046800000000000E10    9.542853430282577E-2   3.617716407742971E-2  
 2.047000000000000E10    1.002326814333302E-1   1.951902263746445E-2  
 2.047200000000000E10    1.021003920581956E-1   2.449424574672609E-3  
 2.047400000000000E10    1.010657994183436E-1  -1.482657764935690E-2  
 2.047600000000000E10    9.717587957003893E-2  -3.148463014738619E-2  
 2.047800000000000E10    9.059352771996679E-2  -4.738609718006437E-2  
 2.048000000000000E10    8.136567406350752E-2  -6.196444383009863E-2  
 2.048200000000000E10    6.996423814261168E-2  -7.464396564059404E-2  
 2.048400000000000E10    5.648327843226304E-2  -8.557411892213374E-2  
 2.048600000000000E10    4.131270099166675E-2  -9.401814062804069E-2  
 2.048800000000000E10    2.484361512769799E-2  -9.977434852702714E-2  
 2.049000000000000E10    7.735020767563517E-3  -1.026433577963336E-1  
 2.049200000000000E10   -9.788571326102624E-3  -1.025440053886680E-1  
 2.049400000000000E10   -2.668359878672249E-2  -9.961701628853206E-2  
 2.049600000000000E10   -4.330752173989607E-2  -9.389749875824908E-2  
 2.049800000000000E10   -5.877484138059973E-2  -8.538862389138660E-2  
 2.050000000000000E10   -7.254660260617063E-2  -7.420590632295751E-2  
 2.050200000000000E10   -8.423135169754700E-2  -6.059311606184623E-2  
 2.050400000000000E10   -9.313427221553015E-2  -4.520530337691278E-2  
 2.050600000000000E10   -9.921828630439734E-2  -2.887780937783584E-2  
 2.050800000000000E10   -1.025570570502827E-1  -1.157931098185189E-2  
 2.051000000000000E10   -1.029113628409138E-1   5.963280385771725E-3  
 2.051200000000000E10   -1.001753473632745E-1   2.299026100554869E-2  
 2.051400000000000E10   -9.465292518331034E-2   3.940873058952904E-2  
 2.051600000000000E10   -8.662954287775249E-2   5.448224600926103E-2  
 2.051800000000000E10   -7.641617092456003E-2   6.801430136618904E-2  
 2.052000000000000E10   -6.391125477165593E-2   7.992504207884947E-2  
 2.052200000000000E10   -4.952686074059833E-2   8.948397868696548E-2  
 2.052400000000000E10   -3.409679811089478E-2   9.631564539858473E-2  
 2.052600000000000E10   -1.759144995358753E-2   1.006579863893123E-1  
 2.052800000000000E10   -5.075436362064333E-4   1.023255332204870E-1  
 2.053000000000000E10    1.660632635651169E-2   1.010457792510336E-1  
 2.053200000000000E10    3.342312561339755E-2   9.684127231444709E-2  
 2.053400000000000E10    4.908957747140211E-2   8.984233345489862E-2  
 2.053600000000000E10    6.334276746999373E-2   8.050507905693553E-2  
 2.053800000000000E10    7.611724260501186E-2   6.886939998426639E-2  
 2.054000000000000E10    8.675140115735314E-2   5.507496053077993E-2  
 2.054200000000000E10    9.482885556478031E-2   3.991239342264539E-2  
 2.054400000000000E10    1.003318427630282E-1   2.344462792302424E-2  
 2.054600000000000E10    1.029775793455513E-1   6.126285725252022E-3  
 2.054800000000000E10    1.026458619401316E-1  -1.134329589334387E-2  
 2.055000000000000E10    9.929682754027874E-2  -2.874257905637026E-2  
 2.055200000000000E10    9.301855597076175E-2  -4.514542212715236E-2  
 2.055400000000000E10    8.394605010197184E-2  -6.022988054736696E-2  
 2.055600000000000E10    7.244733723714422E-2  -7.362651202317888E-2  
