#  HZ   S   RI   R     50.00 
! Rohde & Schwarz ZVA40 4Ports - Version 3.90 - 1145.1110k42 SN: 100403
! Date: 2023-09-30 07:38:54
! Measurement: S12 
! 
 2.000000000000000E10   -8.836835209194391E-2  -2.633403393478007E-2  
 2.000200000000000E10   -9.186249717889095E-2  -1.178110287656283E-2  
 2.000400000000000E10   -9.259431451540394E-2   4.022299446834991E-3  
 2.000600000000000E10   -9.057443733721471E-2   1.981411087039734E-2  
 2.000800000000000E10   -8.589353338841628E-2   3.480206775738012E-2  
 2.001000000000000E10   -7.876612533125321E-2   4.897055171230627E-2  
 2.001200000000000E10   -6.951958812705977E-2   6.154469334565808E-2  
 2.001400000000000E10   -5.814518028458482E-2   7.272388047227311E-2  
 2.001600000000000E10   -4.498531726637058E-2   8.177432113280134E-2  
 2.001800000000000E10   -3.032696972374456E-2   8.843227564091385E-2  
 2.002000000000000E10   -1.453740064296166E-2   9.247674807225052E-2  
 2.002200000000000E10    2.981975793920958E-3   9.354276893074245E-2  
 2.002400000000000E10    1.882053455457908E-2   9.152090309885558E-2  
 2.002600000000000E10    3.421205173668197E-2   8.659586387644369E-2  
 2.002800000000000E10    4.826660383349563E-2   7.913133827566458E-2  
 2.003000000000000E10    6.047852090698459E-2   6.964834678105739E-2  
 2.003200000000000E10    7.094264302883657E-2   5.840293573741981E-2  
 2.003400000000000E10    7.948147739061372E-2   4.571011621980644E-2  
 2.003600000000000E10    8.595673053423077E-2   3.189918623053364E-2  
 2.003800000000000E10    9.009015883009902E-2   1.724928624994367E-2  
 2.004000000000000E10    9.183663862423602E-2   1.886411021248459E-3  
 2.004200000000000E10    9.095287097874408E-2  -1.367287487284645E-2  
 2.004400000000000E10    8.726236889034944E-2  -2.893280667527446E-2  
 2.004600000000000E10    8.100254596297685E-2  -4.319264350548597E-2  
 2.004800000000000E10    7.248493361497109E-2  -5.612496829472346E-2  
 2.005000000000000E10    6.203691949538097E-2  -6.729449517428740E-2  
 2.005200000000000E10    4.981535415533767E-2  -7.678825532024416E-2  
 2.005400000000000E10    3.635017916843565E-2  -8.403142654852279E-2  
 2.005600000000000E10    2.176203175662649E-2  -8.895039013114804E-2  
 2.005800000000000E10    6.666618553383220E-3  -9.134374785260563E-2  
 2.006000000000000E10   -9.044729111688299E-3  -9.114669014884023E-2  
 2.006200000000000E10   -2.397326401300351E-2  -8.832396449587018E-2  
 2.006400000000000E10   -3.820109341895624E-2  -8.310029671959079E-2  
 2.006600000000000E10   -5.152468274844825E-2  -7.572763583276410E-2  
 2.006800000000000E10   -6.368910972626479E-2  -6.625354605688873E-2  
 2.007000000000000E10   -7.416955748489261E-2  -5.480018548539868E-2  
 2.007200000000000E10   -8.261453520638665E-2  -4.162549185585610E-2  
 2.007400000000000E10   -8.869934086157215E-2  -2.696301379627638E-2  
 2.007600000000000E10   -9.208458794000810E-2  -1.153119451111379E-2  
 2.007800000000000E10   -9.273307490303698E-2   4.470989917955694E-3  
 2.008000000000000E10   -9.061098923581561E-2   2.006100653920321E-2  
 2.008200000000000E10   -8.582396851479529E-2   3.508677212918417E-2  
 2.008400000000000E10   -7.857884888581439E-2   4.898528230026199E-2  
 2.008600000000000E10   -6.906816913740636E-2   6.149579163378102E-2  
 2.008800000000000E10   -5.782883369027696E-2   7.201761593246170E-2  
 2.009000000000000E10   -4.509062205634142E-2   8.061330753019552E-2  
 2.009200000000000E10   -3.109227730108809E-2   8.715873594983500E-2  
 2.009400000000000E10   -1.595572415903895E-2   9.147219549593316E-2  
 2.009600000000000E10   -5.028369609200767E-4   9.310594985361587E-2  
 2.009800000000000E10    1.551486700135419E-2   9.214669218877283E-2  
 2.010000000000000E10    3.113966469517107E-2   8.826312511555218E-2  
 2.010200000000000E10    4.594125803919937E-2   8.158129380262343E-2  
 2.010400000000000E10    5.915649388868136E-2   7.237640127705432E-2  
 2.010600000000000E10    7.045518918808827E-2   6.105282837162729E-2  
 2.010800000000000E10    7.954710905846235E-2   4.810143500803948E-2  
 2.011000000000000E10    8.630916126299904E-2   3.391453483974707E-2  
 2.011200000000000E10    9.054807227405014E-2   1.889114245513322E-2  
 2.011400000000000E10    9.223931876077232E-2   3.570255079202583E-3  
 2.011600000000000E10    9.149975814280453E-2  -1.178385825088735E-2  
 2.011800000000000E10    8.823052096163286E-2  -2.718577588941638E-2  
 2.012000000000000E10    8.247128031925437E-2  -4.152510866986361E-2  
 2.012200000000000E10    7.432597004184152E-2  -5.468861144867873E-2  
 2.012400000000000E10    6.413182084628107E-2  -6.636142949439398E-2  
 2.012600000000000E10    5.215561053373222E-2  -7.625818264121220E-2  
 2.012800000000000E10    3.861659696010630E-2  -8.408278840926928E-2  
 2.013000000000000E10    2.392787433194579E-2  -8.944960441641281E-2  
 2.013200000000000E10    8.230965321407529E-3  -9.225632835968611E-2  
 2.013400000000000E10   -7.418191376692475E-3  -9.222843399548864E-2  
 2.013600000000000E10   -2.302587311167598E-2  -8.944006796547291E-2  
 2.013800000000000E10   -3.765962520572724E-2  -8.419763292085733E-2  
 2.014000000000000E10   -5.129124921908989E-2  -7.646755481458652E-2  
 2.014200000000000E10   -6.310196954488663E-2  -6.679309989605516E-2  
 2.014400000000000E10   -7.324433716984294E-2  -5.527981387727587E-2  
 2.014600000000000E10   -8.140986761577804E-2  -4.238938061665340E-2  
 2.014800000000000E10   -8.745207064960686E-2  -2.832346229972613E-2  
 2.015000000000000E10   -9.109731565050379E-2  -1.350425525455135E-2  
 2.015200000000000E10   -9.230948504156465E-2   2.119372443941612E-3  
 2.015400000000000E10   -9.089805440115654E-2   1.762791817279191E-2  
 2.015600000000000E10   -8.674871703128242E-2   3.301094848066496E-2  
 2.015800000000000E10   -7.992204329001354E-2   4.738032345909908E-2  
 2.016000000000000E10   -7.071606061286342E-2   6.027995352158166E-2  
 2.016200000000000E10   -5.937506051508204E-2   7.140839324225383E-2  
 2.016400000000000E10   -4.628867913335252E-2   8.038002639220579E-2  
 2.016600000000000E10   -3.209532070239707E-2   8.692552199009246E-2  
 2.016800000000000E10   -1.710771050027029E-2   9.104999961059673E-2  
 2.017000000000000E10   -1.548067411548610E-3   9.267904233386103E-2  
 2.017200000000000E10    1.432382057901531E-2   9.162756784576699E-2  
 2.017400000000000E10    2.950956355409090E-2   8.797988823325079E-2  
 2.017600000000000E10    4.412880666739075E-2   8.166414471927830E-2  
 2.017800000000000E10    5.744150596411973E-2   7.295353977968375E-2  
 2.018000000000000E10    6.897052996483005E-2   6.207333573017547E-2  
 2.018200000000000E10    7.843673320442950E-2   4.934831697585081E-2  
 2.018400000000000E10    8.553946403750487E-2   3.522569329234437E-2  
 2.018600000000000E10    9.008351486137707E-2   2.011565274546612E-2  
 2.018800000000000E10    9.187487735654154E-2   4.652527891148095E-3  
 2.019000000000000E10    9.108725651753186E-2  -1.084934051221413E-2  
 2.019200000000000E10    8.771928805849003E-2  -2.596742694783259E-2  
 2.019400000000000E10    8.199468590280674E-2  -4.025479139034845E-2  
 2.019600000000000E10    7.414426269436912E-2  -5.315921991031654E-2  
 2.019800000000000E10    6.398496632915232E-2  -6.491886143232253E-2  
 2.020000000000000E10    5.226959272733078E-2  -7.446627732086276E-2  
 2.020200000000000E10    3.912209334518870E-2  -8.201784758033309E-2  
 2.020400000000000E10    2.506146936062808E-2  -8.738907036622795E-2  
 2.020600000000000E10    1.021929391768292E-2  -9.055255311661206E-2  
 2.020800000000000E10   -5.121348862702158E-3  -9.119022515126396E-2  
 2.021000000000000E10   -2.063772909019727E-2  -8.911036266102841E-2  
 2.021200000000000E10   -3.548766753338793E-2  -8.432895333477258E-2  
 2.021400000000000E10   -4.918929239257967E-2  -7.707885307373086E-2  
 2.021600000000000E10   -6.134135821835564E-2  -6.757830576895943E-2  
 2.021800000000000E10   -7.181065430687952E-2  -5.611714563478880E-2  
 2.022000000000000E10   -7.995469643425407E-2  -4.339177782444122E-2  
 2.022200000000000E10   -8.602971496013270E-2  -2.949886521369214E-2  
 2.022400000000000E10   -8.977940703112541E-2  -1.484017529487625E-2  
 2.022600000000000E10   -9.121137573515367E-2   2.546518888022442E-4  
 2.022800000000000E10   -9.017848527646090E-2   1.546403459615863E-2  
 2.023000000000000E10   -8.652769276534221E-2   3.059982739433862E-2  
 2.023200000000000E10   -8.036442154904229E-2   4.492565146239609E-2  
 2.023400000000000E10   -7.173919577525209E-2   5.815084814195344E-2  
 2.023600000000000E10   -6.099768584391398E-2   6.967989093181951E-2  
 2.023800000000000E10   -4.793446338004725E-2   7.927814430705087E-2  
 2.024000000000000E10   -3.354865235665570E-2   8.609994009948974E-2  
 2.024200000000000E10   -1.835766111522690E-2   9.026082862560897E-2  
 2.024400000000000E10   -2.968497195157957E-3   9.176538285883028E-2  
 2.024600000000000E10    1.226703341114781E-2   9.084614997401255E-2  
 2.024800000000000E10    2.717178816755524E-2   8.758195597449983E-2  
 2.025000000000000E10    4.159357916342248E-2   8.181368835849177E-2  
 2.025200000000000E10    5.461982639441827E-2   7.392979115570739E-2  
 2.025400000000000E10    6.644542375865740E-2   6.386678644539989E-2  
 2.025600000000000E10    7.647107454638319E-2   5.182184532989306E-2  
 2.025800000000000E10    8.437391400665784E-2   3.825442296581190E-2  
 2.026000000000000E10    8.980775997906965E-2   2.334460916493214E-2  
 2.026200000000000E10    9.257089861723897E-2   7.562354710071992E-3  
 2.026400000000000E10    9.245889933953677E-2  -8.466896950671415E-3  
 2.026600000000000E10    8.951433136014222E-2  -2.407818416578894E-2  
 2.026800000000000E10    8.390180318555909E-2  -3.879220742047087E-2  
 2.027000000000000E10    7.590235812244846E-2  -5.242117880223188E-2  
 2.027200000000000E10    6.590405154314818E-2  -6.432546168090320E-2  
 2.027400000000000E10    5.406692413819405E-2  -7.432082075858518E-2  
 2.027600000000000E10    4.076545172610690E-2  -8.218506903872487E-2  
 2.027800000000000E10    2.644742057032757E-2  -8.777063618507933E-2  
 2.028000000000000E10    1.147350852227043E-2  -9.100347872778118E-2  
 2.028200000000000E10   -4.079730518389179E-3  -9.175338953853061E-2  
 2.028400000000000E10   -1.957698134879958E-2  -8.978895136467334E-2  
 2.028600000000000E10   -3.453313412777902E-2  -8.515290428988850E-2  
 2.028800000000000E10   -4.836736809329888E-2  -7.806316116976253E-2  
 2.029000000000000E10   -6.084557802163134E-2  -6.865705306638431E-2  
 2.029200000000000E10   -7.146754013692887E-2  -5.736825751160367E-2  
 2.029400000000000E10   -8.001719494779808E-2  -4.461264109143752E-2  
 2.029600000000000E10   -8.644719463110570E-2  -3.057038752098203E-2  
 2.029800000000000E10   -9.039416251461115E-2  -1.537092122310012E-2  
 2.030000000000000E10   -9.156331084669270E-2  -6.050364302707758E-6  
 2.030200000000000E10   -9.011629764299459E-2   1.545865571688110E-2  
 2.030400000000000E10   -8.615890085355490E-2   3.023843004143542E-2  
 2.030600000000000E10   -7.991046004437556E-2   4.405914542931873E-2  
 2.030800000000000E10   -7.153663219626860E-2   5.679370805242115E-2  
 2.031000000000000E10   -6.117081494644550E-2   6.805680236119269E-2  
 2.031200000000000E10   -4.907817979522706E-2   7.750175044304690E-2  
 2.031400000000000E10   -3.528804658700793E-2   8.497630076437439E-2  
 2.031600000000000E10   -2.080530627756843E-2   8.980665476570510E-2  
 2.031800000000000E10   -5.249625123710092E-3   9.213185875696399E-2  
 2.032000000000000E10    1.047530161886315E-2   9.165853744445562E-2  
 2.032200000000000E10    2.587447259088404E-2   8.851221142974453E-2  
 2.032400000000000E10    4.043708009243378E-2   8.273091944242653E-2  
 2.032600000000000E10    5.362706411030012E-2   7.471102504711533E-2  
 2.032800000000000E10    6.534609563055548E-2   6.467308495777602E-2  
 2.033000000000000E10    7.540534026402844E-2   5.284492228289377E-2  
 2.033200000000000E10    8.332532270512603E-2   3.943713669618773E-2  
 2.033400000000000E10    8.889651717440675E-2   2.484502858294315E-2  
 2.033600000000000E10    9.071472268806781E-2   1.801894205376663E-2  
 2.033800000000000E10    9.231100475244651E-2  -6.671866172270951E-3  
 2.034000000000000E10    8.987107484075174E-2  -2.227287475283339E-2  
 2.034200000000000E10    8.467471265981508E-2  -3.724397315767018E-2  
 2.034400000000000E10    7.698886075481784E-2  -5.098456255942077E-2  
 2.034600000000000E10    6.713878717497122E-2  -6.315130489994772E-2  
 2.034800000000000E10    5.549586394765746E-2  -7.339437292653538E-2  
 2.035000000000000E10    4.227611782544796E-2  -8.161139024408988E-2  
 2.035200000000000E10    2.806588153262290E-2  -8.740720101841869E-2  
 2.035400000000000E10    1.306784203327361E-2  -9.082451373337186E-2  
 2.035600000000000E10   -2.363997004912894E-3  -9.173464115044938E-2  
 2.035800000000000E10   -1.773040476999007E-2  -9.009218299496288E-2  
 2.036000000000000E10   -3.260117919107158E-2  -8.582652631050794E-2  
 2.036200000000000E10   -4.672886685544325E-2  -7.901203047994733E-2  
 2.036400000000000E10   -5.916891359791468E-2  -7.007714634704342E-2  
 2.036600000000000E10   -7.005504916946917E-2  -5.920743261066785E-2  
 2.036800000000000E10   -7.901192636613037E-2  -4.658633946074588E-2  
 2.037000000000000E10   -8.576241617767101E-2  -3.254754097096062E-2  
 2.037200000000000E10   -9.005452828488829E-2  -1.779433067845564E-2  
 2.037400000000000E10   -9.174803431874848E-2  -2.250317046821446E-3  
 2.037600000000000E10   -9.071559687564512E-2   1.316035995844866E-2  
 2.037800000000000E10   -8.705999969355524E-2   2.819798819397860E-2  
 2.038000000000000E10   -8.115145071096112E-2   4.219359592916522E-2  
 2.038200000000000E10   -7.288735298471942E-2   5.522816922025374E-2  
 2.038400000000000E10   -6.264681504781400E-2   6.658537263369997E-2  
 2.038600000000000E10   -5.081925134313525E-2   7.608015457450448E-2  
 2.038800000000000E10   -3.742425998367151E-2   8.371376672841005E-2  
 2.039000000000000E10   -2.297513642992463E-2   8.900667761893910E-2  
 2.039200000000000E10   -7.621311783126840E-3   9.182310878448713E-2  
 2.039400000000000E10    8.213689913277509E-3   9.190767828167101E-2  
 2.039600000000000E10    2.369366001135444E-2   8.931027945888689E-2  
 2.039800000000000E10    3.856412516763490E-2   8.387402528631802E-2  
 2.040000000000000E10    5.224093762849635E-2   7.591425559044644E-2  
 2.040200000000000E10    6.403823238677542E-2   6.580439553427619E-2  
 2.040400000000000E10    7.380320969664636E-2   5.381266077642154E-2  
 2.040600000000000E10    8.137348665569548E-2   4.072148529571225E-2  
 2.040800000000000E10    8.680745407715122E-2   2.697203205119109E-2  
 2.041000000000000E10    9.022890228841403E-2   1.248896817875403E-2  
 2.041200000000000E10    9.144436766194174E-2  -2.671318446128950E-3  
 2.041400000000000E10    9.013678858660387E-2  -1.790062420733985E-2  
 2.041600000000000E10    8.619944042959744E-2  -3.300773478150731E-2  
 2.041800000000000E10    7.949014487338250E-2  -4.744896237370801E-2  
 2.042000000000000E10    7.040278961775914E-2  -6.034387808425149E-2  
 2.042200000000000E10    5.907663553546885E-2  -7.148438840274268E-2  
 2.042400000000000E10    4.603886825401393E-2  -8.044626481659349E-2  
 2.042600000000000E10    3.175772399884448E-2  -8.704103180058662E-2  
 2.042800000000000E10    1.655448072431946E-2  -9.110409284227901E-2  
 2.043000000000000E10    9.665579932750923E-4  -9.252383523893697E-2  
 2.043200000000000E10   -1.463912505903850E-2  -9.131513186506089E-2  
 2.043400000000000E10   -2.992339679393545E-2  -8.750985441482911E-2  
 2.043600000000000E10   -4.397177865449288E-2  -8.132204320901586E-2  
 2.043800000000000E10   -5.708701861139837E-2  -7.283005553387870E-2  
 2.044000000000000E10   -6.858646702803969E-2  -6.209270854565151E-2  
 2.044200000000000E10   -7.805895654792786E-2  -4.972698966475854E-2  
 2.044400000000000E10   -8.531550419965719E-2  -3.582415098968265E-2  
 2.044600000000000E10   -9.024124537592898E-2  -2.098906722984892E-2  
 2.044800000000000E10   -9.258110494274002E-2  -5.463256605363992E-3  
 2.045000000000000E10   -9.230449690920980E-2   1.048636510442685E-2  
 2.045200000000000E10   -8.920082665018274E-2   2.604243746508871E-2  
 2.045400000000000E10   -8.338995659299769E-2   4.083532509356060E-2  
 2.045600000000000E10   -7.496189112519854E-2   5.451458594852400E-2  
 2.045800000000000E10   -6.439147685334778E-2   6.612934257839756E-2  
 2.046000000000000E10   -5.220812165565201E-2   7.567367216969276E-2  
 2.046200000000000E10   -3.872764290170751E-2   8.310526513488985E-2  
 2.046400000000000E10   -2.437180788320815E-2   8.822222215876165E-2  
 2.046600000000000E10   -9.455014777151561E-3   9.096009978668809E-2  
 2.046800000000000E10    5.935938781119986E-3   9.138661401713216E-2  
 2.047000000000000E10    2.125063818340827E-2   8.920864456551239E-2  
 2.047200000000000E10    3.591141054139364E-2   8.458325171511930E-2  
 2.047400000000000E10    4.980735199450216E-2   7.734565286248721E-2  
 2.047600000000000E10    6.222958024756815E-2   6.775577341129453E-2  
 2.047800000000000E10    7.269994209963604E-2   5.612190032180090E-2  
 2.048000000000000E10    8.099344804776765E-2   4.292764372149692E-2  
 2.048200000000000E10    8.686237706950555E-2   2.871186288485341E-2  
 2.048400000000000E10    9.034001351303227E-2   1.374736891139905E-2  
 2.048600000000000E10    9.133987169981603E-2  -1.597254074667223E-3  
 2.048800000000000E10    8.966658997596069E-2  -1.688116597429550E-2  
 2.049000000000000E10    8.561011080409364E-2  -3.147474438276063E-2  
 2.049200000000000E10    7.926568304918150E-2  -4.533828322438820E-2  
 2.049400000000000E10    7.084042063329052E-2  -5.803908257046333E-2  
 2.049600000000000E10    6.017891830373582E-2  -6.933734223720242E-2  
 2.049800000000000E10    4.763005944129610E-2  -7.865664575274635E-2  
 2.050000000000000E10    3.360599946226171E-2  -8.568710638605899E-2  
 2.050200000000000E10    1.865050136303859E-2  -9.018922612954525E-2  
 2.050400000000000E10    2.979688616852606E-3  -9.210634987236865E-2  
 2.050600000000000E10   -1.277731181629576E-2  -9.125811298068981E-2  
 2.050800000000000E10   -2.802593916634147E-2  -8.769491326773804E-2  
 2.051000000000000E10   -4.240329621646158E-2  -8.159619526802818E-2  
 2.051200000000000E10   -5.556630664834622E-2  -7.316825790178885E-2  
 2.051400000000000E10   -6.700280074060887E-2  -6.267064432040162E-2  
 2.051600000000000E10   -7.648097302546181E-2  -5.039957387681007E-2  
 2.051800000000000E10   -8.381277337746286E-2  -3.671965551930712E-2  
 2.052000000000000E10   -8.864095315505502E-2  -2.213261329332453E-2  
 2.052200000000000E10   -9.104667813813275E-2  -6.918780486880596E-3  
 2.052400000000000E10   -9.093846091123523E-2   8.298025746155572E-3  
 2.052600000000000E10   -8.833129045976876E-2   2.336093382469382E-2  
 2.052800000000000E10   -8.323142169219344E-2   3.804575202400164E-2  
 2.053000000000000E10   -7.571202282751222E-2   5.163220641403515E-2  
 2.053200000000000E10   -6.581499506883992E-2   6.383240361358859E-2  
 2.053400000000000E10   -5.376425638635161E-2   7.406660571839983E-2  
 2.053600000000000E10   -4.031842561506279E-2   8.174380510462523E-2  
 2.053800000000000E10   -2.609288559106084E-2   8.692823981777571E-2  
 2.054000000000000E10   -1.122036375198184E-2   8.983898598906873E-2  
 2.054200000000000E10    3.485852949919094E-3   9.048541696243245E-2  
 2.054400000000000E10    1.827033920539021E-2   8.892457499260056E-2  
 2.054600000000000E10    3.308719779946139E-2   8.491434303940471E-2  
 2.054800000000000E10    4.690646290108867E-2   7.852186303955529E-2  
 2.055000000000000E10    5.973060182743430E-2   6.972161792706358E-2  
 2.055200000000000E10    7.099053672185049E-2   5.872555727413518E-2  
 2.055400000000000E10    8.019996701249803E-2   4.585849296086915E-2  
 2.055600000000000E10    8.704162104676610E-2   3.144129761257722E-2  
