#  HZ   S   RI   R     50.00 
! Rohde & Schwarz ZVA40 4Ports - Version 3.90 - 1145.1110k42 SN: 100403
! Date: 2023-09-30 06:01:59
! Measurement: S12 
! 
 2.000000000000000E10   -9.699264782864300E-2   3.104046367493786E-2  
 2.000200000000000E10   -9.122321833390105E-2   4.626116450865210E-2  
 2.000400000000000E10   -8.227719173046570E-2   6.113332999261792E-2  
 2.000600000000000E10   -7.063105878188941E-2   7.450320623784400E-2  
 2.000800000000000E10   -5.696250141947903E-2   8.544192757389929E-2  
 2.001000000000000E10   -4.125639932300238E-2   9.401767098709246E-2  
 2.001200000000000E10   -2.454142422795596E-2   9.952931856940098E-2  
 2.001400000000000E10   -7.187164604571300E-3   1.019948095303541E-1  
 2.001600000000000E10    1.022577930169146E-2   1.015136256766309E-1  
 2.001800000000000E10    2.707176328652463E-2   9.828823954071367E-2  
 2.002000000000000E10    4.340267952629805E-2   9.216827480186325E-2  
 2.002200000000000E10    5.938598843774879E-2   8.276269974059548E-2  
 2.002400000000000E10    7.258732628257261E-2   7.161867828871343E-2  
 2.002600000000000E10    8.372442902833330E-2   5.826962313725080E-2  
 2.002800000000000E10    9.241801808859188E-2   4.297644987638778E-2  
 2.003000000000000E10    9.811337255855612E-2   2.652495275717868E-2  
 2.003200000000000E10    1.008486059179050E-1   9.493798314599554E-3  
 2.003400000000000E10    1.006208701132184E-1  -7.699917084904384E-3  
 2.003600000000000E10    9.770103334140497E-2  -2.441888018412582E-2  
 2.003800000000000E10    9.203618888883325E-2  -4.034801863839107E-2  
 2.004000000000000E10    8.370757126018708E-2  -5.516890405182286E-2  
 2.004200000000000E10    7.305765899079655E-2  -6.820911030964852E-2  
 2.004400000000000E10    6.059560064561956E-2  -7.929808002108937E-2  
 2.004600000000000E10    4.666569271357553E-2  -8.819635180397889E-2  
 2.004800000000000E10    3.103642042506543E-2  -9.490221447878144E-2  
 2.005000000000000E10    1.469224317726376E-2  -9.881444557799454E-2  
 2.005200000000000E10   -2.096777633366253E-3  -9.993987873644025E-2  
 2.005400000000000E10   -1.903433018193533E-2  -9.815686033018625E-2  
 2.005600000000000E10   -3.539191219700745E-2  -9.349568314126963E-2  
 2.005800000000000E10   -5.070833899983545E-2  -8.611952256586763E-2  
 2.006000000000000E10   -6.438038330323595E-2  -7.630900948935396E-2  
 2.006200000000000E10   -7.643735806578782E-2  -6.419288177276564E-2  
 2.006400000000000E10   -8.602225493297330E-2  -5.043942497177580E-2  
 2.006600000000000E10   -9.326315203344036E-2  -3.517199135354936E-2  
 2.006800000000000E10   -9.787726241029487E-2  -1.894997052775662E-2  
 2.007000000000000E10   -9.973158861097814E-2  -2.014866266136308E-3  
 2.007200000000000E10   -9.851202953108892E-2   1.500586456906081E-2  
 2.007400000000000E10   -9.446556008915009E-2   3.131010685206333E-2  
 2.007600000000000E10   -8.775781980330871E-2   4.679190833050564E-2  
 2.007800000000000E10   -7.857376813884009E-2   6.096212089009502E-2  
 2.008000000000000E10   -6.717871504142653E-2   7.331821023781951E-2  
 2.008200000000000E10   -5.364469814499947E-2   8.364910789991259E-2  
 2.008400000000000E10   -3.892495204884638E-2   9.131870835433556E-2  
 2.008600000000000E10   -2.280564593925398E-2   9.655432932497872E-2  
 2.008800000000000E10   -6.088389151026575E-3   9.898627821155630E-2  
 2.009000000000000E10    1.052460670990722E-2   9.844842886092588E-2  
 2.009200000000000E10    2.699947651180984E-2   9.514886101872763E-2  
 2.009400000000000E10    4.249048327626552E-2   8.924700269914768E-2  
 2.009600000000000E10    5.700619515122992E-2   8.080685035931849E-2  
 2.009800000000000E10    6.955195500404257E-2   7.033886551866081E-2  
 2.010000000000000E10    8.059192736839091E-2   5.769695752953143E-2  
 2.010200000000000E10    8.946283992889215E-2   4.326110312763720E-2  
 2.010400000000000E10    9.561499559789366E-2   2.753762057032042E-2  
 2.010600000000000E10    9.894294770952046E-2   1.089029213704023E-2  
 2.010800000000000E10    9.938815815694777E-2  -6.170653142821402E-3  
 2.011000000000000E10    9.691057653892989E-2  -2.297548737420649E-2  
 2.011200000000000E10    9.167239570277910E-2  -3.906102918657366E-2  
 2.011400000000000E10    8.374917674670587E-2  -5.408626874589990E-2  
 2.011600000000000E10    7.316432664342053E-2  -6.764719504769340E-2  
 2.011800000000000E10    6.055853234010943E-2  -7.902602603719505E-2  
 2.012000000000000E10    4.636164599621630E-2  -8.806001079294164E-2  
 2.012200000000000E10    3.056265451718106E-2  -9.464397115044942E-2  
 2.012400000000000E10    1.420891887229121E-2  -9.828935055275950E-2  
 2.012600000000000E10   -2.686259045491739E-3  -9.912371002234188E-2  
 2.012800000000000E10   -1.914594399946762E-2  -9.722601098156508E-2  
 2.013000000000000E10   -3.530323145931823E-2  -9.266289873759825E-2  
 2.013200000000000E10   -5.044235354222698E-2  -8.546943503683652E-2  
 2.013400000000000E10   -6.429273450502698E-2  -7.567639990725764E-2  
 2.013600000000000E10   -7.630320528039228E-2  -6.341642881744321E-2  
 2.013800000000000E10   -8.571915174176502E-2  -4.972474856509104E-2  
 2.014000000000000E10   -9.283165416667928E-2  -3.451681395998599E-2  
 2.014200000000000E10   -9.742717844509459E-2  -1.833490595633738E-2  
 2.014400000000000E10   -9.913342069982667E-2  -1.635248657946078E-3  
 2.014600000000000E10   -9.795656951643714E-2   1.522473433798651E-2  
 2.014800000000000E10   -9.385588655900964E-2   3.145871586749020E-2  
 2.015000000000000E10   -8.704430692725712E-2   4.680708471008271E-2  
 2.015200000000000E10   -7.783245549771031E-2   6.069970385007808E-2  
 2.015400000000000E10   -6.670553834518089E-2   7.260747678263343E-2  
 2.015600000000000E10   -5.358926810504751E-2   8.295346822744645E-2  
 2.015800000000000E10   -3.906079132386396E-2   9.090345711733326E-2  
 2.016000000000000E10   -2.313928948588995E-2   9.639785161693004E-2  
 2.016200000000000E10   -6.546255792670703E-3   9.910431370591087E-2  
 2.016400000000000E10    1.024473610839008E-2   9.895408074042908E-2  
 2.016600000000000E10    2.702272691955710E-2   9.581773135810526E-2  
 2.016800000000000E10    4.302719665239578E-2   8.977338440933165E-2  
 2.017000000000000E10    5.746853934319041E-2   8.119755147901947E-2  
 2.017200000000000E10    7.043819473890285E-2   7.017830736007366E-2  
 2.017400000000000E10    8.118160591017745E-2   5.725354863499074E-2  
 2.017600000000000E10    8.965762363934987E-2   4.238657600186326E-2  
 2.017800000000000E10    9.529327955724373E-2   2.682902645606437E-2  
 2.018000000000000E10    9.831744592680546E-2   1.071146566612708E-2  
 2.018200000000000E10    9.875059833006605E-2  -6.040454864719986E-3  
 2.018400000000000E10    9.636187695354030E-2  -2.242130372855535E-2  
 2.018600000000000E10    9.123656580772839E-2  -3.822867670990023E-2  
 2.018800000000000E10    8.353469811403758E-2  -5.299890524543217E-2  
 2.019000000000000E10    7.361476079045119E-2  -6.617064111421903E-2  
 2.019200000000000E10    6.156803508052249E-2  -7.764495296338186E-2  
 2.019400000000000E10    4.761108025599592E-2  -8.709426786006180E-2  
 2.019600000000000E10    3.246968286388750E-2  -9.396480241666355E-2  
 2.019800000000000E10    1.602999430170802E-2  -9.817053218305595E-2  
 2.020000000000000E10   -3.863277587377590E-4  -9.954935388128275E-2  
 2.020200000000000E10   -1.737885027976230E-2  -9.818001258865654E-2  
 2.020400000000000E10   -3.370995398777195E-2  -9.389320735755337E-2  
 2.020600000000000E10   -4.885695221501869E-2  -8.694738342919706E-2  
 2.020800000000000E10   -6.277149381288359E-2  -7.749641595376809E-2  
 2.021000000000000E10   -7.502014763770246E-2  -6.591443919727597E-2  
 2.021200000000000E10   -8.507526128566625E-2  -5.247271323831794E-2  
 2.021400000000000E10   -9.273498043397491E-2  -3.735008714739060E-2  
 2.021600000000000E10   -9.767082017304023E-2  -2.140840932368015E-2  
 2.021800000000000E10   -1.000209583062948E-1  -4.736070907062224E-3  
 2.022000000000000E10   -9.961095868500973E-2   1.208078449813718E-2  
 2.022200000000000E10   -9.636026376486735E-2   2.875375169326649E-2  
 2.022400000000000E10   -9.021528971856588E-2   4.484595450013536E-2  
 2.022600000000000E10   -8.143223282599883E-2   5.954184115723383E-2  
 2.022800000000000E10   -7.009464564791833E-2   7.250732979729416E-2  
 2.023000000000000E10   -5.662414923451094E-2   8.337139722764393E-2  
 2.023200000000000E10   -4.179306973309584E-2   9.152370234566698E-2  
 2.023400000000000E10   -2.566214933687096E-2   9.709501521077904E-2  
 2.023600000000000E10   -9.073916253885190E-3   9.988472932082929E-2  
 2.023800000000000E10    7.661570048090563E-3   9.993237784029310E-2  
 2.024000000000000E10    2.425820719251418E-2   9.723348020394390E-2  
 2.024200000000000E10    4.006359913164824E-2   9.184537369532478E-2  
 2.024400000000000E10    5.494054132977959E-2   8.381997038634553E-2  
 2.024600000000000E10    6.823708071357648E-2   7.350152002236154E-2  
 2.024800000000000E10    7.968150068462269E-2   6.117393229269724E-2  
 2.025000000000000E10    8.900751425596368E-2   4.675132827826198E-2  
 2.025200000000000E10    9.568076768248136E-2   3.112670531954332E-2  
 2.025400000000000E10    9.947544706633608E-2   1.462764377017162E-2  
 2.025600000000000E10    1.003933153414014E-1  -2.702240816145316E-3  
 2.025800000000000E10    9.835556196836671E-2  -1.935698260306050E-2  
 2.026000000000000E10    9.353666793571488E-2  -3.545295352914261E-2  
 2.026200000000000E10    8.616360766942902E-2  -5.054151388150657E-2  
 2.026400000000000E10    7.642000159023013E-2  -6.415815248397262E-2  
 2.026600000000000E10    6.454811018994262E-2  -7.594063415308042E-2  
 2.026800000000000E10    5.092750712911216E-2  -8.557199082066058E-2  
 2.027000000000000E10    3.607549087391851E-2  -9.276428632012339E-2  
 2.027200000000000E10    1.995022352566272E-2  -9.753548233311202E-2  
 2.027400000000000E10    3.422954977961135E-3  -9.950456192532142E-2  
 2.027600000000000E10   -1.322624137455612E-2  -9.865118854112370E-2  
 2.027800000000000E10   -2.955848070631175E-2  -9.503746529306660E-2  
 2.028000000000000E10   -4.502500770018789E-2  -8.889925491017661E-2  
 2.028200000000000E10   -5.941584257693158E-2  -8.004792184296261E-2  
 2.028400000000000E10   -7.209033638720397E-2  -6.875680481273760E-2  
 2.028600000000000E10   -8.246560784724225E-2  -5.581494177297165E-2  
 2.028800000000000E10   -9.071957235941527E-2  -4.118402575146515E-2  
 2.029000000000000E10   -9.640628408434517E-2  -2.534978214530407E-2  
 2.029200000000000E10   -9.934515743820867E-2  -8.848759999523993E-3  
 2.029400000000000E10   -9.939848953218400E-2   8.085199302856453E-3  
 2.029600000000000E10   -9.661124304398008E-2   2.460761623781569E-2  
 2.029800000000000E10   -9.113430040122679E-2   4.046917135017145E-2  
 2.030000000000000E10   -8.314089858278491E-2   5.522603181631823E-2  
 2.030200000000000E10   -7.274437806347744E-2   6.845499753311557E-2  
 2.030400000000000E10   -6.021270552226238E-2   7.984916880588275E-2  
 2.030600000000000E10   -4.591649951408448E-2   8.897395599835023E-2  
 2.030800000000000E10   -3.038982707752159E-2   9.561234918255360E-2  
 2.031000000000000E10   -1.355423673665450E-2   9.954446277214506E-2  
 2.031200000000000E10    3.698679144749602E-3   1.003817914746789E-1  
 2.031400000000000E10    2.072645592091742E-2   9.812481563059665E-2  
 2.031600000000000E10    3.651443281834255E-2   9.317801752739648E-2  
 2.031800000000000E10    5.152670742830041E-2   8.572052653229942E-2  
 2.032000000000000E10    6.515941677129300E-2   7.572551762647990E-2  
 2.032200000000000E10    7.706677967038321E-2   6.362001294793380E-2  
 2.032400000000000E10    8.671472741824937E-2   4.974416393608951E-2  
 2.032600000000000E10    9.393797412962110E-2   3.433824192821717E-2  
 2.032800000000000E10    9.847214226019746E-2   1.783281106333184E-2  
 2.033000000000000E10    1.000801232521208E-1   7.386805326844649E-4  
 2.033200000000000E10    9.856297211791663E-2  -1.656430279655785E-2  
 2.033400000000000E10    9.418643571094595E-2  -3.297614273393033E-2  
 2.033600000000000E10    9.130433117302249E-2  -4.013229293739936E-2  
 2.033800000000000E10    7.701668376181117E-2  -6.298557912848234E-2  
 2.034000000000000E10    6.495916300036345E-2  -7.482982583138442E-2  
 2.034200000000000E10    5.107209013002510E-2  -8.439756274186991E-2  
 2.034400000000000E10    3.591537124803383E-2  -9.144051974411330E-2  
 2.034600000000000E10    2.022958853854228E-2  -9.585746439255298E-2  
 2.034800000000000E10    3.935242634892040E-3  -9.774740741526714E-2  
 2.035000000000000E10   -1.277634476204618E-2  -9.677504819647931E-2  
 2.035200000000000E10   -2.862025626631722E-2  -9.296322460309742E-2  
 2.035400000000000E10   -4.362700000630158E-2  -8.664109987799960E-2  
 2.035600000000000E10   -5.736532845505854E-2  -7.798812641496614E-2  
 2.035800000000000E10   -6.943796014657674E-2  -6.725274416240611E-2  
 2.036000000000000E10   -7.950267412939227E-2  -5.467232591373913E-2  
 2.036200000000000E10   -8.745622356214861E-2  -4.060103139625583E-2  
 2.036400000000000E10   -9.297344008722679E-2  -2.559024495119648E-2  
 2.036600000000000E10   -9.608364176993654E-2  -9.770741504247262E-3  
 2.036800000000000E10   -9.647927179562396E-2   6.356722781938004E-3  
 2.037000000000000E10   -9.402809165573726E-2   2.269716591529822E-2  
 2.037200000000000E10   -8.890710498656720E-2   3.822168350194745E-2  
 2.037400000000000E10   -8.128304969740249E-2   5.259627433409417E-2  
 2.037600000000000E10   -7.121291966259144E-2   6.556045015993653E-2  
 2.037800000000000E10   -5.896986929157253E-2   7.662245695378575E-2  
 2.038000000000000E10   -4.556141189141820E-2   8.518436751525008E-2  
 2.038200000000000E10   -3.065933206289975E-2   9.163785362557984E-2  
 2.038400000000000E10   -1.491691727949782E-2   9.564335059418293E-2  
 2.038600000000000E10    1.184565472015434E-3   9.701255333735222E-2  
 2.038800000000000E10    1.763468000295731E-2   9.565241893872932E-2  
 2.039000000000000E10    3.356035257681281E-2   9.158500545822690E-2  
 2.039200000000000E10    4.872703737800869E-2   8.482991653850686E-2  
 2.039400000000000E10    6.278606864977604E-2   7.532590490832161E-2  
 2.039600000000000E10    7.485617815907675E-2   6.357833848704909E-2  
 2.039800000000000E10    8.463253154771537E-2   4.973503828873142E-2  
 2.040000000000000E10    9.167941852284359E-2   3.439617840207818E-2  
 2.040200000000000E10    9.584341505949789E-2   1.850302337565640E-2  
 2.040400000000000E10    9.743778772778201E-2   2.163576453291374E-3  
 2.040600000000000E10    9.636172892193920E-2  -1.424491105692323E-2  
 2.040800000000000E10    9.265972496287306E-2  -3.014554464620364E-2  
 2.041000000000000E10    8.638071716444976E-2  -4.528695911979862E-2  
 2.041200000000000E10    7.769370364754000E-2  -5.928735715101322E-2  
 2.041400000000000E10    6.684353746754281E-2  -7.161809081253420E-2  
 2.041600000000000E10    5.384923363548194E-2  -8.221304883041719E-2  
 2.041800000000000E10    3.908594000974983E-2  -9.041138469032754E-2  
 2.042000000000000E10    2.325201919195883E-2  -9.579939046677904E-2  
 2.042200000000000E10    6.515328121888118E-3  -9.835560330143066E-2  
 2.042400000000000E10   -1.025453223844724E-2  -9.800695317231417E-2  
 2.042600000000000E10   -2.661049073725835E-2  -9.486180465771213E-2  
 2.042800000000000E10   -4.246012710694624E-2  -8.898945848306059E-2  
 2.043000000000000E10   -5.686872544196063E-2  -8.051428464768665E-2  
 2.043200000000000E10   -6.962517467241539E-2  -6.981648651906003E-2  
 2.043400000000000E10   -8.058532651282724E-2  -5.693948425260592E-2  
 2.043600000000000E10   -8.898486337126110E-2  -4.275169364189324E-2  
 2.043800000000000E10   -9.498806735320423E-2  -2.725308501604373E-2  
 2.044000000000000E10   -9.841267651804629E-2  -1.056640483186301E-2  
 2.044200000000000E10   -9.891715650105329E-2   6.061044207214402E-3  
 2.044400000000000E10   -9.655554485637194E-2   2.273550927593585E-2  
 2.044600000000000E10   -9.139096475268915E-2   3.894231857888366E-2  
 2.044800000000000E10   -8.351806421761215E-2   5.401286064461044E-2  
 2.045000000000000E10   -7.309953924487087E-2   6.753841558415397E-2  
 2.045200000000000E10   -6.049234635936036E-2   7.903751848338492E-2  
 2.045400000000000E10   -4.619485970471277E-2   8.808526285804641E-2  
 2.045600000000000E10   -3.060441697633834E-2   9.455774143176954E-2  
 2.045800000000000E10   -1.400996766251442E-2   9.827088428363991E-2  
 2.046000000000000E10    2.825419747904727E-3   9.900519583755253E-2  
 2.046200000000000E10    1.942862362899380E-2   9.685372510682774E-2  
 2.046400000000000E10    3.511881719235058E-2   9.208061649993397E-2  
 2.046600000000000E10    4.991427143092311E-2   8.502959025885490E-2  
 2.046800000000000E10    6.349651661633793E-2   7.562043592663115E-2  
 2.047000000000000E10    7.542395973747015E-2   6.400871063478836E-2  
 2.047200000000000E10    8.525540564885466E-2   5.065404993550496E-2  
 2.047400000000000E10    9.287903495581482E-2   3.554216961563315E-2  
 2.047600000000000E10    9.770344139721643E-2   1.937301355350074E-2  
 2.047800000000000E10    9.957373124640849E-2   2.439794653915624E-3  
 2.048000000000000E10    9.844966045859166E-2  -1.455099605301512E-2  
 2.048200000000000E10    9.451632206327507E-2  -3.078156951550867E-2  
 2.048400000000000E10    8.800193623464622E-2  -4.626002478785331E-2  
 2.048600000000000E10    7.892116045642056E-2  -6.048545815394686E-2  
 2.048800000000000E10    6.757904954380678E-2  -7.292599502409801E-2  
 2.049000000000000E10    5.448007875407021E-2  -8.320312898545310E-2  
 2.049200000000000E10    3.944861638375199E-2  -9.134424924100978E-2  
 2.049400000000000E10    2.366944167986138E-2  -9.661989851779937E-2  
 2.049600000000000E10    7.078579685744027E-3  -9.915236004277206E-2  
 2.049800000000000E10   -9.716416886986221E-3  -9.880190727855537E-2  
 2.050000000000000E10   -2.601326615040740E-2  -9.575238692049139E-2  
 2.050200000000000E10   -4.171703787765532E-2  -9.003334724218123E-2  
 2.050400000000000E10   -5.629968138477223E-2  -8.166115721348420E-2  
 2.050600000000000E10   -6.908997157246508E-2  -7.116812781678197E-2  
 2.050800000000000E10   -8.007755125419268E-2  -5.858884161405495E-2  
 2.051000000000000E10   -8.885213881254088E-2  -4.423850341311790E-2  
 2.051200000000000E10   -9.489522727296915E-2  -2.872400028658630E-2  
 2.051400000000000E10   -9.828465845281989E-2  -1.229028233634006E-2  
 2.051600000000000E10   -9.883355469787983E-2   4.352628723107139E-3  
 2.051800000000000E10   -9.663763409743059E-2   2.068143381514740E-2  
 2.052000000000000E10   -9.163292003189387E-2   3.647968330873511E-2  
 2.052200000000000E10   -8.413270376582932E-2   5.116391217376089E-2  
 2.052400000000000E10   -7.478051980813455E-2   6.407946265292522E-2  
 2.052600000000000E10   -6.327594192680146E-2   7.575400062830888E-2  
 2.052800000000000E10   -4.990304612455673E-2   8.550638096363621E-2  
 2.053000000000000E10   -3.515523391046316E-2   9.274025685657110E-2  
 2.053200000000000E10   -1.899209782518668E-2   9.758901918462240E-2  
 2.053400000000000E10   -2.319050396390451E-3   9.952833815203122E-2  
 2.053600000000000E10    1.436370544091851E-2   9.864473601014237E-2  
 2.053800000000000E10    3.092233901691544E-2   9.487754900636988E-2  
 2.054000000000000E10    4.654291663543152E-2   8.831292676877511E-2  
 2.054200000000000E10    6.045375906602128E-2   7.938714065151670E-2  
 2.054400000000000E10    7.296106096307711E-2   6.813158732741696E-2  
 2.054600000000000E10    8.346045274339134E-2   5.499284646268426E-2  
 2.054800000000000E10    9.156997592242785E-2   4.054136887349438E-2  
 2.055000000000000E10    9.736711081731179E-2   2.455859598793820E-2  
 2.055200000000000E10    1.003376314360600E-1   7.879952661922485E-3  
 2.055400000000000E10    1.004268214778827E-1  -9.285529705513690E-3  
 2.055600000000000E10    9.748802265707923E-2  -2.638100367962106E-2  
