#  HZ   S   RI   R     50.00 
! Rohde & Schwarz ZVA40 4Ports - Version 3.90 - 1145.1110k42 SN: 100403
! Date: 2023-09-30 07:34:00
! Measurement: S12 
! 
 2.000000000000000E10    1.659569232398836E-2   8.771565019961738E-2  
 2.000200000000000E10    3.059112415514856E-2   8.462078483016404E-2  
 2.000400000000000E10    4.477696011893053E-2   7.850749677223434E-2  
 2.000600000000000E10    5.785684178702136E-2   6.966408731515517E-2  
 2.000800000000000E10    6.886453423725726E-2   5.874772937086875E-2  
 2.001000000000000E10    7.796403578647371E-2   4.586738444588803E-2  
 2.001200000000000E10    8.447480155729954E-2   3.195078246326114E-2  
 2.001400000000000E10    8.858028311788302E-2   1.709035433706188E-2  
 2.001600000000000E10    9.018413507889329E-2   1.901389028275302E-3  
 2.001800000000000E10    8.922918134756050E-2  -1.339604167474641E-2  
 2.002000000000000E10    8.562496503807392E-2  -2.840804427463577E-2  
 2.002200000000000E10    7.908763429878181E-2  -4.358516955449258E-2  
 2.002400000000000E10    7.074753244104701E-2  -5.627046677249450E-2  
 2.002600000000000E10    6.026303070624180E-2  -6.756980373780916E-2  
 2.002800000000000E10    4.778187337174338E-2  -7.707063372365733E-2  
 2.003000000000000E10    3.396166966837130E-2  -8.407661334109406E-2  
 2.003200000000000E10    1.901762967798936E-2  -8.855915259677197E-2  
 2.003400000000000E10    3.443752686634906E-3  -9.031306694687150E-2  
 2.003600000000000E10   -1.200330825024304E-2  -8.927014534488137E-2  
 2.003800000000000E10   -2.670333171148360E-2  -8.567003639023982E-2  
 2.004000000000000E10   -4.059636057833586E-2  -7.984105552788134E-2  
 2.004200000000000E10   -5.340805097862528E-2  -7.187935645565576E-2  
 2.004400000000000E10   -6.482366543002581E-2  -6.196492370754604E-2  
 2.004600000000000E10   -7.446576826611666E-2  -5.008715289978335E-2  
 2.004800000000000E10   -8.197543435871849E-2  -3.660714140338173E-2  
 2.005000000000000E10   -8.692445336178008E-2  -2.219202572579492E-2  
 2.005200000000000E10   -8.946880845376004E-2  -6.987948511025788E-3  
 2.005400000000000E10   -8.937289164144807E-2   8.274716340434651E-3  
 2.005600000000000E10   -8.670289087810634E-2   2.342387553258443E-2  
 2.005800000000000E10   -8.151129249927930E-2   3.777938768451597E-2  
 2.006000000000000E10   -7.369799485790388E-2   5.147459109624227E-2  
 2.006200000000000E10   -6.383882971948067E-2   6.328384191901597E-2  
 2.006400000000000E10   -5.189956128290651E-2   7.316144684582582E-2  
 2.006600000000000E10   -3.831913092254121E-2   8.074081103497574E-2  
 2.006800000000000E10   -2.396171508594551E-2   8.583860776919888E-2  
 2.007000000000000E10   -9.026941950643751E-3   8.840895597458869E-2  
 2.007200000000000E10    5.875036361868736E-3   8.847688494150532E-2  
 2.007400000000000E10    2.076814411047065E-2   8.614997213146816E-2  
 2.007600000000000E10    3.495817012134404E-2   8.141866586949109E-2  
 2.007800000000000E10    4.835764289576822E-2   7.433355253174473E-2  
 2.008000000000000E10    6.028816579178038E-2   6.513801171087925E-2  
 2.008200000000000E10    7.059406933715806E-2   5.387158564640663E-2  
 2.008400000000000E10    7.880277220359067E-2   4.104261213737261E-2  
 2.008600000000000E10    8.477553348114462E-2   2.679442587488718E-2  
 2.008800000000000E10    8.799231779060247E-2   1.182145749145943E-2  
 2.009000000000000E10    8.847914121033235E-2  -3.561043719006052E-3  
 2.009200000000000E10    8.621452589339190E-2  -1.862108460608334E-2  
 2.009400000000000E10    8.144289641468615E-2  -3.300195339101333E-2  
 2.009600000000000E10    7.461680781571464E-2  -4.583013784370305E-2  
 2.009800000000000E10    6.582247419857686E-2  -5.769279064158354E-2  
 2.010000000000000E10    5.521931992882075E-2  -6.800292689859133E-2  
 2.010200000000000E10    4.299849190523105E-2  -7.653699266444509E-2  
 2.010400000000000E10    2.934911692277395E-2  -8.290407037048184E-2  
 2.010600000000000E10    1.468597038997790E-2  -8.685895009541218E-2  
 2.010800000000000E10   -6.282654961709070E-4  -8.809577508105174E-2  
 2.011000000000000E10   -1.581266953192130E-2  -8.663593533107775E-2  
 2.011200000000000E10   -3.055771518452669E-2  -8.243668143763955E-2  
 2.011400000000000E10   -4.423411221170622E-2  -7.569007590842347E-2  
 2.011600000000000E10   -5.637423614415613E-2  -6.674378389806905E-2  
 2.011800000000000E10   -6.685934307766550E-2  -5.574372731179858E-2  
 2.012000000000000E10   -7.506321174372371E-2  -4.345367461013697E-2  
 2.012200000000000E10   -8.103916561039389E-2  -2.998571169137219E-2  
 2.012400000000000E10   -8.467906704287471E-2  -1.566237518218933E-2  
 2.012600000000000E10   -8.579432574932469E-2  -1.130952531059065E-3  
 2.012800000000000E10   -8.448681219983004E-2   1.331695686995125E-2  
 2.013000000000000E10   -8.090851857583711E-2   2.708947885428928E-2  
 2.013200000000000E10   -7.510648039265426E-2   4.045189119906092E-2  
 2.013400000000000E10   -6.713304432576576E-2   5.248325520459518E-2  
 2.013600000000000E10   -5.706375498523929E-2   6.312282043106764E-2  
 2.013800000000000E10   -4.543527533058768E-2   7.174756804120885E-2  
 2.014000000000000E10   -3.252265953416687E-2   7.828555016973873E-2  
 2.014200000000000E10   -1.886626403518175E-2   8.250780017287644E-2  
 2.014400000000000E10   -4.463678744234483E-3   8.439230232081788E-2  
 2.014600000000000E10    9.887756013269290E-3   8.368140882180063E-2  
 2.014800000000000E10    2.378864376326648E-2   8.050087686060879E-2  
 2.015000000000000E10    3.670115741314712E-2   7.521988003832814E-2  
 2.015200000000000E10    4.883757669003414E-2   6.781850004024467E-2  
 2.015400000000000E10    5.942457980273193E-2   5.865691547040588E-2  
 2.015600000000000E10    6.839226621659206E-2   4.787805733182794E-2  
 2.015800000000000E10    7.551930243831605E-2   3.568848236291497E-2  
 2.016000000000000E10    8.054166437421809E-2   2.243692838728674E-2  
 2.016200000000000E10    8.324653848453806E-2   8.360797048780164E-3  
 2.016400000000000E10    8.347434587316749E-2  -5.889104249975319E-3  
 2.016600000000000E10    8.126585111941823E-2  -1.996829858195390E-2  
 2.016800000000000E10    7.663971746777312E-2  -3.355399697037882E-2  
 2.017000000000000E10    6.973253546183003E-2  -4.617025520759846E-2  
 2.017200000000000E10    6.057340225565092E-2  -5.740493822674202E-2  
 2.017400000000000E10    4.985236463907325E-2  -6.669990969783486E-2  
 2.017600000000000E10    3.776253902433831E-2  -7.406149623693263E-2  
 2.017800000000000E10    2.451123036597492E-2  -7.944732481314813E-2  
 2.018000000000000E10    1.061564660535305E-2  -8.233225247496932E-2  
 2.018200000000000E10   -3.651357568233225E-3  -8.278836690104058E-2  
 2.018400000000000E10   -1.760619337605351E-2  -8.077247995775914E-2  
 2.018600000000000E10   -3.099371938977713E-2  -7.645406941940756E-2  
 2.018800000000000E10   -4.346093021854453E-2  -6.999447359224408E-2  
 2.019000000000000E10   -5.481018098416153E-2  -6.139136472172699E-2  
 2.019200000000000E10   -6.432212003096632E-2  -5.090057724174650E-2  
 2.019400000000000E10   -7.188747347995579E-2  -3.895236640678022E-2  
 2.019600000000000E10   -7.710652872000212E-2  -2.634869663834327E-2  
 2.019800000000000E10   -8.031533146468702E-2  -1.264308251195239E-2  
 2.020000000000000E10   -8.105935554936100E-2   1.021719766673421E-3  
 2.020200000000000E10   -7.943245934115517E-2   1.466977487820289E-2  
 2.020400000000000E10   -7.560103708579218E-2   2.768702463174063E-2  
 2.020600000000000E10   -6.976533178316714E-2   3.984499356322328E-2  
 2.020800000000000E10   -6.202101689062002E-2   5.089638819113190E-2  
 2.021000000000000E10   -5.257855745132078E-2   6.063059830861818E-2  
 2.021200000000000E10   -4.163846552923874E-2   6.868587664248033E-2  
 2.021400000000000E10   -2.927396198113760E-2   7.478844012620520E-2  
 2.021600000000000E10   -1.610456218122823E-2   7.862199616039733E-2  
 2.021800000000000E10   -2.255165699865562E-3   8.008138283535288E-2  
 2.022000000000000E10    1.135161489156293E-2   7.905520986259720E-2  
 2.022200000000000E10    2.450902864275646E-2   7.571999179850882E-2  
 2.022400000000000E10    3.688976383258287E-2   7.019476157157020E-2  
 2.022600000000000E10    4.799818741195978E-2   6.275054528818701E-2  
 2.022800000000000E10    5.764250239594976E-2   5.364917486967374E-2  
 2.023000000000000E10    6.564826598015343E-2   4.307501126893264E-2  
 2.023200000000000E10    7.175115517382760E-2   3.145239577310567E-2  
 2.023400000000000E10    7.581137145252385E-2   1.897427101654035E-2  
 2.023600000000000E10    7.784969856341681E-2   6.319798130557372E-3  
 2.023800000000000E10    7.795662178424162E-2  -6.823950313001014E-3  
 2.024000000000000E10    7.588866389827964E-2  -1.993017230535486E-2  
 2.024200000000000E10    7.153482416284429E-2  -3.255354712713404E-2  
 2.024400000000000E10    6.489349101428633E-2  -4.449174488768166E-2  
 2.024600000000000E10    5.607449323122885E-2  -5.495404071891259E-2  
 2.024800000000000E10    4.567527243629896E-2  -6.348360789778793E-2  
 2.025000000000000E10    3.390269010584542E-2  -7.003333597394175E-2  
 2.025200000000000E10    2.160618260288190E-2  -7.431350544156362E-2  
 2.025400000000000E10    8.963425731891959E-3  -7.653306004564459E-2  
 2.025600000000000E10   -3.863400335082548E-3  -7.676183668428979E-2  
 2.025800000000000E10   -1.644142290937557E-2  -7.505056010597529E-2  
 2.026000000000000E10   -2.881692657285512E-2  -7.126015179441791E-2  
 2.026200000000000E10   -4.033937430921406E-2  -6.546679927120484E-2  
 2.026400000000000E10   -5.086949593368383E-2  -5.771441864991876E-2  
 2.026600000000000E10   -5.999242465314553E-2  -4.821086822100629E-2  
 2.026800000000000E10   -6.730038105460352E-2  -3.725005514582490E-2  
 2.027000000000000E10   -7.255143859258897E-2  -2.505422180418861E-2  
 2.027200000000000E10   -7.552756635863105E-2  -1.225904283715497E-2  
 2.027400000000000E10   -7.627283876815452E-2   6.394511037946911E-4  
 2.027600000000000E10   -7.483922763739104E-2   1.366185391160809E-2  
 2.027800000000000E10   -7.108716767879181E-2   2.612664200242901E-2  
 2.028000000000000E10   -6.529766459155967E-2   3.759570186766087E-2  
 2.028200000000000E10   -5.777000137623937E-2   4.789134416989830E-2  
 2.028400000000000E10   -4.860568880544279E-2   5.669983373686610E-2  
 2.028600000000000E10   -3.818645556706461E-2   6.372330196723036E-2  
 2.028800000000000E10   -2.685605039352498E-2   6.888915920331155E-2  
 2.029000000000000E10   -1.491197686519765E-2   7.210953131992631E-2  
 2.029200000000000E10   -2.604188911095569E-3   7.339013426146882E-2  
 2.029400000000000E10    9.608323252740712E-3   7.251114238804751E-2  
 2.029600000000000E10    2.150243417256409E-2   6.964729925609912E-2  
 2.029800000000000E10    3.282455906823830E-2   6.482193937885419E-2  
 2.030000000000000E10    4.311411691361985E-2   5.834300535512560E-2  
 2.030200000000000E10    5.216810027512994E-2   5.003550010944100E-2  
 2.030400000000000E10    5.958121604144329E-2   4.026948547167053E-2  
 2.030600000000000E10    6.510059458851325E-2   2.960864999504001E-2  
 2.030800000000000E10    6.877007491794634E-2   1.825625798952433E-2  
 2.031000000000000E10    7.051483256581390E-2   6.568180169113013E-3  
 2.031200000000000E10    7.030651660122500E-2  -5.167090751751952E-3  
 2.031400000000000E10    6.820308447742660E-2  -1.667288851008249E-2  
 2.031600000000000E10    6.453765879687951E-2  -2.713985518847474E-2  
 2.031800000000000E10    5.919616267759615E-2  -3.731869647103082E-2  
 2.032000000000000E10    5.206639456098955E-2  -4.668420015109910E-2  
 2.032200000000000E10    4.359735384460831E-2  -5.465267235298217E-2  
 2.032400000000000E10    3.370554297549244E-2  -6.123961621719133E-2  
 2.032600000000000E10    2.283506612810824E-2  -6.591457941036658E-2  
 2.032800000000000E10    1.129793931074717E-2  -6.857240945100784E-2  
 2.033000000000000E10   -4.629065412472274E-4  -6.914488943638626E-2  
 2.033200000000000E10   -1.202467834354674E-2  -6.771963868489483E-2  
 2.033400000000000E10   -2.294063615639514E-2  -6.443453574008903E-2  
 2.033600000000000E10   -2.745936797172936E-2  -6.232799940700395E-2  
 2.033800000000000E10   -4.245770437481963E-2  -5.285066737191669E-2  
 2.034000000000000E10   -5.039527015798868E-2  -4.503910099405321E-2  
 2.034200000000000E10   -5.701572297777169E-2  -3.604853386251034E-2  
 2.034400000000000E10   -6.213273117203772E-2  -2.605847744539442E-2  
 2.034600000000000E10   -6.546278294835073E-2  -1.527251608654428E-2  
 2.034800000000000E10   -6.689083312519295E-2  -4.174573094978807E-3  
 2.035000000000000E10   -6.645962997596452E-2   6.979003002476178E-3  
 2.035200000000000E10   -6.410635449758775E-2   1.794967119708474E-2  
 2.035400000000000E10   -5.997846919445345E-2   2.811990444521600E-2  
 2.035600000000000E10   -5.429996957872141E-2   3.743812182741892E-2  
 2.035800000000000E10   -4.729339126267552E-2   4.569036022993763E-2  
 2.036000000000000E10   -3.915066587826843E-2   5.262772936695889E-2  
 2.036200000000000E10   -2.985300269330481E-2   5.822382566860184E-2  
 2.036400000000000E10   -1.991904314622713E-2   6.221259806933718E-2  
 2.036600000000000E10   -9.562220175294475E-3   6.457888123429853E-2  
 2.036800000000000E10    1.223035202718075E-3   6.521225732908328E-2  
 2.037000000000000E10    1.195326591209497E-2   6.406557688742509E-2  
 2.037200000000000E10    2.212924986249871E-2   6.134517113735647E-2  
 2.037400000000000E10    3.212318058919024E-2   5.702576861398702E-2  
 2.037600000000000E10    4.130611254415886E-2   5.095008901730488E-2  
 2.037800000000000E10    4.938775878936176E-2   4.310505029289321E-2  
 2.038000000000000E10    5.572247534315774E-2   3.410965487851528E-2  
 2.038200000000000E10    6.048100602663595E-2   2.418294381886844E-2  
 2.038400000000000E10    6.335583592883845E-2   1.371720667023963E-2  
 2.038600000000000E10    6.439632551414978E-2   3.056439143747337E-3  
 2.038800000000000E10    6.368716257344549E-2  -7.479786623744563E-3  
 2.039000000000000E10    6.141183206451283E-2  -1.760704140849565E-2  
 2.039200000000000E10    5.767576928430625E-2  -2.706566147138308E-2  
 2.039400000000000E10    5.256564286633285E-2  -3.607781067367935E-2  
 2.039600000000000E10    4.623214701198257E-2  -4.415516723943837E-2  
 2.039800000000000E10    3.858515620231628E-2  -5.121573995906140E-2  
 2.040000000000000E10    2.968769965103134E-2  -5.708020125274306E-2  
 2.040200000000000E10    1.974715716339679E-2  -6.147351204858396E-2  
 2.040400000000000E10    9.061160547191225E-3  -6.393686813827407E-2  
 2.040600000000000E10   -1.948407156500245E-3  -6.431444565700406E-2  
 2.040800000000000E10   -1.259843867900686E-2  -6.271887257879164E-2  
 2.041000000000000E10   -2.244067665787391E-2  -5.952886889071622E-2  
 2.041200000000000E10   -3.160522844443106E-2  -5.489591711465224E-2  
 2.041400000000000E10   -3.990814400982465E-2  -4.904935185494738E-2  
 2.041600000000000E10   -4.719949843277657E-2  -4.209472999405960E-2  
 2.041800000000000E10   -5.340377233707858E-2  -3.407053698482828E-2  
 2.042000000000000E10   -5.839684177879935E-2  -2.526710735856261E-2  
 2.042200000000000E10   -6.207239656965920E-2  -1.561576526596713E-2  
 2.042400000000000E10   -6.419037751577519E-2  -5.175691720772796E-3  
 2.042600000000000E10   -6.445821301068791E-2   5.594245596968956E-3  
 2.042800000000000E10   -6.282855677629205E-2   1.638853076247522E-2  
 2.043000000000000E10   -5.934871012659231E-2   2.666943856810101E-2  
 2.043200000000000E10   -5.424601167685702E-2   3.627237426155389E-2  
 2.043400000000000E10   -4.749046071382708E-2   4.495869322446149E-2  
 2.043600000000000E10   -3.947867725979645E-2   5.222982269378357E-2  
 2.043800000000000E10   -3.031092563283788E-2   5.818138070741800E-2  
 2.044000000000000E10   -2.008542079677798E-2   6.253643913401499E-2  
 2.044200000000000E10   -9.459812592699696E-3   6.496345868081224E-2  
 2.044400000000000E10    1.407096215615762E-3   6.549864102906161E-2  
 2.044600000000000E10    1.210526749874952E-2   6.435430460751304E-2  
 2.044800000000000E10    2.225898866974768E-2   6.167318491042888E-2  
 2.045000000000000E10    3.213835213287378E-2   5.752644247908162E-2  
 2.045200000000000E10    4.143742459669035E-2   5.180689761484112E-2  
 2.045400000000000E10    4.972788757441467E-2   4.459889602575283E-2  
 2.045600000000000E10    5.688789218602849E-2   3.589115296433002E-2  
 2.045800000000000E10    6.258482498273929E-2   2.579137310385705E-2  
 2.046000000000000E10    6.618346096066291E-2   1.480469276645669E-2  
 2.046200000000000E10    6.781018626542740E-2   3.289089012132199E-3  
 2.046400000000000E10    6.735805035741242E-2  -8.294396983927171E-3  
 2.046600000000000E10    6.492080941121767E-2  -1.936746446929351E-2  
 2.046800000000000E10    6.076434918453175E-2  -2.983507866599433E-2  
 2.047000000000000E10    5.508155812635835E-2  -3.949426234136394E-2  
 2.047200000000000E10    4.806469774847170E-2  -4.799252868066600E-2  
 2.047400000000000E10    3.964475085460600E-2  -5.538473994214350E-2  
 2.047600000000000E10    3.016991315432537E-2  -6.148134314535578E-2  
 2.047800000000000E10    1.979151299154317E-2  -6.600835741547401E-2  
 2.048000000000000E10    8.454636716640290E-3  -6.887963696271796E-2  
 2.048200000000000E10   -3.336059215091507E-3  -6.970094003304533E-2  
 2.048400000000000E10   -1.519308568058927E-2  -6.842900975128262E-2  
 2.048600000000000E10   -2.671988087671775E-2  -6.505551029747897E-2  
 2.048800000000000E10   -3.758489909302061E-2  -5.963524864840901E-2  
 2.049000000000000E10   -4.708458642655440E-2  -5.247306389879788E-2  
 2.049200000000000E10   -5.525711543643427E-2  -4.375078596573308E-2  
 2.049400000000000E10   -6.174765019811722E-2  -3.403247837667113E-2  
 2.049600000000000E10   -6.661880825772698E-2  -2.346888483490474E-2  
 2.049800000000000E10   -6.980950198301072E-2  -1.214721553993446E-2  
 2.050000000000000E10   -7.108335104989419E-2  -3.728289944033520E-4  
 2.050200000000000E10   -7.044022309559364E-2   1.153360445573620E-2  
 2.050400000000000E10   -6.788119753447090E-2   2.317335044221623E-2  
 2.050600000000000E10   -6.341779630615879E-2   3.438024580049418E-2  
 2.050800000000000E10   -5.694084574656232E-2   4.485290244589618E-2  
 2.051000000000000E10   -4.868339232088608E-2   5.402797459022990E-2  
 2.051200000000000E10   -3.897412846424453E-2   6.164234746324183E-2  
 2.051400000000000E10   -2.811357860334617E-2   6.752354228570139E-2  
 2.051600000000000E10   -1.640081589604602E-2   7.149475046391352E-2  
 2.051800000000000E10   -4.194225465357611E-3   7.345169190884619E-2  
 2.052000000000000E10    8.282759751925254E-3   7.334669728460627E-2  
 2.052200000000000E10    2.064935751106023E-2   7.095369561709496E-2  
 2.052400000000000E10    3.226313312296515E-2   6.657837331295013E-2  
 2.052600000000000E10    4.292568605807093E-2   6.043385850733200E-2  
 2.052800000000000E10    5.246373223056519E-2   5.268570242656603E-2  
 2.053000000000000E10    6.075971825010002E-2   4.346296203479846E-2  
 2.053200000000000E10    6.750954988071459E-2   3.296254026423758E-2  
 2.053400000000000E10    7.263213764002295E-2   2.131730304272087E-2  
 2.053600000000000E10    7.575535633191161E-2   8.586736840537058E-3  
 2.053800000000000E10    7.645744775180464E-2  -4.590845444534787E-3  
 2.054000000000000E10    7.464596975610091E-2  -1.776519682978897E-2  
 2.054200000000000E10    7.059020358961797E-2  -3.021006183430492E-2  
 2.054400000000000E10    6.452069281305306E-2  -4.168455923597018E-2  
 2.054600000000000E10    5.664552032273004E-2  -5.197922554281023E-2  
 2.054800000000000E10    4.732753218385418E-2  -6.085831552375983E-2  
 2.055000000000000E10    3.664779673817227E-2  -6.812025106860778E-2  
 2.055200000000000E10    2.482401850966760E-2  -7.357100731551403E-2  
 2.055400000000000E10    1.221168992098099E-2  -7.710315618250106E-2  
 2.055600000000000E10   -9.289614567839744E-4  -7.854660781322685E-2  
