#  HZ   S   RI   R     50.00 
! Rohde & Schwarz ZVA40 4Ports - Version 3.90 - 1145.1110k42 SN: 100403
! Date: 2023-09-30 05:09:02
! Measurement: S22 
! 
 2.000000000000000E10   -1.873915881398856E-2  -1.465958783247180E-1  
 2.000200000000000E10   -3.950303662644984E-2  -1.362214568792874E-1  
 2.000400000000000E10   -5.837287500357596E-2  -1.220444802741619E-1  
 2.000600000000000E10   -7.344673929636372E-2  -1.046773943493069E-1  
 2.000800000000000E10   -8.481394306377130E-2  -8.493264773745597E-2  
 2.001000000000000E10   -9.193435988921689E-2  -6.369486647378271E-2  
 2.001200000000000E10   -9.466992606841981E-2  -4.174687186529444E-2  
 2.001400000000000E10   -9.281637617712650E-2  -1.974736768062468E-2  
 2.001600000000000E10   -8.659411035733623E-2   6.784891503842595E-4  
 2.001800000000000E10   -7.614627666515905E-2   1.918564734032534E-2  
 2.002000000000000E10   -6.230009162724428E-2   3.434647692799242E-2  
 2.002200000000000E10   -4.542658907784194E-2   4.687861663855317E-2  
 2.002400000000000E10   -2.782442569170552E-2   5.381499597258529E-2  
 2.002600000000000E10   -9.702038813244416E-3   5.661686359098583E-2  
 2.002800000000000E10    8.106667865246577E-3   5.536751753161311E-2  
 2.003000000000000E10    2.432177170589873E-2   5.036606414777589E-2  
 2.003200000000000E10    3.854646103454062E-2   4.204354210359407E-2  
 2.003400000000000E10    4.968901074635804E-2   3.146183772066248E-2  
 2.003600000000000E10    5.799827326104475E-2   1.887189610688775E-2  
 2.003800000000000E10    6.276158848458031E-2   5.529214653591479E-3  
 2.004000000000000E10    6.421553777896165E-2  -7.942023908078100E-3  
 2.004200000000000E10    6.247356900912091E-2  -2.071860275488087E-2  
 2.004400000000000E10    5.787897119183601E-2  -3.212270604137368E-2  
 2.004600000000000E10    5.103763145367796E-2  -4.187255444717997E-2  
 2.004800000000000E10    4.217890283126073E-2  -4.902536564587075E-2  
 2.005000000000000E10    3.204715559041876E-2  -5.383174132622156E-2  
 2.005200000000000E10    2.135604990975847E-2  -5.588221630727968E-2  
 2.005400000000000E10    1.053439224437799E-2  -5.527779351107379E-2  
 2.005600000000000E10    2.563920919464032E-4  -5.184304242537183E-2  
 2.005800000000000E10   -8.611139543712223E-3  -4.573789485749395E-2  
 2.006000000000000E10   -1.565148549560657E-2  -3.768897893109113E-2  
 2.006200000000000E10   -2.050133257726175E-2  -2.796278558978083E-2  
 2.006400000000000E10   -2.266882230695056E-2  -1.708323855734902E-2  
 2.006600000000000E10   -2.213459987249558E-2  -5.823917186145758E-3  
 2.006800000000000E10   -1.872427276858169E-2   5.028484904671035E-3  
 2.007000000000000E10   -1.284912269976404E-2   1.493240722719534E-2  
 2.007200000000000E10   -4.561974436417733E-3   2.337181839238551E-2  
 2.007400000000000E10    5.962682127140065E-3   2.979002877896134E-2  
 2.007600000000000E10    1.760779418541816E-2   3.386862159531631E-2  
 2.007800000000000E10    3.065365420549659E-2   3.513398835504497E-2  
 2.008000000000000E10    4.380541272839565E-2   3.362271550976364E-2  
 2.008200000000000E10    5.685185711570238E-2   2.908298046940067E-2  
 2.008400000000000E10    6.869833685447488E-2   2.164904830979876E-2  
 2.008600000000000E10    7.888404820599838E-2   1.156992029490662E-2  
 2.008800000000000E10    8.714845860364180E-2  -8.132905281798477E-4  
 2.009000000000000E10    9.267261952407077E-2  -1.458187581554812E-2  
 2.009200000000000E10    9.558922848542860E-2  -2.988236543654742E-2  
 2.009400000000000E10    9.545848813975956E-2  -4.561187076511371E-2  
 2.009600000000000E10    9.222284019688358E-2  -6.157260974779706E-2  
 2.009800000000000E10    8.582053771970695E-2  -7.691881222080629E-2  
 2.010000000000000E10    7.609433773777287E-2  -9.128049522924490E-2  
 2.010200000000000E10    6.350005301551075E-2  -1.035309143170244E-1  
 2.010400000000000E10    4.852268191256315E-2  -1.134068229438837E-1  
 2.010600000000000E10    3.133031733804198E-2  -1.206756463000968E-1  
 2.010800000000000E10    1.310489540702481E-2  -1.242452498591813E-1  
 2.011000000000000E10   -5.979908906838082E-3  -1.244645937561826E-1  
 2.011200000000000E10   -2.498350130452868E-2  -1.210971719423113E-1  
 2.011400000000000E10   -4.330226692622746E-2  -1.141840696171315E-1  
 2.011600000000000E10   -6.055648907487613E-2  -1.036299206980789E-1  
 2.011800000000000E10   -7.565487320285767E-2  -8.988166691426225E-2  
 2.012000000000000E10   -8.810825942311595E-2  -7.329286613459451E-2  
 2.012200000000000E10   -9.728557427397157E-2  -5.458816776591238E-2  
 2.012400000000000E10   -1.028854482805942E-1  -3.401806235660906E-2  
 2.012600000000000E10   -1.045525586347521E-1  -1.270003775990631E-2  
 2.012800000000000E10   -1.020938041626344E-1   8.711078185051558E-3  
 2.013000000000000E10   -9.533997129429189E-2   2.948330528778631E-2  
 2.013200000000000E10   -8.472253443527615E-2   4.873656264323593E-2  
 2.013400000000000E10   -7.059717046503178E-2   6.555986564877267E-2  
 2.013600000000000E10   -5.364510422605710E-2   7.919340949653764E-2  
 2.013800000000000E10   -3.407664067113188E-2   8.934792353987531E-2  
 2.014000000000000E10   -1.352069203439073E-2   9.548440880163872E-2  
 2.014200000000000E10    8.157038681760983E-3   9.758735076104011E-2  
 2.014400000000000E10    3.013572880719752E-2   9.524410667692523E-2  
 2.014600000000000E10    5.042552350111951E-2   8.872950048440115E-2  
 2.014800000000000E10    6.947321959851702E-2   7.820232287151498E-2  
 2.015000000000000E10    8.571698957101145E-2   6.412616958752256E-2  
 2.015200000000000E10    9.855849895784724E-2   4.721085356729839E-2  
 2.015400000000000E10    1.076099686375698E-1   2.834291469729896E-2  
 2.015600000000000E10    1.127117234288584E-1   8.009639717459639E-3  
 2.015800000000000E10    1.135408387753208E-1  -1.314541244105179E-2  
 2.016000000000000E10    1.096982646667091E-1  -3.357538901811111E-2  
 2.016200000000000E10    1.016572609400717E-1  -5.277509716516987E-2  
 2.016400000000000E10    8.988907252564843E-2  -6.958396136965118E-2  
 2.016600000000000E10    7.490542868282571E-2  -8.329829593049812E-2  
 2.016800000000000E10    5.726825979899806E-2  -9.347466467298436E-2  
 2.017000000000000E10    3.793144486691236E-2  -9.952874430576636E-2  
 2.017200000000000E10    1.799178019227315E-2  -1.010921784511810E-1  
 2.017400000000000E10   -1.694888236775320E-3  -9.836295666109227E-2  
 2.017600000000000E10   -2.030396636764536E-2  -9.145172904098640E-2  
 2.017800000000000E10   -3.668591602921323E-2  -8.062521418344502E-2  
 2.018000000000000E10   -5.003213829300859E-2  -6.647522748538662E-2  
 2.018200000000000E10   -5.985225916971724E-2  -4.986774784465551E-2  
 2.018400000000000E10   -6.572890774294510E-2  -3.172660049495629E-2  
 2.018600000000000E10   -6.752159976910173E-2  -1.294146456841293E-2  
 2.018800000000000E10   -6.523774372125032E-2   5.604195832664503E-3  
 2.019000000000000E10   -5.889558668959943E-2   2.309265590703373E-2  
 2.019200000000000E10   -4.880904445657188E-2   3.855348899653910E-2  
 2.019400000000000E10   -3.583391493158249E-2   5.097287821242350E-2  
 2.019600000000000E10   -2.024523901084977E-2   5.996745728743257E-2  
 2.019800000000000E10   -3.933727503939442E-3   6.513229250621731E-2  
 2.020000000000000E10    1.259073302589245E-2   6.676034471952703E-2  
 2.020200000000000E10    2.914378414152827E-2   6.479117245667593E-2  
 2.020400000000000E10    4.422639572510013E-2   5.956714501698976E-2  
 2.020600000000000E10    5.766028887368689E-2   5.122388577387657E-2  
 2.020800000000000E10    6.864889721361864E-2   4.035497947873239E-2  
 2.021000000000000E10    7.680615206314215E-2   2.747203204244253E-2  
 2.021200000000000E10    8.183555721991348E-2   1.362444011338658E-2  
 2.021400000000000E10    8.361686836667513E-2  -3.860973626399469E-4  
 2.021600000000000E10    8.248083318988647E-2  -1.455544314471129E-2  
 2.021800000000000E10    7.811797328487510E-2  -2.761406005348688E-2  
 2.022000000000000E10    7.098304493600614E-2  -3.903146579718558E-2  
 2.022200000000000E10    6.166769879447254E-2  -4.831829225575483E-2  
 2.022400000000000E10    5.078621755963492E-2  -5.498521754055685E-2  
 2.022600000000000E10    3.891453757595952E-2  -5.890437384201177E-2  
 2.022800000000000E10    2.684886996290649E-2  -6.001378855424000E-2  
 2.023000000000000E10    1.521171463349392E-2  -5.829623750882385E-2  
 2.023200000000000E10    4.547419508763261E-3  -5.398135707906572E-2  
 2.023400000000000E10   -4.824895122368273E-3  -4.748578059943126E-2  
 2.023600000000000E10   -1.242569279160724E-2  -3.891476504351377E-2  
 2.023800000000000E10   -1.764421041579649E-2  -2.869798202164707E-2  
 2.024000000000000E10   -2.009073674004265E-2  -1.753594738332905E-2  
 2.024200000000000E10   -1.961993103634837E-2  -6.301677326540195E-3  
 2.024400000000000E10   -1.622922080779763E-2   4.076081013820545E-3  
 2.024600000000000E10   -1.068038111795328E-2   1.328955264314907E-2  
 2.024800000000000E10   -3.106702084618587E-3   2.098947368684865E-2  
 2.025000000000000E10    6.181777951873544E-3   2.669377392221790E-2  
 2.025200000000000E10    1.647912925530854E-2   3.021051247945293E-2  
 2.025400000000000E10    2.758613583696968E-2   3.119745051337532E-2  
 2.025600000000000E10    3.875427820371012E-2   2.945612165029321E-2  
 2.025800000000000E10    4.926120107086435E-2   2.522263443927870E-2  
 2.026000000000000E10    5.884230187461701E-2   1.843990751673737E-2  
 2.026200000000000E10    6.696842181584473E-2   9.536880819671195E-3  
 2.026400000000000E10    7.328859150450581E-2  -1.443417939249348E-3  
 2.026600000000000E10    7.702516579415411E-2  -1.391661259510513E-2  
 2.026800000000000E10    7.786287069933898E-2  -2.717665384877448E-2  
 2.027000000000000E10    7.572879904909227E-2  -4.097128414200167E-2  
 2.027200000000000E10    7.038783656103623E-2  -5.416797311013292E-2  
 2.027400000000000E10    6.207960208338803E-2  -6.614708943376817E-2  
 2.027600000000000E10    5.112633750925995E-2  -7.679023359619869E-2  
 2.027800000000000E10    3.793661988791289E-2  -8.505804344132770E-2  
 2.028000000000000E10    2.284233494366638E-2  -9.067067165638032E-2  
 2.028200000000000E10    6.592372731294162E-3  -9.304564346052166E-2  
 2.028400000000000E10   -1.032831695375374E-2  -9.222673550145943E-2  
 2.028600000000000E10   -2.735641440287212E-2  -8.793930389467419E-2  
 2.028800000000000E10   -4.353424989514881E-2  -8.003228133230053E-2  
 2.029000000000000E10   -5.833694372014418E-2  -6.875643827051783E-2  
 2.029200000000000E10   -7.113517105415854E-2  -5.477820363902425E-2  
 2.029400000000000E10   -8.126184278881928E-2  -3.808834593850399E-2  
 2.029600000000000E10   -8.804653018753880E-2  -1.916220502107723E-2  
 2.029800000000000E10   -9.095199076032116E-2   1.196473863567334E-3  
 2.030000000000000E10   -8.974938680237704E-2   2.220417655472975E-2  
 2.030200000000000E10   -8.455088663084845E-2   4.284145748970931E-2  
 2.030400000000000E10   -7.518346259173707E-2   6.246775780154192E-2  
 2.030600000000000E10   -6.186786296538530E-2   8.026412871394140E-2  
 2.030800000000000E10   -4.557961993052309E-2   9.510586147077782E-2  
 2.031000000000000E10   -2.663239918455012E-2   1.066326669868292E-1  
 2.031200000000000E10   -5.568916768229099E-3   1.144864591367451E-1  
 2.031400000000000E10    1.654155978317206E-2   1.183736199827351E-1  
 2.031600000000000E10    3.881829095536790E-2   1.184155228860748E-1  
 2.031800000000000E10    6.093156639236156E-2   1.140285722798935E-1  
 2.032000000000000E10    8.207717013579829E-2   1.055662090927158E-1  
 2.032200000000000E10    1.013572606141839E-1   9.332997809753171E-2  
 2.032400000000000E10    1.180128417142625E-1   7.774757829958520E-2  
 2.032600000000000E10    1.319794289369152E-1   5.901136132792682E-2  
 2.032800000000000E10    1.420301488806355E-1   3.815908787263601E-2  
 2.033000000000000E10    1.480193573097470E-1   1.582817703010246E-2  
 2.033200000000000E10    1.498240778639157E-1  -7.518345732829536E-3  
 2.033400000000000E10    1.471030192937707E-1  -3.060122466913140E-2  
 2.033600000000000E10    1.402067700081565E-1  -5.342206277147407E-2  
 2.033800000000000E10    1.288113418879660E-1  -7.345000966177394E-2  
 2.034000000000000E10    1.139598192521901E-1  -9.104461132948619E-2  
 2.034200000000000E10    9.615880310208384E-2  -1.053806790578676E-1  
 2.034400000000000E10    7.617978921315963E-2  -1.157437223220559E-1  
 2.034600000000000E10    5.472392872466473E-2  -1.219737419886681E-1  
 2.034800000000000E10    3.278660013331471E-2  -1.238465275927173E-1  
 2.035000000000000E10    1.145067442826855E-2  -1.213588159127654E-1  
 2.035200000000000E10   -8.509497238714019E-3  -1.148084036913919E-1  
 2.035400000000000E10   -2.635912067513653E-2  -1.046398175249211E-1  
 2.035600000000000E10   -4.155343932461184E-2  -9.134692618998973E-2  
 2.035800000000000E10   -5.339137541924812E-2  -7.568640531703770E-2  
 2.036000000000000E10   -6.144011941507194E-2  -5.854869051357357E-2  
 2.036200000000000E10   -6.561324432676222E-2  -4.062545519776960E-2  
 2.036400000000000E10   -6.586213194252860E-2  -2.302955612489144E-2  
 2.036600000000000E10   -6.246166994644456E-2  -6.577606627204046E-3  
 2.036800000000000E10   -5.577417881073449E-2   8.068149521006643E-3  
 2.037000000000000E10   -4.661744663335987E-2   2.011791722202579E-2  
 2.037200000000000E10   -3.592064326171686E-2   2.954193130033334E-2  
 2.037400000000000E10   -2.401615524682407E-2   3.598780120085460E-2  
 2.037600000000000E10   -1.158179551879116E-2   3.937385790305538E-2  
 2.037800000000000E10    4.853675399353759E-4   3.970153310396218E-2  
 2.038000000000000E10    1.150058537328154E-2   3.723117242604290E-2  
 2.038200000000000E10    2.107802267468679E-2   3.247586266228365E-2  
 2.038400000000000E10    2.880324614687794E-2   2.582082853477515E-2  
 2.038600000000000E10    3.426489071468268E-2   1.775678007036897E-2  
 2.038800000000000E10    3.711606281591051E-2   9.103728322866687E-3  
 2.039000000000000E10    3.753171974616777E-2   1.141196064106785E-4  
 2.039200000000000E10    3.531398072286889E-2  -8.372361168766138E-3  
 2.039400000000000E10    3.067003804755964E-2  -1.574703615889546E-2  
 2.039600000000000E10    2.411859997117635E-2  -2.147606939629273E-2  
 2.039800000000000E10    1.617884728291030E-2  -2.506004457345389E-2  
 2.040000000000000E10    7.433603522182535E-3  -2.630706733687998E-2  
 2.040200000000000E10   -1.607147496403163E-3  -2.518323402908032E-2  
 2.040400000000000E10   -1.026354553829495E-2  -2.137907511913646E-2  
 2.040600000000000E10   -1.798249505695329E-2  -1.526965126804037E-2  
 2.040800000000000E10   -2.427215032555439E-2  -7.135948665128365E-3  
 2.041000000000000E10   -2.857815537637481E-2   2.676077096675751E-3  
 2.041200000000000E10   -3.050200812089346E-2   1.365186493659829E-2  
 2.041400000000000E10   -2.992588148767893E-2   2.518891153246451E-2  
 2.041600000000000E10   -2.682556894407270E-2   3.673440378430123E-2  
 2.041800000000000E10   -2.096599279883713E-2   4.774798595426995E-2  
 2.042000000000000E10   -1.249493372885942E-2   5.776008829188283E-2  
 2.042200000000000E10   -2.041260751771686E-3   6.610499883507506E-2  
 2.042400000000000E10    1.017165900590039E-2   7.239429520849339E-2  
 2.042600000000000E10    2.411173233207934E-2   7.628259473622093E-2  
 2.042800000000000E10    3.883383996447419E-2   7.733819883097021E-2  
 2.043000000000000E10    5.386977686721766E-2   7.550806092259325E-2  
 2.043200000000000E10    6.870854846284878E-2   7.075186133057657E-2  
 2.043400000000000E10    8.292557554643996E-2   6.278669569431837E-2  
 2.043600000000000E10    9.572393418543952E-2   5.208793782791320E-2  
 2.043800000000000E10    1.062357184695609E-1   3.903360352615107E-2  
 2.044000000000000E10    1.144077524604130E-1   2.373667179884080E-2  
 2.044200000000000E10    1.195762570032694E-1   6.766329122137469E-3  
 2.044400000000000E10    1.214297032405320E-1  -1.104083934489674E-2  
 2.044600000000000E10    1.198915872717754E-1  -2.899188493392514E-2  
 2.044800000000000E10    1.151354748791465E-1  -4.682289753288072E-2  
 2.045000000000000E10    1.070676230210990E-1  -6.375748079540963E-2  
 2.045200000000000E10    9.603351016307893E-2  -7.903179532461208E-2  
 2.045400000000000E10    8.208832378781547E-2  -9.226359074375759E-2  
 2.045600000000000E10    6.573903287757082E-2  -1.027854924257564E-1  
 2.045800000000000E10    4.757794144528885E-2  -1.101665401368802E-1  
 2.046000000000000E10    2.832727119919368E-2  -1.141519579826886E-1  
 2.046200000000000E10    8.395332691677438E-3  -1.146566738030875E-1  
 2.046400000000000E10   -1.148416585096034E-2  -1.115096143775189E-1  
 2.046600000000000E10   -3.060427478250163E-2  -1.046899185300037E-1  
 2.046800000000000E10   -4.797198787454225E-2  -9.445956185848464E-2  
 2.047000000000000E10   -6.322082838322074E-2  -8.106833549193396E-2  
 2.047200000000000E10   -7.561087793324384E-2  -6.513833395615529E-2  
 2.047400000000000E10   -8.489067891334148E-2  -4.750172499010267E-2  
 2.047600000000000E10   -9.093203960786306E-2  -2.850248544529306E-2  
 2.047800000000000E10   -9.353422078167298E-2  -8.638634724575716E-3  
 2.048000000000000E10   -9.243023624472495E-2   1.135843927206776E-2  
 2.048200000000000E10   -8.764229134358825E-2   3.068717171033061E-2  
 2.048400000000000E10   -7.901899363278363E-2   4.860935576863087E-2  
 2.048600000000000E10   -6.723266524174579E-2   6.429770188240032E-2  
 2.048800000000000E10   -5.300290042480815E-2   7.718565292523559E-2  
 2.049000000000000E10   -3.697117795178920E-2   8.700310678025824E-2  
 2.049200000000000E10   -1.961140404870563E-2   9.353521614449178E-2  
 2.049400000000000E10   -1.629125806586038E-3   9.659331862205342E-2  
 2.049600000000000E10    1.610796008672980E-2   9.608604676193663E-2  
 2.049800000000000E10    3.300097508583377E-2   9.215145679740096E-2  
 2.050000000000000E10    4.855908989517942E-2   8.488894996983198E-2  
 2.050200000000000E10    6.193040331266055E-2   7.496627593931675E-2  
 2.050400000000000E10    7.243917648398174E-2   6.308745268849844E-2  
 2.050600000000000E10    8.010633706801223E-2   4.980446953730166E-2  
 2.050800000000000E10    8.475293099512291E-2   3.575816156217428E-2  
 2.051000000000000E10    8.627333288657160E-2   2.177549127249152E-2  
 2.051200000000000E10    8.487799481599911E-2   8.475962567011558E-3  
 2.051400000000000E10    8.099727980557457E-2  -3.890483530905145E-3  
 2.051600000000000E10    7.488933534697415E-2  -1.499042651821720E-2  
 2.051800000000000E10    6.674891057205790E-2  -2.390773073145392E-2  
 2.052000000000000E10    5.730610913169074E-2  -3.045366928032479E-2  
 2.052200000000000E10    4.708885196059820E-2  -3.451024347453779E-2  
 2.052400000000000E10    3.670700925143004E-2  -3.596678817713703E-2  
 2.052600000000000E10    2.674893742562649E-2  -3.489285084036971E-2  
 2.052800000000000E10    1.772606745617789E-2  -3.157517313957214E-2  
 2.053000000000000E10    1.017632697349918E-2  -2.624844223904758E-2  
 2.053200000000000E10    4.467568493771414E-3  -1.970450484305007E-2  
 2.053400000000000E10    8.884392724569189E-4  -1.224474203280992E-2  
 2.053600000000000E10   -5.381235381587063E-4  -4.395966162580605E-3  
 2.053800000000000E10    1.791137544196430E-4   3.302857944095413E-3  
 2.054000000000000E10    2.852400878523522E-3   1.038913858162727E-2  
 2.054200000000000E10    7.251607269477944E-3   1.649284605268998E-2  
 2.054400000000000E10    1.314579323828425E-2   2.119070547792566E-2  
 2.054600000000000E10    2.022152277545183E-2   2.417164896352956E-2  
 2.054800000000000E10    2.775091972503561E-2   2.496638210600214E-2  
 2.055000000000000E10    3.534589400732142E-2   2.377170501647336E-2  
 2.055200000000000E10    4.265602207927875E-2   2.050500594600729E-2  
 2.055400000000000E10    4.903098467650565E-2   1.540819520772076E-2  
 2.055600000000000E10    5.417300852217466E-2   8.855548846971026E-3  
