#  HZ   S   RI   R     50.00 
! Rohde & Schwarz ZVA40 4Ports - Version 3.90 - 1145.1110k42 SN: 100403
! Date: 2023-09-30 05:11:29
! Measurement: S22 
! 
 2.000000000000000E10    2.323154190162776E-2  -1.573433493867442E-1  
 2.000200000000000E10   -3.177501586797070E-4  -1.557776628440942E-1  
 2.000400000000000E10   -2.393864124603784E-2  -1.499749522504602E-1  
 2.000600000000000E10   -4.576205243844119E-2  -1.396894748240100E-1  
 2.000800000000000E10   -6.517978568204093E-2  -1.255117165408217E-1  
 2.001000000000000E10   -8.151420606125640E-2  -1.079923348385968E-1  
 2.001200000000000E10   -9.422702776254974E-2  -8.762031048649860E-2  
 2.001400000000000E10   -1.026732557565497E-1  -6.506833157741110E-2  
 2.001600000000000E10   -1.063667942522315E-1  -4.160598944394726E-2  
 2.001800000000000E10   -1.051573398792877E-1  -1.779554470866709E-2  
 2.002000000000000E10   -9.908493250715950E-2   4.708636321855326E-3  
 2.002200000000000E10   -8.833678863041347E-2   2.653854449690737E-2  
 2.002400000000000E10   -7.399024139072077E-2   4.377046466420315E-2  
 2.002600000000000E10   -5.702765081506499E-2   5.717090229562815E-2  
 2.002800000000000E10   -3.762935570509843E-2   6.653063294235929E-2  
 2.003000000000000E10   -1.737776098239442E-2   7.134583014060841E-2  
 2.003200000000000E10    2.330620443136470E-3   7.185530484893099E-2  
 2.003400000000000E10    2.186122303192196E-2   6.807725973965187E-2  
 2.003600000000000E10    3.881711590156374E-2   6.064953133032337E-2  
 2.003800000000000E10    5.339644400630306E-2   5.010213718891012E-2  
 2.004000000000000E10    6.490947591793925E-2   3.724218947480851E-2  
 2.004200000000000E10    7.283471628810820E-2   2.304003774583785E-2  
 2.004400000000000E10    7.759712713842064E-2   7.733316248888343E-3  
 2.004600000000000E10    7.862285916686744E-2  -7.092134654460434E-3  
 2.004800000000000E10    7.648282633142453E-2  -2.155986816877303E-2  
 2.005000000000000E10    7.121669842271988E-2  -3.450143005299004E-2  
 2.005200000000000E10    6.341742079470124E-2  -4.548508816611651E-2  
 2.005400000000000E10    5.363502300019395E-2  -5.436234359669624E-2  
 2.005600000000000E10    4.235931509076226E-2  -5.994762032326995E-2  
 2.005800000000000E10    3.053435519243401E-2  -6.279838001557569E-2  
 2.006000000000000E10    1.872858540001926E-2  -6.265797133805010E-2  
 2.006200000000000E10    7.557333461115665E-3  -5.951171832285307E-2  
 2.006400000000000E10   -2.260390855686605E-3  -5.373166710621325E-2  
 2.006600000000000E10   -1.009055539734349E-2  -4.559961231933107E-2  
 2.006800000000000E10   -1.554105130426867E-2  -3.602127899518799E-2  
 2.007000000000000E10   -1.825055254267761E-2  -2.546498462508963E-2  
 2.007200000000000E10   -1.827291562490464E-2  -1.462127950347391E-2  
 2.007400000000000E10   -1.533278167802885E-2  -4.063031647203143E-3  
 2.007600000000000E10   -9.829418991257484E-3   5.483502040598763E-3  
 2.007800000000000E10   -1.916033626666388E-3   1.338560398678839E-2  
 2.008000000000000E10    7.837909881152551E-3   1.920805228205511E-2  
 2.008200000000000E10    1.892569220873700E-2   2.255489780727846E-2  
 2.008400000000000E10    3.068865248180636E-2   2.299849638142010E-2  
 2.008600000000000E10    4.227341996912870E-2   2.068505349555727E-2  
 2.008800000000000E10    5.336335326173937E-2   1.562215803086119E-2  
 2.009000000000000E10    6.327104783902136E-2   8.122333950443870E-3  
 2.009200000000000E10    7.160145395336456E-2  -1.725841838123042E-3  
 2.009400000000000E10    7.786225155469081E-2  -1.348055012345084E-2  
 2.009600000000000E10    8.156602586073672E-2  -2.643492471278910E-2  
 2.009800000000000E10    8.262074283711561E-2  -4.063881045774323E-2  
 2.010000000000000E10    8.034556107709595E-2  -5.513839478410643E-2  
 2.010200000000000E10    7.492752161696695E-2  -6.917639482416819E-2  
 2.010400000000000E10    6.659026740573382E-2  -8.215952565969142E-2  
 2.010600000000000E10    5.552505607678082E-2  -9.344991980569004E-2  
 2.010800000000000E10    4.209198042851048E-2  -1.025676595847042E-1  
 2.011000000000000E10    2.705767674087988E-2  -1.089091977872106E-1  
 2.011200000000000E10    1.071563869291163E-2  -1.125034681178173E-1  
 2.011400000000000E10   -6.325332626268123E-3  -1.129588444511356E-1  
 2.011600000000000E10   -2.373254602734381E-2  -1.100766254355315E-1  
 2.011800000000000E10   -4.076670716780083E-2  -1.038377023163998E-1  
 2.012000000000000E10   -5.650464622825741E-2  -9.436587479868504E-2  
 2.012200000000000E10   -7.052114220485695E-2  -8.179216348806340E-2  
 2.012400000000000E10   -8.210017627045216E-2  -6.662535521231647E-2  
 2.012600000000000E10   -9.087537718952984E-2  -4.932456662284010E-2  
 2.012800000000000E10   -9.623665422328345E-2  -3.008175794574032E-2  
 2.013000000000000E10   -9.783587579210439E-2  -1.013375226010221E-2  
 2.013200000000000E10   -9.555129332948932E-2   1.026222377338709E-2  
 2.013400000000000E10   -8.933790067272968E-2   2.994738429357417E-2  
 2.013600000000000E10   -7.951303569910664E-2   4.807840963908010E-2  
 2.013800000000000E10   -6.634364364640244E-2   6.406181393389852E-2  
 2.014000000000000E10   -5.059902369124356E-2   7.729672936798626E-2  
 2.014200000000000E10   -3.220946027119943E-2   8.757753186948003E-2  
 2.014400000000000E10   -1.220500469169911E-2   9.411066732889985E-2  
 2.014600000000000E10    8.707426360835331E-3   9.655840201530010E-2  
 2.014800000000000E10    3.001290577095829E-2   9.492492170899661E-2  
 2.015000000000000E10    5.015256460213823E-2   8.921689942107419E-2  
 2.015200000000000E10    6.901403037805733E-2   7.958111589846317E-2  
 2.015400000000000E10    8.539645031782717E-2   6.665040922855052E-2  
 2.015600000000000E10    9.896137521578605E-2   5.088610938444878E-2  
 2.015800000000000E10    1.094433105821497E-1   3.231178957391506E-2  
 2.016000000000000E10    1.156713491714425E-1   1.217704804033429E-2  
 2.016200000000000E10    1.177697709469100E-1  -8.816654025362905E-3  
 2.016400000000000E10    1.155751137375099E-1  -2.964262138456538E-2  
 2.016600000000000E10    1.091838768290982E-1  -4.963760670312918E-2  
 2.016800000000000E10    9.870796842978558E-2  -6.801302248223771E-2  
 2.017000000000000E10    8.465156580635624E-2  -8.359564037404277E-2  
 2.017200000000000E10    6.759291315326446E-2  -9.607155997687858E-2  
 2.017400000000000E10    4.824346464719889E-2  -1.047296094678951E-1  
 2.017600000000000E10    2.743316981338655E-2  -1.090444231738297E-1  
 2.017800000000000E10    6.113865274845306E-3  -1.088493938921144E-1  
 2.018000000000000E10   -1.445876148159387E-2  -1.039030196104769E-1  
 2.018200000000000E10   -3.357518161617450E-2  -9.469693057117551E-2  
 2.018400000000000E10   -5.036821595195294E-2  -8.159280875688743E-2  
 2.018600000000000E10   -6.399925459205261E-2  -6.517360942288822E-2  
 2.018800000000000E10   -7.378603001620321E-2  -4.608810357989829E-2  
 2.019000000000000E10   -7.907057892729318E-2  -2.520144739077204E-2  
 2.019200000000000E10   -7.948190776804130E-2  -3.748453911894486E-3  
 2.019400000000000E10   -7.514481384861503E-2   1.700840219285623E-2  
 2.019600000000000E10   -6.623635935877566E-2   3.608563028910760E-2  
 2.019800000000000E10   -5.363186709713399E-2   5.250844554302322E-2  
 2.020000000000000E10   -3.804704699229433E-2   6.572678757222308E-2  
 2.020200000000000E10   -2.017885064698163E-2   7.521706473483357E-2  
 2.020400000000000E10   -8.943137442873863E-4   8.051126435991833E-2  
 2.020600000000000E10    1.871169925490052E-2   8.137570095237592E-2  
 2.020800000000000E10    3.768182961619501E-2   7.802220660348447E-2  
 2.021000000000000E10    5.523464416757909E-2   7.065136393856084E-2  
 2.021200000000000E10    7.034831649516830E-2   6.003760646434206E-2  
 2.021400000000000E10    8.256196192304992E-2   4.688854315935406E-2  
 2.021600000000000E10    9.176653796682113E-2   3.150611112039700E-2  
 2.021800000000000E10    9.717899558695028E-2   1.491537805949860E-2  
 2.022000000000000E10    9.866272382919294E-2  -2.096929787831096E-3  
 2.022200000000000E10    9.645935703643012E-2  -1.857005065652524E-2  
 2.022400000000000E10    9.083503062174354E-2  -3.369900200373849E-2  
 2.022600000000000E10    8.225425575156586E-2  -4.699805076090913E-2  
 2.022800000000000E10    7.135914223752105E-2  -5.779285105873171E-2  
 2.023000000000000E10    5.873020345450467E-2  -6.559454866659471E-2  
 2.023200000000000E10    4.507254159529114E-2  -7.038317828869328E-2  
 2.023400000000000E10    3.094990730837540E-2  -7.193618194718543E-2  
 2.023600000000000E10    1.708234401868032E-2  -7.023355653654760E-2  
 2.023800000000000E10    4.285595197981390E-3  -6.533333487017201E-2  
 2.024000000000000E10   -6.677867736394288E-3  -5.765898342033819E-2  
 2.024200000000000E10   -1.517902020214913E-2  -4.794613189545977E-2  
 2.024400000000000E10   -2.077613058513950E-2  -3.707591090594549E-2  
 2.024600000000000E10   -2.363150127827122E-2  -2.551647329077739E-2  
 2.024800000000000E10   -2.366710513796496E-2  -1.388551843116651E-2  
 2.025000000000000E10   -2.105602042987335E-2  -2.740600304034111E-3  
 2.025200000000000E10   -1.590542927965797E-2   7.395829898946136E-3  
 2.025400000000000E10   -8.435530811693969E-3   1.583613300259667E-2  
 2.025600000000000E10    6.902851497682821E-4   2.199109934246914E-2  
 2.025800000000000E10    1.085934467152460E-2   2.573320276398173E-2  
 2.026000000000000E10    2.164183503831329E-2   2.678796739485402E-2  
 2.026200000000000E10    3.258753692962070E-2   2.526198989133831E-2  
 2.026400000000000E10    4.302817006036015E-2   2.099946049695813E-2  
 2.026600000000000E10    5.210200942110612E-2   1.419855328293314E-2  
 2.026800000000000E10    5.944358946874104E-2   5.176242471221247E-3  
 2.027000000000000E10    6.440958431308447E-2  -5.484851253262150E-3  
 2.027200000000000E10    6.664896046404299E-2  -1.717299402255217E-2  
 2.027400000000000E10    6.606111233871426E-2  -2.947690229892644E-2  
 2.027600000000000E10    6.253212148868076E-2  -4.172876252546875E-2  
 2.027800000000000E10    5.622141885964428E-2  -5.307465485112943E-2  
 2.028000000000000E10    4.737017024559220E-2  -6.306475749587479E-2  
 2.028200000000000E10    3.633430843806326E-2  -7.108259073031396E-2  
 2.028400000000000E10    2.345645569264132E-2  -7.689036326309243E-2  
 2.028600000000000E10    9.026363584420346E-3  -7.992785146305403E-2  
 2.028800000000000E10   -6.293689879407422E-3  -7.979760004361461E-2  
 2.029000000000000E10   -2.176531180972198E-2  -7.638107302732987E-2  
 2.029200000000000E10   -3.693751715926513E-2  -6.984719407052425E-2  
 2.029400000000000E10   -5.091455092470331E-2  -5.986256715982831E-2  
 2.029600000000000E10   -6.277293378151949E-2  -4.682014876337748E-2  
 2.029800000000000E10   -7.196482713910338E-2  -3.120480686341373E-2  
 2.030000000000000E10   -7.795840364795739E-2  -1.359339043764335E-2  
 2.030200000000000E10   -8.034227922068969E-2   5.402481856977873E-3  
 2.030400000000000E10   -7.894200420266687E-2   2.485708499830083E-2  
 2.030600000000000E10   -7.357700627371167E-2   4.405100764536867E-2  
 2.030800000000000E10   -6.444194809458567E-2   6.211155700845908E-2  
 2.031000000000000E10   -5.209400226741384E-2   7.813416338856312E-2  
 2.031200000000000E10   -3.673702930258535E-2   9.185867780982399E-2  
 2.031400000000000E10   -1.880902663817319E-2   1.028302511487896E-1  
 2.031600000000000E10    8.879155002168686E-4   1.105072070690079E-1  
 2.031800000000000E10    2.217230918609363E-2   1.143291847132022E-1  
 2.032000000000000E10    4.403643680914615E-2   1.140509723545011E-1  
 2.032200000000000E10    6.580417597424977E-2   1.097098903758239E-1  
 2.032400000000000E10    8.667995257276906E-2   1.013296622850513E-1  
 2.032600000000000E10    1.059330559633693E-1   8.906820384086298E-2  
 2.032800000000000E10    1.229069844718775E-1   7.323653576543091E-2  
 2.033000000000000E10    1.367091031723595E-1   5.436692758845781E-2  
 2.033200000000000E10    1.468518926526742E-1   3.307399368013442E-2  
 2.033400000000000E10    1.530003328129376E-1   1.003806221960873E-2  
 2.033600000000000E10    1.549344992736658E-1  -1.453712851466602E-2  
 2.033800000000000E10    1.519087481346096E-1  -3.839526866078953E-2  
 2.034000000000000E10    1.445033076533771E-1  -6.146545922843107E-2  
 2.034200000000000E10    1.329364664771236E-1  -8.298651521428055E-2  
 2.034400000000000E10    1.173335845974296E-1  -1.018399707933258E-1  
 2.034600000000000E10    9.832293748657243E-2  -1.174637802576974E-1  
 2.034800000000000E10    7.671602606328229E-2  -1.291187305412405E-1  
 2.035000000000000E10    5.350215253228309E-2  -1.363012622075674E-1  
 2.035200000000000E10    2.937473772130656E-2  -1.389238267042273E-1  
 2.035400000000000E10    5.446043694516289E-3  -1.367976876534153E-1  
 2.035600000000000E10   -1.759571093833678E-2  -1.299988747465231E-1  
 2.035800000000000E10   -3.863773647770918E-2  -1.188775628433446E-1  
 2.036000000000000E10   -5.669612365471562E-2  -1.040964803555230E-1  
 2.036200000000000E10   -7.122924107599629E-2  -8.633802486938935E-2  
 2.036400000000000E10   -8.170012582661461E-2  -6.637032102956791E-2  
 2.036600000000000E10   -8.761539048464302E-2  -4.521317258745967E-2  
 2.036800000000000E10   -8.906271293405801E-2  -2.403340971126024E-2  
 2.037000000000000E10   -8.638583946037554E-2  -3.575599656551464E-3  
 2.037200000000000E10   -7.989898119947930E-2   1.552730073412989E-2  
 2.037400000000000E10   -6.977738084371199E-2   3.231235594560460E-2  
 2.037600000000000E10   -5.679176243958282E-2   4.605547485915026E-2  
 2.037800000000000E10   -4.198066892132360E-2   5.622632599758018E-2  
 2.038000000000000E10   -2.599212335446199E-2   6.274935788166619E-2  
 2.038200000000000E10   -9.528390997302037E-3   6.558786776167214E-2  
 2.038400000000000E10    6.424184584548119E-3   6.475612201201253E-2  
 2.038600000000000E10    2.111061190495400E-2   6.047510151437966E-2  
 2.038800000000000E10    3.395488817568979E-2   5.337084077916780E-2  
 2.039000000000000E10    4.421407576291347E-2   4.376373570676422E-2  
 2.039200000000000E10    5.133056822773017E-2   3.243287424572763E-2  
 2.039400000000000E10    5.522110679214372E-2   2.026588919208719E-2  
 2.039600000000000E10    5.581935976456350E-2   8.012737602075718E-3  
 2.039800000000000E10    5.332514076387078E-2  -3.445685406911557E-3  
 2.040000000000000E10    4.810059771641256E-2  -1.353566418684611E-2  
 2.040200000000000E10    4.051166072886044E-2  -2.168965062700651E-2  
 2.040400000000000E10    3.117213937545861E-2  -2.709791886161779E-2  
 2.040600000000000E10    2.082454109803749E-2  -2.970916480543286E-2  
 2.040800000000000E10    1.015243209942571E-2  -2.937423637876747E-2  
 2.041000000000000E10    2.163955921716525E-5  -2.613898970565997E-2  
 2.041200000000000E10   -9.019349639576572E-3  -2.032909294821162E-2  
 2.041400000000000E10   -1.637867068425097E-2  -1.225373378197723E-2  
 2.041600000000000E10   -2.154455337723960E-2  -2.327861984203176E-3  
 2.041800000000000E10   -2.416880285499004E-2   8.844566839696363E-3  
 2.042000000000000E10   -2.394783857689183E-2   2.074649281429214E-2  
 2.042200000000000E10   -2.089316286598983E-2   3.267625195216929E-2  
 2.042400000000000E10   -1.502926262618982E-2   4.405107821996472E-2  
 2.042600000000000E10   -6.383166470586337E-3   5.417408129581803E-2  
 2.042800000000000E10    4.614287700473972E-3   6.231859981141574E-2  
 2.043000000000000E10    1.757598637250198E-2   6.810564997204315E-2  
 2.043200000000000E10    3.202183156530288E-2   7.118577063946696E-2  
 2.043400000000000E10    4.729734493808183E-2   7.107334620336483E-2  
 2.043600000000000E10    6.281147895577975E-2   6.769096451811825E-2  
 2.043800000000000E10    7.773989103785596E-2   6.100833843287243E-2  
 2.044000000000000E10    9.132234708344569E-2   5.114060905626931E-2  
 2.044200000000000E10    1.027980070773715E-1   3.845903271094654E-2  
 2.044400000000000E10    1.118364659300460E-1   2.326433629521278E-2  
 2.044600000000000E10    1.178157886431838E-1   6.321315375971343E-3  
 2.044800000000000E10    1.205456009743987E-1  -1.175995354826861E-2  
 2.045000000000000E10    1.198259720566772E-1  -3.066997064654829E-2  
 2.045200000000000E10    1.155205291264796E-1  -4.958065685337319E-2  
 2.045400000000000E10    1.073907394044854E-1  -6.767351948539035E-2  
 2.045600000000000E10    9.564794153913835E-2  -8.410121066054697E-2  
 2.045800000000000E10    8.078229927676897E-2  -9.831460667872029E-2  
 2.046000000000000E10    6.324200527447726E-2  -1.096394729702531E-1  
 2.046200000000000E10    4.355241721459553E-2  -1.176015229003614E-1  
 2.046400000000000E10    2.226888523369185E-2  -1.219353952126605E-1  
 2.046600000000000E10    2.037092341168403E-4  -1.221421122197419E-1  
 2.046800000000000E10   -2.163347829537730E-2  -1.181560248573343E-1  
 2.047000000000000E10   -4.251573503551909E-2  -1.099126407506505E-1  
 2.047200000000000E10   -6.161709567313817E-2  -9.779838485853258E-2  
 2.047400000000000E10   -7.819506090306803E-2  -8.244835670411160E-2  
 2.047600000000000E10   -9.198010225468449E-2  -6.420552446171685E-2  
 2.047800000000000E10   -1.023953831784671E-1  -4.335327352509899E-2  
 2.048000000000000E10   -1.087382871227791E-1  -2.066421672833943E-2  
 2.048200000000000E10   -1.105906552947562E-1   3.064909622719796E-3  
 2.048400000000000E10   -1.075635691928208E-1   2.671843500975286E-2  
 2.048600000000000E10   -9.986724645832065E-2   4.931267152241302E-2  
 2.048800000000000E10   -8.813622046565039E-2   6.973895542155145E-2  
 2.049000000000000E10   -7.289819881681117E-2   8.751525132159954E-2  
 2.049200000000000E10   -5.443924070101096E-2   1.020399240665893E-1  
 2.049400000000000E10   -3.375531692079235E-2   1.126362138484053E-1  
 2.049600000000000E10   -1.156459134970125E-2   1.189093933433790E-1  
 2.049800000000000E10    1.127260027450749E-2   1.205848927957822E-1  
 2.050000000000000E10    3.385373391409761E-2   1.174107968863243E-1  
 2.050200000000000E10    5.480033772869948E-2   1.098766743971015E-1  
 2.050400000000000E10    7.335505998539488E-2   9.855821173329038E-2  
 2.050600000000000E10    8.901490758522881E-2   8.397833253106277E-2  
 2.050800000000000E10    1.010183485430479E-1   6.698968989126072E-2  
 2.051000000000000E10    1.089664799361545E-1   4.845909133492184E-2  
 2.051200000000000E10    1.129025950496416E-1   2.918240101773771E-2  
 2.051400000000000E10    1.127754063135645E-1   9.858193166028956E-3  
 2.051600000000000E10    1.086815440422490E-1  -8.750730417719923E-3  
 2.051800000000000E10    1.008482774155494E-1  -2.542573746981003E-2  
 2.052000000000000E10    8.988275847182506E-2  -3.959472742444016E-2  
 2.052200000000000E10    7.649898804432373E-2  -5.060469504438789E-2  
 2.052400000000000E10    6.150293715783829E-2  -5.800337936029484E-2  
 2.052600000000000E10    4.576415438224878E-2  -6.169584558577654E-2  
 2.052800000000000E10    3.000687360472083E-2  -6.168396884569526E-2  
 2.053000000000000E10    1.519544931444788E-2  -5.798510092677356E-2  
 2.053200000000000E10    2.181740176904613E-3  -5.124655251457902E-2  
 2.053400000000000E10   -8.346832969948415E-3  -4.196738262454930E-2  
 2.053600000000000E10   -1.596054677195555E-2  -3.077595139674944E-2  
 2.053800000000000E10   -2.041249961623912E-2  -1.849268111932849E-2  
 2.054000000000000E10   -2.162839616712020E-2  -5.907355992656549E-3  
 2.054200000000000E10   -1.967362550087321E-2   6.305042524014703E-3  
 2.054400000000000E10   -1.471326265995866E-2   1.738970544504719E-2  
 2.054600000000000E10   -7.218794502629815E-3   2.657157792493771E-2  
 2.054800000000000E10    2.141861835310247E-3   3.316410648107669E-2  
 2.055000000000000E10    1.275303990048356E-2   3.705189140886486E-2  
 2.055200000000000E10    2.389140489011487E-2   3.802102755505168E-2  
 2.055400000000000E10    3.479897776966941E-2   3.616629634435777E-2  
 2.055600000000000E10    4.504323887723870E-2   3.160686480038590E-2  
