#  HZ   S   RI   R     50.00 
! Rohde & Schwarz ZVA40 4Ports - Version 3.90 - 1145.1110k42 SN: 100403
! Date: 2023-09-30 08:15:57
! Measurement: S12 
! 
 2.000000000000000E10   -8.918683565079921E-2   4.790361598134042E-2  
 2.000200000000000E10   -8.048862191262070E-2   6.177708859183662E-2  
 2.000400000000000E10   -6.887683315286912E-2   7.453366086929425E-2  
 2.000600000000000E10   -5.508704026662764E-2   8.524324168516287E-2  
 2.000800000000000E10   -3.979144892329542E-2   9.329726675778260E-2  
 2.001000000000000E10   -2.306489253976218E-2   9.871071203010073E-2  
 2.001200000000000E10   -5.935219175914312E-3   1.010937603964727E-1  
 2.001400000000000E10    1.152035242153539E-2   1.005388254552712E-1  
 2.001600000000000E10    2.850134266011509E-2   9.691525814832486E-2  
 2.001800000000000E10    4.451311431794501E-2   9.045445416199328E-2  
 2.002000000000000E10    5.928961834544509E-2   8.125470912873500E-2  
 2.002200000000000E10    7.304733537842709E-2   6.887525635859604E-2  
 2.002400000000000E10    8.334046838337503E-2   5.559455670814947E-2  
 2.002600000000000E10    9.128982543086811E-2   4.065524339062687E-2  
 2.002800000000000E10    9.666476714512939E-2   2.459052019587761E-2  
 2.003000000000000E10    9.926007280256526E-2   8.051048922103374E-3  
 2.003200000000000E10    9.909618906523468E-2  -8.692454431711894E-3  
 2.003400000000000E10    9.610058180221316E-2  -2.523952485694562E-2  
 2.003600000000000E10    9.043325787341154E-2  -4.103242628920226E-2  
 2.003800000000000E10    8.219698834934353E-2  -5.565788690384034E-2  
 2.004000000000000E10    7.169961027893021E-2  -6.874480429622863E-2  
 2.004200000000000E10    5.903595408478393E-2  -7.999786900149453E-2  
 2.004400000000000E10    4.460432144349495E-2  -8.890407468065804E-2  
 2.004600000000000E10    2.865003199611672E-2  -9.518353276169350E-2  
 2.004800000000000E10    1.190086047513863E-2  -9.854674195188555E-2  
 2.005000000000000E10   -4.826372772945790E-3  -9.896647712453406E-2  
 2.005200000000000E10   -2.168489630054300E-2  -9.660227385200103E-2  
 2.005400000000000E10   -3.763423720566334E-2  -9.144109705225431E-2  
 2.005600000000000E10   -5.261632239009128E-2  -8.363276143623480E-2  
 2.005800000000000E10   -6.581249968014628E-2  -7.356153281382574E-2  
 2.006000000000000E10   -7.754274022309379E-2  -6.097177428350528E-2  
 2.006200000000000E10   -8.657229409664258E-2  -4.703933975578827E-2  
 2.006400000000000E10   -9.319224067553572E-2  -3.167272735494400E-2  
 2.006600000000000E10   -9.711682474539606E-2  -1.542441195850510E-2  
 2.006800000000000E10   -9.834084123250392E-2   1.323287003748349E-3  
 2.007000000000000E10   -9.658713077689396E-2   1.811869339749156E-2  
 2.007200000000000E10   -9.201112297582040E-2   3.425661946643038E-2  
 2.007400000000000E10   -8.472023668235222E-2   4.939957993266024E-2  
 2.007600000000000E10   -7.495074001727281E-2   6.300670625986876E-2  
 2.007800000000000E10   -6.288534816768435E-2   7.480711045333879E-2  
 2.008000000000000E10   -4.916071822797812E-2   8.429182097009180E-2  
 2.008200000000000E10   -3.416177423463928E-2   9.115972277926812E-2  
 2.008400000000000E10   -1.813247273273674E-2   9.550567740888755E-2  
 2.008600000000000E10   -1.585037535302717E-3   9.701418983960841E-2  
 2.008800000000000E10    1.486034838505734E-2   9.564850718518836E-2  
 2.009000000000000E10    3.066701139994119E-2   9.159097958494117E-2  
 2.009200000000000E10    4.562112811661552E-2   8.495917309213569E-2  
 2.009400000000000E10    5.939191766849762E-2   7.586190202599201E-2  
 2.009600000000000E10    7.116393281967062E-2   6.474703685246379E-2  
 2.009800000000000E10    8.115027578156672E-2   5.158822955908600E-2  
 2.010000000000000E10    8.855728887849385E-2   3.718534912224170E-2  
 2.010200000000000E10    9.353521518378592E-2   2.152193575300307E-2  
 2.010400000000000E10    9.576750509900814E-2   5.258546287477508E-3  
 2.010600000000000E10    9.517450719581222E-2  -1.114595122635365E-2  
 2.010800000000000E10    9.174628715210983E-2  -2.711744604195342E-2  
 2.011000000000000E10    8.560608453098149E-2  -4.222944473901404E-2  
 2.011200000000000E10    7.691015999135659E-2  -5.612634649737873E-2  
 2.011400000000000E10    6.616116943673343E-2  -6.820058644799049E-2  
 2.011600000000000E10    5.368753019796969E-2  -7.813814999880615E-2  
 2.011800000000000E10    3.938855468429656E-2  -8.611585543234163E-2  
 2.012000000000000E10    2.439290683701206E-2  -9.137836264239418E-2  
 2.012200000000000E10    8.493013982756885E-3  -9.409230386401403E-2  
 2.012400000000000E10   -7.487205002809504E-3  -9.414234806480723E-2  
 2.012600000000000E10   -2.347567547955876E-2  -9.149997111087965E-2  
 2.012800000000000E10   -3.875206564188985E-2  -8.601804286118889E-2  
 2.013000000000000E10   -5.277222985164130E-2  -7.803121475893775E-2  
 2.013200000000000E10   -6.527191385197542E-2  -6.765535513682622E-2  
 2.013400000000000E10   -7.568635714888083E-2  -5.543259939048517E-2  
 2.013600000000000E10   -8.385734983677728E-2  -4.142173094513976E-2  
 2.013800000000000E10   -8.940034479270748E-2  -2.646806082638449E-2  
 2.014000000000000E10   -9.227765069454297E-2  -1.082602531147102E-2  
 2.014200000000000E10   -9.251560473147735E-2   4.885044358977320E-3  
 2.014400000000000E10   -9.018433719505500E-2   2.038446865945196E-2  
 2.014600000000000E10   -8.523415127163563E-2   3.530493728172632E-2  
 2.014800000000000E10   -7.781495754856142E-2   4.908068617614210E-2  
 2.015000000000000E10   -6.823020250586326E-2   6.141855037261430E-2  
 2.015200000000000E10   -5.665859546313071E-2   7.198466553732202E-2  
 2.015400000000000E10   -4.381634728837407E-2   8.024637370443150E-2  
 2.015600000000000E10   -2.942907740457804E-2   8.645407484514725E-2  
 2.015800000000000E10   -1.428966346453615E-2   9.006629458057539E-2  
 2.016000000000000E10    1.147266208585122E-3   9.107177768960412E-2  
 2.016200000000000E10    1.655314408181381E-2   8.945062992626748E-2  
 2.016400000000000E10    3.151424506625521E-2   8.516094876537599E-2  
 2.016600000000000E10    4.546071185803218E-2   7.831032807199063E-2  
 2.016800000000000E10    5.791722754698722E-2   6.923652857296753E-2  
 2.017000000000000E10    6.850436642582035E-2   5.832738955141095E-2  
 2.017200000000000E10    7.722132928945401E-2   4.576587270746016E-2  
 2.017400000000000E10    8.358881929161127E-2   3.220836086191023E-2  
 2.017600000000000E10    8.780788332837111E-2   1.737479402572530E-2  
 2.017800000000000E10    8.940021794887237E-2   2.439865867373507E-3  
 2.018000000000000E10    8.846065883405907E-2  -1.267264801012391E-2  
 2.018200000000000E10    8.497039121364862E-2  -2.744210877076344E-2  
 2.018400000000000E10    7.902061160454535E-2  -4.149251701041995E-2  
 2.018600000000000E10    7.068548970874937E-2  -5.425288989649389E-2  
 2.018800000000000E10    6.028428454519300E-2  -6.543305635820201E-2  
 2.019000000000000E10    4.819980656168589E-2  -7.449933696430898E-2  
 2.019200000000000E10    3.474780164444398E-2  -8.147464842830668E-2  
 2.019400000000000E10    2.047429856204202E-2  -8.598245079380006E-2  
 2.019600000000000E10    5.511374906502635E-3  -8.812415584492586E-2  
 2.019800000000000E10   -9.616210420497161E-3  -8.758347916872905E-2  
 2.020000000000000E10   -2.404665419594251E-2  -8.458687487698388E-2  
 2.020200000000000E10   -3.792375214244603E-2  -7.917670292373549E-2  
 2.020400000000000E10   -5.073137909419253E-2  -7.152833305145978E-2  
 2.020600000000000E10   -6.209925028644963E-2  -6.184363262459576E-2  
 2.020800000000000E10   -7.164284970166754E-2  -5.035651217640184E-2  
 2.021000000000000E10   -7.910470928184291E-2  -3.743826784960037E-2  
 2.021200000000000E10   -8.427376735480235E-2  -2.328463999454868E-2  
 2.021400000000000E10   -8.681932450444611E-2  -8.597841754617025E-3  
 2.021600000000000E10   -8.685727984694297E-2   6.361996007646308E-3  
 2.021800000000000E10   -8.435361255956778E-2   2.110994760514287E-2  
 2.022000000000000E10   -7.937556949785218E-2   3.504976863233151E-2  
 2.022200000000000E10   -7.196576108412489E-2   4.805481599436867E-2  
 2.022400000000000E10   -6.249629528311546E-2   5.941647844611374E-2  
 2.022600000000000E10   -5.136572376445489E-2   6.890759503645172E-2  
 2.022800000000000E10   -3.872764415640400E-2   7.642043397259812E-2  
 2.023000000000000E10   -2.520241855869814E-2   8.166267097364238E-2  
 2.023200000000000E10   -1.104635276942832E-2   8.455113674142234E-2  
 2.023400000000000E10    3.534527836605110E-3   8.500813251292265E-2  
 2.023600000000000E10    1.789467490504308E-2   8.301700991980825E-2  
 2.023800000000000E10    3.177674200554444E-2   7.851373959225393E-2  
 2.024000000000000E10    4.437259828418862E-2   7.183363944782643E-2  
 2.024200000000000E10    5.587704041244564E-2   6.302287825095802E-2  
 2.024400000000000E10    6.562454507919988E-2   5.233243719479185E-2  
 2.024600000000000E10    7.323652128746482E-2   4.026028021802137E-2  
 2.024800000000000E10    7.863212711035961E-2   2.712739663727490E-2  
 2.025000000000000E10    8.175205794994725E-2   1.332701610041008E-2  
 2.025200000000000E10    8.252539473428650E-2  -4.571478760230195E-4  
 2.025400000000000E10    8.094139801867216E-2  -1.436600926880238E-2  
 2.025600000000000E10    7.704588755535982E-2  -2.768633878740019E-2  
 2.025800000000000E10    7.111657812516878E-2  -3.999156825275088E-2  
 2.026000000000000E10    6.332551493259615E-2  -5.115629597701164E-2  
 2.026200000000000E10    5.377804983115982E-2  -6.098876340092456E-2  
 2.026400000000000E10    4.262151667242679E-2  -6.912733163730599E-2  
 2.026600000000000E10    3.035561694407169E-2  -7.518752921878558E-2  
 2.026800000000000E10    1.710868707317629E-2  -7.915486088750785E-2  
 2.027000000000000E10    3.303810348542630E-3  -8.073900676803825E-2  
 2.027200000000000E10   -1.026758478394875E-2  -7.990694830937642E-2  
 2.027400000000000E10   -2.370804097549415E-2  -7.681296318156239E-2  
 2.027600000000000E10   -3.634452634326225E-2  -7.141119119071177E-2  
 2.027800000000000E10   -4.772717099437498E-2  -6.395272420021733E-2  
 2.028000000000000E10   -5.767362823886146E-2  -5.471390228212616E-2  
 2.028200000000000E10   -6.586850462136445E-2  -4.400170612850307E-2  
 2.028400000000000E10   -7.215052098035812E-2  -3.215083121149628E-2  
 2.028600000000000E10   -7.633819296158882E-2  -1.939222655055945E-2  
 2.028800000000000E10   -7.823425537519496E-2  -6.048831168884114E-3  
 2.029000000000000E10   -7.774750900611957E-2   7.444293004433805E-3  
 2.029200000000000E10   -7.500931390641649E-2   2.026803532439005E-2  
 2.029400000000000E10   -7.019979249180100E-2   3.247594741391548E-2  
 2.029600000000000E10   -6.327448684124301E-2   4.371653322452381E-2  
 2.029800000000000E10   -5.466390364331965E-2   5.345146108127426E-2  
 2.030000000000000E10   -4.475949828823408E-2   6.140764560473801E-2  
 2.030200000000000E10   -3.368347013990085E-2   6.769253233823268E-2  
 2.030400000000000E10   -2.196071501591324E-2   7.199586667273762E-2  
 2.030600000000000E10   -9.635075658498480E-3   7.433552114070689E-2  
 2.030800000000000E10    2.859695520397628E-3   7.466645204603920E-2  
 2.031000000000000E10    1.518607673085766E-2   7.290398354025045E-2  
 2.031200000000000E10    2.706190696131791E-2   6.911930772993301E-2  
 2.031400000000000E10    3.819286498267956E-2   6.342242658138275E-2  
 2.031600000000000E10    4.776500771013799E-2   5.617500768031604E-2  
 2.031800000000000E10    5.624361529394433E-2   4.737491223485873E-2  
 2.032000000000000E10    6.324453989174142E-2   3.710404138076944E-2  
 2.032200000000000E10    6.837092070177260E-2   2.583803791445469E-2  
 2.032400000000000E10    7.140672988729713E-2   1.391339363767900E-2  
 2.032600000000000E10    7.232626453961857E-2   1.781564233192232E-3  
 2.032800000000000E10    7.124288922842639E-2  -1.029059164410020E-2  
 2.033000000000000E10    6.825353585398247E-2  -2.178058621508104E-2  
 2.033200000000000E10    6.338369573462649E-2  -3.268917446089871E-2  
 2.033400000000000E10    5.689778113009509E-2  -4.258417925287668E-2  
 2.033600000000000E10    5.353521307309470E-2  -4.649681892292000E-2  
 2.033800000000000E10    3.934470919792545E-2  -5.864286320015728E-2  
 2.034000000000000E10    2.896414837443535E-2  -6.413207313528768E-2  
 2.034200000000000E10    1.783957849774096E-2  -6.776660052223953E-2  
 2.034400000000000E10    6.215728505096810E-3  -6.949198276663024E-2  
 2.034600000000000E10   -5.295836019862459E-3  -6.920044056672620E-2  
 2.034800000000000E10   -1.658856850347402E-2  -6.705964218687130E-2  
 2.035000000000000E10   -2.724434800997929E-2  -6.308626975296948E-2  
 2.035200000000000E10   -3.698780286459276E-2  -5.751516404772492E-2  
 2.035400000000000E10   -4.575453148273284E-2  -5.054339427700260E-2  
 2.035600000000000E10   -5.328699086367349E-2  -4.225441471600729E-2  
 2.035800000000000E10   -5.930460641474881E-2  -3.284010380015943E-2  
 2.036000000000000E10   -6.371461278126565E-2  -2.245993824070128E-2  
 2.036200000000000E10   -6.624161957958599E-2  -1.168172263038257E-2  
 2.036400000000000E10   -6.701692825359573E-2  -7.544072875336701E-4  
 2.036600000000000E10   -6.605588991210296E-2   1.010904923740606E-2  
 2.036800000000000E10   -6.337703362781816E-2   2.062492445877796E-2  
 2.037000000000000E10   -5.901586831597144E-2   3.062266997471759E-2  
 2.037200000000000E10   -5.318730808947804E-2   3.978097658037159E-2  
 2.037400000000000E10   -4.594223400570238E-2   4.785445824633411E-2  
 2.037600000000000E10   -3.749584135265999E-2   5.467862666511732E-2  
 2.037800000000000E10   -2.798486970855621E-2   6.000367746738251E-2  
 2.038000000000000E10   -1.776997732772749E-2   6.370021798360497E-2  
 2.038200000000000E10   -6.999906323037644E-3   6.565509972626291E-2  
 2.038400000000000E10    3.797519344591187E-3   6.580756187684253E-2  
 2.038600000000000E10    1.448563266346239E-2   6.415739030013851E-2  
 2.038800000000000E10    2.478141688699585E-2   6.079996854005528E-2  
 2.039000000000000E10    3.426255583149906E-2   5.591246841375722E-2  
 2.039200000000000E10    4.288476173585826E-2   4.941201113440373E-2  
 2.039400000000000E10    5.028871494372197E-2   4.162291610621131E-2  
 2.039600000000000E10    5.621490871280801E-2   3.299811483962546E-2  
 2.039800000000000E10    6.085675531699335E-2   2.335180319201800E-2  
 2.040000000000000E10    6.376995716565923E-2   1.315672074371773E-2  
 2.040200000000000E10    6.499708079016259E-2   2.659894419650053E-3  
 2.040400000000000E10    6.447083552065211E-2  -7.988052818264983E-3  
 2.040600000000000E10    6.229352773217017E-2  -1.832422443930014E-2  
 2.040800000000000E10    5.846945662434701E-2  -2.816162141108955E-2  
 2.041000000000000E10    5.305625995000205E-2  -3.745026357563926E-2  
 2.041200000000000E10    4.627732909571979E-2  -4.551292209284297E-2  
 2.041400000000000E10    3.827720271891037E-2  -5.233978981405130E-2  
 2.041600000000000E10    2.931873641386935E-2  -5.781879734416558E-2  
 2.041800000000000E10    1.958232680373967E-2  -6.187701944277121E-2  
 2.042000000000000E10    9.357094389114362E-3  -6.427171878486014E-2  
 2.042200000000000E10   -1.151367099744885E-3  -6.500840466086266E-2  
 2.042400000000000E10   -1.166114344840310E-2  -6.401216278596181E-2  
 2.042600000000000E10   -2.190078600259966E-2  -6.136944683061707E-2  
 2.042800000000000E10   -3.159483891639690E-2  -5.714755637164960E-2  
 2.043000000000000E10   -4.053417217645626E-2  -5.143587430747449E-2  
 2.043200000000000E10   -4.853223152305364E-2  -4.427850810588634E-2  
 2.043400000000000E10   -5.531868235871136E-2  -3.590270269800116E-2  
 2.043600000000000E10   -6.063530492929766E-2  -2.652451457310116E-2  
 2.043800000000000E10   -6.434756824018534E-2  -1.629583065401871E-2  
 2.044000000000000E10   -6.629473078275415E-2  -5.452287113179029E-3  
 2.044200000000000E10   -6.638405907423900E-2   5.535713335644807E-3  
 2.044400000000000E10   -6.465273657085474E-2   1.633290304139318E-2  
 2.044600000000000E10   -6.121286979795974E-2   2.662050072487000E-2  
 2.044800000000000E10   -5.613869722978569E-2   3.641550856117359E-2  
 2.045000000000000E10   -4.964504229985638E-2   4.517483114889620E-2  
 2.045200000000000E10   -4.183158847223585E-2   5.274846887698881E-2  
 2.045400000000000E10   -3.269054004807531E-2   5.911292105054661E-2  
 2.045600000000000E10   -2.274429657086424E-2   6.384894313145077E-2  
 2.045800000000000E10   -1.210081867429087E-2   6.692510518272229E-2  
 2.046000000000000E10   -9.184975283404379E-4   6.826653331518173E-2  
 2.046200000000000E10    1.030037113668497E-2   6.776287483335033E-2  
 2.046400000000000E10    2.133518625280740E-2   6.536736146167474E-2  
 2.046600000000000E10    3.198833719141199E-2   6.123445964889762E-2  
 2.046800000000000E10    4.172830446144191E-2   5.541473680746900E-2  
 2.047000000000000E10    5.056389490211453E-2   4.787673525236272E-2  
 2.047200000000000E10    5.797187131618767E-2   3.911418999725409E-2  
 2.047400000000000E10    6.384747064530605E-2   2.930045587014515E-2  
 2.047600000000000E10    6.814529522946833E-2   1.845059243371948E-2  
 2.047800000000000E10    7.061212436284550E-2   6.992652793817315E-3  
 2.048000000000000E10    7.115653982010399E-2  -4.763638071807816E-3  
 2.048200000000000E10    6.966284132052843E-2  -1.660951570350938E-2  
 2.048400000000000E10    6.623605675535438E-2  -2.814231177508341E-2  
 2.048600000000000E10    6.093008600083399E-2  -3.888795161504804E-2  
 2.048800000000000E10    5.382463976802160E-2  -4.870203581979737E-2  
 2.049000000000000E10    4.530346405849536E-2  -5.717638308190026E-2  
 2.049200000000000E10    3.524911553894052E-2  -6.426566820821646E-2  
 2.049400000000000E10    2.423141994839343E-2  -6.955655277879151E-2  
 2.049600000000000E10    1.236177038462687E-2  -7.286055061061689E-2  
 2.049800000000000E10    1.202917069967057E-4  -7.424973678073767E-2  
 2.050000000000000E10   -1.225861818472177E-2  -7.361249426387466E-2  
 2.050200000000000E10   -2.450770260804475E-2  -7.098150817455089E-2  
 2.050400000000000E10   -3.628081980126876E-2  -6.621576523707239E-2  
 2.050600000000000E10   -4.713438885140812E-2  -5.941999449160856E-2  
 2.050800000000000E10   -5.670114464046043E-2  -5.088922565366016E-2  
 2.051000000000000E10   -6.477367712391749E-2  -4.076774263516866E-2  
 2.051200000000000E10   -7.098201073614169E-2  -2.939822162988255E-2  
 2.051400000000000E10   -7.511264640730596E-2  -1.708570789591766E-2  
 2.051600000000000E10   -7.718341095457353E-2  -4.268234547748856E-3  
 2.051800000000000E10   -7.704912527721117E-2   8.729302259200397E-3  
 2.052000000000000E10   -7.472053789552839E-2   2.175356061370285E-2  
 2.052200000000000E10   -7.016353367410080E-2   3.412539933505373E-2  
 2.052400000000000E10   -6.367991634725054E-2   4.536433904259293E-2  
 2.052600000000000E10   -5.535269392186723E-2   5.554845211682497E-2  
 2.052800000000000E10   -4.546548508935505E-2   6.418353668701503E-2  
 2.053000000000000E10   -3.435864492698953E-2   7.108528415362041E-2  
 2.053200000000000E10   -2.202761657689335E-2   7.617667795699321E-2  
 2.053400000000000E10   -9.011138265055639E-3   7.914741159466560E-2  
 2.053600000000000E10    4.335148020459669E-3   7.985723549078523E-2  
 2.053800000000000E10    1.779799440055473E-2   7.835297458211092E-2  
 2.054000000000000E10    3.083522185499286E-2   7.461983118773490E-2  
 2.054200000000000E10    4.304518653348150E-2   6.878332882629011E-2  
 2.054400000000000E10    5.433292697670530E-2   6.082936620086800E-2  
 2.054600000000000E10    6.414283073120157E-2   5.107899824226345E-2  
 2.054800000000000E10    7.220504040458076E-2   3.978225513679501E-2  
 2.055000000000000E10    7.835295842385587E-2   2.704408156221787E-2  
 2.055200000000000E10    8.220375133026775E-2   1.350819552125632E-2  
 2.055400000000000E10    8.372295638661327E-2  -7.930643618904022E-4  
 2.055600000000000E10    8.273421506945489E-2  -1.514784286542194E-2  
