#  HZ   S   RI   R     50.00 
! Rohde & Schwarz ZVA40 4Ports - Version 3.90 - 1145.1110k42 SN: 100403
! Date: 2023-09-30 08:18:42
! Measurement: S12 
! 
 2.000000000000000E10   -1.002994221935384E-1   1.466255978424363E-2  
 2.000200000000000E10   -9.702805095494041E-2   3.066405991733647E-2  
 2.000400000000000E10   -9.061176841886938E-2   4.675161523236006E-2  
 2.000600000000000E10   -8.140639977118280E-2   6.171872092229513E-2  
 2.000800000000000E10   -6.978298499873636E-2   7.472392698987522E-2  
 2.001000000000000E10   -5.594012825475146E-2   8.569164689635381E-2  
 2.001200000000000E10   -4.050999747995487E-2   9.397973521869371E-2  
 2.001400000000000E10   -2.370932899078224E-2   9.962063894922681E-2  
 2.001600000000000E10   -6.271891955117631E-3   1.021650391637216E-1  
 2.001800000000000E10    1.119512371177209E-2   1.016488701759216E-1  
 2.002000000000000E10    2.848376974013771E-2   9.805135383936278E-2  
 2.002200000000000E10    4.594427249068586E-2   9.102317054126163E-2  
 2.002400000000000E10    6.043159417981801E-2   8.193686880447247E-2  
 2.002600000000000E10    7.329727161486618E-2   7.046437770414420E-2  
 2.002800000000000E10    8.395809590285044E-2   5.703548028227071E-2  
 2.003000000000000E10    9.222245851048719E-2   4.216668055749234E-2  
 2.003200000000000E10    9.786925335071053E-2   2.614909224467677E-2  
 2.003400000000000E10    1.008746916088384E-1   9.326460435271102E-3  
 2.003600000000000E10    1.010722991983587E-1  -7.610915367975730E-3  
 2.003800000000000E10    9.846831788660242E-2  -2.453053015219087E-2  
 2.004000000000000E10    9.312179374964641E-2  -4.078613715795661E-2  
 2.004200000000000E10    8.503907951634936E-2  -5.612757345674298E-2  
 2.004400000000000E10    7.438117485437211E-2  -6.992058946517271E-2  
 2.004600000000000E10    6.130970418657623E-2  -8.166989453126702E-2  
 2.004800000000000E10    4.640615297627057E-2  -9.087228660557334E-2  
 2.005000000000000E10    3.045535771321859E-2  -9.726189952778067E-2  
 2.005200000000000E10    1.339557968637049E-2  -1.010111859796469E-1  
 2.005400000000000E10   -3.785728288824646E-3  -1.018060597250001E-1  
 2.005600000000000E10   -2.097647066070955E-2  -9.972867043625018E-2  
 2.005800000000000E10   -3.730643809414042E-2  -9.484563966183343E-2  
 2.006000000000000E10   -5.314462600769003E-2  -8.700579725747575E-2  
 2.006200000000000E10   -6.689659425342362E-2  -7.688961098346202E-2  
 2.006400000000000E10   -7.894633706296260E-2  -6.451343071477078E-2  
 2.006600000000000E10   -8.874586673226051E-2  -5.032183856426117E-2  
 2.006800000000000E10   -9.612067664151985E-2  -3.462888277934249E-2  
 2.007000000000000E10   -1.006994763151609E-1  -1.770576717656500E-2  
 2.007200000000000E10   -1.023442542949495E-1  -3.135962998548802E-4  
 2.007400000000000E10   -1.009186156431344E-1   1.705777338758336E-2  
 2.007600000000000E10   -9.654686908622176E-2   3.395877061577819E-2  
 2.007800000000000E10   -8.923061413815647E-2   5.001381499020816E-2  
 2.008000000000000E10   -7.937105427226576E-2   6.447986066750214E-2  
 2.008200000000000E10   -6.731695695096739E-2   7.679321284729104E-2  
 2.008400000000000E10   -5.326910159551886E-2   8.704721513721679E-2  
 2.008600000000000E10   -3.766601916980025E-2   9.474900498761402E-2  
 2.008800000000000E10   -2.095204439724506E-2   9.961512799289166E-2  
 2.009000000000000E10   -3.889121467168399E-3   1.015924278784681E-1  
 2.009200000000000E10    1.320007100665561E-2   1.006919142313619E-1  
 2.009400000000000E10    3.002063169901673E-2   9.698230001579754E-2  
 2.009600000000000E10    4.585694807322265E-2   9.053479731900541E-2  
 2.009800000000000E10    6.065175901531193E-2   8.139796762513854E-2  
 2.010000000000000E10    7.338184808139449E-2   7.011447916387369E-2  
 2.010200000000000E10    8.415827623201824E-2   5.670604784813275E-2  
 2.010400000000000E10    9.255021725703333E-2   4.159829943902045E-2  
 2.010600000000000E10    9.826257369073496E-2   2.530550640664065E-2  
 2.010800000000000E10    1.010740916404378E-1   8.365256888140379E-3  
 2.011000000000000E10    1.009888902347438E-1  -8.796385111254022E-3  
 2.011200000000000E10    9.795094231355667E-2  -2.577006779560010E-2  
 2.011400000000000E10    9.220167129863929E-2  -4.191382566597236E-2  
 2.011600000000000E10    8.388219490667757E-2  -5.675820600553141E-2  
 2.011800000000000E10    7.301584199908995E-2  -7.034083808400504E-2  
 2.012000000000000E10    6.032275188259465E-2  -8.154641210378771E-2  
 2.012200000000000E10    4.558887461964323E-2  -9.073357727629006E-2  
 2.012400000000000E10    2.969166083039080E-2  -9.720139757350642E-2  
 2.012600000000000E10    1.273586809640273E-2  -1.009730551856863E-1  
 2.012800000000000E10   -4.559510539506853E-3  -1.017070126672504E-1  
 2.013000000000000E10   -2.181738744322492E-2  -9.949224403406531E-2  
 2.013200000000000E10   -3.851607162377635E-2  -9.431898495787949E-2  
 2.013400000000000E10   -5.399461466670855E-2  -8.639360741496252E-2  
 2.013600000000000E10   -6.802159856458098E-2  -7.577562131835929E-2  
 2.013800000000000E10   -7.983434424110893E-2  -6.304393051542211E-2  
 2.014000000000000E10   -8.919507793479170E-2  -4.855218681472320E-2  
 2.014200000000000E10   -9.607538816982830E-2  -3.274580973247770E-2  
 2.014400000000000E10   -1.002183795915546E-1  -1.608329769147276E-2  
 2.014600000000000E10   -1.015256044898177E-1   1.132395606972175E-3  
 2.014800000000000E10   -9.985533030639790E-2   1.813659000635883E-2  
 2.015000000000000E10   -9.529921567816141E-2   3.491777376832622E-2  
 2.015200000000000E10   -8.796006854015451E-2   5.062943038278974E-2  
 2.015400000000000E10   -7.828558539902723E-2   6.466308037848795E-2  
 2.015600000000000E10   -6.615493893214541E-2   7.716524363872283E-2  
 2.015800000000000E10   -5.202450739687364E-2   8.737669866762045E-2  
 2.016000000000000E10   -3.637151804398772E-2   9.500298874940730E-2  
 2.016200000000000E10   -1.955087598162833E-2   9.978350882504050E-2  
 2.016400000000000E10   -2.341756150024255E-3   1.015356219947257E-1  
 2.016600000000000E10    1.494444101353895E-2   1.003034514859217E-1  
 2.016800000000000E10    3.168177084463288E-2   9.616485450656981E-2  
 2.017000000000000E10    4.740548497180881E-2   8.929905418015313E-2  
 2.017200000000000E10    6.177831849464011E-2   7.996750987851573E-2  
 2.017400000000000E10    7.418499236980095E-2   6.852731582886235E-2  
 2.017600000000000E10    8.490980900977375E-2   5.477243398197394E-2  
 2.017800000000000E10    9.294804308272195E-2   3.976695692813119E-2  
 2.018000000000000E10    9.836991764962758E-2   2.347966980327059E-2  
 2.018200000000000E10    1.009531544498456E-1   6.444156898085965E-3  
 2.018400000000000E10    1.006104973833421E-1  -1.078348976287822E-2  
 2.018600000000000E10    9.723538611038235E-2  -2.768550720704600E-2  
 2.018800000000000E10    9.105460797481250E-2  -4.376348619066967E-2  
 2.019000000000000E10    8.229229467395893E-2  -5.851729403266529E-2  
 2.019200000000000E10    7.109165390945758E-2  -7.164697044507304E-2  
 2.019400000000000E10    5.802253363922301E-2  -8.247601318547429E-2  
 2.019600000000000E10    4.320889806939578E-2  -9.114252381404897E-2  
 2.019800000000000E10    2.715336768511065E-2  -9.705558234240622E-2  
 2.020000000000000E10    1.050405479604775E-2  -1.002530535511846E-1  
 2.020200000000000E10   -6.503590777393722E-3  -1.006302246095712E-1  
 2.020400000000000E10   -2.330998729132576E-2  -9.825386197928376E-2  
 2.020600000000000E10   -3.959354856377276E-2  -9.300026837199804E-2  
 2.020800000000000E10   -5.494156163006982E-2  -8.499588891966027E-2  
 2.021000000000000E10   -6.858265973290299E-2  -7.458488238446508E-2  
 2.021200000000000E10   -8.041651605210679E-2  -6.185720262049975E-2  
 2.021400000000000E10   -8.974935259511606E-2  -4.744112713387638E-2  
 2.021600000000000E10   -9.668041680861568E-2  -3.144314462020074E-2  
 2.021800000000000E10   -1.006922930560812E-1  -1.460504182199188E-2  
 2.022000000000000E10   -1.017898135858145E-1   2.790776166978033E-3  
 2.022200000000000E10   -9.983438321878556E-2   2.019187804204201E-2  
 2.022400000000000E10   -9.498259791049121E-2   3.689401616203115E-2  
 2.022600000000000E10   -8.736994963737182E-2   5.241976060044783E-2  
 2.022800000000000E10   -7.713387792084281E-2   6.663418518295014E-2  
 2.023000000000000E10   -6.474642565956823E-2   7.876079725753134E-2  
 2.023200000000000E10   -5.038433317069492E-2   8.873372928677600E-2  
 2.023400000000000E10   -3.453877992897368E-2   9.603605651397604E-2  
 2.023600000000000E10   -1.772399815961985E-2   1.005420424912856E-1  
 2.023800000000000E10   -2.865880017294138E-4   1.020650823686185E-1  
 2.024000000000000E10    1.710226913640692E-2   1.006564721056300E-1  
 2.024200000000000E10    3.410241645039028E-2   9.625760574195286E-2  
 2.024400000000000E10    5.004469276149087E-2   8.897256255354248E-2  
 2.024600000000000E10    6.434016118774036E-2   7.908539920636493E-2  
 2.024800000000000E10    7.687094457069379E-2   6.674126843284352E-2  
 2.025000000000000E10    8.692792978837821E-2   5.265164274124452E-2  
 2.025200000000000E10    9.447288766646420E-2   3.726098611848672E-2  
 2.025400000000000E10    9.936121858360020E-2   2.069748076514452E-2  
 2.025600000000000E10    1.013295745939548E-1   3.562184077507430E-3  
 2.025800000000000E10    1.004218127583607E-1  -1.340848690381757E-2  
 2.026000000000000E10    9.676029700760326E-2  -3.017729948516246E-2  
 2.026200000000000E10    9.040804049932745E-2  -4.617641407827782E-2  
 2.026400000000000E10    8.135890340322659E-2  -6.093043355662148E-2  
 2.026600000000000E10    6.997725216286010E-2  -7.384519541664217E-2  
 2.026800000000000E10    5.631731078028680E-2  -8.491774232462765E-2  
 2.027000000000000E10    4.106298448781091E-2  -9.333263904837424E-2  
 2.027200000000000E10    2.458766980712470E-2  -9.897165969320779E-2  
 2.027400000000000E10    7.270362205159519E-3  -1.017650777093341E-1  
 2.027600000000000E10   -1.019871083378220E-2  -1.015004999066904E-1  
 2.027800000000000E10   -2.730711349969621E-2  -9.819525383177774E-2  
 2.028000000000000E10   -4.369627145746281E-2  -9.201187487124417E-2  
 2.028200000000000E10   -5.862959867805775E-2  -8.329153287803195E-2  
 2.028400000000000E10   -7.204890378913109E-2  -7.208908924677082E-2  
 2.028600000000000E10   -8.332918841897707E-2  -5.875676472266352E-2  
 2.028800000000000E10   -9.214103736995180E-2  -4.358692365520940E-2  
 2.029000000000000E10   -9.812860755027568E-2  -2.719179014528404E-2  
 2.029200000000000E10   -1.012165826248371E-1  -1.006471197055691E-2  
 2.029400000000000E10   -1.013297644560066E-1   7.323120372556407E-3  
 2.029600000000000E10   -9.851185930445690E-2   2.438168922651289E-2  
 2.029800000000000E10   -9.286147565548968E-2   4.053549882949462E-2  
 2.030000000000000E10   -8.465647394928587E-2   5.565363270919184E-2  
 2.030200000000000E10   -7.412533849396007E-2   6.909464338515850E-2  
 2.030400000000000E10   -6.148845569546168E-2   8.066078868218085E-2  
 2.030600000000000E10   -4.692478413056118E-2   9.005003373441384E-2  
 2.030800000000000E10   -3.104861913598942E-2   9.686035594413639E-2  
 2.031000000000000E10   -1.431847187666164E-2   1.008211615174723E-1  
 2.031200000000000E10    3.085286639482601E-3   1.019626453580189E-1  
 2.031400000000000E10    2.052570749406380E-2   1.000116567532385E-1  
 2.031600000000000E10    3.689355526850221E-2   9.524120336247735E-2  
 2.031800000000000E10    5.250246892842900E-2   8.778264183443761E-2  
 2.032000000000000E10    6.693340271752232E-2   7.750844983039079E-2  
 2.032200000000000E10    7.919681793786536E-2   6.498342086094726E-2  
 2.032400000000000E10    8.915737088365974E-2   5.049095047313328E-2  
 2.032600000000000E10    9.641145788061604E-2   3.441607495782634E-2  
 2.032800000000000E10    1.008311820373614E-1   1.739110211766388E-2  
 2.033000000000000E10    1.022232874348985E-1   1.529812010922786E-4  
 2.033200000000000E10    1.007723636076938E-1  -1.748140517044787E-2  
 2.033400000000000E10    9.635078487981660E-2  -3.424557216148645E-2  
 2.033600000000000E10    9.351787293030893E-2  -4.161943526445430E-2  
 2.033800000000000E10    7.896329886669649E-2  -6.502288980575584E-2  
 2.034000000000000E10    6.661559557554982E-2  -7.754591997554437E-2  
 2.034200000000000E10    5.238182945445243E-2  -8.764641255712641E-2  
 2.034400000000000E10    3.666839380180068E-2  -9.522120321402008E-2  
 2.034600000000000E10    1.998527436191408E-2  -9.992570691679406E-2  
 2.034800000000000E10    2.555923133677150E-3  -1.017518107803598E-1  
 2.035000000000000E10   -1.462245839347728E-2  -1.005305255289268E-1  
 2.035200000000000E10   -3.139944090437661E-2  -9.649925408131141E-2  
 2.035400000000000E10   -4.729754641263738E-2  -8.972820428050596E-2  
 2.035600000000000E10   -6.168650092227471E-2  -8.045431340959011E-2  
 2.035800000000000E10   -7.434755458467129E-2  -6.879817509438604E-2  
 2.036000000000000E10   -8.493232127120630E-2  -5.508308358418926E-2  
 2.036200000000000E10   -9.293437167613759E-2  -3.990436225250589E-2  
 2.036400000000000E10   -9.827501815328547E-2  -2.360243297377487E-2  
 2.036600000000000E10   -1.008084976153937E-1  -6.828986243721717E-3  
 2.036800000000000E10   -1.005342160702897E-1   1.012213545147488E-2  
 2.037000000000000E10   -9.735508494089336E-2   2.716710529608246E-2  
 2.037200000000000E10   -9.161610529337730E-2   4.310577951974667E-2  
 2.037400000000000E10   -8.312692659790788E-2   5.803993849188539E-2  
 2.037600000000000E10   -7.207687717283706E-2   7.143213326016899E-2  
 2.037800000000000E10   -5.884171756615529E-2   8.286090463972223E-2  
 2.038000000000000E10   -4.410000144924320E-2   9.166006741863875E-2  
 2.038200000000000E10   -2.778271664143509E-2   9.793288390495815E-2  
 2.038400000000000E10   -1.071715324386362E-2   1.012669207096427E-1  
 2.038600000000000E10    6.761694535873677E-3   1.016357872630016E-1  
 2.038800000000000E10    2.398887374508611E-2   9.900854250980833E-2  
 2.039000000000000E10    4.055605494559057E-2   9.351747810063868E-2  
 2.039200000000000E10    5.595272197420052E-2   8.509171687689993E-2  
 2.039400000000000E10    6.954483018449634E-2   7.423158406966018E-2  
 2.039600000000000E10    8.099554776532170E-2   6.142908116018168E-2  
 2.039800000000000E10    9.030732519628254E-2   4.676234972534193E-2  
 2.040000000000000E10    9.691357946812863E-2   3.082621645626954E-2  
 2.040200000000000E10    1.007547500876733E-1   1.383214149578118E-2  
 2.040400000000000E10    1.015024903257197E-1  -3.545839907678128E-3  
 2.040600000000000E10    9.939912838455092E-2  -2.063406395006654E-2  
 2.040800000000000E10    9.441645372919587E-2  -3.737448121131039E-2  
 2.041000000000000E10    8.663580922310246E-2  -5.288659349410951E-2  
 2.041200000000000E10    7.635998539882107E-2  -6.676232816832875E-2  
 2.041400000000000E10    6.374068719696444E-2  -7.870281088090567E-2  
 2.041600000000000E10    4.952271859607417E-2  -8.838223328683603E-2  
 2.041800000000000E10    3.385084336534123E-2  -9.549899605730108E-2  
 2.042000000000000E10    1.717884074360010E-2  -9.983506960224553E-2  
 2.042200000000000E10    2.523037750786231E-5  -1.012059708518093E-1  
 2.042400000000000E10   -1.714543538329042E-2  -9.967868953984135E-2  
 2.042600000000000E10   -3.378849673316149E-2  -9.529947541623451E-2  
 2.042800000000000E10   -4.946085827524771E-2  -8.821581666893104E-2  
 2.043000000000000E10   -6.374565879871817E-2  -7.855485385828059E-2  
 2.043200000000000E10   -7.615643174519102E-2  -6.663585385749699E-2  
 2.043400000000000E10   -8.652331038226153E-2  -5.267866070807717E-2  
 2.043600000000000E10   -9.423965823789358E-2  -3.728791925192534E-2  
 2.043800000000000E10   -9.921945675451244E-2  -2.070887255212816E-2  
 2.044000000000000E10   -1.012696420520912E-1  -3.323857011069099E-3  
 2.044200000000000E10   -1.002141072712481E-1   1.398288875317459E-2  
 2.044400000000000E10   -9.622103050453348E-2   3.075327582412051E-2  
 2.044600000000000E10   -8.945640408534900E-2   4.666261916113980E-2  
 2.044800000000000E10   -8.015654496695279E-2   6.107761849877930E-2  
 2.045000000000000E10   -6.864582256647786E-2   7.373636809723205E-2  
 2.045200000000000E10   -5.501674963940646E-2   8.434913947217587E-2  
 2.045400000000000E10   -3.984543235540718E-2   9.244642224781145E-2  
 2.045600000000000E10   -2.365106012830601E-2   9.772595684510366E-2  
 2.045800000000000E10   -6.610913584149343E-3   1.002093703270122E-1  
 2.046000000000000E10    1.048104385289636E-2   9.973089819050950E-2  
 2.046200000000000E10    2.705880935688405E-2   9.638093644944730E-2  
 2.046400000000000E10    4.308558821637281E-2   9.030240052603238E-2  
 2.046600000000000E10    5.772933848866547E-2   8.161499247016241E-2  
 2.046800000000000E10    7.069062895367667E-2   7.065606197988711E-2  
 2.047000000000000E10    8.169789932187857E-2   5.741785899499644E-2  
 2.047200000000000E10    9.015048997392380E-2   4.286583466008204E-2  
 2.047400000000000E10    9.603273274762805E-2   2.700760711204205E-2  
 2.047600000000000E10    9.920441552444742E-2   1.026754996091618E-2  
 2.047800000000000E10    9.946132185568701E-2  -6.629514338676047E-3  
 2.048000000000000E10    9.681615949862618E-2  -2.350523647058894E-2  
 2.048200000000000E10    9.128456157012568E-2  -3.970449033547168E-2  
 2.048400000000000E10    8.311751452166032E-2  -5.449151522154181E-2  
 2.048600000000000E10    7.256967721529950E-2  -6.773934075902684E-2  
 2.048800000000000E10    5.989350490936365E-2  -7.900739818893179E-2  
 2.049000000000000E10    4.573550910289069E-2  -8.792493068223466E-2  
 2.049200000000000E10    3.004967616756022E-2  -9.435737700251395E-2  
 2.049400000000000E10    1.368343654064403E-2  -9.808288795671676E-2  
 2.049600000000000E10   -3.175527857685531E-3  -9.893295857723196E-2  
 2.049800000000000E10   -1.983415351258221E-2  -9.686889489205613E-2  
 2.050000000000000E10   -3.601441309571431E-2  -9.210455221403774E-2  
 2.050200000000000E10   -5.121078994252883E-2  -8.460139645715802E-2  
 2.050400000000000E10   -6.490969905228609E-2  -7.459069405195645E-2  
 2.050600000000000E10   -7.661048439427169E-2  -6.236124798062735E-2  
 2.050800000000000E10   -8.608770936686644E-2  -4.829983434682031E-2  
 2.051000000000000E10   -9.298867453272942E-2  -3.287181683365047E-2  
 2.051200000000000E10   -9.707711657460663E-2  -1.655465923760736E-2  
 2.051400000000000E10   -9.829389962108376E-2   2.960181753620614E-4  
 2.051600000000000E10   -9.661354904353048E-2   1.695162450335154E-2  
 2.051800000000000E10   -9.221617458452087E-2   3.315678500507759E-2  
 2.052000000000000E10   -8.503450796682649E-2   4.827520549195131E-2  
 2.052200000000000E10   -7.542990948315020E-2   6.189391059885301E-2  
 2.052400000000000E10   -6.382364970829917E-2   7.357565937014438E-2  
 2.052600000000000E10   -5.036191096010687E-2   8.318374253840113E-2  
 2.052800000000000E10   -3.561940570508829E-2   9.034585166819631E-2  
 2.053000000000000E10   -1.987998861824616E-2   9.503224825254031E-2  
 2.053200000000000E10   -3.484955188129686E-3   9.705963066494189E-2  
 2.053400000000000E10    1.289332449303324E-2   9.623062850802688E-2  
 2.053600000000000E10    2.909737719613829E-2   9.266478746148295E-2  
 2.053800000000000E10    4.437761073127206E-2   8.636990431772830E-2  
 2.054000000000000E10    5.845618631757174E-2   7.758516044610159E-2  
 2.054200000000000E10    7.083544158600323E-2   6.660622771221261E-2  
 2.054400000000000E10    8.113660616353052E-2   5.367543528416030E-2  
 2.054600000000000E10    8.924129112676013E-2   3.901328517453662E-2  
 2.054800000000000E10    9.470595642208891E-2   2.328093167501713E-2  
 2.055000000000000E10    9.735450128141911E-2   6.778351719196074E-3  
 2.055200000000000E10    9.716160226465093E-2  -1.010310769449046E-2  
 2.055400000000000E10    9.401028601271300E-2  -2.680450382505752E-2  
 2.055600000000000E10    8.801884175532476E-2  -4.250643034408123E-2  
