#  HZ   S   RI   R     50.00 
! Rohde & Schwarz ZVA40 4Ports - Version 3.90 - 1145.1110k42 SN: 100403
! Date: 2023-09-30 07:30:42
! Measurement: S12 
! 
 2.000000000000000E10   -2.909832597920134E-2   8.381639163965182E-2  
 2.000200000000000E10   -1.536416120662349E-2   8.805151761747054E-2  
 2.000400000000000E10   -9.447579360748431E-5   8.965234349316678E-2  
 2.000600000000000E10    1.548783095371919E-2   8.836613164795723E-2  
 2.000800000000000E10    3.023866846995090E-2   8.438956916600245E-2  
 2.001000000000000E10    4.427516867677741E-2   7.789471161231965E-2  
 2.001200000000000E10    5.670697587656127E-2   6.927633058480942E-2  
 2.001400000000000E10    6.762112137731763E-2   5.873202776642997E-2  
 2.001600000000000E10    7.669953824335718E-2   4.649185988245224E-2  
 2.001800000000000E10    8.357464390698170E-2   3.293415105538793E-2  
 2.002000000000000E10    8.806813525419524E-2   1.812163091910577E-2  
 2.002200000000000E10    8.997179505962283E-2   1.733639691226018E-3  
 2.002400000000000E10    8.906186470837696E-2  -1.346338046699996E-2  
 2.002600000000000E10    8.558356403995626E-2  -2.842043332380066E-2  
 2.002800000000000E10    7.944862802087527E-2  -4.272487223423159E-2  
 2.003000000000000E10    7.096075273564584E-2  -5.558077398933078E-2  
 2.003200000000000E10    6.043873618740665E-2  -6.664762256113137E-2  
 2.003400000000000E10    4.804020758065480E-2  -7.581122403943866E-2  
 2.003600000000000E10    3.459553278141171E-2  -8.255516417388516E-2  
 2.003800000000000E10    2.042433485765014E-2  -8.700796663314477E-2  
 2.004000000000000E10    5.815258039415083E-3  -8.926288427165484E-2  
 2.004200000000000E10   -9.243352502811197E-3  -8.923769352328020E-2  
 2.004400000000000E10   -2.427283402013566E-2  -8.669375664912389E-2  
 2.004600000000000E10   -3.864555446565324E-2  -8.149955694113287E-2  
 2.004800000000000E10   -5.221701622170532E-2  -7.375829159851599E-2  
 2.005000000000000E10   -6.393162152670642E-2  -6.397492056695002E-2  
 2.005200000000000E10   -7.406758397109008E-2  -5.217125518511984E-2  
 2.005400000000000E10   -8.191342945620159E-2  -3.898356685732213E-2  
 2.005600000000000E10   -8.752095496002535E-2  -2.446662403699154E-2  
 2.005800000000000E10   -9.049372499774508E-2  -9.236488347834387E-3  
 2.006000000000000E10   -9.078817476448851E-2   6.602528612789688E-3  
 2.006200000000000E10   -8.827625262672471E-2   2.202417046296892E-2  
 2.006400000000000E10   -8.312365265918664E-2   3.655557460113525E-2  
 2.006600000000000E10   -7.545294523464741E-2   5.019879132196568E-2  
 2.006800000000000E10   -6.583711464547207E-2   6.211006867748110E-2  
 2.007000000000000E10   -5.441943835538075E-2   7.222220448497255E-2  
 2.007200000000000E10   -4.164151854914167E-2   8.025529400715650E-2  
 2.007400000000000E10   -2.756716920447012E-2   8.625318655827567E-2  
 2.007600000000000E10   -1.255870487638243E-2   8.988094252916952E-2  
 2.007800000000000E10    2.921150850825952E-3   9.089841076297284E-2  
 2.008000000000000E10    1.837627818163609E-2   8.921138563145167E-2  
 2.008200000000000E10    3.346729866533099E-2   8.470463538310069E-2  
 2.008400000000000E10    4.730810952258203E-2   7.774164935784304E-2  
 2.008600000000000E10    5.995378262815101E-2   6.841991025533752E-2  
 2.008800000000000E10    7.053680805536644E-2   5.725502423264145E-2  
 2.009000000000000E10    7.912535176096740E-2   4.426701412438402E-2  
 2.009200000000000E10    8.521705002284588E-2   3.031628685722093E-2  
 2.009400000000000E10    8.899886502635400E-2   1.549681693183778E-2  
 2.009600000000000E10    9.031484331207924E-2   6.806466464768135E-4  
 2.009800000000000E10    8.939667712280630E-2  -1.441355527020010E-2  
 2.010000000000000E10    8.596275660669224E-2  -2.950821387631825E-2  
 2.010200000000000E10    8.009437157184390E-2  -4.369549933403257E-2  
 2.010400000000000E10    7.163860483794099E-2  -5.701534978328837E-2  
 2.010600000000000E10    6.084959902619164E-2  -6.867951628096869E-2  
 2.010800000000000E10    4.808753657097535E-2  -7.830708303772169E-2  
 2.011000000000000E10    3.388098393946997E-2  -8.545883189426329E-2  
 2.011200000000000E10    1.867289114163376E-2  -8.991320991341387E-2  
 2.011400000000000E10    2.832605310189628E-3  -9.166792722851658E-2  
 2.011600000000000E10   -1.286335326820159E-2  -9.064973867993975E-2  
 2.011800000000000E10   -2.824205700509651E-2  -8.689707809620950E-2  
 2.012000000000000E10   -4.258557465808462E-2  -8.068047275992241E-2  
 2.012200000000000E10   -5.547043173897318E-2  -7.221694029604574E-2  
 2.012400000000000E10   -6.697069106858504E-2  -6.148114645767430E-2  
 2.012600000000000E10   -7.617420026968998E-2  -4.922280640908236E-2  
 2.012800000000000E10   -8.333084488180920E-2  -3.553826181033590E-2  
 2.013000000000000E10   -8.807903270889686E-2  -2.112539273925228E-2  
 2.013200000000000E10   -9.039856262797658E-2  -5.832934366267622E-3  
 2.013400000000000E10   -9.000964321490197E-2   9.691491865955198E-3  
 2.013600000000000E10   -8.698375852940282E-2   2.491856542582139E-2  
 2.013800000000000E10   -8.141311007226647E-2   3.927575995418737E-2  
 2.014000000000000E10   -7.345152962071828E-2   5.260709452200142E-2  
 2.014200000000000E10   -6.350473029378020E-2   6.418495018438120E-2  
 2.014400000000000E10   -5.142571634191819E-2   7.405315853569414E-2  
 2.014600000000000E10   -3.814902831224210E-2   8.149420338271324E-2  
 2.014800000000000E10   -2.384135422679563E-2   8.656737254281928E-2  
 2.015000000000000E10   -9.130627158292062E-3   8.927832711197489E-2  
 2.015200000000000E10    6.090143255836234E-3   8.959682763602467E-2  
 2.015400000000000E10    2.122068442900143E-2   8.736184374560116E-2  
 2.015600000000000E10    3.551278976175727E-2   8.270128269202948E-2  
 2.015800000000000E10    4.927659857877537E-2   7.552776217191121E-2  
 2.016000000000000E10    6.154122915430653E-2   6.605951685685729E-2  
 2.016200000000000E10    7.194673766578921E-2   5.464791184154880E-2  
 2.016400000000000E10    8.020131768911332E-2   4.161481985556688E-2  
 2.016600000000000E10    8.613982890203452E-2   2.742711635339504E-2  
 2.016800000000000E10    8.956925352099515E-2   1.229154852405399E-2  
 2.017000000000000E10    9.036519603004775E-2  -3.166327538063483E-3  
 2.017200000000000E10    8.840518837235104E-2  -1.840506940680746E-2  
 2.017400000000000E10    8.391409939809744E-2  -3.319245309844369E-2  
 2.017600000000000E10    7.719442061426945E-2  -4.680730351046511E-2  
 2.017800000000000E10    6.815875701366667E-2  -5.941362528104199E-2  
 2.018000000000000E10    5.711511644909843E-2  -7.017794872153335E-2  
 2.018200000000000E10    4.442295166363605E-2  -7.889048461695608E-2  
 2.018400000000000E10    3.030617865200787E-2  -8.532423840719577E-2  
 2.018600000000000E10    1.543080258452268E-2  -8.930437672117320E-2  
 2.018800000000000E10   -4.694248099485312E-6  -9.073049747207414E-2  
 2.019000000000000E10   -1.565622487898684E-2  -8.938452992604370E-2  
 2.019200000000000E10   -3.059284186714344E-2  -8.535777602666692E-2  
 2.019400000000000E10   -4.482004662722718E-2  -7.867577948709188E-2  
 2.019600000000000E10   -5.728596217428011E-2  -7.002857633501705E-2  
 2.019800000000000E10   -6.850488531941087E-2  -5.905006043334739E-2  
 2.020000000000000E10   -7.738237754468154E-2  -4.655446034519677E-2  
 2.020200000000000E10   -8.393193016369363E-2  -3.296738065753091E-2  
 2.020400000000000E10   -8.824175417420221E-2  -1.839518390394536E-2  
 2.020600000000000E10   -9.019624307749385E-2  -3.283897818740955E-3  
 2.020800000000000E10   -8.966642683361967E-2   1.191743087971333E-2  
 2.021000000000000E10   -8.654264581992013E-2   2.712308714355643E-2  
 2.021200000000000E10   -8.080898511172348E-2   4.156964258274030E-2  
 2.021400000000000E10   -7.241352018049710E-2   5.496663636034119E-2  
 2.021600000000000E10   -6.190343096289053E-2   6.654058196612421E-2  
 2.021800000000000E10   -4.951555712681044E-2   7.602929763345648E-2  
 2.022000000000000E10   -3.561344843974615E-2   8.324003133943447E-2  
 2.022200000000000E10   -2.105506931355933E-2   8.783129385433044E-2  
 2.022400000000000E10   -5.882299514613720E-3   8.994544225952669E-2  
 2.022600000000000E10    9.373319746742558E-3   8.940233592639905E-2  
 2.022800000000000E10    2.408202607885873E-2   8.649279339918367E-2  
 2.023000000000000E10    3.818614351954129E-2   8.121502187657768E-2  
 2.023200000000000E10    5.121059789523080E-2   7.376655276541316E-2  
 2.023400000000000E10    6.290290521008574E-2   6.416290233565899E-2  
 2.023600000000000E10    7.293827700963479E-2   5.287208262156625E-2  
 2.023800000000000E10    8.106140053141127E-2   4.001475392565376E-2  
 2.024000000000000E10    8.698226775123671E-2   2.561496898114776E-2  
 2.024200000000000E10    9.025054946462296E-2   1.039590901474084E-2  
 2.024400000000000E10    9.073228077760578E-2  -5.291088224415015E-3  
 2.024600000000000E10    8.832902411211012E-2  -2.085547513903242E-2  
 2.024800000000000E10    8.330989572818714E-2  -3.541513388218547E-2  
 2.025000000000000E10    7.590348638038851E-2  -4.883893842189582E-2  
 2.025200000000000E10    6.653629099305845E-2  -6.077790418426385E-2  
 2.025400000000000E10    5.557905773145394E-2  -7.083893685576055E-2  
 2.025600000000000E10    4.295223511924669E-2  -7.927567491394255E-2  
 2.025800000000000E10    2.935740586430985E-2  -8.558419831704667E-2  
 2.026000000000000E10    1.457272649334846E-2  -8.971942954478163E-2  
 2.026200000000000E10   -8.757248239403213E-4  -9.121291313127539E-2  
 2.026400000000000E10   -1.649650871503485E-2  -9.005635352786805E-2  
 2.026600000000000E10   -3.192528591687219E-2  -8.608186731184729E-2  
 2.026800000000000E10   -4.644922565180331E-2  -7.935282288778123E-2  
 2.027000000000000E10   -5.923067426638973E-2  -7.024173981018538E-2  
 2.027200000000000E10   -7.050616886618721E-2  -5.889629613208208E-2  
 2.027400000000000E10   -7.946868641998010E-2  -4.596055055555064E-2  
 2.027600000000000E10   -8.611651596834716E-2  -3.168016021065019E-2  
 2.027800000000000E10   -9.016798768497814E-2  -1.641468410065296E-2  
 2.028000000000000E10   -9.157075071808152E-2  -8.771689718762175E-4  
 2.028200000000000E10   -9.036691043767627E-2   1.463699842640555E-2  
 2.028400000000000E10   -8.655692387364876E-2   2.993558418606241E-2  
 2.028600000000000E10   -8.019097128855846E-2   4.416028249151265E-2  
 2.028800000000000E10   -7.140024947313398E-2   5.730555660449951E-2  
 2.029000000000000E10   -6.061243781196220E-2   6.853864885768604E-2  
 2.029200000000000E10   -4.808219574985755E-2   7.787278061881697E-2  
 2.029400000000000E10   -3.401018595203258E-2   8.493487472216640E-2  
 2.029600000000000E10   -1.902171515075211E-2   8.947346730790161E-2  
 2.029800000000000E10   -3.362134101100391E-3   9.139523396224673E-2  
 2.030000000000000E10    1.238981388273261E-2   9.059190788656293E-2  
 2.030200000000000E10    2.754676999240435E-2   8.697190623640901E-2  
 2.030400000000000E10    4.197329061794486E-2   8.073550309872887E-2  
 2.030600000000000E10    5.487964231005525E-2   7.229916496521356E-2  
 2.030800000000000E10    6.616396077633245E-2   6.195833947772039E-2  
 2.031000000000000E10    7.562035898120764E-2   4.975074248817378E-2  
 2.031200000000000E10    8.285637890580030E-2   3.621432462615654E-2  
 2.031400000000000E10    8.762822238533369E-2   2.176375173496739E-2  
 2.031600000000000E10    9.000822837830125E-2   7.108855483931324E-3  
 2.031800000000000E10    9.001623282210650E-2  -8.076465189839633E-3  
 2.032000000000000E10    8.738883896834701E-2  -2.344075385957120E-2  
 2.032200000000000E10    8.222564592028589E-2  -3.785858281789131E-2  
 2.032400000000000E10    7.456606416692158E-2  -5.142273418334681E-2  
 2.032600000000000E10    6.449103640591246E-2  -6.342849234384124E-2  
 2.032800000000000E10    5.262237532364399E-2  -7.330998234548858E-2  
 2.033000000000000E10    3.932737880734896E-2  -8.092565690757045E-2  
 2.033200000000000E10    2.477252958960855E-2  -8.631422030564181E-2  
 2.033400000000000E10    1.007032485596746E-2  -8.901530220822240E-2  
 2.033600000000000E10    3.295251315629285E-3  -8.944606386011152E-2  
 2.033800000000000E10   -2.035696292014522E-2  -8.700978345474396E-2  
 2.034000000000000E10   -3.463808946269458E-2  -8.238308486035520E-2  
 2.034200000000000E10   -4.806540432341010E-2  -7.536264502868320E-2  
 2.034400000000000E10   -6.016630270576893E-2  -6.610775677065101E-2  
 2.034600000000000E10   -7.036223015974846E-2  -5.497804388645396E-2  
 2.034800000000000E10   -7.864669427447511E-2  -4.215568707005703E-2  
 2.035000000000000E10   -8.446922182456899E-2  -2.826418288060410E-2  
 2.035200000000000E10   -8.790276251324114E-2  -1.344026867490483E-2  
 2.035400000000000E10   -8.868221423053976E-2   1.524829194415053E-3  
 2.035600000000000E10   -8.708179141032117E-2   1.614034710203930E-2  
 2.035800000000000E10   -8.318039853515129E-2   3.043306947813580E-2  
 2.036000000000000E10   -7.692863282151433E-2   4.404341688972328E-2  
 2.036200000000000E10   -6.850077344379744E-2   5.627368502510017E-2  
 2.036400000000000E10   -5.810491437634573E-2   6.711541152879222E-2  
 2.036600000000000E10   -4.627143451832801E-2   7.592809999398825E-2  
 2.036800000000000E10   -3.294331429045763E-2   8.283322516690425E-2  
 2.037000000000000E10   -1.828255903906789E-2   8.746317357448691E-2  
 2.037200000000000E10   -3.269952461631642E-3   8.957510865985915E-2  
 2.037400000000000E10    1.214775813505283E-2   8.906841045924516E-2  
 2.037600000000000E10    2.757833648352085E-2   8.575290521685444E-2  
 2.037800000000000E10    4.196099650378042E-2   7.964081035220320E-2  
 2.038000000000000E10    5.484961187585744E-2   7.118449445187619E-2  
 2.038200000000000E10    6.619329159048912E-2   6.046902872453569E-2  
 2.038400000000000E10    7.527763316707690E-2   4.814259291697536E-2  
 2.038600000000000E10    8.208224102525411E-2   3.454062008724637E-2  
 2.038800000000000E10    8.650074333220499E-2   2.018032163670773E-2  
 2.039000000000000E10    8.852718683177425E-2   5.448050873472084E-3  
 2.039200000000000E10    8.814410071607856E-2  -9.478598808337794E-3  
 2.039400000000000E10    8.538863670245751E-2  -2.411634673493208E-2  
 2.039600000000000E10    8.033800925180352E-2  -3.816333084182636E-2  
 2.039800000000000E10    7.284261641053658E-2  -5.153725130293015E-2  
 2.040000000000000E10    6.312153339332993E-2  -6.329194259806778E-2  
 2.040200000000000E10    5.126379497937119E-2  -7.338909856073803E-2  
 2.040400000000000E10    3.760189135866317E-2  -8.106311013058956E-2  
 2.040600000000000E10    2.298444658173377E-2  -8.595597312086781E-2  
 2.040800000000000E10    7.871351701158299E-3  -8.818313678908155E-2  
 2.041000000000000E10   -7.101738721960122E-3  -8.789311379598530E-2  
 2.041200000000000E10   -2.147452624006808E-2  -8.527756203046413E-2  
 2.041400000000000E10   -3.542612022602697E-2  -8.040831411813920E-2  
 2.041600000000000E10   -4.830571232705300E-2  -7.343543895084442E-2  
 2.041800000000000E10   -5.992730697050563E-2  -6.442277353919934E-2  
 2.042000000000000E10   -7.001771027170134E-2  -5.356848892595737E-2  
 2.042200000000000E10   -7.833505213610413E-2  -4.115778483158568E-2  
 2.042400000000000E10   -8.441530900509543E-2  -2.733678962856112E-2  
 2.042600000000000E10   -8.804316190583603E-2  -1.238244856605881E-2  
 2.042800000000000E10   -8.898426421822824E-2   2.919440519182767E-3  
 2.043000000000000E10   -8.719661615602324E-2   1.812706519915132E-2  
 2.043200000000000E10   -8.280765845510878E-2   3.285825829789242E-2  
 2.043400000000000E10   -7.589977095076293E-2   4.661868601035844E-2  
 2.043600000000000E10   -6.687728855903694E-2   5.880816717796444E-2  
 2.043800000000000E10   -5.589563144103200E-2   6.930775773146408E-2  
 2.044000000000000E10   -4.310831000347730E-2   7.789541963664448E-2  
 2.044200000000000E10   -2.910428729934303E-2   8.399569380787861E-2  
 2.044400000000000E10   -1.434458149368512E-2   8.751782655423721E-2  
 2.044600000000000E10    6.100771341719963E-4   8.850547933146363E-2  
 2.044800000000000E10    1.559331266775668E-2   8.711790763133548E-2  
 2.045000000000000E10    2.999823736574331E-2   8.339347149577743E-2  
 2.045200000000000E10    4.375673376539704E-2   7.740400988963092E-2  
 2.045400000000000E10    5.661261219688198E-2   6.900513903429274E-2  
 2.045600000000000E10    6.789766770246668E-2   5.840313457539671E-2  
 2.045800000000000E10    7.718769383961635E-2   4.565502107007132E-2  
 2.046000000000000E10    8.387799417144951E-2   3.132815751615370E-2  
 2.046200000000000E10    8.771758726956745E-2   1.626686045063155E-2  
 2.046400000000000E10    8.879539563283626E-2   8.029517187861230E-4  
 2.046600000000000E10    8.715642707624227E-2  -1.435618669321544E-2  
 2.046800000000000E10    8.315003910367158E-2  -2.859586971420505E-2  
 2.047000000000000E10    7.696972208799087E-2  -4.222467807629987E-2  
 2.047200000000000E10    6.875519425067538E-2  -5.440935602326744E-2  
 2.047400000000000E10    5.874310127464531E-2  -6.506087251247167E-2  
 2.047600000000000E10    4.697465292133949E-2  -7.411030445783319E-2  
 2.047800000000000E10    3.376026301273927E-2  -8.120878111007635E-2  
 2.048000000000000E10    1.957009524712247E-2  -8.586772467867423E-2  
 2.048200000000000E10    4.405729199694320E-3  -8.807940769041421E-2  
 2.048400000000000E10   -1.093299437974048E-2  -8.751164247657399E-2  
 2.048600000000000E10   -2.575391654362571E-2  -8.423752699340499E-2  
 2.048800000000000E10   -4.001881991885593E-2  -7.828518666899714E-2  
 2.049000000000000E10   -5.259733206368175E-2  -7.006525785156378E-2  
 2.049200000000000E10   -6.352916275375968E-2  -5.979309331447603E-2  
 2.049400000000000E10   -7.239335834615111E-2  -4.814685840105337E-2  
 2.049600000000000E10   -7.929845484248908E-2  -3.534935935627687E-2  
 2.049800000000000E10   -8.405219972995169E-2  -2.156376124750546E-2  
 2.050000000000000E10   -8.651092413023456E-2  -7.037305537872810E-3  
 2.050200000000000E10   -8.654684283951039E-2   7.577075784631245E-3  
 2.050400000000000E10   -8.409528877306585E-2   2.223398826983422E-2  
 2.050600000000000E10   -7.917657388821917E-2   3.636950314872417E-2  
 2.050800000000000E10   -7.187713116486130E-2   4.934231890978226E-2  
 2.051000000000000E10   -6.231177553723016E-2   6.097922326235797E-2  
 2.051200000000000E10   -5.094917855752937E-2   7.070321990380969E-2  
 2.051400000000000E10   -3.810549982246791E-2   7.832554159696853E-2  
 2.051600000000000E10   -2.411903963814008E-2   8.359898872810162E-2  
 2.051800000000000E10   -9.467182769161661E-3   8.643527542004008E-2  
 2.052000000000000E10    5.454888912735901E-3   8.672610298537242E-2  
 2.052200000000000E10    2.022997380014234E-2   8.427695163369925E-2  
 2.052400000000000E10    3.402057757692652E-2   7.945446916780405E-2  
 2.052600000000000E10    4.681845372790203E-2   7.251369240120989E-2  
 2.052800000000000E10    5.835808030869191E-2   6.360673672191583E-2  
 2.053000000000000E10    6.823956751736517E-2   5.301678811323413E-2  
 2.053200000000000E10    7.642052670266883E-2   4.081182561291280E-2  
 2.053400000000000E10    8.253669483224801E-2   2.734832960565477E-2  
 2.053600000000000E10    8.627181476046326E-2   1.285469996969217E-2  
 2.053800000000000E10    8.733048640456148E-2  -2.432215804015453E-3  
 2.054000000000000E10    8.547854727708622E-2  -1.767088168666962E-2  
 2.054200000000000E10    8.107386552005960E-2  -3.196214462403287E-2  
 2.054400000000000E10    7.422752233623085E-2  -4.526862444750984E-2  
 2.054600000000000E10    6.528163571725476E-2  -5.719466841732476E-2  
 2.054800000000000E10    5.470013740260852E-2  -6.730211148497380E-2  
 2.055000000000000E10    4.242792885869959E-2  -7.566700550413701E-2  
 2.055200000000000E10    2.903290680241856E-2  -8.177270109263257E-2  
 2.055400000000000E10    1.477980898575008E-2  -8.567583820803565E-2  
 2.055600000000000E10   -1.148541375298711E-4  -8.717076374476310E-2  
