#  HZ   S   RI   R     50.00 
! Rohde & Schwarz ZVA40 4Ports - Version 3.90 - 1145.1110k42 SN: 100403
! Date: 2023-09-30 05:48:49
! Measurement: S12 
! 
 2.000000000000000E10   -4.383444739601464E-4   1.027127195492040E-1  
 2.000200000000000E10    1.597934845318847E-2   1.019195186891510E-1  
 2.000400000000000E10    3.306544032484417E-2   9.789771907573214E-2  
 2.000600000000000E10    4.948015879476840E-2   9.082926463320423E-2  
 2.000800000000000E10    6.423510245171432E-2   8.111395780891387E-2  
 2.001000000000000E10    7.748363807858755E-2   6.876356122997400E-2  
 2.001200000000000E10    8.811434153952881E-2   5.442658028423542E-2  
 2.001400000000000E10    9.602526892155452E-2   3.836565733528269E-2  
 2.001600000000000E10    1.009442867565548E-1   2.126625612562086E-2  
 2.001800000000000E10    1.029290314993741E-1   3.799904560713694E-3  
 2.002000000000000E10    1.019112692918470E-1  -1.393029017345814E-2  
 2.002200000000000E10    9.752813948443562E-2  -3.222860161864055E-2  
 2.002400000000000E10    9.068590601898517E-2  -4.814370228450322E-2  
 2.002600000000000E10    8.125708258323711E-2  -6.276821216315401E-2  
 2.002800000000000E10    6.941631417951467E-2  -7.584888621939881E-2  
 2.003000000000000E10    5.548299969632604E-2  -8.655008212733499E-2  
 2.003200000000000E10    3.983407917806806E-2  -9.465352033963748E-2  
 2.003400000000000E10    2.293122874314811E-2  -9.984955637216243E-2  
 2.003600000000000E10    5.679953854214223E-3  -1.021305158816084E-1  
 2.003800000000000E10   -1.165435640767360E-2  -1.015500724928860E-1  
 2.004000000000000E10   -2.881675841611273E-2  -9.801686101366955E-2  
 2.004200000000000E10   -4.504350144594949E-2  -9.147173170363136E-2  
 2.004400000000000E10   -5.975616468303163E-2  -8.231678585661129E-2  
 2.004600000000000E10   -7.253143354861989E-2  -7.104371999108089E-2  
 2.004800000000000E10   -8.357939349975443E-2  -5.761352343937008E-2  
 2.005000000000000E10   -9.209347977232706E-2  -4.278433973427009E-2  
 2.005200000000000E10   -9.808444712101518E-2  -2.662061525071845E-2  
 2.005400000000000E10   -1.012534748645313E-1  -9.695539425992101E-3  
 2.005600000000000E10   -1.014527543275445E-1   7.784077244847809E-3  
 2.005800000000000E10   -9.865928680440528E-2   2.496966799345527E-2  
 2.006000000000000E10   -9.289861190425353E-2   4.132767390096957E-2  
 2.006200000000000E10   -8.453060958447609E-2   5.644428307402609E-2  
 2.006400000000000E10   -7.385849195375366E-2   6.979409826022609E-2  
 2.006600000000000E10   -6.083005412247938E-2   8.150132579935923E-2  
 2.006800000000000E10   -4.619850177925965E-2   9.071697759734587E-2  
 2.007000000000000E10   -3.003766597727690E-2   9.735767617923899E-2  
 2.007200000000000E10   -1.290251835363065E-2   1.009521111948173E-1  
 2.007400000000000E10    4.585061979892733E-3   1.015152122483005E-1  
 2.007600000000000E10    2.162490918241002E-2   9.906542936879095E-2  
 2.007800000000000E10    3.794291471380266E-2   9.392748283546813E-2  
 2.008000000000000E10    5.318500236473948E-2   8.616627573926100E-2  
 2.008200000000000E10    6.702806363176091E-2   7.580148796608420E-2  
 2.008400000000000E10    7.850869826778301E-2   6.373313726507261E-2  
 2.008600000000000E10    8.830160630256226E-2   4.956475563030512E-2  
 2.008800000000000E10    9.558462592759089E-2   3.397533205045268E-2  
 2.009000000000000E10    1.000805692989967E-1   1.734649662352557E-2  
 2.009200000000000E10    1.016809290737445E-1   2.696802516360717E-4  
 2.009400000000000E10    1.003952091572543E-1  -1.703597968559207E-2  
 2.009600000000000E10    9.617781658517646E-2  -3.407431365756014E-2  
 2.009800000000000E10    8.914482162240767E-2  -4.978364550180234E-2  
 2.010000000000000E10    7.936255724791475E-2  -6.433533215882521E-2  
 2.010200000000000E10    6.738405428387338E-2  -7.686153081832109E-2  
 2.010400000000000E10    5.341689482801409E-2  -8.738431974284772E-2  
 2.010600000000000E10    3.782857446043417E-2  -9.531267063975826E-2  
 2.010800000000000E10    2.104849165716862E-2  -1.005267355034054E-1  
 2.011000000000000E10    3.615024122722519E-3  -1.026491000635143E-1  
 2.011200000000000E10   -1.393305811908388E-2  -1.018489993934933E-1  
 2.011400000000000E10   -3.111219703026924E-2  -9.811372252689635E-2  
 2.011600000000000E10   -4.756645967133742E-2  -9.145460334007306E-2  
 2.011800000000000E10   -6.253398459695986E-2  -8.196065787466139E-2  
 2.012000000000000E10   -7.572394595142910E-2  -6.995179867997910E-2  
 2.012200000000000E10   -8.646395738110131E-2  -5.599176767186374E-2  
 2.012400000000000E10   -9.464092802036613E-2  -4.034133699552676E-2  
 2.012600000000000E10   -1.000056744889140E-1  -2.353244932273861E-2  
 2.012800000000000E10   -1.024048817848636E-1  -6.213388799859623E-3  
 2.013000000000000E10   -1.018112182249258E-1   1.127742720571115E-2  
 2.013200000000000E10   -9.829989831961070E-2   2.819721796517919E-2  
 2.013400000000000E10   -9.196721733801977E-2   4.450840296016800E-2  
 2.013600000000000E10   -8.293505250099430E-2   5.937874963090581E-2  
 2.013800000000000E10   -7.171965895325397E-2   7.229035082994993E-2  
 2.014000000000000E10   -5.834693643577470E-2   8.330434287894412E-2  
 2.014200000000000E10   -4.371439114172109E-2   9.189689749103189E-2  
 2.014400000000000E10   -2.771197008773869E-2   9.801099392162595E-2  
 2.014600000000000E10   -1.051230383053197E-2   1.013752294727314E-1  
 2.014800000000000E10    6.713703113118768E-3   1.016071576763083E-1  
 2.015000000000000E10    2.380342790230966E-2   9.888680959925242E-2  
 2.015200000000000E10    3.994471706010515E-2   9.335960204545690E-2  
 2.015400000000000E10    5.518884049276267E-2   8.515028579898987E-2  
 2.015600000000000E10    6.855714784114941E-2   7.468540731444445E-2  
 2.015800000000000E10    7.996207057652979E-2   6.230652148851970E-2  
 2.016000000000000E10    8.933653738681836E-2   4.799632124081561E-2  
 2.016200000000000E10    9.624628511107999E-2   3.236180436075634E-2  
 2.016400000000000E10    1.004614977393458E-1   1.592908482564248E-2  
 2.016600000000000E10    1.019680061069699E-1  -1.210048960666179E-3  
 2.016800000000000E10    1.005327640757966E-1  -1.835582460262730E-2  
 2.017000000000000E10    9.614580404652165E-2  -3.532836000615187E-2  
 2.017200000000000E10    8.891644157132005E-2  -5.124437536620146E-2  
 2.017400000000000E10    7.890959026800426E-2  -6.573495536592927E-2  
 2.017600000000000E10    6.637411670879410E-2  -7.838130629888451E-2  
 2.017800000000000E10    5.224901508279299E-2  -8.833329222166327E-2  
 2.018000000000000E10    3.638694530406607E-2  -9.587076227646961E-2  
 2.018200000000000E10    1.966246003374478E-2  -1.006098110407632E-1  
 2.018400000000000E10    2.440614355613053E-3  -1.024906462050760E-1  
 2.018600000000000E10   -1.504827698179111E-2  -1.013528577503027E-1  
 2.018800000000000E10   -3.199846404304393E-2  -9.722725017857326E-2  
 2.019000000000000E10   -4.786913041715270E-2  -9.028749049363968E-2  
 2.019200000000000E10   -6.240556935878121E-2  -8.080335099388053E-2  
 2.019400000000000E10   -7.503344823794111E-2  -6.913441880535852E-2  
 2.019600000000000E10   -8.569730148843616E-2  -5.550538503216129E-2  
 2.019800000000000E10   -9.380142098428129E-2  -4.015282013636231E-2  
 2.020000000000000E10   -9.919211075261790E-2  -2.367457219582200E-2  
 2.020200000000000E10   -1.016721923226192E-1  -6.606513871945472E-3  
 2.020400000000000E10   -1.012545261322553E-1   1.054027429507184E-2  
 2.020600000000000E10   -9.782015921647658E-2   2.758418927569612E-2  
 2.020800000000000E10   -9.159821968919130E-2   4.368232414944019E-2  
 2.021000000000000E10   -8.295478359048750E-2   5.822596318294156E-2  
 2.021200000000000E10   -7.185858906092141E-2   7.144998942996250E-2  
 2.021400000000000E10   -5.869754451864869E-2   8.243747042244191E-2  
 2.021600000000000E10   -4.380459310320833E-2   9.101164920462504E-2  
 2.021800000000000E10   -2.783160245069016E-2   9.685547400485671E-2  
 2.022000000000000E10   -1.128397749632147E-2   1.000267671439056E-1  
 2.022200000000000E10    5.676808349266956E-3   1.004424792891994E-1  
 2.022400000000000E10    2.237974949927160E-2   9.804051041357803E-2  
 2.022600000000000E10    3.856925421045641E-2   9.283779088320884E-2  
 2.022800000000000E10    5.375950256635950E-2   8.489068813202969E-2  
 2.023000000000000E10    6.705982317772423E-2   7.468649205356960E-2  
 2.023200000000000E10    7.856837583422172E-2   6.230341367147588E-2  
 2.023400000000000E10    8.802053960875721E-2   4.795309371827235E-2  
 2.023600000000000E10    9.466309628777708E-2   3.264344564865156E-2  
 2.023800000000000E10    9.876550461161776E-2   1.630768163285547E-2  
 2.024000000000000E10    1.000509180322760E-1  -3.857305487400670E-4  
 2.024200000000000E10    9.861104920077228E-2  -1.719313900820676E-2  
 2.024400000000000E10    9.433956659911266E-2  -3.345022997493116E-2  
 2.024600000000000E10    8.753836299043626E-2  -4.875660739808417E-2  
 2.024800000000000E10    7.820621484428114E-2  -6.288458125867635E-2  
 2.025000000000000E10    6.656042093970649E-2  -7.539905605656294E-2  
 2.025200000000000E10    5.315609818991320E-2  -8.559158140862430E-2  
 2.025400000000000E10    3.778265790684234E-2  -9.360829656956456E-2  
 2.025600000000000E10    2.129814125577037E-2  -9.882239229844270E-2  
 2.025800000000000E10    4.334503747088470E-3  -1.011646754518458E-1  
 2.026000000000000E10   -1.298336492434901E-2  -1.004736461614058E-1  
 2.026200000000000E10   -2.986368330499600E-2  -9.693541408443648E-2  
 2.026400000000000E10   -4.602544633633316E-2  -9.057984995784749E-2  
 2.026600000000000E10   -6.105580714381773E-2  -8.144326348608905E-2  
 2.026800000000000E10   -7.408581744618868E-2  -6.989541787792136E-2  
 2.027000000000000E10   -8.507052454356467E-2  -5.611531392496147E-2  
 2.027200000000000E10   -9.341708121026660E-2  -4.070500734125473E-2  
 2.027400000000000E10   -9.902542708914305E-2  -2.398686721634800E-2  
 2.027600000000000E10   -1.015847006248022E-1  -6.653920363440641E-3  
 2.027800000000000E10   -1.011632123376934E-1   1.072394156212751E-2  
 2.028000000000000E10   -9.780599494734257E-2   2.787361982366676E-2  
 2.028200000000000E10   -9.155381398354703E-2   4.435421882097614E-2  
 2.028400000000000E10   -8.251329723985762E-2   5.927662070539100E-2  
 2.028600000000000E10   -7.095746283096216E-2   7.259954191202654E-2  
 2.028800000000000E10   -5.747910285948564E-2   8.359882607545055E-2  
 2.029000000000000E10   -4.225249901229954E-2   9.209763926079573E-2  
 2.029200000000000E10   -2.565474934947508E-2   9.783858550387975E-2  
 2.029400000000000E10   -8.462658196697920E-3   1.005789058893633E-1  
 2.029600000000000E10    8.738182421226889E-3   1.003066657829023E-1  
 2.029800000000000E10    2.575871048415967E-2   9.708962303334631E-2  
 2.030000000000000E10    4.165947155717797E-2   9.120013221423814E-2  
 2.030200000000000E10    5.657129690296366E-2   8.256606312036843E-2  
 2.030400000000000E10    6.961192776268893E-2   7.159174028247473E-2  
 2.030600000000000E10    8.055727125563250E-2   5.868700333706146E-2  
 2.030800000000000E10    8.923731959937206E-2   4.410115091848112E-2  
 2.031000000000000E10    9.525385624709937E-2   2.846508560285729E-2  
 2.031200000000000E10    9.855703964563720E-2   1.193655537638113E-2  
 2.031400000000000E10    9.909836280533974E-2  -5.170324877343960E-3  
 2.031600000000000E10    9.684303627746752E-2  -2.116856674455485E-2  
 2.031800000000000E10    9.190923859593964E-2  -3.720092693719354E-2  
 2.032000000000000E10    8.399745312983117E-2  -5.241844612486733E-2  
 2.032200000000000E10    7.379691882265940E-2  -6.567918052398619E-2  
 2.032400000000000E10    6.152628694337747E-2  -7.701347700852917E-2  
 2.032600000000000E10    4.764725198900260E-2  -8.616885573530395E-2  
 2.032800000000000E10    3.254143577912218E-2  -9.289734703277856E-2  
 2.033000000000000E10    1.643251735763050E-2  -9.707542171571483E-2  
 2.033200000000000E10   -2.248927788612202E-4  -9.846679238789043E-2  
 2.033400000000000E10   -1.684336326454239E-2  -9.704738150162953E-2  
 2.033600000000000E10   -2.416703189034603E-2  -9.568033928488509E-2  
 2.033800000000000E10   -4.851812578032538E-2  -8.606554847849415E-2  
 2.034000000000000E10   -6.263237271779851E-2  -7.664843642539940E-2  
 2.034200000000000E10   -7.484126735902782E-2  -6.479517236576815E-2  
 2.034400000000000E10   -8.466241271611923E-2  -5.119551252190469E-2  
 2.034600000000000E10   -9.216216425264488E-2  -3.605815196417488E-2  
 2.034800000000000E10   -9.698774621646919E-2  -2.001665489663803E-2  
 2.035000000000000E10   -9.904709370456771E-2  -3.282981727014211E-3  
 2.035200000000000E10   -9.809281464425955E-2   1.379612125890695E-2  
 2.035400000000000E10   -9.425873039558594E-2   3.014278378904848E-2  
 2.035600000000000E10   -8.784768323635042E-2   4.550298239488988E-2  
 2.035800000000000E10   -7.895558031048469E-2   5.970946381019304E-2  
 2.036000000000000E10   -6.793053890738142E-2   7.215371694216513E-2  
 2.036200000000000E10   -5.481073109558254E-2   8.275023065967326E-2  
 2.036400000000000E10   -4.019112929456519E-2   9.105885959906179E-2  
 2.036600000000000E10   -2.432832666334220E-2   9.694853956480251E-2  
 2.036800000000000E10   -7.355681312652447E-3   1.000131684750196E-1  
 2.037000000000000E10    1.009792548352636E-2   9.998374798211217E-2  
 2.037200000000000E10    2.712406570140391E-2   9.691790824523516E-2  
 2.037400000000000E10    4.357242722713245E-2   9.084379165056476E-2  
 2.037600000000000E10    5.854013728792940E-2   8.196836747791217E-2  
 2.037800000000000E10    7.183639579471739E-2   7.045124527399106E-2  
 2.038000000000000E10    8.261974859057795E-2   5.701156647873351E-2  
 2.038200000000000E10    9.086514436045794E-2   4.200640484813310E-2  
 2.038400000000000E10    9.640592845624368E-2   2.605008117251600E-2  
 2.038600000000000E10    9.942332331208700E-2   9.317382572241772E-3  
 2.038800000000000E10    9.961547599326111E-2  -7.520657629975528E-3  
 2.039000000000000E10    9.700630170859102E-2  -2.421629328449323E-2  
 2.039200000000000E10    9.159979614619529E-2  -4.039557947073291E-2  
 2.039400000000000E10    8.354206535510403E-2  -5.551678022505162E-2  
 2.039600000000000E10    7.302211891394748E-2  -6.902769883514597E-2  
 2.039800000000000E10    6.000861617007047E-2  -8.070608164057321E-2  
 2.040000000000000E10    4.521081024788536E-2  -8.967539988999833E-2  
 2.040200000000000E10    2.914292007858453E-2  -9.586937890090409E-2  
 2.040400000000000E10    1.233173153824358E-2  -9.915746895619382E-2  
 2.040600000000000E10   -4.678455305979454E-3  -9.952595897417502E-2  
 2.040800000000000E10   -2.128912426725500E-2  -9.701342776479055E-2  
 2.041000000000000E10   -3.708461000084551E-2  -9.190342476174992E-2  
 2.041200000000000E10   -5.187689724016746E-2  -8.440619917645213E-2  
 2.041400000000000E10   -6.524765726551926E-2  -7.464093896873368E-2  
 2.041600000000000E10   -7.680891691330204E-2  -6.284866431940077E-2  
 2.041800000000000E10   -8.648051632202866E-2  -4.902212561423724E-2  
 2.042000000000000E10   -9.359301042082543E-2  -3.388174661576994E-2  
 2.042200000000000E10   -9.797445180811837E-2  -1.778495884838991E-2  
 2.042400000000000E10   -9.972716259817366E-2  -9.772000191266943E-4  
 2.042600000000000E10   -9.866306073299326E-2   1.577700112418710E-2  
 2.042800000000000E10   -9.486299916713491E-2   3.219214729218654E-2  
 2.043000000000000E10   -8.822891563790328E-2   4.798957401955570E-2  
 2.043200000000000E10   -7.900165466001496E-2   6.244236102074754E-2  
 2.043400000000000E10   -6.730675201643316E-2   7.514152150544938E-2  
 2.043600000000000E10   -5.363104549148447E-2   8.560138732317545E-2  
 2.043800000000000E10   -3.842372394106843E-2   9.350628637809649E-2  
 2.044000000000000E10   -2.186606556626832E-2   9.877319337572746E-2  
 2.044200000000000E10   -4.656279057811114E-3   1.011004472976686E-1  
 2.044400000000000E10    1.260029706613395E-2   1.004012984994017E-1  
 2.044600000000000E10    2.944506566833567E-2   9.671885158422064E-2  
 2.044800000000000E10    4.555857139134931E-2   9.018609083074930E-2  
 2.045000000000000E10    6.011138892181944E-2   8.109341376807303E-2  
 2.045200000000000E10    7.285359816623160E-2   6.985246183654736E-2  
 2.045400000000000E10    8.371297349777733E-2   5.643998882611921E-2  
 2.045600000000000E10    9.211062196391764E-2   4.143995368043255E-2  
 2.045800000000000E10    9.782636195257696E-2   2.509768668751250E-2  
 2.046000000000000E10    1.005392089915374E-1   7.907383781391490E-3  
 2.046200000000000E10    1.000781577330885E-1  -9.380933852925062E-3  
 2.046400000000000E10    9.661764277474873E-2  -2.601574610954532E-2  
 2.046600000000000E10    9.054686531772013E-2  -4.176239030044757E-2  
 2.046800000000000E10    8.214063918925772E-2  -5.615315120283961E-2  
 2.047000000000000E10    7.150789225583869E-2  -6.904859567988558E-2  
 2.047200000000000E10    5.917859363621319E-2  -7.985291787421917E-2  
 2.047400000000000E10    4.502137738122862E-2  -8.870703097437963E-2  
 2.047600000000000E10    2.948722135485119E-2  -9.512751911280089E-2  
 2.047800000000000E10    1.312623904386871E-2  -9.881451180197087E-2  
 2.048000000000000E10   -3.797035884694676E-3  -9.970247245742463E-2  
 2.048200000000000E10   -2.063542758261553E-2  -9.765481041292107E-2  
 2.048400000000000E10   -3.684913156495337E-2  -9.281553642821738E-2  
 2.048600000000000E10   -5.213277922388786E-2  -8.517398363278238E-2  
 2.048800000000000E10   -6.598403587916915E-2  -7.494331442524868E-2  
 2.049000000000000E10   -7.759239613519285E-2  -6.276584355306235E-2  
 2.049200000000000E10   -8.718305560459981E-2  -4.853949236424209E-2  
 2.049400000000000E10   -9.406865733600286E-2  -3.307314277901245E-2  
 2.049600000000000E10   -9.820682748600290E-2  -1.669514469996565E-2  
 2.049800000000000E10   -9.948249563922282E-2   1.738268362199479E-4  
 2.050000000000000E10   -9.796987172466576E-2   1.703491801618304E-2  
 2.050200000000000E10   -9.372733415849253E-2   3.324525732807662E-2  
 2.050400000000000E10   -8.672985745228531E-2   4.874668528922466E-2  
 2.050600000000000E10   -7.723128236574728E-2   6.275265883598145E-2  
 2.050800000000000E10   -6.554944187770656E-2   7.487062979055204E-2  
 2.051000000000000E10   -5.178000419228166E-2   8.517707467324451E-2  
 2.051200000000000E10   -3.642424182207497E-2   9.283093872016350E-2  
 2.051400000000000E10   -1.997240665732834E-2   9.764681272055389E-2  
 2.051600000000000E10   -2.768411317364976E-3   9.952247105998760E-2  
 2.051800000000000E10    1.431124729956456E-2   9.835178357011171E-2  
 2.052000000000000E10    3.085738734248899E-2   9.413945852729030E-2  
 2.052200000000000E10    4.650404471878489E-2   8.702908463479725E-2  
 2.052400000000000E10    6.015517084318916E-2   7.769572698039774E-2  
 2.052600000000000E10    7.203617335306112E-2   6.642257793204776E-2  
 2.052800000000000E10    8.213254852304734E-2   5.326423309590101E-2  
 2.053000000000000E10    8.981649119749319E-2   3.875831577451632E-2  
 2.053200000000000E10    9.510851835395084E-2   2.311106791926755E-2  
 2.053400000000000E10    9.776095386763170E-2   6.525944142291944E-3  
 2.053600000000000E10    9.748617344023597E-2  -1.012880895772262E-2  
 2.053800000000000E10    9.434123743013755E-2  -2.667274125513144E-2  
 2.054000000000000E10    8.816161259129871E-2  -4.253461123003391E-2  
 2.054200000000000E10    7.950566509746231E-2  -5.671542784293657E-2  
 2.054400000000000E10    6.852537465111874E-2  -6.921817548317510E-2  
 2.054600000000000E10    5.558193439748063E-2  -7.969640887282350E-2  
 2.054800000000000E10    4.151009289938727E-2  -8.763940385012635E-2  
 2.055000000000000E10    2.616363368795570E-2  -9.331808575468628E-2  
 2.055200000000000E10    1.005405454100487E-2  -9.647480241024284E-2  
 2.055400000000000E10   -6.333848233468862E-3  -9.691175783694367E-2  
 2.055600000000000E10   -2.293988812679045E-2  -9.453383349750924E-2  
