#  HZ   S   RI   R     50.00 
! Rohde & Schwarz ZVA40 4Ports - Version 3.90 - 1145.1110k42 SN: 100403
! Date: 2023-10-04 10:15:42
! Measurement: S12 
! 
 2.200000000000000E10   -1.308187469840050E-2  -5.168835166841745E-3  
 2.202000000000000E10   -3.047805745154619E-3   1.356791052967310E-2  
 2.204000000000000E10    1.342066377401352E-2   1.851492444984615E-3  
 2.206000000000000E10    3.318460585433058E-5  -1.386013720184565E-2  
 2.208000000000000E10   -1.242513582110405E-2   1.457641716115177E-3  
 2.210000000000000E10    2.556046238169074E-3   1.149995438754559E-2  
 2.212000000000000E10    1.088834274560213E-2  -3.961753100156784E-3  
 2.214000000000000E10   -5.996546242386103E-3  -9.502610191702843E-3  
 2.216000000000000E10   -9.080475196242333E-3   8.409201167523861E-3  
 2.218000000000000E10    1.102510839700699E-2   8.710254915058613E-3  
 2.220000000000000E10    7.708142511546612E-3  -1.262876857072115E-2  
 2.222000000000000E10   -1.355029642581940E-2  -5.973848979920149E-3  
 2.224000000000000E10   -5.933208391070366E-3   1.443991810083389E-2  
 2.226000000000000E10    1.451180316507816E-2   4.508562851697207E-3  
 2.228000000000000E10    3.560636192560196E-3  -1.383935008198023E-2  
 2.230000000000000E10   -1.363453455269337E-2  -3.194341203197837E-3  
 2.232000000000000E10   -9.240511571988463E-4   1.281770318746567E-2  
 2.234000000000000E10    1.314727682620287E-2  -2.528809709474444E-3  
 2.236000000000000E10   -4.918190650641918E-3  -1.156455464661121E-2  
 2.238000000000000E10   -1.039898674935103E-2   6.070095580071211E-3  
 2.240000000000000E10    8.467762731015682E-3   1.122615952044725E-2  
 2.242000000000000E10    1.082650013267994E-2  -1.005201600492001E-2  
 2.244000000000000E10   -1.098968181759119E-2  -9.615831077098846E-3  
 2.246000000000000E10   -9.235481731593609E-3   1.153352577239275E-2  
 2.248000000000000E10    1.176291890442371E-2   8.682995103299618E-3  
 2.250000000000000E10    6.783545017242432E-3  -1.224917080253363E-2  
 2.252000000000000E10   -1.325559522956610E-2  -5.312909837812185E-3  
 2.254000000000000E10   -2.763020107522607E-3   1.299086306244135E-2  
 2.256000000000000E10    1.373664196580648E-2   6.174293230287731E-4  
 2.258000000000000E10   -1.518195844255388E-3  -1.389220450073481E-2  
 2.260000000000000E10   -1.399030443280935E-2   2.665623091161251E-3  
 2.262000000000000E10    3.947778139263392E-3   1.415586285293102E-2  
 2.264000000000000E10    1.395628415048122E-2  -4.531996790319681E-3  
 2.266000000000000E10   -5.608463194221258E-3  -1.415960211306810E-2  
 2.268000000000000E10   -1.312349736690521E-2   7.552268914878368E-3  
 2.270000000000000E10    8.206654340028763E-3   1.137780584394932E-2  
 2.272000000000000E10    1.066949963569641E-2  -9.674626402556896E-3  
 2.274000000000000E10   -1.111655216664076E-2  -8.147220127284527E-3  
 2.276000000000000E10   -6.255703512579203E-3   1.236913818866015E-2  
 2.278000000000000E10    1.392805390059948E-2   4.894000478088856E-3  
 2.280000000000000E10    3.477419726550579E-3  -1.452348753809929E-2  
 2.282000000000000E10   -1.026830542832613E-2  -1.051024626940489E-2  
 2.284000000000000E10   -1.922430004924536E-3   1.496226340532303E-2  
 2.286000000000000E10    1.563371159136295E-2   2.399460499873385E-4  
 2.288000000000000E10   -2.005849499255419E-3  -1.504832413047552E-2  
 2.290000000000000E10   -1.328594330698252E-2   4.456885159015656E-3  
 2.292000000000000E10    6.370281334966421E-3   1.164836622774601E-2  
 2.294000000000000E10    1.116107404232025E-2  -8.671263232827187E-3  
 2.296000000000000E10   -1.039788685739040E-2  -1.028457563370466E-2  
 2.298000000000000E10   -1.005062367767096E-2   1.200752239674330E-2  
 2.300000000000000E10    1.362790632992983E-2   9.747838601469994E-3  
 2.302000000000000E10    8.611771278083324E-3  -1.497107651084662E-2  
 2.304000000000000E10   -1.574452780187130E-2  -7.720723282545805E-3  
 2.306000000000000E10   -6.255771964788437E-3   1.512198615819216E-2  
 2.308000000000000E10    1.408640854060650E-2   4.041193984448910E-3  
 2.310000000000000E10    1.871050568297505E-3  -1.358427386730909E-2  
 2.312000000000000E10   -1.270529255270958E-2   8.124823798425496E-4  
 2.314000000000000E10    2.552288118749857E-3   1.292664185166359E-2  
 2.316000000000000E10    1.265465281903744E-2  -5.870733875781298E-3  
 2.318000000000000E10   -8.604589849710465E-3  -1.231977436691523E-2  
 2.320000000000000E10   -1.272558700293303E-2   1.112976763397455E-2  
 2.322000000000000E10    1.201649755239487E-2   1.228608656674624E-2  
 2.324000000000000E10    1.096915639936924E-2  -1.310801226645708E-2  
 2.326000000000000E10   -1.318026706576347E-2  -1.014217454940081E-2  
 2.328000000000000E10   -8.851345628499985E-3   1.381582580506802E-2  
 2.330000000000000E10    1.428187359124422E-2   6.665391381829977E-3  
 2.332000000000000E10    5.146001465618610E-3  -1.398225221782923E-2  
 2.334000000000000E10   -1.429652981460095E-2  -2.606752095744014E-3  
 2.336000000000000E10   -3.263196558691561E-4   1.591091416776180E-2  
 2.338000000000000E10    1.647386513650417E-2  -2.027666894719005E-3  
 2.340000000000000E10   -4.472888074815273E-3  -1.538412738591433E-2  
 2.342000000000000E10   -1.466559804975987E-2   6.158614531159401E-3  
 2.344000000000000E10    7.941283285617828E-3   1.388097181916237E-2  
 2.346000000000000E10    1.243094354867935E-2  -9.749908931553364E-3  
 2.348000000000000E10   -1.060459390282631E-2  -9.885886684060097E-3  
 2.350000000000000E10   -8.064828813076019E-3   1.185615174472332E-2  
 2.352000000000000E10    1.469942461699247E-2   6.533290259540081E-3  
 2.354000000000000E10    5.229348782449961E-3  -1.601042225956917E-2  
 2.356000000000000E10   -1.723161898553371E-2  -3.696523373946548E-3  
 2.358000000000000E10   -1.257915049791336E-3   1.871849782764912E-2  
 2.360000000000000E10    1.791622117161751E-2   4.418714670464397E-4  
 2.362000000000000E10   -5.848564323969185E-4  -1.804892159998417E-2  
 2.364000000000000E10   -1.679422520101070E-2   9.335693321190774E-4  
 2.366000000000000E10    2.544397255405784E-3   1.555743720382452E-2  
 2.368000000000000E10    1.368462853133678E-2  -5.170349963009358E-3  
 2.370000000000000E10   -7.230135146528482E-3  -1.196730509400368E-2  
 2.372000000000000E10   -9.803198277950287E-3   9.842769242823124E-3  
 2.374000000000000E10    1.316451653838158E-2   8.074901066720486E-3  
 2.376000000000000E10    5.804957821965218E-3  -1.476887799799442E-2  
 2.378000000000000E10   -1.621755212545395E-2  -4.834147170186043E-3  
 2.380000000000000E10   -4.269147291779518E-3   1.801778003573418E-2  
 2.382000000000000E10    1.827292516827583E-2   3.562813857570291E-3  
 2.384000000000000E10    1.392609556205571E-3  -1.820747740566731E-2  
 2.386000000000000E10   -1.819694414734840E-2  -5.429150187410414E-4  
 2.388000000000000E10    1.304315519519150E-3   1.737188361585140E-2  
 2.390000000000000E10    1.614480093121529E-2  -3.848782274872065E-3  
 2.392000000000000E10   -5.521785467863083E-3  -1.448000408709049E-2  
 2.394000000000000E10   -1.357015036046505E-2   8.482324890792370E-3  
 2.396000000000000E10    1.091349963098764E-2   1.204353012144566E-2  
 2.398000000000000E10    1.048662886023521E-2  -1.163194421678782E-2  
 2.400000000000000E10   -1.370369642972946E-2  -9.332119487226009E-3  
 2.402000000000000E10   -5.260499659925699E-3   1.535905152559280E-2  
 2.404000000000000E10    1.512900926172733E-2   4.028384573757649E-3  
 2.406000000000000E10    9.147722157649696E-4  -1.620176434516907E-2  
 2.408000000000000E10   -1.553563401103020E-2   5.312737775966525E-4  
 2.410000000000000E10    3.397919936105609E-3   1.519180089235306E-2  
 2.412000000000000E10    1.522719208151102E-2  -5.212752148509026E-3  
 2.414000000000000E10   -6.250236649066210E-3  -1.539388764649630E-2  
 2.416000000000000E10   -1.518139615654945E-2   7.457553874701262E-3  
 2.418000000000000E10    8.439344353973866E-3   1.556193735450506E-2  
 2.420000000000000E10    1.469264458864927E-2  -9.287707507610321E-3  
 2.422000000000000E10   -9.688006713986397E-3  -1.271379273384810E-2  
 2.424000000000000E10   -1.139158383011818E-2   1.002224814146757E-2  
 2.426000000000000E10    1.162020117044449E-2   8.244107477366924E-3  
 2.428000000000000E10    4.805504344403744E-3  -1.214331388473511E-2  
 2.430000000000000E10   -1.265555061399937E-2  -2.503006486222148E-3  
 2.432000000000000E10   -3.775018849410117E-4   1.449193060398102E-2  
 2.434000000000000E10    1.566565595567226E-2  -2.100889105349779E-3  
 2.436000000000000E10   -3.546509658917785E-3  -1.622048579156399E-2  
 2.438000000000000E10   -1.634114421904087E-2   4.592171870172024E-3  
 2.440000000000000E10    4.747889470309019E-3   1.710871979594231E-2  
 2.442000000000000E10    1.650233566761017E-2  -5.885517690330744E-3  
 2.444000000000000E10   -6.547154858708382E-3  -1.399221830070019E-2  
 2.446000000000000E10   -1.257176790386438E-2   6.804394070059061E-3  
 2.448000000000000E10    7.580200675874949E-3   1.120476983487606E-2  
 2.450000000000000E10    9.246206842362881E-3  -8.083613589406014E-3  
 2.452000000000000E10   -1.053411606699228E-2  -7.250579539686441E-3  
 2.454000000000000E10   -5.569067783653736E-3   1.207990385591984E-2  
 2.456000000000000E10    1.246881950646639E-2   4.136264789849520E-3  
 2.458000000000000E10    2.368355169892311E-3  -1.355356443673372E-2  
 2.460000000000000E10   -1.417087763547897E-2  -1.410772209055722E-3  
 2.462000000000000E10    4.047428956255317E-4   1.394706312566996E-2  
 2.464000000000000E10    1.358442381024361E-2  -2.168348757550120E-3  
 2.466000000000000E10   -2.287621842697263E-3  -1.313238777220249E-2  
 2.468000000000000E10   -1.354348380118609E-2   4.067745525389910E-3  
 2.470000000000000E10    5.790902767330408E-3   1.297438982874155E-2  
 2.472000000000000E10    1.222325302660465E-2  -6.358115002512932E-3  
 2.474000000000000E10   -8.654670789837837E-3  -1.177456229925156E-2  
 2.476000000000000E10   -1.161658484488726E-2   8.946944028139114E-3  
 2.478000000000000E10    8.834823034703732E-3   1.048069540411234E-2  
 2.480000000000000E10    8.248029276728630E-3  -1.016546320170164E-2  
 2.482000000000000E10   -1.018509082496166E-2  -6.771727465093136E-3  
 2.484000000000000E10   -5.533925723284483E-3   1.004140637814999E-2  
 2.486000000000000E10    1.091632246971130E-2   2.337685320526362E-3  
 2.488000000000000E10   -3.422667505219579E-4  -1.132756378501654E-2  
 2.490000000000000E10   -1.153216697275639E-2   2.420825883746147E-3  
 2.492000000000000E10    4.201260395348072E-3   1.268042903393507E-2  
 2.494000000000000E10    1.324007101356983E-2  -4.930383991450071E-3  
 2.496000000000000E10   -6.406546570360661E-3  -1.348902285099030E-2  
 2.498000000000000E10   -1.344335544854403E-2   6.781609728932381E-3  
 2.500000000000000E10    5.660055205225945E-3   1.318622846156359E-2  
 2.502000000000000E10    1.259308308362961E-2  -6.469790823757649E-3  
 2.504000000000000E10   -7.207951042801142E-3  -1.058043912053108E-2  
 2.506000000000000E10   -8.948311209678650E-3   6.981387268751860E-3  
 2.508000000000000E10    7.895889692008495E-3   7.254255469888449E-3  
 2.510000000000000E10    5.435610190033913E-3  -9.446128271520138E-3  
 2.512000000000000E10   -1.030134037137032E-2  -3.642245428636670E-3  
 2.514000000000000E10   -1.255668466910720E-3   1.131913345307112E-2  
 2.516000000000000E10    1.255111116915941E-2   5.497747333720326E-4  
 2.518000000000000E10   -8.196612470783293E-4  -1.349298469722271E-2  
 2.520000000000000E10   -1.314060948789120E-2   2.088728128001094E-3  
 2.522000000000000E10    3.238538978621364E-3   1.365363877266645E-2  
 2.524000000000000E10    1.330203469842672E-2  -4.205472767353058E-3  
 2.526000000000000E10   -5.598169751465321E-3  -1.317954249680042E-2  
 2.528000000000000E10   -1.181788370013237E-2   6.846601609140635E-3  
 2.530000000000000E10    8.196953684091568E-3   1.066943816840649E-2  
 2.532000000000000E10    1.008214335888624E-2  -9.802199900150299E-3  
 2.534000000000000E10   -1.009482145309448E-2  -8.991921320557594E-3  
 2.536000000000000E10   -7.306603714823723E-3   1.030580326914787E-2  
 2.538000000000000E10    1.157593447715044E-2   6.160317920148373E-3  
 2.540000000000000E10    3.969035577028990E-3  -1.175666321069002E-2  
 2.542000000000000E10   -1.112000830471516E-2  -1.855439972132444E-3  
 2.544000000000000E10   -7.746280607534573E-5   1.092816609889269E-2  
 2.546000000000000E10    1.151829957962036E-2  -2.051947405561805E-3  
 2.548000000000000E10   -4.750355146825314E-3  -1.215743087232113E-2  
 2.550000000000000E10   -1.135932561010122E-2   6.267388351261616E-3  
 2.552000000000000E10    8.101582527160645E-3   1.193466223776341E-2  
 2.554000000000000E10    1.168191246688366E-2  -9.454939514398575E-3  
 2.556000000000000E10   -8.961018174886704E-3  -1.120556239038706E-2  
 2.558000000000000E10   -1.096635311841965E-2   1.017924770712853E-2  
 2.560000000000000E10    1.082554832100868E-2   9.807147085666657E-3  
 2.562000000000000E10    7.934808731079102E-3  -1.047831960022450E-2  
 2.564000000000000E10   -1.080704294145107E-2  -6.202764343470335E-3  
 2.566000000000000E10   -3.916360437870026E-3   1.144591998308897E-2  
 2.568000000000000E10    1.235820725560188E-2   8.843601681292057E-4  
 2.570000000000000E10   -1.888046856038272E-3  -1.225930266082287E-2  
 2.572000000000000E10   -1.166797522455454E-2   4.106230568140745E-3  
 2.574000000000000E10    5.773186683654785E-3   1.218809001147747E-2  
 2.576000000000000E10    1.254058070480824E-2  -7.357970345765352E-3  
 2.578000000000000E10   -8.507275022566319E-3  -1.142621599137783E-2  
 2.580000000000000E10   -1.101967599242926E-2   9.689678438007832E-3  
 2.582000000000000E10    1.001011580228806E-2   1.009415648877621E-2  
 2.584000000000000E10    8.531551808118820E-3  -1.076188217848539E-2  
 2.586000000000000E10   -1.253216434270144E-2  -7.340974174439907E-3  
 2.588000000000000E10   -5.848603323101997E-3   1.242548134177923E-2  
 2.590000000000000E10    1.232123654335737E-2   3.870363812893629E-3  
 2.592000000000000E10    2.632476389408112E-3  -1.341527141630650E-2  
 2.594000000000000E10   -1.299796160310507E-2  -1.275702379643917E-3  
 2.596000000000000E10    7.401488255709410E-5   1.293951179832220E-2  
 2.598000000000000E10    1.247969735413790E-2  -1.511752838268876E-3  
 2.600000000000000E10   -3.750844160094857E-3  -1.134034432470799E-2  
 2.602000000000000E10   -1.106936205178499E-2   5.633921828120947E-3  
 2.604000000000000E10    7.528057787567377E-3   1.046464033424854E-2  
 2.606000000000000E10    8.945224806666374E-3  -9.259210899472237E-3  
 2.608000000000000E10   -1.084686722606421E-2  -8.608656004071236E-3  
 2.610000000000000E10   -8.559182286262512E-3   1.189265027642250E-2  
 2.612000000000000E10    1.261898968368769E-2   8.010297082364559E-3  
 2.614000000000000E10    7.132008206099272E-3  -1.369387283921242E-2  
 2.616000000000000E10   -1.308368146419525E-2  -6.126115564256907E-3  
 2.618000000000000E10   -5.242688115686178E-3   1.333235390484333E-2  
 2.620000000000000E10    1.283093262463808E-2   2.681854879483581E-3  
 2.622000000000000E10    3.128871321678162E-4  -1.166377589106560E-2  
 2.624000000000000E10   -1.077777706086636E-2   1.006430829875171E-3  
 2.626000000000000E10    3.296782728284597E-3   9.941683150827885E-3  
 2.628000000000000E10    1.015384588390589E-2  -5.230023059993982E-3  
 2.630000000000000E10   -6.730289664119482E-3  -1.045477204024792E-2  
 2.632000000000000E10   -9.695675224065781E-3   8.621974848210812E-3  
 2.634000000000000E10    1.015581469982863E-2   9.255313314497471E-3  
 2.636000000000000E10    8.490938693284988E-3  -1.021358929574490E-2  
 2.638000000000000E10   -1.091273222118616E-2  -7.632776163518429E-3  
 2.640000000000000E10   -6.120943930000067E-3   1.141407992690802E-2  
 2.642000000000000E10    1.129897683858872E-2   4.289856180548668E-3  
 2.644000000000000E10    2.869922667741776E-3  -1.088738627731800E-2  
 2.646000000000000E10   -1.115653011947870E-2  -1.685524242930114E-3  
 2.648000000000000E10    1.667444739723578E-4   1.136135868728161E-2  
 2.650000000000000E10    1.072059758007526E-2  -1.537810079753399E-3  
 2.652000000000000E10   -2.831854624673724E-3  -1.092876866459847E-2  
 2.654000000000000E10   -1.040220260620117E-2   4.125808831304312E-3  
 2.656000000000000E10    5.757482722401619E-3   9.212889708578587E-3  
 2.658000000000000E10    8.440271019935608E-3  -6.729593966156244E-3  
 2.660000000000000E10   -7.964909076690674E-3  -6.964247208088636E-3  
 2.662000000000000E10   -5.595542024821043E-3   9.004147723317146E-3  
 2.664000000000000E10    1.006049290299416E-2   4.426020197570324E-3  
 2.666000000000000E10    3.214761381968856E-3  -1.074241660535336E-2  
 2.668000000000000E10   -1.116313412785530E-2  -2.473001368343830E-3  
 2.670000000000000E10   -1.664168084971607E-3   1.127829961478710E-2  
 2.672000000000000E10    1.114205922931433E-2   1.410811324603856E-3  
 2.674000000000000E10    7.419005851261318E-4  -1.044212095439434E-2  
 2.676000000000000E10   -9.298794902861118E-3   1.337677240371704E-4  
 2.678000000000000E10    8.401675149798393E-4   8.593262173235416E-3  
 2.680000000000000E10    7.428263779729605E-3  -2.078637015074492E-3  
 2.682000000000000E10   -3.318353323265910E-3  -7.042457349598408E-3  
 2.684000000000000E10   -6.208298727869988E-3   5.435876082628965E-3  
 2.686000000000000E10    6.743228994309902E-3   5.645934492349625E-3  
 2.688000000000000E10    5.225002299994230E-3  -8.000013418495655E-3  
 2.690000000000000E10   -8.993812836706638E-3  -4.919813014566898E-3  
 2.692000000000000E10   -4.810255486518145E-3   9.861506521701813E-3  
 2.694000000000000E10    9.636097587645054E-3   3.791868221014738E-3  
 2.696000000000000E10    3.023518249392510E-3  -9.407502599060535E-3  
 2.698000000000000E10   -8.689050562679768E-3  -2.405932638794184E-3  
 2.700000000000000E10   -1.193753443658352E-3   8.554166182875633E-3  
 2.702000000000000E10    7.950283586978912E-3   2.839637745637447E-4  
 2.704000000000000E10   -9.934944100677967E-4  -7.169548887759447E-3  
 2.706000000000000E10   -6.864245049655438E-3   2.103894250467420E-3  
 2.708000000000000E10    2.918623154982925E-3   6.921953056007624E-3  
 2.710000000000000E10    6.316668819636107E-3  -3.447787370532751E-3  
 2.712000000000000E10   -4.319435916841030E-3  -6.399481091648340E-3  
 2.714000000000000E10   -6.032895296812058E-3   5.062583368271589E-3  
 2.716000000000000E10    5.969126243144274E-3   5.132695659995079E-3  
 2.718000000000000E10    3.740056650713086E-3  -6.610543001443148E-3  
 2.720000000000000E10   -6.368030328303576E-3  -2.790837781503797E-3  
 2.722000000000000E10   -2.251654164865613E-3   6.917590275406838E-3  
 2.724000000000000E10    7.427037227898836E-3   9.311736212112010E-4  
 2.726000000000000E10    8.986580651253462E-4  -7.662818301469088E-3  
 2.728000000000000E10   -8.789115585386753E-3  -7.398181478492916E-4  
 2.730000000000000E10   -3.843143986159703E-6   8.260196074843407E-3  
 2.732000000000000E10    8.533722721040249E-3  -2.790782891679555E-4  
 2.734000000000000E10   -1.063875621184707E-3  -7.137168198823929E-3  
 2.736000000000000E10   -6.384247913956642E-3   9.655600879341364E-4  
 2.738000000000000E10    1.942463335581124E-3   6.123284809291363E-3  
 2.740000000000000E10    4.696059972047806E-3  -3.031814936548472E-3  
 2.742000000000000E10   -3.867851337417960E-3  -3.997634164988995E-3  
 2.744000000000000E10   -3.136410610750318E-3   5.272958427667618E-3  
 2.746000000000000E10    5.661259405314922E-3   2.133599016815424E-3  
 2.748000000000000E10    1.877195318229497E-3  -6.694031413644552E-3  
 2.750000000000000E10   -7.024193648248911E-3  -1.751004252582789E-3  
 2.752000000000000E10   -1.399212400428951E-3   6.404850166290999E-3  
 2.754000000000000E10    7.035595364868641E-3   9.565622895024717E-4  
 2.756000000000000E10    1.205421285703778E-3  -6.073221098631620E-3  
