#  HZ   S   RI   R     50.00 
! Rohde & Schwarz ZVA40 4Ports - Version 3.90 - 1145.1110k42 SN: 100403
! Date: 2023-10-04 10:16:50
! Measurement: S12 
! 
 2.200000000000000E10   -6.189235486090183E-3  -5.876931361854076E-3  
 2.202000000000000E10   -5.186157301068306E-3   8.261905051767826E-3  
 2.204000000000000E10    9.762834757566452E-3   3.543669357895851E-3  
 2.206000000000000E10    2.577523700892925E-3  -1.075827237218618E-2  
 2.208000000000000E10   -1.189359370619059E-2  -2.741398988291621E-3  
 2.210000000000000E10   -9.919890435412526E-4   1.209612935781479E-2  
 2.212000000000000E10    1.120263151824474E-2   1.178702077595517E-4  
 2.214000000000000E10   -6.568899152625818E-6  -1.057205349206924E-2  
 2.216000000000000E10   -1.073464006185532E-2   1.236208132468164E-3  
 2.218000000000000E10    3.791447728872299E-3   9.027720429003239E-3  
 2.220000000000000E10    7.191911805421114E-3  -4.675464238971472E-3  
 2.222000000000000E10   -6.476901471614838E-3  -6.379404570907354E-3  
 2.224000000000000E10   -5.681517533957958E-3   8.028876967728138E-3  
 2.226000000000000E10    8.654875680804253E-3   5.055086687207222E-3  
 2.228000000000000E10    4.737631883472204E-3  -1.003951206803322E-2  
 2.230000000000000E10   -1.023579761385918E-2  -5.135432351380587E-3  
 2.232000000000000E10   -4.573448561131954E-3   1.130546815693378E-2  
 2.234000000000000E10    1.233691629022360E-2   2.325226785615087E-3  
 2.236000000000000E10    1.369462115690112E-3  -9.926574304699898E-3  
 2.238000000000000E10   -9.473130106925964E-3   3.942548210034147E-5  
 2.240000000000000E10    1.965654781088233E-3   9.911489672958851E-3  
 2.242000000000000E10    8.586274459958077E-3  -3.913833294063807E-3  
 2.244000000000000E10   -5.807365756481886E-3  -8.211301639676094E-3  
 2.246000000000000E10   -8.204844780266285E-3   6.503419950604439E-3  
 2.248000000000000E10    7.413994055241346E-3   7.708551827818155E-3  
 2.250000000000000E10    8.251948282122612E-3  -8.954077959060669E-3  
 2.252000000000000E10   -9.011686779558659E-3  -7.479044608771801E-3  
 2.254000000000000E10   -6.875897757709026E-3   8.275447413325310E-3  
 2.256000000000000E10    9.511899203062058E-3   5.865882616490126E-3  
 2.258000000000000E10    4.262638278305531E-3  -9.760444052517414E-3  
 2.260000000000000E10   -9.525600820779800E-3  -3.013711422681809E-3  
 2.262000000000000E10   -1.347869867458940E-3   1.044310349971056E-2  
 2.264000000000000E10    1.072778832167387E-2  -6.570080295205116E-4  
 2.266000000000000E10   -1.781822997145355E-3  -1.072849985212088E-2  
 2.268000000000000E10   -1.123541966080666E-2   2.951156115159392E-3  
 2.270000000000000E10    4.687220789492130E-3   1.099500898271799E-2  
 2.272000000000000E10    9.590926580131054E-3  -4.772432148456574E-3  
 2.274000000000000E10   -5.694252904504538E-3  -9.027483873069286E-3  
 2.276000000000000E10   -8.075002580881119E-3   7.066404446959496E-3  
 2.278000000000000E10    7.718976121395826E-3   6.102698389440775E-3  
 2.280000000000000E10    5.565849132835865E-3  -9.671941399574280E-3  
 2.282000000000000E10   -5.555067211389542E-3  -9.859332814812660E-3  
 2.284000000000000E10   -4.216921981424093E-3   1.195051055401564E-2  
 2.286000000000000E10    1.335601881146431E-2   2.949724905192852E-3  
 2.288000000000000E10    3.403235226869583E-3  -1.295225974172354E-2  
 2.290000000000000E10   -1.343335770070553E-2  -2.117270370945334E-3  
 2.292000000000000E10   -1.032303669489920E-3   1.230144314467907E-2  
 2.294000000000000E10    1.156707294285297E-2  -7.522188388975337E-5  
 2.296000000000000E10   -2.619887702167034E-3  -9.298836812376976E-3  
 2.298000000000000E10   -8.218396455049515E-3   3.271015593782067E-3  
 2.300000000000000E10    6.032577250152826E-3   7.185277994722128E-3  
 2.302000000000000E10    5.877434741705656E-3  -8.222099393606186E-3  
 2.304000000000000E10   -1.096608210355043E-2  -6.187036633491516E-3  
 2.306000000000000E10   -4.953897092491388E-3   1.176863070577383E-2  
 2.308000000000000E10    1.291846297681332E-2   5.125717725604773E-3  
 2.310000000000000E10    4.777287133038044E-3  -1.425588782876730E-2  
 2.312000000000000E10   -1.414611749351025E-2  -4.278969950973988E-3  
 2.314000000000000E10   -3.587557235732675E-3   1.352191716432571E-2  
 2.316000000000000E10    1.243298314511776E-2   2.136034192517400E-3  
 2.318000000000000E10    2.854339545592666E-4  -1.287698000669479E-2  
 2.320000000000000E10   -1.158806867897511E-2   2.504889853298664E-3  
 2.322000000000000E10    3.658977104350925E-3   9.825563989579678E-3  
 2.324000000000000E10    1.011501811444759E-2  -4.987630993127823E-3  
 2.326000000000000E10   -8.034501224756241E-3  -9.373796172440052E-3  
 2.328000000000000E10   -8.492601104080677E-3   8.762788027524948E-3  
 2.330000000000000E10    1.022985950112343E-2   7.026565726846457E-3  
 2.332000000000000E10    5.438358988612890E-3  -1.051501557230949E-2  
 2.334000000000000E10   -1.098620239645243E-2  -4.318903200328350E-3  
 2.336000000000000E10   -2.979543292894959E-3   1.251454930752516E-2  
 2.338000000000000E10    1.298333052545786E-2   9.364411234855652E-4  
 2.340000000000000E10   -7.620942196808755E-4  -1.349499542266130E-2  
 2.342000000000000E10   -1.447425037622452E-2   2.844256814569235E-3  
 2.344000000000000E10    4.274876322597265E-3   1.530300825834274E-2  
 2.346000000000000E10    1.457631401717663E-2  -4.816885106265545E-3  
 2.348000000000000E10   -5.766683723777533E-3  -1.319482550024986E-2  
 2.350000000000000E10   -1.223366986960173E-2   5.931300576776266E-3  
 2.352000000000000E10    6.412646733224392E-3   1.107201352715492E-2  
 2.354000000000000E10    9.426153264939785E-3  -7.173124700784683E-3  
 2.356000000000000E10   -8.503903634846211E-3  -6.135663017630577E-3  
 2.358000000000000E10   -3.191545838490129E-3   1.002209074795246E-2  
 2.360000000000000E10    1.105503458529711E-2   1.018840004689992E-3  
 2.362000000000000E10   -9.978198213502765E-4  -1.279990933835506E-2  
 2.364000000000000E10   -1.385691948235035E-2   2.883649198338389E-3  
 2.366000000000000E10    4.468628205358982E-3   1.426884811371565E-2  
 2.368000000000000E10    1.529939658939838E-2  -4.636859986931086E-3  
 2.370000000000000E10   -4.447953309863806E-3  -1.578171551227570E-2  
 2.372000000000000E10   -1.462886203080416E-2   5.373946391046047E-3  
 2.374000000000000E10    6.682315841317177E-3   1.340611185878515E-2  
 2.376000000000000E10    1.211194787174463E-2  -7.351467851549387E-3  
 2.378000000000000E10   -8.626753464341164E-3  -9.716046974062920E-3  
 2.380000000000000E10   -7.772701326757669E-3   9.659407660365105E-3  
 2.382000000000000E10    1.056262571364641E-2   5.204176995903254E-3  
 2.384000000000000E10    3.495471086353064E-3  -1.256444212049246E-2  
 2.386000000000000E10   -1.333858631551266E-2  -2.056914148852229E-3  
 2.388000000000000E10   -1.297708658967167E-4   1.328308694064617E-2  
 2.390000000000000E10    1.394284144043922E-2  -1.486287219449878E-3  
 2.392000000000000E10   -3.725370625033975E-3  -1.378765236586332E-2  
 2.394000000000000E10   -1.269871555268765E-2   5.248862784355879E-3  
 2.396000000000000E10    7.206815760582686E-3   1.174100209027529E-2  
 2.398000000000000E10    1.075386721640825E-2  -8.620292879641056E-3  
 2.400000000000000E10   -1.077646575868130E-2  -9.973127394914627E-3  
 2.402000000000000E10   -8.461510762572289E-3   1.256913039833307E-2  
 2.404000000000000E10    1.315684337168932E-2   7.028434891253710E-3  
 2.406000000000000E10    6.079210434108973E-3  -1.342813950031996E-2  
 2.408000000000000E10   -1.329774316400290E-2  -5.283030681312084E-3  
 2.410000000000000E10   -3.302655415609479E-3   1.294670160859823E-2  
 2.412000000000000E10    1.134307961910963E-2   1.381253357976675E-3  
 2.414000000000000E10   -2.721034979913384E-4  -1.073957979679108E-2  
 2.416000000000000E10   -1.031837239861488E-2   3.207401838153601E-3  
 2.418000000000000E10    5.298105534166098E-3   9.755756705999374E-3  
 2.420000000000000E10    9.380493313074112E-3  -6.857369095087051E-3  
 2.422000000000000E10   -8.954493328928947E-3  -1.006106939166784E-2  
 2.424000000000000E10   -1.080548111349344E-2   1.037122309207916E-2  
 2.426000000000000E10    1.184446271508932E-2   9.717583656311035E-3  
 2.428000000000000E10    9.035130962729454E-3  -1.138036977499723E-2  
 2.430000000000000E10   -1.157924626022577E-2  -8.962467312812805E-3  
 2.432000000000000E10   -6.872001569718123E-3   1.103067025542259E-2  
 2.434000000000000E10    1.085216179490089E-2   5.283226259052753E-3  
 2.436000000000000E10    3.316410584375262E-3  -1.017697621136904E-2  
 2.438000000000000E10   -1.030128728598356E-2  -1.361886155791581E-3  
 2.440000000000000E10    1.336577464826405E-3   1.090564578771591E-2  
 2.442000000000000E10    1.052925270050764E-2  -3.351367078721523E-3  
 2.444000000000000E10   -4.796449560672045E-3  -1.062709372490645E-2  
 2.446000000000000E10   -1.066417060792446E-2   6.374363787472248E-3  
 2.448000000000000E10    6.389094050973654E-3   9.935141541063786E-3  
 2.450000000000000E10    9.923285804688931E-3  -6.784877274185419E-3  
 2.452000000000000E10   -8.733830414712429E-3  -8.972823619842529E-3  
 2.454000000000000E10   -7.925963960587978E-3   8.509801700711250E-3  
 2.456000000000000E10    9.292137809097767E-3   7.272487506270409E-3  
 2.458000000000000E10    5.883509758859873E-3  -9.939284995198250E-3  
 2.460000000000000E10   -1.142944674938917E-2  -4.531136713922024E-3  
 2.462000000000000E10   -2.989207394421101E-3   1.139135286211968E-2  
 2.464000000000000E10    1.128528825938702E-2   2.374617150053382E-3  
 2.466000000000000E10    1.823654514737427E-3  -1.116837933659554E-2  
 2.468000000000000E10   -1.118155475705862E-2  -4.772449028678238E-4  
 2.470000000000000E10    9.821867570281029E-4   1.089147757738829E-2  
 2.472000000000000E10    8.970570750534535E-3  -2.898674458265305E-3  
 2.474000000000000E10   -4.145035054534674E-3  -8.333651348948479E-3  
 2.476000000000000E10   -8.537225425243378E-3   5.677455104887486E-3  
 2.478000000000000E10    7.826161570847035E-3   7.057636510580778E-3  
 2.480000000000000E10    6.495679263025522E-3  -9.673387743532658E-3  
 2.482000000000000E10   -1.063879393041134E-2  -7.272554095834494E-3  
 2.484000000000000E10   -7.151374593377113E-3   1.187103055417538E-2  
 2.486000000000000E10    1.240083109587431E-2   6.108829751610756E-3  
 2.488000000000000E10    5.065090954303742E-3  -1.152050122618675E-2  
 2.490000000000000E10   -1.120700687170029E-2  -4.356942139565945E-3  
 2.492000000000000E10   -2.952855546027422E-3   9.992748498916626E-3  
 2.494000000000000E10    8.499484509229660E-3   1.921418355777860E-3  
 2.496000000000000E10   -5.023913108743727E-4  -9.149130433797836E-3  
 2.498000000000000E10   -8.929866366088390E-3   2.480202121660113E-3  
 2.500000000000000E10    4.043257329612970E-3   8.259222842752934E-3  
 2.502000000000000E10    8.374874480068684E-3  -6.153826601803303E-3  
 2.504000000000000E10   -7.375998422503471E-3  -8.596420288085938E-3  
 2.506000000000000E10   -8.020416833460331E-3   8.076358586549759E-3  
 2.508000000000000E10    8.062701672315598E-3   7.946714758872986E-3  
 2.510000000000000E10    8.283856324851513E-3  -8.533554151654244E-3  
 2.512000000000000E10   -9.065535850822926E-3  -6.830326281487942E-3  
 2.514000000000000E10   -6.101100239902735E-3   9.402439929544926E-3  
 2.516000000000000E10    9.730346500873566E-3   4.871087614446878E-3  
 2.518000000000000E10    3.927621524780989E-3  -1.026015635579824E-2  
 2.520000000000000E10   -1.055085472762585E-2  -1.813703216612339E-3  
 2.522000000000000E10   -1.956024352693930E-4   1.079452969133854E-2  
 2.524000000000000E10    1.103542465716600E-2  -1.140776323154569E-3  
 2.526000000000000E10   -1.393849845044315E-3  -1.073162350803614E-2  
 2.528000000000000E10   -9.882390499114990E-3   2.837037201970816E-3  
 2.530000000000000E10    4.465865902602673E-3   9.465438313782215E-3  
 2.532000000000000E10    9.350434876978397E-3  -6.090534850955010E-3  
 2.534000000000000E10   -7.026652805507183E-3  -7.924485951662064E-3  
 2.536000000000000E10   -6.455857306718826E-3   8.709176443517208E-3  
 2.538000000000000E10    1.041548792272806E-2   5.168349947780371E-3  
 2.540000000000000E10    4.802806302905083E-3  -1.092291250824928E-2  
 2.542000000000000E10   -1.150883175432682E-2  -4.505049902945757E-3  
 2.544000000000000E10   -3.916712943464518E-3   1.192870177328587E-2  
 2.546000000000000E10    1.182436197996140E-2   3.171669552102685E-3  
 2.548000000000000E10    2.512614242732525E-3  -1.202250644564629E-2  
 2.550000000000000E10   -1.109209377318621E-2  -9.720965754240751E-4  
 2.552000000000000E10    9.076244314201176E-4   1.038844138383865E-2  
 2.554000000000000E10    8.888368494808674E-3  -3.282153746113181E-3  
 2.556000000000000E10   -4.538385197520256E-3  -7.778516039252281E-3  
 2.558000000000000E10   -7.374433334916830E-3   6.418398581445217E-3  
 2.560000000000000E10    8.412875235080719E-3   6.851691752672195E-3  
 2.562000000000000E10    6.162384059280157E-3  -8.963850326836109E-3  
 2.564000000000000E10   -1.084272004663944E-2  -6.230813916772604E-3  
 2.566000000000000E10   -6.186194717884064E-3   1.216471008956432E-2  
 2.568000000000000E10    1.309007126837969E-2   4.545694217085838E-3  
 2.570000000000000E10    2.234071493148804E-3  -1.327801495790482E-2  
 2.572000000000000E10   -1.209660526365042E-2  -1.655689906328917E-3  
 2.574000000000000E10   -5.041318945586681E-4   1.196715049445629E-2  
 2.576000000000000E10    1.185878645628691E-2  -1.286711543798447E-3  
 2.578000000000000E10   -3.272153669968247E-3  -1.136286556720734E-2  
 2.580000000000000E10   -9.887667372822762E-3   5.245417822152376E-3  
 2.582000000000000E10    6.242524832487106E-3   9.943977929651737E-3  
 2.584000000000000E10    8.959019556641579E-3  -7.376347202807665E-3  
 2.586000000000000E10   -8.786496706306934E-3  -7.465432863682509E-3  
 2.588000000000000E10   -6.644102744758129E-3   9.153932332992554E-3  
 2.590000000000000E10    9.733937680721283E-3   5.222021136432886E-3  
 2.592000000000000E10    3.756338963285089E-3  -1.034886576235294E-2  
 2.594000000000000E10   -1.155105791985989E-2  -3.273653797805309E-3  
 2.596000000000000E10   -1.455252757295966E-3   1.251504849642515E-2  
 2.598000000000000E10    1.279264315962791E-2  -3.666183038149029E-4  
 2.600000000000000E10   -1.103010610677302E-3  -1.374408137053251E-2  
 2.602000000000000E10   -1.425444427877665E-2   1.862650504335761E-3  
 2.604000000000000E10    3.502231556922197E-3   1.342397462576628E-2  
 2.606000000000000E10    1.187830418348312E-2  -4.519448149949312E-3  
 2.608000000000000E10   -4.356587771326304E-3  -1.093484461307526E-2  
 2.610000000000000E10   -1.006746944040060E-2   5.017691757529974E-3  
 2.612000000000000E10    6.430683191865683E-3   8.549327030777931E-3  
 2.614000000000000E10    6.203886121511459E-3  -8.022123016417027E-3  
 2.616000000000000E10   -9.187713265419006E-3  -5.669705569744110E-3  
 2.618000000000000E10   -4.602851811796427E-3   1.063814666122198E-2  
 2.620000000000000E10    1.208196580410004E-2   2.703407080844045E-3  
 2.622000000000000E10    1.761671621352434E-3  -1.286048907786608E-2  
 2.624000000000000E10   -1.297396514564753E-2  -1.454233308322728E-3  
 2.626000000000000E10   -2.919347025454044E-4   1.288002170622349E-2  
 2.628000000000000E10    1.287239789962769E-2  -8.407293353229761E-4  
 2.630000000000000E10   -2.047666348516941E-3  -1.212587114423513E-2  
 2.632000000000000E10   -1.151434052735567E-2   3.944338764995337E-3  
 2.634000000000000E10    5.060554947704077E-3   1.031059864908457E-2  
 2.636000000000000E10    8.878317661583424E-3  -6.352441851049662E-3  
 2.638000000000000E10   -7.347520906478167E-3  -7.911014370620251E-3  
 2.640000000000000E10   -7.055875845253468E-3   8.223129436373711E-3  
 2.642000000000000E10    8.833700791001320E-3   6.273262202739716E-3  
 2.644000000000000E10    6.162357516586781E-3  -9.260707534849644E-3  
 2.646000000000000E10   -1.013606321066618E-2  -4.878315143287182E-3  
 2.648000000000000E10   -2.334618475288153E-3   1.060665212571621E-2  
 2.650000000000000E10    1.079453155398369E-2   1.809051726013422E-3  
 2.652000000000000E10   -1.194067444885150E-4  -1.071879826486111E-2  
 2.654000000000000E10   -1.066282764077187E-2   2.060082973912358E-3  
 2.656000000000000E10    4.075179342180491E-3   1.076170988380909E-2  
 2.658000000000000E10    1.024840958416462E-2  -4.761765245348215E-3  
 2.660000000000000E10   -5.900679156184197E-3  -1.013437937945128E-2  
 2.662000000000000E10   -9.557814337313175E-3   7.037535775452852E-3  
 2.664000000000000E10    7.262849714607000E-3   8.616656996309757E-3  
 2.666000000000000E10    7.707121316343546E-3  -7.085177116096020E-3  
 2.668000000000000E10   -6.716629024595022E-3  -6.248128134757280E-3  
 2.670000000000000E10   -4.734339658170939E-3   7.782791275531054E-3  
 2.672000000000000E10    7.611584383994341E-3   3.554352093487978E-3  
 2.674000000000000E10    2.545354422181845E-3  -7.686766795814037E-3  
 2.676000000000000E10   -9.490251541137695E-3  -6.305101560428739E-4  
 2.678000000000000E10    8.141402504406869E-4   9.840957820415497E-3  
 2.680000000000000E10    9.911832399666309E-3  -5.557905533351004E-4  
 2.682000000000000E10   -2.515755360946059E-3  -1.044551841914654E-2  
 2.684000000000000E10   -1.018815860152245E-2   3.483621869236231E-3  
 2.686000000000000E10    3.996872808784246E-3   9.293255396187306E-3  
 2.688000000000000E10    8.396749384701252E-3  -4.503138363361359E-3  
 2.690000000000000E10   -5.281074903905392E-3  -7.719290908426046E-3  
 2.692000000000000E10   -5.997098051011562E-3   5.793662276118994E-3  
 2.694000000000000E10    6.369090173393488E-3   5.219436250627041E-3  
 2.696000000000000E10    4.528459161520004E-3  -7.117038592696190E-3  
 2.698000000000000E10   -8.089832030236721E-3  -3.810247406363487E-3  
 2.700000000000000E10   -3.173734294250608E-3   8.419848978519440E-3  
 2.702000000000000E10    8.050960488617420E-3   2.807912649586797E-3  
 2.704000000000000E10    2.068090019747615E-3  -9.337591938674450E-3  
 2.706000000000000E10   -8.776991628110409E-3  -7.991520105861127E-4  
 2.708000000000000E10   -3.906736674252898E-4   8.019796572625637E-3  
 2.710000000000000E10    7.913989946246147E-3  -1.098038977943361E-3  
 2.712000000000000E10   -2.338074147701263E-3  -7.880677469074726E-3  
 2.714000000000000E10   -7.103468757122755E-3   4.163639154285193E-3  
 2.716000000000000E10    4.466975107789040E-3   6.048985291272402E-3  
 2.718000000000000E10    6.048936396837235E-3  -5.375255830585957E-3  
 2.720000000000000E10   -6.148799788206816E-3  -6.158174481242895E-3  
 2.722000000000000E10   -5.471808370202780E-3   6.225767545402050E-3  
 2.724000000000000E10    5.436918232589960E-3   5.738219246268272E-3  
 2.726000000000000E10    4.917977843433619E-3  -6.360762286931276E-3  
 2.728000000000000E10   -6.332533434033394E-3  -4.519799724221230E-3  
 2.730000000000000E10   -3.784911707043648E-3   6.481940392404795E-3  
 2.732000000000000E10    7.081856019794941E-3   2.037703292444348E-3  
 2.734000000000000E10    8.545308955945075E-4  -7.045309524983168E-3  
 2.736000000000000E10   -6.989446934312582E-3   6.161521887406707E-4  
 2.738000000000000E10    1.425573485903442E-3   7.644309196621180E-3  
 2.740000000000000E10    7.177663035690785E-3  -2.312320517376065E-3  
 2.742000000000000E10   -3.062374424189329E-3  -7.247035391628742E-3  
 2.744000000000000E10   -6.770577747374773E-3   3.762692678719759E-3  
 2.746000000000000E10    4.077274352312088E-3   5.952490027993918E-3  
 2.748000000000000E10    5.311788525432348E-3  -4.393810871988535E-3  
 2.750000000000000E10   -4.474025219678879E-3  -5.026888102293015E-3  
 2.752000000000000E10   -3.676808672025800E-3   5.075121298432350E-3  
 2.754000000000000E10    5.499965045601130E-3   3.349990816786885E-3  
 2.756000000000000E10    3.375035943463445E-3  -5.827540531754494E-3  
