#  HZ   S   RI   R     50.00 
! Rohde & Schwarz ZVA40 4Ports - Version 3.90 - 1145.1110k42 SN: 100403
! Date: 2023-10-04 10:19:40
! Measurement: S12 
! 
 2.200000000000000E10   -8.337703533470631E-3  -1.042415574193001E-2  
 2.202000000000000E10   -8.568102493882179E-3   7.867323234677315E-3  
 2.204000000000000E10    7.815021090209484E-3   6.641879677772522E-3  
 2.206000000000000E10    4.372490104287863E-3  -8.961712941527367E-3  
 2.208000000000000E10   -9.449345059692860E-3  -2.299317857250571E-3  
 2.210000000000000E10   -4.715280956588686E-4   1.008870545774698E-2  
 2.212000000000000E10    1.004986744374037E-2  -1.003623125143349E-3  
 2.214000000000000E10   -2.272989368066192E-3  -1.049843709915876E-2  
 2.216000000000000E10   -1.135709602385759E-2   4.478321410715580E-3  
 2.218000000000000E10    4.838083870708942E-3   1.078575290739536E-2  
 2.220000000000000E10    1.087877992540598E-2  -3.916548565030098E-3  
 2.222000000000000E10   -4.622848238795996E-3  -1.077219378203154E-2  
 2.224000000000000E10   -1.002259459346533E-2   5.459939595311880E-3  
 2.226000000000000E10    6.219593342393637E-3   9.657775983214378E-3  
 2.228000000000000E10    8.899930864572525E-3  -6.816370412707329E-3  
 2.230000000000000E10   -7.653772830963135E-3  -7.183756679296494E-3  
 2.232000000000000E10   -5.817012395709753E-3   9.345775470137596E-3  
 2.234000000000000E10    9.326405823230743E-3   4.221198614686728E-3  
 2.236000000000000E10    3.730230499058962E-3  -9.794862940907478E-3  
 2.238000000000000E10   -9.601255878806114E-3  -2.745134057477117E-3  
 2.240000000000000E10   -1.700182911008596E-3   1.017422135919333E-2  
 2.242000000000000E10    1.059337053447962E-2   1.163514170912094E-4  
 2.244000000000000E10   -1.017548143863678E-3  -1.027219835668802E-2  
 2.246000000000000E10   -9.594871662557125E-3   2.854499733075500E-3  
 2.248000000000000E10    4.322111140936613E-3   9.425010532140732E-3  
 2.250000000000000E10    9.592723101377487E-3  -5.961596965789795E-3  
 2.252000000000000E10   -7.554885465651751E-3  -8.726767264306545E-3  
 2.254000000000000E10   -8.595113642513752E-3   7.904778234660626E-3  
 2.256000000000000E10    8.539591915905476E-3   9.132737293839455E-3  
 2.258000000000000E10    8.355442434549332E-3  -9.716263972222805E-3  
 2.260000000000000E10   -9.048212319612503E-3  -8.267691358923912E-3  
 2.262000000000000E10   -6.844036746770144E-3   9.485551156103611E-3  
 2.264000000000000E10    9.733011946082115E-3   5.163435358554125E-3  
 2.266000000000000E10    3.575412556529045E-3  -9.982580319046974E-3  
 2.268000000000000E10   -9.778369218111038E-3  -1.667205942794681E-3  
 2.270000000000000E10    3.595630114432424E-4   9.118055924773216E-3  
 2.272000000000000E10    9.888028725981712E-3  -2.419340191408992E-3  
 2.274000000000000E10   -2.951246919110417E-3  -1.082020252943039E-2  
 2.276000000000000E10   -1.202647294849157E-2   4.915247205644846E-3  
 2.278000000000000E10    6.836633663624525E-3   1.122737210243940E-2  
 2.280000000000000E10    1.113004982471466E-2  -7.261134218424559E-3  
 2.282000000000000E10   -4.874350561294705E-4  -1.313558127731085E-2  
 2.284000000000000E10   -9.146239608526230E-3   8.263627998530865E-3  
 2.286000000000000E10    7.855184376239777E-3   7.072161417454481E-3  
 2.288000000000000E10    6.254267878830433E-3  -8.372634649276733E-3  
 2.290000000000000E10   -9.423159062862396E-3  -5.360418930649757E-3  
 2.292000000000000E10   -4.263134673237801E-3   1.058291830122471E-2  
 2.294000000000000E10    1.158073637634516E-2   1.262557227164507E-3  
 2.296000000000000E10   -3.689824370667338E-4  -1.232774462550879E-2  
 2.298000000000000E10   -1.266484893858433E-2   2.025909023359418E-3  
 2.300000000000000E10    3.239128738641739E-3   1.239017397165299E-2  
 2.302000000000000E10    1.157314796000719E-2  -3.608123632147908E-3  
 2.304000000000000E10   -4.969521891325712E-3  -1.076772995293140E-2  
 2.306000000000000E10   -1.021159533411264E-2   5.881131161004305E-3  
 2.308000000000000E10    6.515382323414087E-3   9.044577367603779E-3  
 2.310000000000000E10    7.988373748958111E-3  -8.119978010654450E-3  
 2.312000000000000E10   -9.995800442993641E-3  -6.346727255731821E-3  
 2.314000000000000E10   -4.885098896920681E-3   1.131625473499298E-2  
 2.316000000000000E10    1.133913733065128E-2   3.754323814064264E-3  
 2.318000000000000E10    2.895062323659658E-3  -1.193372532725334E-2  
 2.320000000000000E10   -1.223681308329105E-2  -9.820463601499796E-4  
 2.322000000000000E10   -9.991030674427748E-4   1.169017795473337E-2  
 2.324000000000000E10    1.205781474709511E-2   2.085540036205202E-4  
 2.326000000000000E10   -2.150520216673613E-3  -1.090886909514666E-2  
 2.328000000000000E10   -9.745469316840172E-3   3.898703260347247E-3  
 2.330000000000000E10    5.796663463115692E-3   9.142632596194744E-3  
 2.332000000000000E10    7.834797725081444E-3  -7.194698788225651E-3  
 2.334000000000000E10   -8.268856443464756E-3  -6.824123673141003E-3  
 2.336000000000000E10   -6.174239329993725E-3   9.701116010546684E-3  
 2.338000000000000E10    1.046693418174982E-2   6.201704498380423E-3  
 2.340000000000000E10    5.599115975201130E-3  -1.074833236634731E-2  
 2.342000000000000E10   -1.098908390849829E-2  -5.233637522906065E-3  
 2.344000000000000E10   -4.906102549284697E-3   1.191530190408230E-2  
 2.346000000000000E10    1.141795143485069E-2   2.755027264356613E-3  
 2.348000000000000E10    5.426829447969794E-4  -1.011439599096775E-2  
 2.350000000000000E10   -9.580989368259907E-3   6.635138997808099E-4  
 2.352000000000000E10    3.005713922902942E-3   9.672758169472218E-3  
 2.354000000000000E10    8.647052571177483E-3  -5.631390027701855E-3  
 2.356000000000000E10   -6.923560053110123E-3  -8.292975835502148E-3  
 2.358000000000000E10   -7.763856556266546E-3   8.501852862536907E-3  
 2.360000000000000E10    9.660238400101662E-3   7.829659618437290E-3  
 2.362000000000000E10    6.754946429282427E-3  -1.085990108549595E-2  
 2.364000000000000E10   -1.108494587242603E-2  -5.250413902103901E-3  
 2.366000000000000E10   -4.513693042099476E-3   1.038854289799929E-2  
 2.368000000000000E10    9.695541113615036E-3   3.198641818016768E-3  
 2.370000000000000E10    1.980903558433056E-3  -9.762135334312916E-3  
 2.372000000000000E10   -1.018095389008522E-2  -1.187265850603581E-3  
 2.374000000000000E10    4.251972713973373E-4   1.065217610448599E-2  
 2.376000000000000E10    1.106495223939419E-2  -2.743725897744298E-3  
 2.378000000000000E10   -4.617175552994013E-3  -1.070257928222418E-2  
 2.380000000000000E10   -1.022685226053000E-2   6.803014315664768E-3  
 2.382000000000000E10    7.622072007507086E-3   9.288561530411243E-3  
 2.384000000000000E10    7.445759139955044E-3  -7.764274720102549E-3  
 2.386000000000000E10   -8.122649043798447E-3  -6.092966999858618E-3  
 2.388000000000000E10   -5.476758349686861E-3   8.309531025588512E-3  
 2.390000000000000E10    8.910482749342918E-3   3.804236650466919E-3  
 2.392000000000000E10    1.717050443403423E-3  -9.744724258780479E-3  
 2.394000000000000E10   -9.866138920187950E-3  -5.512023926712573E-4  
 2.396000000000000E10    1.252209418453276E-3   1.044638175517321E-2  
 2.398000000000000E10    1.143990736454725E-2  -2.056820318102837E-3  
 2.400000000000000E10   -2.936551347374916E-3  -1.086142472922802E-2  
 2.402000000000000E10   -9.881664067506790E-3   5.047838203608990E-3  
 2.404000000000000E10    5.052729975432158E-3   1.007170975208283E-2  
 2.406000000000000E10    8.955605328083038E-3  -5.233394913375378E-3  
 2.408000000000000E10   -5.568576510995626E-3  -7.475162856280804E-3  
 2.410000000000000E10   -6.368453148752451E-3   6.538226734846830E-3  
 2.412000000000000E10    7.741441018879414E-3   4.253889434039593E-3  
 2.414000000000000E10    3.156034043058753E-3  -7.894040085375309E-3  
 2.416000000000000E10   -8.860260248184204E-3  -1.559713156893849E-3  
 2.418000000000000E10   -1.465525419916958E-4   9.528432972729206E-3  
 2.420000000000000E10    1.018469966948032E-2   7.536093471571803E-5  
 2.422000000000000E10   -4.303140303818509E-5  -9.747404605150223E-3  
 2.424000000000000E10   -9.979669936001301E-3   5.841593374498189E-4  
 2.426000000000000E10    8.928168099373579E-4   9.956583380699158E-3  
 2.428000000000000E10    9.208071045577526E-3  -1.859245123341680E-3  
 2.430000000000000E10   -3.258234821259975E-3  -8.517250418663025E-3  
 2.432000000000000E10   -7.441120687872171E-3   4.310414660722017E-3  
 2.434000000000000E10    6.051358766853809E-3   6.042988505214453E-3  
 2.436000000000000E10    4.381306003779173E-3  -7.348695769906044E-3  
 2.438000000000000E10   -8.079124614596367E-3  -4.714029375463724E-3  
 2.440000000000000E10   -3.663730574771762E-3   9.027651511132717E-3  
 2.442000000000000E10    9.481277316808701E-3   2.731373766437173E-3  
 2.444000000000000E10    2.432538662105799E-3  -9.438758715987206E-3  
 2.446000000000000E10   -8.955759927630425E-3  -1.749466173350811E-3  
 2.448000000000000E10   -1.461174571886659E-3   8.182611316442490E-3  
 2.450000000000000E10    7.888403721153736E-3  -3.537523070917814E-6  
 2.452000000000000E10   -8.571195066906512E-4  -7.317635230720043E-3  
 2.454000000000000E10   -6.941961124539375E-3   2.064234344288707E-3  
 2.456000000000000E10    3.299327800050378E-3   6.541807670146227E-3  
 2.458000000000000E10    6.953069940209389E-3  -4.605811089277268E-3  
 2.460000000000000E10   -6.117966026067734E-3  -6.863967515528202E-3  
 2.462000000000000E10   -6.572846323251724E-3   6.974537391215563E-3  
 2.464000000000000E10    7.202574051916599E-3   6.469205021858215E-3  
 2.466000000000000E10    5.108016077429056E-3  -7.710012607276440E-3  
 2.468000000000000E10   -7.824688218533993E-3  -4.220246803015471E-3  
 2.470000000000000E10   -2.928403904661536E-3   8.010425604879856E-3  
 2.472000000000000E10    6.793776061385870E-3   1.718968036584556E-3  
 2.474000000000000E10    5.591034423559904E-4  -6.889683660119772E-3  
 2.476000000000000E10   -7.053157314658165E-3   3.633526212070137E-4  
 2.478000000000000E10    1.203226624056697E-3   7.906418293714523E-3  
 2.480000000000000E10    8.070670999586582E-3  -2.780148759484291E-3  
 2.482000000000000E10   -3.009236417710781E-3  -7.736023515462875E-3  
 2.484000000000000E10   -7.934507913887501E-3   4.011897835880518E-3  
 2.486000000000000E10    4.895335528999567E-3   7.912971079349518E-3  
 2.488000000000000E10    6.325877737253904E-3  -4.925382323563099E-3  
 2.490000000000000E10   -5.326284095644951E-3  -4.688591230660677E-3  
 2.492000000000000E10   -4.285432863980532E-3   6.046290975064039E-3  
 2.494000000000000E10    6.856271531432867E-3   3.264546394348145E-3  
 2.496000000000000E10    1.463909167796373E-3  -7.428360637277365E-3  
 2.498000000000000E10   -7.771974895149469E-3  -4.243138537276536E-4  
 2.500000000000000E10    2.597108832560480E-4   8.541682735085487E-3  
 2.502000000000000E10    8.795625530183315E-3  -1.061337417922914E-3  
 2.504000000000000E10   -9.317960357293487E-4  -8.370445109903812E-3  
 2.506000000000000E10   -7.742877583950758E-3   8.509093895554543E-4  
 2.508000000000000E10    8.907050359994173E-4   7.928501814603806E-3  
 2.510000000000000E10    7.087027654051781E-3  -1.215015305206180E-3  
 2.512000000000000E10   -1.455096993595362E-3  -6.780565250664949E-3  
 2.514000000000000E10   -6.216163281351328E-3   2.923785243183374E-3  
 2.516000000000000E10    4.339941311627626E-3   4.254859406501055E-3  
 2.518000000000000E10    3.811481175944209E-3  -5.827619694173336E-3  
 2.520000000000000E10   -6.529708858579397E-3  -3.193117678165436E-3  
 2.522000000000000E10   -2.325401874259114E-3   7.288648746907711E-3  
 2.524000000000000E10    8.058034814894199E-3   1.857780036516488E-3  
 2.526000000000000E10    1.696202205494046E-3  -8.483276702463627E-3  
 2.528000000000000E10   -8.472166955471039E-3  -1.542699174024165E-3  
 2.530000000000000E10   -1.145759946666658E-3   9.082923643290997E-3  
 2.532000000000000E10    8.282775990664959E-3  -5.716334562748671E-4  
 2.534000000000000E10   -1.308186678215861E-3  -7.981438189744949E-3  
 2.536000000000000E10   -8.239387534558773E-3   1.898590940982103E-3  
 2.538000000000000E10    3.292008303105831E-3   7.125758565962315E-3  
 2.540000000000000E10    7.017034571617842E-3  -3.871407359838486E-3  
 2.542000000000000E10   -4.693258088082075E-3  -7.304730825126171E-3  
 2.544000000000000E10   -6.381134036928415E-3   6.158428266644478E-3  
 2.546000000000000E10    7.369589991867542E-3   5.750891286879778E-3  
 2.548000000000000E10    4.169958643615246E-3  -7.453540805727243E-3  
 2.550000000000000E10   -7.812852971255779E-3  -2.370091620832682E-3  
 2.552000000000000E10   -4.946514382027090E-4   7.739374879747629E-3  
 2.554000000000000E10    6.882380228489637E-3  -7.439252804033458E-4  
 2.556000000000000E10   -1.399767235852778E-3  -7.110379636287689E-3  
 2.558000000000000E10   -7.519179489463568E-3   2.534554339945316E-3  
 2.560000000000000E10    3.955442458391190E-3   7.597255520522595E-3  
 2.562000000000000E10    8.448792621493340E-3  -4.602472763508558E-3  
 2.564000000000000E10   -4.921824671328068E-3  -9.007564745843411E-3  
 2.566000000000000E10   -9.090743958950043E-3   6.424309685826302E-3  
 2.568000000000000E10    6.983706261962652E-3   8.011244237422943E-3  
 2.570000000000000E10    7.002887316048145E-3  -6.640944164246321E-3  
 2.572000000000000E10   -7.176597137004137E-3  -6.086011417210102E-3  
 2.574000000000000E10   -4.227150231599808E-3   7.160631008446217E-3  
 2.576000000000000E10    7.602652534842491E-3   2.726384904235601E-3  
 2.578000000000000E10    9.328367887064815E-4  -8.703820407390595E-3  
 2.580000000000000E10   -8.476389572024345E-3   1.417878665961325E-3  
 2.582000000000000E10    3.371922066435218E-3   8.300468325614929E-3  
 2.584000000000000E10    8.375807665288448E-3  -4.312642849981785E-3  
 2.586000000000000E10   -4.608152434229851E-3  -8.773142471909523E-3  
 2.588000000000000E10   -7.808659691363573E-3   4.945812746882439E-3  
 2.590000000000000E10    4.975622519850731E-3   8.078868500888348E-3  
 2.592000000000000E10    9.363267570734024E-3  -5.751879420131445E-3  
 2.594000000000000E10   -6.959201768040657E-3  -8.653601631522179E-3  
 2.596000000000000E10   -7.067124359309673E-3   8.089883252978325E-3  
 2.598000000000000E10    9.082213975489140E-3   5.842735059559345E-3  
 2.600000000000000E10    4.220872651785612E-3  -1.033328939229250E-2  
 2.602000000000000E10   -1.052675023674965E-2  -2.462318632751703E-3  
 2.604000000000000E10   -7.926033576950431E-4   9.740372188389301E-3  
 2.606000000000000E10    9.943136945366859E-3  -3.471099480520934E-4  
 2.608000000000000E10   -1.049744896590710E-3  -1.039210520684719E-2  
 2.610000000000000E10   -9.501817636191845E-3   1.836088136769831E-3  
 2.612000000000000E10    3.164372639730573E-3   9.327707812190056E-3  
 2.614000000000000E10    9.142536669969559E-3  -4.591752309352160E-3  
 2.616000000000000E10   -6.079342681914568E-3  -7.941971533000469E-3  
 2.618000000000000E10   -7.064017932862043E-3   7.525616791099310E-3  
 2.620000000000000E10    8.467072620987892E-3   7.311117835342884E-3  
 2.622000000000000E10    6.620382890105248E-3  -8.854348212480545E-3  
 2.624000000000000E10   -9.769163094460964E-3  -6.248160731047392E-3  
 2.626000000000000E10   -6.481896620243788E-3   1.139579806476831E-2  
 2.628000000000000E10    1.222895365208387E-2   5.098705645650625E-3  
 2.630000000000000E10    3.307787701487541E-3  -1.231964770704508E-2  
 2.632000000000000E10   -1.079505961388350E-2  -5.144921597093344E-4  
 2.634000000000000E10    4.455742309801281E-4   1.031379494816065E-2  
 2.636000000000000E10    9.921752847731113E-3  -1.638261019252241E-3  
 2.638000000000000E10   -2.931257477030158E-3  -8.465923368930817E-3  
 2.640000000000000E10   -8.475911803543568E-3   4.631237126886845E-3  
 2.642000000000000E10    6.295605562627316E-3   8.952339179813862E-3  
 2.644000000000000E10    8.900126442313194E-3  -7.803658489137888E-3  
 2.646000000000000E10   -9.665484540164471E-3  -8.176134899258614E-3  
 2.648000000000000E10   -7.602577097713947E-3   1.030232757329941E-2  
 2.650000000000000E10    1.133857946842909E-2   6.928370334208012E-3  
 2.652000000000000E10    6.087276153266430E-3  -1.199542079120874E-2  
 2.654000000000000E10   -1.189223304390907E-2  -4.143932834267616E-3  
 2.656000000000000E10   -2.278267173096538E-3   1.235304959118366E-2  
 2.658000000000000E10    1.276494748890400E-2   5.043120472691953E-4  
 2.660000000000000E10   -2.272187499329448E-3  -1.269900053739548E-2  
 2.662000000000000E10   -1.102587301284075E-2   4.258676897734404E-3  
 2.664000000000000E10    5.200129933655262E-3   1.056227926164866E-2  
 2.666000000000000E10    1.013996452093124E-2  -6.967867724597454E-3  
 2.668000000000000E10   -7.433524355292320E-3  -8.909482508897781E-3  
 2.670000000000000E10   -8.247202262282372E-3   7.389997132122517E-3  
 2.672000000000000E10    8.218931034207344E-3   7.552020717412233E-3  
 2.674000000000000E10    6.555924192070961E-3  -9.094924665987492E-3  
 2.676000000000000E10   -1.028054673224688E-2  -5.662967916578054E-3  
 2.678000000000000E10   -4.162738099694252E-3   1.083938125520945E-2  
 2.680000000000000E10    1.185202226042748E-2   2.349013695493341E-3  
 2.682000000000000E10    2.160415024263784E-4  -1.203496288508177E-2  
 2.684000000000000E10   -1.250574085861445E-2   5.837878416059539E-5  
 2.686000000000000E10    1.391575206071138E-3   1.293888967484236E-2  
 2.688000000000000E10    1.246824767440558E-2  -3.304022364318371E-3  
 2.690000000000000E10   -4.277526866644621E-3  -1.178598962724209E-2  
 2.692000000000000E10   -1.071557682007551E-2   4.795881453901529E-3  
 2.694000000000000E10    6.506950128823519E-3   9.691749699413776E-3  
 2.696000000000000E10    8.151985704898834E-3  -7.426135241985321E-3  
 2.698000000000000E10   -8.203814737498760E-3  -6.774846930056810E-3  
 2.700000000000000E10   -5.886526312679052E-3   9.060348384082317E-3  
 2.702000000000000E10    1.091085746884346E-2   4.943926353007555E-3  
 2.704000000000000E10    3.186865244060755E-3  -1.160267926752567E-2  
 2.706000000000000E10   -1.233922690153122E-2  -2.788013080134988E-3  
 2.708000000000000E10   -2.017886843532324E-3   1.313639245927334E-2  
 2.710000000000000E10    1.310846209526062E-2   5.693658022210002E-4  
 2.712000000000000E10   -7.657703245058656E-4  -1.293360721319914E-2  
 2.714000000000000E10   -1.212262455374003E-2   2.292089629918337E-3  
 2.716000000000000E10    3.451007185503840E-3   1.103486400097609E-2  
 2.718000000000000E10    9.488286450505257E-3  -4.991535563021898E-3  
 2.720000000000000E10   -6.187555845826864E-3  -8.536770939826965E-3  
 2.722000000000000E10   -8.013965561985970E-3   7.884265854954720E-3  
 2.724000000000000E10    8.830201812088490E-3   7.590035442262888E-3  
 2.726000000000000E10    6.618923973292112E-3  -9.622192010283470E-3  
 2.728000000000000E10   -1.121975574642420E-2  -6.117631215602160E-3  
 2.730000000000000E10   -5.419776309281588E-3   1.213635876774788E-2  
 2.732000000000000E10    1.186020113527775E-2   4.219733644276857E-3  
 2.734000000000000E10    3.205666551366448E-3  -1.222729217261076E-2  
 2.736000000000000E10   -1.244306191802025E-2  -2.059156773611903E-3  
 2.738000000000000E10    5.154109676368535E-4   1.250166259706020E-2  
 2.740000000000000E10    1.140311453491449E-2  -2.106561325490475E-3  
 2.742000000000000E10   -3.271080087870359E-3  -1.010420545935631E-2  
 2.744000000000000E10   -1.021233759820461E-2   5.655402783304453E-3  
 2.746000000000000E10    5.856969859451056E-3   9.374786168336868E-3  
 2.748000000000000E10    8.076555095613003E-3  -6.811339873820543E-3  
 2.750000000000000E10   -7.980851456522942E-3  -7.780897896736860E-3  
 2.752000000000000E10   -7.361275143921375E-3   8.373184129595757E-3  
 2.754000000000000E10    9.185909293591976E-3   6.310168653726578E-3  
 2.756000000000000E10    5.329258274286985E-3  -1.004160754382610E-2  
