#  HZ   S   RI   R     50.00 
! Rohde & Schwarz ZVA40 4Ports - Version 3.90 - 1145.1110k42 SN: 100403
! Date: 2023-10-04 10:21:05
! Measurement: S12 
! 
 2.200000000000000E10   -2.113863453269005E-2   3.137437626719475E-3  
 2.202000000000000E10    4.894016776233912E-3   2.119395881891251E-2  
 2.204000000000000E10    1.967147178947926E-2  -6.909744348376989E-3  
 2.206000000000000E10   -8.079752326011658E-3  -1.876106485724449E-2  
 2.208000000000000E10   -1.673106662929058E-2   9.631310589611530E-3  
 2.210000000000000E10    1.167509239166975E-2   1.401178911328316E-2  
 2.212000000000000E10    1.317107025533915E-2  -1.277021039277315E-2  
 2.214000000000000E10   -1.288252416998148E-2  -1.162971556186676E-2  
 2.216000000000000E10   -8.838926441967487E-3   1.431122515350580E-2  
 2.218000000000000E10    1.484739966690540E-2   7.474741432815790E-3  
 2.220000000000000E10    6.744740996509790E-3  -1.467256620526314E-2  
 2.222000000000000E10   -1.517266873270273E-2  -5.686286836862564E-3  
 2.224000000000000E10   -3.962337970733643E-3   1.578427664935589E-2  
 2.226000000000000E10    1.574489101767540E-2   1.265599275939167E-3  
 2.228000000000000E10   -7.055285968817771E-4  -1.654085144400597E-2  
 2.230000000000000E10   -1.607860997319222E-2   2.619447186589241E-3  
 2.232000000000000E10    4.991385620087385E-3   1.568063348531723E-2  
 2.234000000000000E10    1.468926947563887E-2  -7.628215476870537E-3  
 2.236000000000000E10   -8.265565149486065E-3  -1.419751066714525E-2  
 2.238000000000000E10   -1.491567492485046E-2   8.912830613553524E-3  
 2.240000000000000E10    1.031474117189646E-2   1.482530776411295E-2  
 2.242000000000000E10    1.379948016256094E-2  -1.171597000211477E-2  
 2.244000000000000E10   -1.301741506904364E-2  -1.286432426422834E-2  
 2.246000000000000E10   -1.159243751317263E-2   1.331639476120472E-2  
 2.248000000000000E10    1.335053984075785E-2   1.001852564513683E-2  
 2.250000000000000E10    7.392040453851223E-3  -1.417232025414705E-2  
 2.252000000000000E10   -1.445135287940502E-2  -4.695781972259283E-3  
 2.254000000000000E10   -3.389804624021053E-3   1.456910744309425E-2  
 2.256000000000000E10    1.507977209985256E-2   1.851571840234101E-3  
 2.258000000000000E10   -5.281795747578144E-4  -1.601184904575348E-2  
 2.260000000000000E10   -1.702802069485188E-2   2.381368307396770E-3  
 2.262000000000000E10    4.172788932919502E-3   1.632356457412243E-2  
 2.264000000000000E10    1.651269011199474E-2  -5.722656846046448E-3  
 2.266000000000000E10   -7.613999769091606E-3  -1.542124804109335E-2  
 2.268000000000000E10   -1.464956067502499E-2   8.496941998600960E-3  
 2.270000000000000E10    8.706470020115376E-3   1.390346884727478E-2  
 2.272000000000000E10    1.266388222575188E-2  -9.066915139555931E-3  
 2.274000000000000E10   -1.194899436086416E-2  -1.181128807365894E-2  
 2.276000000000000E10   -1.030841842293739E-2   1.441235467791557E-2  
 2.278000000000000E10    1.501413621008396E-2   8.600280620157719E-3  
 2.280000000000000E10    5.621344316750765E-3  -1.604134775698185E-2  
 2.282000000000000E10   -1.146219111979008E-2  -1.291853841394186E-2  
 2.284000000000000E10   -2.949954709038138E-3   1.725782267749310E-2  
 2.286000000000000E10    1.638525351881981E-2   1.800507190637291E-3  
 2.288000000000000E10    9.154637227766216E-4  -1.533544715493918E-2  
 2.290000000000000E10   -1.616621017456055E-2   1.080926740542054E-3  
 2.292000000000000E10    2.977912081405520E-3   1.651697233319283E-2  
 2.294000000000000E10    1.527367066591978E-2  -5.587097723037005E-3  
 2.296000000000000E10   -8.005974814295769E-3  -1.303986739367247E-2  
 2.298000000000000E10   -1.211240515112877E-2   9.967050515115261E-3  
 2.300000000000000E10    1.257688831537962E-2   1.101049035787582E-2  
 2.302000000000000E10    9.807897731661797E-3  -1.269632391631603E-2  
 2.304000000000000E10   -1.414863951504231E-2  -8.938831277191639E-3  
 2.306000000000000E10   -8.189780637621880E-3   1.490044966340065E-2  
 2.308000000000000E10    1.618419215083122E-2   7.802168373018503E-3  
 2.310000000000000E10    5.970619618892670E-3  -1.723918132483959E-2  
 2.312000000000000E10   -1.668613776564598E-2  -3.022304736077786E-3  
 2.314000000000000E10   -7.575136842206121E-4   1.630079559981823E-2  
 2.316000000000000E10    1.538018975406885E-2  -1.637663342989981E-3  
 2.318000000000000E10   -3.283913480117917E-3  -1.441041380167007E-2  
 2.320000000000000E10   -1.350169628858566E-2   4.221162758767605E-3  
 2.322000000000000E10    6.504732649773359E-3   1.330297347158194E-2  
 2.324000000000000E10    1.379673369228840E-2  -8.145760744810104E-3  
 2.326000000000000E10   -1.003097463399172E-2  -1.357584819197655E-2  
 2.328000000000000E10   -1.279240753501654E-2   1.219389121979475E-2  
 2.330000000000000E10    1.323389168828726E-2   9.953016415238380E-3  
 2.332000000000000E10    7.304383907467127E-3  -1.307591237127781E-2  
 2.334000000000000E10   -1.301076728850603E-2  -6.713025271892548E-3  
 2.336000000000000E10   -5.329221487045288E-3   1.290257554501295E-2  
 2.338000000000000E10    1.339401211589575E-2   2.237335778772831E-3  
 2.340000000000000E10    1.003102748654783E-3  -1.428759377449751E-2  
 2.342000000000000E10   -1.505732722580433E-2   4.890827112831175E-4  
 2.344000000000000E10    3.565637394785881E-3   1.613967306911945E-2  
 2.346000000000000E10    1.525497063994408E-2  -5.251787602901459E-3  
 2.348000000000000E10   -6.658524274826050E-3  -1.427689194679260E-2  
 2.350000000000000E10   -1.448471751064062E-2   7.450419943779707E-3  
 2.352000000000000E10    7.655377965420485E-3   1.366105768829584E-2  
 2.354000000000000E10    1.140175666660070E-2  -8.586727082729340E-3  
 2.356000000000000E10   -9.453469887375832E-3  -1.108416728675365E-2  
 2.358000000000000E10   -9.106433019042015E-3   1.069017779082060E-2  
 2.360000000000000E10    1.187657564878464E-2   6.170259322971106E-3  
 2.362000000000000E10    4.908873233944178E-3  -1.320090051740408E-2  
 2.364000000000000E10   -1.332560181617737E-2  -1.392033067531884E-3  
 2.366000000000000E10    5.106996468384750E-5   1.340595912188292E-2  
 2.368000000000000E10    1.362675242125988E-2  -5.637342692352831E-4  
 2.370000000000000E10   -1.532452763058245E-3  -1.391676999628544E-2  
 2.372000000000000E10   -1.541155576705933E-2   2.346956171095371E-3  
 2.374000000000000E10    3.667220240458846E-3   1.499228831380606E-2  
 2.376000000000000E10    1.485114172101021E-2  -5.676181055605412E-3  
 2.378000000000000E10   -8.362723514437676E-3  -1.415156479924917E-2  
 2.380000000000000E10   -1.132122147828341E-2   9.586811065673828E-3  
 2.382000000000000E10    1.048972271382809E-2   8.646086789667606E-3  
 2.384000000000000E10    7.860002107918263E-3  -1.182385440915823E-2  
 2.386000000000000E10   -1.200731284916401E-2  -6.315600592643023E-3  
 2.388000000000000E10   -5.337849725037813E-3   1.339816953986883E-2  
 2.390000000000000E10    1.415124163031578E-2   4.270986188203096E-3  
 2.392000000000000E10    1.844232669100165E-3  -1.500392239540815E-2  
 2.394000000000000E10   -1.492272503674030E-2  -2.788821293506771E-4  
 2.396000000000000E10    3.964501665905118E-4   1.370644662529230E-2  
 2.398000000000000E10    1.312846317887306E-2  -3.009342355653644E-3  
 2.400000000000000E10   -4.664644598960877E-3  -1.181286387145519E-2  
 2.402000000000000E10   -1.074450556188822E-2   6.843598093837500E-3  
 2.404000000000000E10    8.245378732681274E-3   9.302640333771706E-3  
 2.406000000000000E10    9.054035879671574E-3  -1.026467699557543E-2  
 2.408000000000000E10   -1.213126629590988E-2  -8.176412433385849E-3  
 2.410000000000000E10   -7.000704295933247E-3   1.300864387303591E-2  
 2.412000000000000E10    1.318602636456490E-2   6.163883488625288E-3  
 2.414000000000000E10    4.246082622557879E-3  -1.307750679552555E-2  
 2.416000000000000E10   -1.289272774010897E-2  -3.280567005276680E-3  
 2.418000000000000E10   -2.784700132906437E-3   1.230952888727188E-2  
 2.420000000000000E10    1.090024225413799E-2   1.366442535072565E-3  
 2.422000000000000E10   -4.324937253841199E-5  -1.093430258333683E-2  
 2.424000000000000E10   -1.100792828947306E-2   1.271788962185383E-3  
 2.426000000000000E10    3.517837729305029E-3   1.110860053449869E-2  
 2.428000000000000E10    1.091287378221750E-2  -5.643581040203571E-3  
 2.430000000000000E10   -7.216421887278557E-3  -1.025242079049349E-2  
 2.432000000000000E10   -9.939199313521385E-3   9.659485891461372E-3  
 2.434000000000000E10    1.053942367434502E-2   9.272175841033459E-3  
 2.436000000000000E10    8.480419404804707E-3  -1.079393085092306E-2  
 2.438000000000000E10   -1.052571460604668E-2  -7.021212484687567E-3  
 2.440000000000000E10   -6.143894046545029E-3   1.028448995202780E-2  
 2.442000000000000E10    1.068809255957604E-2   5.194822791963816E-3  
 2.444000000000000E10    2.994641195982695E-3  -1.077120751142502E-2  
 2.446000000000000E10   -1.024463213980198E-2  -1.422784873284400E-3  
 2.448000000000000E10    1.301728625549004E-4   1.021463982760906E-2  
 2.450000000000000E10    1.001323573291302E-2  -1.349489903077483E-3  
 2.452000000000000E10   -2.308172639459372E-3  -1.051177736371756E-2  
 2.454000000000000E10   -1.025399845093489E-2   3.672202816233039E-3  
 2.456000000000000E10    3.876082831993699E-3   9.971388615667820E-3  
 2.458000000000000E10    1.083042565733194E-2  -4.412741400301457E-3  
 2.460000000000000E10   -5.604875274002552E-3  -9.428326971828938E-3  
 2.462000000000000E10   -8.913298137485981E-3   7.475302554666996E-3  
 2.464000000000000E10    7.872863672673702E-3   7.456692401319742E-3  
 2.466000000000000E10    5.871596746146679E-3  -8.315060287714005E-3  
 2.468000000000000E10   -9.534498676657677E-3  -4.162395372986794E-3  
 2.470000000000000E10   -2.655942924320698E-3   1.013159193098545E-2  
 2.472000000000000E10    1.053873635828495E-2   1.667570788413286E-3  
 2.474000000000000E10    1.684224000200629E-3  -1.032118406146765E-2  
 2.476000000000000E10   -1.035430748015642E-2  -7.348004728555679E-4  
 2.478000000000000E10    4.061712243128568E-4   1.079357694834471E-2  
 2.480000000000000E10    1.093454100191593E-2  -8.537151152268052E-4  
 2.482000000000000E10   -1.435790443792939E-3  -9.758008643984795E-3  
 2.484000000000000E10   -9.070770815014839E-3   3.093489445745945E-3  
 2.486000000000000E10    4.208732396364212E-3   7.879233919084072E-3  
 2.488000000000000E10    6.927608046680689E-3  -6.270742043852806E-3  
 2.490000000000000E10   -6.839442066848278E-3  -6.396184209734201E-3  
 2.492000000000000E10   -5.185100715607405E-3   7.784145418554544E-3  
 2.494000000000000E10    9.678705595433712E-3   4.694189410656691E-3  
 2.496000000000000E10    4.757869523018599E-3  -1.098297908902168E-2  
 2.498000000000000E10   -1.108949258923531E-2  -2.704591490328312E-3  
 2.500000000000000E10   -2.025328343734145E-3   1.026402227580547E-2  
 2.502000000000000E10    9.492590092122555E-3   1.743408618494868E-3  
 2.504000000000000E10    5.919271497987211E-4  -9.320280514657497E-3  
 2.506000000000000E10   -8.332343772053719E-3  -4.227246099617332E-4  
 2.508000000000000E10   -1.200563565362245E-4   7.069855928421021E-3  
 2.510000000000000E10    7.440926972776651E-3  -1.870805048383772E-3  
 2.512000000000000E10   -3.645050805062056E-3  -7.989075034856796E-3  
 2.514000000000000E10   -7.006143219769001E-3   5.007003434002399E-3  
 2.516000000000000E10    6.011260207742453E-3   6.958805955946446E-3  
 2.518000000000000E10    6.143886595964432E-3  -7.562690880149603E-3  
 2.520000000000000E10   -9.064501151442528E-3  -5.735286511480808E-3  
 2.522000000000000E10   -5.514943040907383E-3   8.538816124200821E-3  
 2.524000000000000E10    8.572520688176155E-3   4.993405193090439E-3  
 2.526000000000000E10    3.432660829275847E-3  -9.193367324769497E-3  
 2.528000000000000E10   -8.952755481004715E-3  -2.555319573730230E-3  
 2.530000000000000E10   -1.448876806534827E-3   9.247425012290478E-3  
 2.532000000000000E10    9.025161154568195E-3  -4.555983468890190E-4  
 2.534000000000000E10   -1.690965611487627E-3  -8.034465834498406E-3  
 2.536000000000000E10   -8.046476170420647E-3   2.937710611149669E-3  
 2.538000000000000E10    3.637134563177824E-3   8.301686495542526E-3  
 2.540000000000000E10    7.806637324392796E-3  -4.013681784272194E-3  
 2.542000000000000E10   -4.682849626988173E-3  -7.893733680248261E-3  
 2.544000000000000E10   -7.296261377632618E-3   6.157617084681988E-3  
 2.546000000000000E10    7.770391646772623E-3   6.883931346237660E-3  
 2.548000000000000E10    5.100409034639597E-3  -8.443864993751049E-3  
 2.550000000000000E10   -8.910971693694592E-3  -3.120402572676539E-3  
 2.552000000000000E10   -1.168209593743086E-3   9.627860039472580E-3  
 2.554000000000000E10    9.420038200914860E-3  -1.262904552277178E-4  
 2.556000000000000E10   -1.012404332868755E-3  -9.433980099856854E-3  
 2.558000000000000E10   -1.010388694703579E-2   1.783701125532389E-3  
 2.560000000000000E10    2.663265913724899E-3   1.013040728867054E-2  
 2.562000000000000E10    9.468070231378079E-3  -3.674012375995517E-3  
 2.564000000000000E10   -4.346077796071768E-3  -9.877009317278862E-3  
 2.566000000000000E10   -9.047018364071846E-3   4.977706354111433E-3  
 2.568000000000000E10    6.117031909525394E-3   7.039292715489864E-3  
 2.570000000000000E10    5.297286435961723E-3  -6.883214227855206E-3  
 2.572000000000000E10   -7.288729306310415E-3  -4.714485723525286E-3  
 2.574000000000000E10   -3.402582835406065E-3   8.309073746204376E-3  
 2.576000000000000E10    9.490887634456158E-3   1.464475993998349E-3  
 2.578000000000000E10   -7.457480533048511E-4  -1.011067628860474E-2  
 2.580000000000000E10   -1.117644831538200E-2   2.416516188532114E-3  
 2.582000000000000E10    3.111216472461820E-3   1.089350599795580E-2  
 2.584000000000000E10    9.758352302014828E-3  -3.729424439370632E-3  
 2.586000000000000E10   -5.067946854978800E-3  -9.248773567378521E-3  
 2.588000000000000E10   -9.219817817211151E-3   5.059467628598213E-3  
 2.590000000000000E10    4.393450915813446E-3   8.211937732994556E-3  
 2.592000000000000E10    7.393043953925371E-3  -5.265328567475081E-3  
 2.594000000000000E10   -6.972789764404297E-3  -7.070079445838928E-3  
 2.596000000000000E10   -5.686229094862938E-3   8.268139325082302E-3  
 2.598000000000000E10    9.810914285480976E-3   4.020607564598322E-3  
 2.600000000000000E10    2.575281541794539E-3  -9.380727075040340E-3  
 2.602000000000000E10   -1.001777127385140E-2  -9.616513270884752E-4  
 2.604000000000000E10    1.852563727879897E-4   1.105529814958572E-2  
 2.606000000000000E10    1.022876705974340E-2  -6.843247683718801E-4  
 2.608000000000000E10   -1.651539583690465E-3  -9.630092419683933E-3  
 2.610000000000000E10   -1.036400534212589E-2   3.181710606440902E-3  
 2.612000000000000E10    5.339264404028654E-3   9.518660604953766E-3  
 2.614000000000000E10    8.598351851105690E-3  -6.890244316309691E-3  
 2.616000000000000E10   -7.228704635053873E-3  -7.951720617711544E-3  
 2.618000000000000E10   -6.999250967055559E-3   8.682657033205032E-3  
 2.620000000000000E10    1.042398530989885E-2   6.115550175309181E-3  
 2.622000000000000E10    6.297742947936058E-3  -9.543220512568951E-3  
 2.624000000000000E10   -1.016482058912516E-2  -5.434417165815830E-3  
 2.626000000000000E10   -3.848822554573417E-3   1.139877643436194E-2  
 2.628000000000000E10    1.111087761819363E-2   2.411807188764215E-3  
 2.630000000000000E10    1.964152033906430E-4  -1.098439376801252E-2  
 2.632000000000000E10   -9.934440255165100E-3   6.657036137767136E-4  
 2.634000000000000E10    3.193510230630636E-3   9.024841710925102E-3  
 2.636000000000000E10    8.147492073476315E-3  -5.390503909438849E-3  
 2.638000000000000E10   -6.489907391369343E-3  -8.565826341509819E-3  
 2.640000000000000E10   -7.353440392762423E-3   8.311855606734753E-3  
 2.642000000000000E10    9.344088844954968E-3   6.803080439567566E-3  
 2.644000000000000E10    6.547485943883658E-3  -1.037237793207169E-2  
 2.646000000000000E10   -1.175223849713802E-2  -5.823862738907337E-3  
 2.648000000000000E10   -4.629593808203936E-3   1.238996163010597E-2  
 2.650000000000000E10    1.124549191445112E-2   3.062299685552716E-3  
 2.652000000000000E10    2.128901891410351E-3  -1.174521539360285E-2  
 2.654000000000000E10   -1.158762071281672E-2  -1.602987613296136E-4  
 2.656000000000000E10    1.707738498225808E-3   1.098341960459948E-2  
 2.658000000000000E10    1.015969365835190E-2  -4.178246948868036E-3  
 2.660000000000000E10   -5.586009938269854E-3  -9.885501116514206E-3  
 2.662000000000000E10   -8.716224692761898E-3   7.148812059313059E-3  
 2.664000000000000E10    8.284645155072212E-3   7.614514790475369E-3  
 2.666000000000000E10    6.178438197821379E-3  -9.061190299689770E-3  
 2.668000000000000E10   -9.724275209009647E-3  -5.504354834556580E-3  
 2.670000000000000E10   -4.737195558845997E-3   9.971349500119686E-3  
 2.672000000000000E10    9.882242418825626E-3   3.032904351130128E-3  
 2.674000000000000E10    1.332840765826404E-3  -1.083850115537643E-2  
 2.676000000000000E10   -1.161503698676825E-2  -2.763039083220065E-4  
 2.678000000000000E10    1.339305075816810E-3   1.153302937746048E-2  
 2.680000000000000E10    1.137064769864082E-2  -3.365387674421072E-3  
 2.682000000000000E10   -4.381377249956131E-3  -1.143281999975443E-2  
 2.684000000000000E10   -1.179144345223904E-2   5.466050934046507E-3  
 2.686000000000000E10    6.337276194244623E-3   1.070733368396759E-2  
 2.688000000000000E10    9.719794616103172E-3  -7.293853908777237E-3  
 2.690000000000000E10   -8.158163167536259E-3  -8.683198131620884E-3  
 2.692000000000000E10   -8.102241903543472E-3   8.799728006124497E-3  
 2.694000000000000E10    9.126931428909302E-3   5.325821228325367E-3  
 2.696000000000000E10    3.555071540176868E-3  -9.350948035717011E-3  
 2.698000000000000E10   -1.018253620713949E-2  -1.832014415413141E-3  
 2.700000000000000E10   -2.509220794308931E-4   9.799359366297722E-3  
 2.702000000000000E10    1.080392487347126E-2  -6.980993784964085E-4  
 2.704000000000000E10   -2.985958708450198E-3  -1.134392246603966E-2  
 2.706000000000000E10   -1.129799801856279E-2   3.846547566354275E-3  
 2.708000000000000E10    4.916850477457047E-3   1.167735550552607E-2  
 2.710000000000000E10    1.096375565975905E-2  -5.922844633460045E-3  
 2.712000000000000E10   -7.449273020029068E-3  -1.019120402634144E-2  
 2.714000000000000E10   -9.105334989726543E-3   7.917229086160660E-3  
 2.716000000000000E10    8.196674287319183E-3   7.457869593054056E-3  
 2.718000000000000E10    6.491244304925203E-3  -9.406332857906818E-3  
 2.720000000000000E10   -9.982188232243061E-3  -5.235988181084395E-3  
 2.722000000000000E10   -3.559189615771174E-3   1.041838526725769E-2  
 2.724000000000000E10    1.161605212837458E-2   2.380821155384183E-3  
 2.726000000000000E10    1.599720329977572E-3  -1.190146803855896E-2  
 2.728000000000000E10   -1.213974319398403E-2   7.237937825266272E-5  
 2.730000000000000E10    1.811940455809236E-3   1.185779273509979E-2  
 2.732000000000000E10    1.181613747030497E-2  -2.435022033751011E-3  
 2.734000000000000E10   -4.740455187857151E-3  -1.100290194153786E-2  
 2.736000000000000E10   -9.963469579815865E-3   5.409758538007736E-3  
 2.738000000000000E10    7.176167797297239E-3   9.018528275191784E-3  
 2.740000000000000E10    7.509422022849321E-3  -9.372761473059654E-3  
 2.742000000000000E10   -9.625905193388462E-3  -6.385796237736940E-3  
 2.744000000000000E10   -5.294957198202610E-3   1.043061632663012E-2  
 2.746000000000000E10    1.150917075574398E-2   4.571948200464249E-3  
 2.748000000000000E10    4.143089987337589E-3  -1.159730274230242E-2  
 2.750000000000000E10   -1.265997253358364E-2  -2.634448697790504E-3  
 2.752000000000000E10   -1.600138144567609E-3   1.289492473006249E-2  
 2.754000000000000E10    1.218970958143473E-2   8.725339430384338E-4  
 2.756000000000000E10   -1.246572122909129E-3  -1.191603951156139E-2  
