#  HZ   S   RI   R     50.00 
! Rohde & Schwarz ZVA40 4Ports - Version 3.90 - 1145.1110k42 SN: 100403
! Date: 2023-10-04 10:23:56
! Measurement: S12 
! 
 2.200000000000000E10   -2.789141610264778E-2   4.697462543845177E-3  
 2.202000000000000E10    9.062157943844795E-3   2.612837590277195E-2  
 2.204000000000000E10    2.449484169483185E-2  -1.153556630015373E-2  
 2.206000000000000E10   -1.415451336652041E-2  -2.195008657872677E-2  
 2.208000000000000E10   -2.013306133449078E-2   1.653047278523445E-2  
 2.210000000000000E10    1.812924444675446E-2   1.763874292373657E-2  
 2.212000000000000E10    1.303494349122047E-2  -1.997477002441883E-2  
 2.214000000000000E10   -2.218087390065193E-2  -1.207724679261446E-2  
 2.216000000000000E10   -1.088794600218535E-2   2.273790910840035E-2  
 2.218000000000000E10    2.264259755611420E-2   7.394572254270315E-3  
 2.220000000000000E10    5.913743749260902E-3  -2.286325767636299E-2  
 2.222000000000000E10   -2.383081242442131E-2  -5.169945769011974E-3  
 2.224000000000000E10   -3.973330836743116E-3   2.444345317780972E-2  
 2.226000000000000E10    2.314125001430512E-2   2.097191987559199E-3  
 2.228000000000000E10   -9.770728647708893E-4  -2.201584912836552E-2  
 2.230000000000000E10   -2.318597771227360E-2   3.806913737207651E-3  
 2.232000000000000E10    6.400715094059706E-3   2.244856581091881E-2  
 2.234000000000000E10    1.838034391403198E-2  -9.189351461827755E-3  
 2.236000000000000E10   -1.105973776429892E-2  -1.703660003840923E-2  
 2.238000000000000E10   -1.714252494275570E-2   1.291265804320574E-2  
 2.240000000000000E10    1.549393497407436E-2   1.688026264309883E-2  
 2.242000000000000E10    1.475120149552822E-2  -1.711138151586056E-2  
 2.244000000000000E10   -1.854421943426132E-2  -1.215247530490160E-2  
 2.246000000000000E10   -1.131647638976574E-2   2.027005702257156E-2  
 2.248000000000000E10    2.094414643943310E-2   1.013126969337463E-2  
 2.250000000000000E10    7.442641537636519E-3  -2.099405415356159E-2  
 2.252000000000000E10   -2.092456631362438E-2  -5.037584807723761E-3  
 2.254000000000000E10   -3.594036446884275E-3   2.184442244470120E-2  
 2.256000000000000E10    2.249141409993172E-2   1.526415813714266E-3  
 2.258000000000000E10   -7.761819288134575E-4  -2.212574519217014E-2  
 2.260000000000000E10   -2.230594493448734E-2   2.614688128232956E-3  
 2.262000000000000E10    6.928197108209133E-3   2.222637459635735E-2  
 2.264000000000000E10    2.168186008930206E-2  -8.118832483887672E-3  
 2.266000000000000E10   -1.003343053162098E-2  -2.076452411711216E-2  
 2.268000000000000E10   -1.862375438213348E-2   1.196455303579569E-2  
 2.270000000000000E10    1.347236894071102E-2   1.683626323938370E-2  
 2.272000000000000E10    1.535785477608442E-2  -1.393435616046190E-2  
 2.274000000000000E10   -1.519414130598307E-2  -1.427883189171553E-2  
 2.276000000000000E10   -1.237486768513918E-2   1.793265156447887E-2  
 2.278000000000000E10    1.998992823064327E-2   8.824961259961128E-3  
 2.280000000000000E10    7.054159883409739E-3  -2.105783484876156E-2  
 2.282000000000000E10   -1.501523237675428E-2  -1.608627103269100E-2  
 2.284000000000000E10   -1.650146790780127E-3   2.146418020129204E-2  
 2.286000000000000E10    2.204230055212975E-2  -7.334133842960000E-4  
 2.288000000000000E10   -7.765528862364590E-4  -2.226049266755581E-2  
 2.290000000000000E10   -2.231159247457981E-2   2.685253741219640E-3  
 2.292000000000000E10    5.327627528458834E-3   2.208012714982033E-2  
 2.294000000000000E10    2.160184085369110E-2  -7.371017709374428E-3  
 2.296000000000000E10   -1.046730577945709E-2  -2.014921233057976E-2  
 2.298000000000000E10   -1.727034524083138E-2   1.222671382129192E-2  
 2.300000000000000E10    1.438614539802074E-2   1.488724723458290E-2  
 2.302000000000000E10    1.226297020912170E-2  -1.738853007555008E-2  
 2.304000000000000E10   -1.770613901317120E-2  -1.122367009520531E-2  
 2.306000000000000E10   -9.507822804152966E-3   1.848853193223476E-2  
 2.308000000000000E10    2.006012201309204E-2   7.350092753767967E-3  
 2.310000000000000E10    5.522437859326601E-3  -2.220015600323677E-2  
 2.312000000000000E10   -2.307973429560661E-2  -2.859191503375769E-3  
 2.314000000000000E10    1.038645714288577E-4   2.147464454174042E-2  
 2.316000000000000E10    2.044185996055603E-2  -2.849903190508485E-3  
 2.318000000000000E10   -5.011354107409716E-3  -1.915322802960873E-2  
 2.320000000000000E10   -1.832708716392517E-2   6.612539757043123E-3  
 2.322000000000000E10    7.644054479897022E-3   1.733601093292236E-2  
 2.324000000000000E10    1.675448380410671E-2  -9.525390341877937E-3  
 2.326000000000000E10   -1.336164772510529E-2  -1.680532097816467E-2  
 2.328000000000000E10   -1.625227741897106E-2   1.655013114213944E-2  
 2.330000000000000E10    1.767572201788425E-2   1.282366458326578E-2  
 2.332000000000000E10    9.508413262665272E-3  -1.866782270371914E-2  
 2.334000000000000E10   -1.882858760654926E-2  -8.347406983375549E-3  
 2.336000000000000E10   -6.963162682950497E-3   1.866116560995579E-2  
 2.338000000000000E10    1.802101917564869E-2   4.783618729561567E-3  
 2.340000000000000E10    2.898440696299076E-3  -1.783034205436707E-2  
 2.342000000000000E10   -1.904507540166378E-2  -1.269754953682423E-3  
 2.344000000000000E10    2.066841581836343E-3   1.939849369227886E-2  
 2.346000000000000E10    1.817720197141171E-2  -5.562660750001669E-3  
 2.348000000000000E10   -7.826090790331364E-3  -1.675345934927464E-2  
 2.350000000000000E10   -1.657787524163723E-2   1.020536012947559E-2  
 2.352000000000000E10    1.231969241052866E-2   1.513381581753492E-2  
 2.354000000000000E10    1.397319696843624E-2  -1.306814607232809E-2  
 2.356000000000000E10   -1.436519529670477E-2  -1.301235146820545E-2  
 2.358000000000000E10   -1.169008668512106E-2   1.592873409390450E-2  
 2.360000000000000E10    1.694283820688725E-2   1.016960572451353E-2  
 2.362000000000000E10    7.318612188100815E-3  -1.732161268591881E-2  
 2.364000000000000E10   -1.785003207623959E-2  -4.859098233282566E-3  
 2.366000000000000E10   -1.526106032542884E-3   1.744209043681622E-2  
 2.368000000000000E10    1.676563546061516E-2  -5.150364013388753E-4  
 2.370000000000000E10   -1.128360396251082E-3  -1.744594611227512E-2  
 2.372000000000000E10   -1.775657385587692E-2   2.649800386279821E-3  
 2.374000000000000E10    5.058750510215759E-3   1.801560632884502E-2  
 2.376000000000000E10    1.844910345971584E-2  -7.187644951045513E-3  
 2.378000000000000E10   -8.218846283853054E-3  -1.697041094303131E-2  
 2.380000000000000E10   -1.577114313840866E-2   1.074746157974005E-2  
 2.382000000000000E10    1.239454187452793E-2   1.413636095821858E-2  
 2.384000000000000E10    1.109683886170387E-2  -1.431658025830984E-2  
 2.386000000000000E10   -1.479849219322205E-2  -9.092938154935837E-3  
 2.388000000000000E10   -7.095428183674812E-3   1.482997462153435E-2  
 2.390000000000000E10    1.646766252815723E-2   4.195840097963810E-3  
 2.392000000000000E10    2.149454783648253E-3  -1.713943108916283E-2  
 2.394000000000000E10   -1.756564527750015E-2  -3.144562069792301E-4  
 2.396000000000000E10    2.410927321761847E-3   1.816263608634472E-2  
 2.398000000000000E10    1.787376962602139E-2  -3.437613369897008E-3  
 2.400000000000000E10   -4.895972087979317E-3  -1.688766293227673E-2  
 2.402000000000000E10   -1.564203202724457E-2   8.193407207727432E-3  
 2.404000000000000E10    8.304038085043430E-3   1.459622476249933E-2  
 2.406000000000000E10    1.321741379797459E-2  -9.108992293477058E-3  
 2.408000000000000E10   -1.078918762505055E-2  -1.194072049111128E-2  
 2.410000000000000E10   -9.728604927659035E-3   1.218849979341030E-2  
 2.412000000000000E10    1.367991324514151E-2   7.329097483307123E-3  
 2.414000000000000E10    5.954126361757517E-3  -1.411897782236338E-2  
 2.416000000000000E10   -1.509995013475418E-2  -3.887569298967719E-3  
 2.418000000000000E10   -2.407191088423133E-3   1.585634239017963E-2  
 2.420000000000000E10    1.559349149465561E-2   8.726388914510608E-4  
 2.422000000000000E10    7.696861284784973E-4  -1.528670825064182E-2  
 2.424000000000000E10   -1.541294902563095E-2   7.390177925117314E-4  
 2.426000000000000E10    2.546513918787241E-3   1.501018740236759E-2  
 2.428000000000000E10    1.437581609934568E-2  -2.843703608959913E-3  
 2.430000000000000E10   -4.560222383588553E-3  -1.451328769326210E-2  
 2.432000000000000E10   -1.270747464150190E-2   7.208570372313261E-3  
 2.434000000000000E10    8.776742964982987E-3   1.163516473025084E-2  
 2.436000000000000E10    1.061670761555433E-2  -1.028682943433523E-2  
 2.438000000000000E10   -1.099804416298866E-2  -9.486912749707699E-3  
 2.440000000000000E10   -8.178464137017727E-3   1.211681216955185E-2  
 2.442000000000000E10    1.327221840620041E-2   7.810215000063181E-3  
 2.444000000000000E10    6.554922088980675E-3  -1.391015294939280E-2  
 2.446000000000000E10   -1.332929078489542E-2  -4.673685878515244E-3  
 2.448000000000000E10   -3.310676896944642E-3   1.302785240113735E-2  
 2.450000000000000E10    1.293812878429890E-2   2.173402113839984E-3  
 2.452000000000000E10    4.567004507407546E-4  -1.290185004472733E-2  
 2.454000000000000E10   -1.194616127759218E-2   1.661942224018276E-3  
 2.456000000000000E10    3.524227533489466E-3   1.145533937960863E-2  
 2.458000000000000E10    1.239209994673729E-2  -4.807457793504000E-3  
 2.460000000000000E10   -6.243760231882334E-3  -1.261743810027838E-2  
 2.462000000000000E10   -1.162800099700689E-2   7.762649562209845E-3  
 2.464000000000000E10    8.878416381776333E-3   1.126409508287907E-2  
 2.466000000000000E10    1.125150267034769E-2  -9.344023652374744E-3  
 2.468000000000000E10   -1.005901955068111E-2  -1.054780837148428E-2  
 2.470000000000000E10   -8.091537281870842E-3   1.078241504728794E-2  
 2.472000000000000E10    1.040064543485642E-2   5.648618098348379E-3  
 2.474000000000000E10    5.223446991294622E-3  -1.046058442443609E-2  
 2.476000000000000E10   -1.042241789400578E-2  -3.686544951051474E-3  
 2.478000000000000E10   -2.262732479721308E-3   1.037581171840429E-2  
 2.480000000000000E10    1.088878232985735E-2   1.609514583833516E-4  
 2.482000000000000E10   -8.655787096358836E-4  -1.192039065063000E-2  
 2.484000000000000E10   -1.253579184412956E-2   2.406453713774681E-3  
 2.486000000000000E10    4.060142207890749E-3   1.240951009094715E-2  
 2.488000000000000E10    1.115653477609158E-2  -5.157229024916887E-3  
 2.490000000000000E10   -5.672699306160212E-3  -1.138636935502291E-2  
 2.492000000000000E10   -1.094789989292622E-2   6.194389425218105E-3  
 2.494000000000000E10    6.402716506272554E-3   9.379515424370766E-3  
 2.496000000000000E10    8.576588705182076E-3  -8.280860260128975E-3  
 2.498000000000000E10   -9.616175666451454E-3  -6.963177584111691E-3  
 2.500000000000000E10   -5.760419182479382E-3   9.964893572032452E-3  
 2.502000000000000E10    1.055628154426813E-2   4.690594505518675E-3  
 2.504000000000000E10    2.536306623369455E-3  -1.117460802197456E-2  
 2.506000000000000E10   -1.156886387616396E-2  -1.179013866931200E-3  
 2.508000000000000E10   -1.995760714635253E-3   1.143400557339191E-2  
 2.510000000000000E10    1.114422827959061E-2   1.940264366567135E-3  
 2.512000000000000E10    9.512533870292828E-5  -1.218239683657885E-2  
 2.514000000000000E10   -1.219408120959997E-2   1.440007123164833E-3  
 2.516000000000000E10    2.672789385542274E-3   1.117931585758925E-2  
 2.518000000000000E10    1.057201623916626E-2  -3.874229034408927E-3  
 2.520000000000000E10   -5.335415247827768E-3  -8.615532889962196E-3  
 2.522000000000000E10   -7.660201285034418E-3   7.638953626155853E-3  
 2.524000000000000E10    7.912891916930676E-3   7.541960105299950E-3  
 2.526000000000000E10    6.482454948127270E-3  -8.995264768600464E-3  
 2.528000000000000E10   -1.088010892271996E-2  -4.835549741983414E-3  
 2.530000000000000E10   -4.500394687056541E-3   1.110050734132528E-2  
 2.532000000000000E10    1.195142325013876E-2   3.934712614864111E-3  
 2.534000000000000E10    2.803847892209888E-3  -1.202385034412146E-2  
 2.536000000000000E10   -1.160374097526074E-2  -1.788647146895528E-3  
 2.538000000000000E10    6.504562334157527E-4   1.086438912898302E-2  
 2.540000000000000E10    1.077859476208687E-2  -1.089321332983673E-3  
 2.542000000000000E10   -2.130239969119430E-3  -1.034946087747812E-2  
 2.544000000000000E10   -9.234913624823093E-3   4.141190089285374E-3  
 2.546000000000000E10    5.484766792505980E-3   9.335232898592949E-3  
 2.548000000000000E10    8.746247738599777E-3  -7.295968011021614E-3  
 2.550000000000000E10   -8.518960326910019E-3  -8.151709102094173E-3  
 2.552000000000000E10   -7.130448240786791E-3   9.806472808122635E-3  
 2.554000000000000E10    1.045917626470327E-2   5.320163443684578E-3  
 2.556000000000000E10    5.019462667405605E-3  -1.039113849401474E-2  
 2.558000000000000E10   -1.070556323975325E-2  -3.762995824217796E-3  
 2.560000000000000E10   -1.890539308078587E-3   1.051034312695265E-2  
 2.562000000000000E10    1.050827745348215E-2   1.064884709194303E-3  
 2.564000000000000E10   -8.975263917818666E-4  -1.086924038827419E-2  
 2.566000000000000E10   -1.130003202706575E-2   2.805280499160290E-3  
 2.568000000000000E10    5.585209466516972E-3   1.126842293888331E-2  
 2.570000000000000E10    9.843599982559681E-3  -7.471911609172821E-3  
 2.572000000000000E10   -8.188258856534958E-3  -9.212764911353588E-3  
 2.574000000000000E10   -8.675104938447475E-3   9.692550636827946E-3  
 2.576000000000000E10    1.049400679767132E-2   7.841093465685844E-3  
 2.578000000000000E10    6.424898281693459E-3  -1.077539939433336E-2  
 2.580000000000000E10   -1.089435722678900E-2  -5.168247036635876E-3  
 2.582000000000000E10   -3.400925779715180E-3   1.107515767216682E-2  
 2.584000000000000E10    1.120460778474808E-2   1.470506889745593E-3  
 2.586000000000000E10   -3.590350970625877E-4  -1.069043949246407E-2  
 2.588000000000000E10   -9.781208820641041E-3   1.989625860005617E-3  
 2.590000000000000E10    4.205578472465277E-3   1.031472533941269E-2  
 2.592000000000000E10    1.018838491290808E-2  -4.149211570620537E-3  
 2.594000000000000E10   -5.218666978180409E-3  -9.339127689599991E-3  
 2.596000000000000E10   -9.878747165203095E-3   7.319949567317963E-3  
 2.598000000000000E10    8.031988516449928E-3   9.130137041211128E-3  
 2.600000000000000E10    8.318047970533371E-3  -8.726179599761963E-3  
 2.602000000000000E10   -9.894562885165215E-3  -7.438987493515015E-3  
 2.604000000000000E10   -5.110137164592743E-3   1.046620495617390E-2  
 2.606000000000000E10    1.150197163224220E-2   2.834200859069824E-3  
 2.608000000000000E10    2.359757898375392E-3  -1.090746838599443E-2  
 2.610000000000000E10   -1.107560936361551E-2  -7.035606540739536E-4  
 2.612000000000000E10    1.416860031895340E-3   1.209282130002976E-2  
 2.614000000000000E10    1.193042472004890E-2  -2.216850873082876E-3  
 2.616000000000000E10   -3.224035724997520E-3  -1.226685382425785E-2  
 2.618000000000000E10   -1.194868795573711E-2   4.731235560029745E-3  
 2.620000000000000E10    6.091739516705275E-3   1.069228816777468E-2  
 2.622000000000000E10    9.648562408983707E-3  -7.654251530766487E-3  
 2.624000000000000E10   -7.427134085446596E-3  -8.807202801108360E-3  
 2.626000000000000E10   -6.750156171619892E-3   8.296584710478783E-3  
 2.628000000000000E10    1.026251167058945E-2   4.903012420982122E-3  
 2.630000000000000E10    3.448934294283390E-3  -1.101973466575146E-2  
 2.632000000000000E10   -1.165436394512653E-2  -1.508690882474184E-3  
 2.634000000000000E10    5.081687704659998E-4   1.185876969248056E-2  
 2.636000000000000E10    1.171010546386242E-2  -1.211525173857808E-3  
 2.638000000000000E10   -3.408649470657110E-3  -1.237282622605562E-2  
 2.640000000000000E10   -1.185969822108746E-2   4.258576314896345E-3  
 2.642000000000000E10    4.786454141139984E-3   1.099332049489021E-2  
 2.644000000000000E10    9.798295795917511E-3  -6.473035551607609E-3  
 2.646000000000000E10   -7.136717904359102E-3  -9.245605207979679E-3  
 2.648000000000000E10   -7.163217756897211E-3   8.399398066103458E-3  
 2.650000000000000E10    9.334036149084568E-3   5.478762090206146E-3  
 2.652000000000000E10    3.873368259519339E-3  -1.044198218733072E-2  
 2.654000000000000E10   -1.116847805678845E-2  -2.151062479242683E-3  
 2.656000000000000E10   -8.088594186119735E-4   1.145190652459860E-2  
 2.658000000000000E10    1.139561738818884E-2  -6.507916841655970E-4  
 2.660000000000000E10   -1.536050112918019E-3  -1.148083806037903E-2  
 2.662000000000000E10   -1.162194088101387E-2   3.381898626685143E-3  
 2.664000000000000E10    4.819000605493784E-3   1.027474924921989E-2  
 2.666000000000000E10    9.071967564523220E-3  -5.423940252512693E-3  
 2.668000000000000E10   -7.087100762873888E-3  -7.945897057652473E-3  
 2.670000000000000E10   -6.317024119198322E-3   8.232185617089272E-3  
 2.672000000000000E10    8.856607601046562E-3   5.485451780259609E-3  
 2.674000000000000E10    4.181975498795509E-3  -9.623228572309017E-3  
 2.676000000000000E10   -1.063899043947458E-2  -2.928355708718300E-3  
 2.678000000000000E10   -1.352429739199579E-3   1.158423442393541E-2  
 2.680000000000000E10    1.134244911372662E-2   1.100247609429061E-3  
 2.682000000000000E10    3.567633975762874E-4  -1.149047818034887E-2  
 2.684000000000000E10   -1.174628641456366E-2   1.407052506692708E-3  
 2.686000000000000E10    2.439329866319895E-3   1.138404011726379E-2  
 2.688000000000000E10    9.672613814473152E-3  -3.536617849022150E-3  
 2.690000000000000E10   -5.138498265296221E-3  -8.859815075993538E-3  
 2.692000000000000E10   -7.452243939042091E-3   6.287455093115568E-3  
 2.694000000000000E10    8.252624422311783E-3   6.025969982147217E-3  
 2.696000000000000E10    4.840154200792313E-3  -8.705678395926952E-3  
 2.698000000000000E10   -9.824833832681179E-3  -3.509687492623925E-3  
 2.700000000000000E10   -2.649305155500770E-3   1.106088329106569E-2  
 2.702000000000000E10    1.167859882116318E-2   2.263228874653578E-3  
 2.704000000000000E10    8.891813195077702E-5  -1.175562664866447E-2  
 2.706000000000000E10   -1.143183745443821E-2   9.545367211103439E-4  
 2.708000000000000E10    1.912215375341475E-3   1.108801737427712E-2  
 2.710000000000000E10    1.081866491585970E-2  -3.185200970619917E-3  
 2.712000000000000E10   -4.230755381286144E-3  -9.265308268368244E-3  
 2.714000000000000E10   -8.417219854891300E-3   5.945257376879454E-3  
 2.716000000000000E10    6.655048113316298E-3   8.474928326904774E-3  
 2.718000000000000E10    7.229182869195938E-3  -7.468415424227715E-3  
 2.720000000000000E10   -9.101854637265205E-3  -5.965930875390768E-3  
 2.722000000000000E10   -5.459767766296864E-3   9.618202224373817E-3  
 2.724000000000000E10    9.960908442735672E-3   4.292092286050320E-3  
 2.726000000000000E10    3.483446314930916E-3  -1.063255034387112E-2  
 2.728000000000000E10   -1.049649436026812E-2  -1.822013640776277E-3  
 2.730000000000000E10   -1.142581531894393E-4   1.063238829374313E-2  
 2.732000000000000E10    1.100372709333897E-2  -1.367211807519198E-3  
 2.734000000000000E10   -2.842240734025836E-3  -9.612549096345902E-3  
 2.736000000000000E10   -9.221019223332405E-3   5.058196373283863E-3  
 2.738000000000000E10    6.448315456509590E-3   9.052935056388378E-3  
 2.740000000000000E10    8.639096282422543E-3  -7.946795783936977E-3  
 2.742000000000000E10   -8.757951669394970E-3  -8.060036227107048E-3  
 2.744000000000000E10   -7.072263862937689E-3   8.859333582222462E-3  
 2.746000000000000E10    1.077537145465612E-2   6.392766255885363E-3  
 2.748000000000000E10    6.012719590216875E-3  -1.089131925255060E-2  
 2.750000000000000E10   -1.045409776270390E-2  -4.637734033167362E-3  
 2.752000000000000E10   -2.731196116656065E-3   1.063831802457571E-2  
 2.754000000000000E10    1.024603098630905E-2   1.981106353923678E-3  
 2.756000000000000E10   -2.040377876255661E-5  -1.034228783100843E-2  
