#  HZ   S   RI   R     50.00 
! Rohde & Schwarz ZVA40 4Ports - Version 3.90 - 1145.1110k42 SN: 100403
! Date: 2023-10-04 10:25:06
! Measurement: S12 
! 
 2.200000000000000E10   -2.882231771945953E-2   1.188918016850948E-2  
 2.202000000000000E10    1.522218529134989E-2   2.784327603876591E-2  
 2.204000000000000E10    2.649474702775478E-2  -1.637350395321846E-2  
 2.206000000000000E10   -1.878042146563530E-2  -2.327947691082954E-2  
 2.208000000000000E10   -2.092022448778153E-2   2.081515826284885E-2  
 2.210000000000000E10    2.171481028199196E-2   1.715913228690624E-2  
 2.212000000000000E10    1.282096933573484E-2  -2.323363721370697E-2  
 2.214000000000000E10   -2.323917113244534E-2  -1.080208271741867E-2  
 2.216000000000000E10   -8.051412180066109E-3   2.283842489123344E-2  
 2.218000000000000E10    2.425732091069222E-2   3.467674134299159E-3  
 2.220000000000000E10    2.517336979508400E-3  -2.416331321001053E-2  
 2.222000000000000E10   -2.342320047318935E-2  -9.303899714723229E-4  
 2.224000000000000E10    1.922763767652214E-3   2.419815398752689E-2  
 2.226000000000000E10    2.288546785712242E-2  -3.979549743235111E-3  
 2.228000000000000E10   -7.098153699189425E-3  -2.307451516389847E-2  
 2.230000000000000E10   -2.306702733039856E-2   8.941586129367352E-3  
 2.232000000000000E10    1.062558218836784E-2   2.101113460958004E-2  
 2.234000000000000E10    1.815564371645451E-2  -1.440065726637840E-2  
 2.236000000000000E10   -1.536666788160801E-2  -1.737144775688648E-2  
 2.238000000000000E10   -1.741399243474007E-2   1.603464409708977E-2  
 2.240000000000000E10    1.849483326077461E-2   1.544848643243313E-2  
 2.242000000000000E10    1.287540607154369E-2  -2.020796574652195E-2  
 2.244000000000000E10   -2.181607112288475E-2  -1.203712169080973E-2  
 2.246000000000000E10   -1.069444417953491E-2   2.275875210762024E-2  
 2.248000000000000E10    2.232236601412296E-2   8.505951613187790E-3  
 2.250000000000000E10    5.162687972187996E-3  -2.280499413609505E-2  
 2.252000000000000E10   -2.280056104063988E-2  -2.529243240132928E-3  
 2.254000000000000E10   -8.331492426805198E-4   2.280580997467041E-2  
 2.256000000000000E10    2.125160396099091E-2  -1.670640544034541E-3  
 2.258000000000000E10   -4.280933644622564E-3  -2.096211165189743E-2  
 2.260000000000000E10   -2.244797535240650E-2   7.295072078704834E-3  
 2.262000000000000E10    9.907627478241921E-3   2.107474021613598E-2  
 2.264000000000000E10    2.033198997378349E-2  -1.236919593065977E-2  
 2.266000000000000E10   -1.538402680307627E-2  -1.949543692171574E-2  
 2.268000000000000E10   -1.785160973668098E-2   1.719594933092594E-2  
 2.270000000000000E10    1.797574013471603E-2   1.623140089213848E-2  
 2.272000000000000E10    1.564990915358067E-2  -1.755858212709427E-2  
 2.274000000000000E10   -1.878508366644383E-2  -1.393389608711004E-2  
 2.276000000000000E10   -1.165500935167074E-2   2.218021452426910E-2  
 2.278000000000000E10    2.257245406508446E-2   9.183443151414394E-3  
 2.280000000000000E10    5.617659073323011E-3  -2.254156209528446E-2  
 2.282000000000000E10   -1.773041486740112E-2  -1.476843282580376E-2  
 2.284000000000000E10    1.321962685324252E-3   2.310793474316597E-2  
 2.286000000000000E10    2.268223837018013E-2  -3.185106441378593E-3  
 2.288000000000000E10   -4.373512696474791E-3  -2.201353199779987E-2  
 2.290000000000000E10   -2.142259292304516E-2   7.128319703042507E-3  
 2.292000000000000E10    9.414865635335445E-3   2.204535342752934E-2  
 2.294000000000000E10    2.050755545496941E-2  -1.126643642783165E-2  
 2.296000000000000E10   -1.328596379607916E-2  -1.885167136788368E-2  
 2.298000000000000E10   -1.636976003646851E-2   1.627117954194546E-2  
 2.300000000000000E10    1.766203902661800E-2   1.374792773276568E-2  
 2.302000000000000E10    1.181987579911947E-2  -1.892670616507530E-2  
 2.304000000000000E10   -1.964671537280083E-2  -9.433899074792862E-3  
 2.306000000000000E10   -6.527945399284363E-3   2.139396592974663E-2  
 2.308000000000000E10    2.353677898645401E-2   4.799500107765198E-3  
 2.310000000000000E10    2.944889245554805E-3  -2.416155673563480E-2  
 2.312000000000000E10   -2.458198554813862E-2   6.886683404445648E-4  
 2.314000000000000E10    3.815890755504370E-3   2.386705204844475E-2  
 2.316000000000000E10    2.211340144276619E-2  -5.912405904382467E-3  
 2.318000000000000E10   -7.248756010085344E-3  -2.169225737452507E-2  
 2.320000000000000E10   -1.860899291932583E-2   8.736364543437958E-3  
 2.322000000000000E10    1.052237674593926E-2   1.656902395188808E-2  
 2.324000000000000E10    1.653700880706310E-2  -1.257224380970001E-2  
 2.326000000000000E10   -1.470277644693852E-2  -1.502853445708752E-2  
 2.328000000000000E10   -1.268761511892080E-2   1.735906861722469E-2  
 2.330000000000000E10    1.975097320973873E-2   9.999181143939495E-3  
 2.332000000000000E10    6.874233484268189E-3  -2.063697762787342E-2  
 2.334000000000000E10   -2.098263427615166E-2  -6.063180044293404E-3  
 2.336000000000000E10   -4.113220144063234E-3   2.111935988068581E-2  
 2.338000000000000E10    2.143749594688416E-2   9.709786390885711E-4  
 2.340000000000000E10   -4.498557245824486E-4  -2.132617682218552E-2  
 2.342000000000000E10   -2.091405168175697E-2   2.109014429152012E-3  
 2.344000000000000E10    5.427396856248379E-3   1.977430470287800E-2  
 2.346000000000000E10    1.853556931018829E-2  -8.640133775770664E-3  
 2.348000000000000E10   -1.049027591943741E-2  -1.636384613811970E-2  
 2.350000000000000E10   -1.534896809607744E-2   1.207292638719082E-2  
 2.352000000000000E10    1.474111061543226E-2   1.377495191991329E-2  
 2.354000000000000E10    1.154446881264448E-2  -1.581614650785923E-2  
 2.356000000000000E10   -1.704167760908604E-2  -1.127999369055033E-2  
 2.358000000000000E10   -1.008758507668972E-2   1.825404167175293E-2  
 2.360000000000000E10    1.885226555168629E-2   7.508410606533289E-3  
 2.362000000000000E10    5.618851166218519E-3  -1.970621570944786E-2  
 2.364000000000000E10   -1.988369226455689E-2  -2.478268695995212E-3  
 2.366000000000000E10   -3.816747339442372E-4   1.841068267822266E-2  
 2.368000000000000E10    1.760065741837025E-2  -1.679278677329421E-3  
 2.370000000000000E10   -3.657827619463205E-3  -1.654377020895481E-2  
 2.372000000000000E10   -1.709854602813721E-2   6.280092056840658E-3  
 2.374000000000000E10    8.455477654933929E-3   1.703111268579960E-2  
 2.376000000000000E10    1.589053496718407E-2  -1.048959884792566E-2  
 2.378000000000000E10   -1.290513947606087E-2  -1.455103047192097E-2  
 2.380000000000000E10   -1.459463592618704E-2   1.517294254153967E-2  
 2.382000000000000E10    1.585870422422886E-2   1.253721024841070E-2  
 2.384000000000000E10    1.039615739136934E-2  -1.627144776284695E-2  
 2.386000000000000E10   -1.713920012116432E-2  -8.414325304329395E-3  
 2.388000000000000E10   -5.722094327211380E-3   1.752577908337116E-2  
 2.390000000000000E10    1.748271286487579E-2   3.312513465061784E-3  
 2.392000000000000E10    9.092602995224297E-4  -1.730005443096161E-2  
 2.394000000000000E10   -1.749323122203350E-2   2.344163600355387E-3  
 2.396000000000000E10    4.195335786789656E-3   1.728658564388752E-2  
 2.398000000000000E10    1.636345870792866E-2  -6.041970569640398E-3  
 2.400000000000000E10   -8.275269530713558E-3  -1.594306714832783E-2  
 2.402000000000000E10   -1.358246244490147E-2   1.111985929310322E-2  
 2.404000000000000E10    1.106650941073895E-2   1.258915755897760E-2  
 2.406000000000000E10    1.158106047660112E-2  -1.227769162505865E-2  
 2.408000000000000E10   -1.350703462958336E-2  -1.005316246300936E-2  
 2.410000000000000E10   -8.079879917204380E-3   1.434978470206261E-2  
 2.412000000000000E10    1.460955943912268E-2   6.168943829834461E-3  
 2.414000000000000E10    4.148856271058321E-3  -1.475034933537245E-2  
 2.416000000000000E10   -1.580135338008404E-2  -1.994053600355983E-3  
 2.418000000000000E10   -2.489295438863337E-4   1.607832871377468E-2  
 2.420000000000000E10    1.539506856352091E-2  -1.088567543774843E-3  
 2.422000000000000E10   -2.422890858724713E-3  -1.600903831422329E-2  
 2.424000000000000E10   -1.617655903100967E-2   3.192568430677056E-3  
 2.426000000000000E10    4.190593957901001E-3   1.606352999806404E-2  
 2.428000000000000E10    1.531757041811943E-2  -5.489065311849117E-3  
 2.430000000000000E10   -6.333797238767147E-3  -1.413923036307097E-2  
 2.432000000000000E10   -1.274998858571053E-2   7.850294932723045E-3  
 2.434000000000000E10    9.462079033255577E-3   1.056679710745812E-2  
 2.436000000000000E10    8.514952845871449E-3  -1.015910506248474E-2  
 2.438000000000000E10   -1.096340548247099E-2  -6.633955053985119E-3  
 2.440000000000000E10   -5.391408689320087E-3   1.240770611912012E-2  
 2.442000000000000E10    1.378892175853252E-2   4.582636523991823E-3  
 2.444000000000000E10    3.036268521100283E-3  -1.427855901420116E-2  
 2.446000000000000E10   -1.443171966820955E-2  -1.508860150352120E-3  
 2.448000000000000E10   -7.470603450201452E-4   1.506798341870308E-2  
 2.450000000000000E10    1.417273748666048E-2   4.389008972793818E-4  
 2.452000000000000E10   -1.123352907598019E-3  -1.406536996364594E-2  
 2.454000000000000E10   -1.341401319950819E-2   2.195102162659168E-3  
 2.456000000000000E10    3.147316398099065E-3   1.258593238890171E-2  
 2.458000000000000E10    1.273078937083483E-2  -3.990559838712215E-3  
 2.460000000000000E10   -5.847963970154524E-3  -1.109147816896439E-2  
 2.462000000000000E10   -9.899631142616272E-3   8.249422535300255E-3  
 2.464000000000000E10    9.531622752547264E-3   9.707078337669373E-3  
 2.466000000000000E10    8.718622848391533E-3  -9.784240275621414E-3  
 2.468000000000000E10   -1.182770915329456E-2  -7.467299699783325E-3  
 2.470000000000000E10   -6.243245210498571E-3   1.266242563724518E-2  
 2.472000000000000E10    1.192561537027359E-2   4.507617559283972E-3  
 2.474000000000000E10    4.094823729246855E-3  -1.193817611783743E-2  
 2.476000000000000E10   -1.181338820606470E-2  -3.343438031151891E-3  
 2.478000000000000E10   -8.762382785789669E-4   1.136268582195044E-2  
 2.480000000000000E10    1.220826152712107E-2  -3.470928932074457E-4  
 2.482000000000000E10   -1.352510415017605E-3  -1.194120571017265E-2  
 2.484000000000000E10   -1.131285633891821E-2   3.684210823848844E-3  
 2.486000000000000E10    5.640550050884485E-3   1.187175232917070E-2  
 2.488000000000000E10    1.066606957465410E-2  -7.091526407748461E-3  
 2.490000000000000E10   -7.902178913354874E-3  -1.061866898089647E-2  
 2.492000000000000E10   -9.814885444939137E-3   8.168132975697517E-3  
 2.494000000000000E10    8.399590849876404E-3   8.545522578060627E-3  
 2.496000000000000E10    8.477434515953064E-3  -9.849824942648411E-3  
 2.498000000000000E10   -9.500036947429180E-3  -7.052490487694740E-3  
 2.500000000000000E10   -5.934082437306643E-3   9.193565696477890E-3  
 2.502000000000000E10    1.034295745193958E-2   3.839801996946335E-3  
 2.504000000000000E10    1.563544734381139E-3  -1.051723491400480E-2  
 2.506000000000000E10   -9.873755276203156E-3  -6.079767481423914E-4  
 2.508000000000000E10   -4.267582553438842E-4   9.972440078854561E-3  
 2.510000000000000E10    1.082126237452030E-2  -1.488814246840775E-3  
 2.512000000000000E10   -2.615883713588119E-3  -1.238573715090752E-2  
 2.514000000000000E10   -1.210418529808521E-2   3.694367362186313E-3  
 2.516000000000000E10    4.844037815928459E-3   1.162651553750038E-2  
 2.518000000000000E10    1.079348940402269E-2  -5.807470530271530E-3  
 2.520000000000000E10   -7.188142277300358E-3  -9.958541952073574E-3  
 2.522000000000000E10   -9.601322002708912E-3   7.811488118022680E-3  
 2.524000000000000E10    7.798259612172842E-3   7.630334701389074E-3  
 2.526000000000000E10    5.575094837695360E-3  -9.361204691231251E-3  
 2.528000000000000E10   -1.037238538265228E-2  -4.931505769491196E-3  
 2.530000000000000E10   -3.808060195297003E-3   1.068008597940207E-2  
 2.532000000000000E10    1.158271171152592E-2   2.028019865974784E-3  
 2.534000000000000E10    9.977966547012329E-4  -1.192570384591818E-2  
 2.536000000000000E10   -1.190577168017626E-2   7.215029909275472E-4  
 2.538000000000000E10    1.078448607586324E-3   1.194585207849741E-2  
 2.540000000000000E10    1.103555504232645E-2  -1.771598006598651E-3  
 2.542000000000000E10   -3.645608201622963E-3  -1.027134340256453E-2  
 2.544000000000000E10   -9.678788483142853E-3   5.067188292741776E-3  
 2.546000000000000E10    5.643666721880436E-3   8.747166953980923E-3  
 2.548000000000000E10    7.799726910889149E-3  -7.564630359411240E-3  
 2.550000000000000E10   -8.787017315626144E-3  -5.921244621276856E-3  
 2.552000000000000E10   -4.754888825118542E-3   1.036986056715250E-2  
 2.554000000000000E10    1.097506750375032E-2   3.450127085670829E-3  
 2.556000000000000E10    2.696803538128734E-3  -1.108509954065085E-2  
 2.558000000000000E10   -1.211531832814217E-2  -1.430422766134143E-3  
 2.560000000000000E10   -7.381874020211399E-4   1.231771055608988E-2  
 2.562000000000000E10    1.160082034766674E-2  -4.655845114029944E-4  
 2.564000000000000E10   -9.090557578019798E-4  -1.146186608821154E-2  
 2.566000000000000E10   -1.143455598503351E-2   2.467169193550944E-3  
 2.568000000000000E10    4.570629913359880E-3   1.076307054609060E-2  
 2.570000000000000E10    9.129402227699757E-3  -6.358202546834946E-3  
 2.572000000000000E10   -7.542892359197140E-3  -7.422633469104767E-3  
 2.574000000000000E10   -6.592210382223129E-3   8.680649101734161E-3  
 2.576000000000000E10    1.035508234053850E-2   6.058601196855307E-3  
 2.578000000000000E10    3.649666439741850E-3  -1.117276214063168E-2  
 2.580000000000000E10   -1.173494569957256E-2  -3.062934847548604E-3  
 2.582000000000000E10   -1.855462905950844E-3   1.224318053573370E-2  
 2.584000000000000E10    1.187976263463497E-2   7.350999512709677E-4  
 2.586000000000000E10   -1.439356710761786E-3  -1.148488558828831E-2  
 2.588000000000000E10   -1.049126219004393E-2   3.129934659227729E-3  
 2.590000000000000E10    3.341878298670054E-3   1.061237789690495E-2  
 2.592000000000000E10    8.898527361452580E-3  -4.646099172532558E-3  
 2.594000000000000E10   -6.370541639626026E-3  -8.322117850184441E-3  
 2.596000000000000E10   -8.701105602085590E-3   7.584881968796253E-3  
 2.598000000000000E10    8.666973561048508E-3   7.576719392091036E-3  
 2.600000000000000E10    7.239255122840405E-3  -9.963814169168472E-3  
 2.602000000000000E10   -1.068793982267380E-2  -6.105736829340458E-3  
 2.604000000000000E10   -4.272530321031809E-3   1.159709971398115E-2  
 2.606000000000000E10    1.095635723322630E-2   3.580447053536773E-3  
 2.608000000000000E10    1.864447491243482E-3  -9.980262257158756E-3  
 2.610000000000000E10   -1.040648389607668E-2  -3.400193527340889E-4  
 2.612000000000000E10    5.920591065660119E-4   1.044172234833241E-2  
 2.614000000000000E10    9.425577707588673E-3  -2.421996323391795E-3  
 2.616000000000000E10   -4.056359641253948E-3  -9.514277800917625E-3  
 2.618000000000000E10   -9.382813237607479E-3   5.502874031662941E-3  
 2.620000000000000E10    7.955622859299183E-3   8.799331262707710E-3  
 2.622000000000000E10    8.072819560766220E-3  -8.630651980638504E-3  
 2.624000000000000E10   -8.341144770383835E-3  -7.297826465219259E-3  
 2.626000000000000E10   -6.596456281840801E-3   1.032525859773159E-2  
 2.628000000000000E10    1.038641016930342E-2   5.519953556358814E-3  
 2.630000000000000E10    4.027987830340862E-3  -1.055942662060261E-2  
 2.632000000000000E10   -1.097595691680908E-2  -2.640456659719348E-3  
 2.634000000000000E10   -7.728203199803829E-4   1.051932945847511E-2  
 2.636000000000000E10    1.082350779324770E-2  -1.504257787019014E-3  
 2.638000000000000E10   -2.770921681076288E-3  -1.104836631566286E-2  
 2.640000000000000E10   -1.019588578492403E-2   4.712973255664110E-3  
 2.642000000000000E10    6.452398840337992E-3   9.194173850119114E-3  
 2.644000000000000E10    9.134017862379551E-3  -7.204476278275251E-3  
 2.646000000000000E10   -7.771172095090151E-3  -8.395801298320293E-3  
 2.648000000000000E10   -6.727185565978289E-3   8.773990906774998E-3  
 2.650000000000000E10    9.342564269900322E-3   5.636178422719240E-3  
 2.652000000000000E10    4.551522899419069E-3  -1.030876953154802E-2  
 2.654000000000000E10   -1.036707684397697E-2  -3.000645432621241E-3  
 2.656000000000000E10   -8.578305132687092E-4   1.018826011568308E-2  
 2.658000000000000E10    1.088625472038984E-2  -1.219680183567107E-3  
 2.660000000000000E10   -3.340790513902903E-3  -1.128119789063931E-2  
 2.662000000000000E10   -1.044135820120573E-2   5.003839265555143E-3  
 2.664000000000000E10    6.229080725461245E-3   9.860849007964134E-3  
 2.666000000000000E10    8.938483893871307E-3  -7.751670200377703E-3  
 2.668000000000000E10   -9.048933163285255E-3  -8.186982944607735E-3  
 2.670000000000000E10   -7.326322142034769E-3   8.255516178905964E-3  
 2.672000000000000E10    8.161587640643120E-3   5.838666576892138E-3  
 2.674000000000000E10    4.441983532160521E-3  -9.212393313646317E-3  
 2.676000000000000E10   -9.548585861921310E-3  -3.243478946387768E-3  
 2.678000000000000E10   -1.484294654801488E-3   9.623728692531586E-3  
 2.680000000000000E10    9.467154741287231E-3   1.108787546399981E-4  
 2.682000000000000E10   -1.824308536015451E-3  -9.930772706866264E-3  
 2.684000000000000E10   -1.060254685580730E-2   3.151922486722469E-3  
 2.686000000000000E10    4.149646498262882E-3   1.027597393840551E-2  
 2.688000000000000E10    9.396116249263287E-3  -5.594574380666018E-3  
 2.690000000000000E10   -7.415580097585917E-3  -8.868181146681309E-3  
 2.692000000000000E10   -8.247027173638344E-3   7.872470654547215E-3  
 2.694000000000000E10    8.542180992662907E-3   7.148046977818012E-3  
 2.696000000000000E10    4.902003332972527E-3  -9.245953522622585E-3  
 2.698000000000000E10   -9.824844077229500E-3  -3.680850146338344E-3  
 2.700000000000000E10   -2.595434198155999E-3   1.014044880867004E-2  
 2.702000000000000E10    1.102085970342159E-2   4.845009243581444E-4  
 2.704000000000000E10   -1.556793111376464E-3  -1.076499093323946E-2  
 2.706000000000000E10   -1.080791931599379E-2   2.706344937905669E-3  
 2.708000000000000E10    3.193530486896634E-3   1.086174882948399E-2  
 2.710000000000000E10    9.826589375734329E-3  -4.223567899316549E-3  
 2.712000000000000E10   -5.112237762659788E-3  -9.027390740811825E-3  
 2.714000000000000E10   -8.944788016378880E-3   5.963647738099098E-3  
 2.716000000000000E10    6.207764614373446E-3   7.672095671296120E-3  
 2.718000000000000E10    6.031330674886704E-3  -7.235769648104906E-3  
 2.720000000000000E10   -8.616395294666290E-3  -5.233318544924259E-3  
 2.722000000000000E10   -3.785793436691165E-3   9.437659755349159E-3  
 2.724000000000000E10    1.034956611692905E-2   1.964010065421462E-3  
 2.726000000000000E10    6.109972600825131E-4  -1.075414568185806E-2  
 2.728000000000000E10   -1.144820917397738E-2   8.458893862552941E-4  
 2.730000000000000E10    2.143362769857049E-3   1.216843444854021E-2  
 2.732000000000000E10    1.076685544103384E-2  -2.996925497427583E-3  
 2.734000000000000E10   -3.919314593076706E-3  -1.096148230135441E-2  
 2.736000000000000E10   -1.072090025991201E-2   5.211276467889547E-3  
 2.738000000000000E10    5.797151941806078E-3   9.664398618042469E-3  
 2.740000000000000E10    8.156920783221722E-3  -6.963745690882206E-3  
 2.742000000000000E10   -7.617703638970852E-3  -6.730647291988134E-3  
 2.744000000000000E10   -5.123641341924667E-3   8.763903751969338E-3  
 2.746000000000000E10    9.681722149252892E-3   4.077185411006212E-3  
 2.748000000000000E10    2.655161079019308E-3  -9.732472710311413E-3  
 2.750000000000000E10   -1.046256907284260E-2  -5.486397421918809E-4  
 2.752000000000000E10   -2.707815147005022E-4   1.084587723016739E-2  
 2.754000000000000E10    1.072252914309502E-2  -6.220933864824474E-4  
 2.756000000000000E10   -2.226547570899129E-3  -1.052386034280062E-2  
