#  HZ   S   RI   R     50.00 
! Rohde & Schwarz ZVA40 4Ports - Version 3.90 - 1145.1110k42 SN: 100403
! Date: 2023-10-04 10:26:01
! Measurement: S12 
! 
 2.200000000000000E10   -3.394872695207596E-2   4.437993746250868E-3  
 2.202000000000000E10    7.786273956298828E-3   3.192942216992378E-2  
 2.204000000000000E10    3.040051087737083E-2  -1.262257061898708E-2  
 2.206000000000000E10   -1.551823318004608E-2  -2.903275191783905E-2  
 2.208000000000000E10   -2.639089897274971E-2   1.718349941074848E-2  
 2.210000000000000E10    1.928023621439934E-2   2.392133697867394E-2  
 2.212000000000000E10    2.116827480494976E-2  -1.932601071894169E-2  
 2.214000000000000E10   -2.161532826721668E-2  -1.744314096868038E-2  
 2.216000000000000E10   -1.559870783239603E-2   2.355645038187504E-2  
 2.218000000000000E10    2.299396879971027E-2   1.204583793878555E-2  
 2.220000000000000E10    9.089422412216663E-3  -2.259035035967827E-2  
 2.222000000000000E10   -2.463739924132824E-2  -6.737762596458197E-3  
 2.224000000000000E10   -3.805181011557579E-3   2.557315491139889E-2  
 2.226000000000000E10    2.546359784901142E-2   1.243079430423677E-3  
 2.228000000000000E10    2.703896898310632E-4  -2.499743737280369E-2  
 2.230000000000000E10   -2.452673763036728E-2   3.415129147469997E-3  
 2.232000000000000E10    6.548827048391104E-3   2.492911741137505E-2  
 2.234000000000000E10    2.437106706202030E-2  -8.433034643530846E-3  
 2.236000000000000E10   -1.040329504758120E-2  -2.127693407237530E-2  
 2.238000000000000E10   -2.088359370827675E-2   1.296416111290455E-2  
 2.240000000000000E10    1.543774362653494E-2   2.007392421364784E-2  
 2.242000000000000E10    1.888060383498669E-2  -1.721368543803692E-2  
 2.244000000000000E10   -1.843173801898956E-2  -1.700971648097038E-2  
 2.246000000000000E10   -1.392831094563007E-2   1.956923305988312E-2  
 2.248000000000000E10    2.177251316606998E-2   1.374323200434446E-2  
 2.250000000000000E10    1.293207332491875E-2  -2.298580668866634E-2  
 2.252000000000000E10   -2.245101891458035E-2  -9.821216575801373E-3  
 2.254000000000000E10   -6.867261137813330E-3   2.329221554100514E-2  
 2.256000000000000E10    2.446591854095459E-2   4.536635708063841E-3  
 2.258000000000000E10    2.773158019408584E-3  -2.383033744990826E-2  
 2.260000000000000E10   -2.309333533048630E-2   1.626107550691813E-4  
 2.262000000000000E10    4.495569970458746E-3   2.197808027267456E-2  
 2.264000000000000E10    2.240189723670483E-2  -7.124855183064938E-3  
 2.266000000000000E10   -9.462430141866207E-3  -2.259923890233040E-2  
 2.268000000000000E10   -2.095388062298298E-2   1.258645206689835E-2  
 2.270000000000000E10    1.432378217577934E-2   1.872494816780090E-2  
 2.272000000000000E10    1.897880621254444E-2  -1.544729154556990E-2  
 2.274000000000000E10   -1.738601922988892E-2  -1.944716088473797E-2  
 2.276000000000000E10   -1.710657402873039E-2   1.920832321047783E-2  
 2.278000000000000E10    2.107793092727661E-2   1.422342658042908E-2  
 2.280000000000000E10    1.268702000379562E-2  -2.196645177900791E-2  
 2.282000000000000E10   -1.207502279430628E-2  -2.104395441710949E-2  
 2.284000000000000E10   -6.811083760112524E-3   2.249570004642010E-2  
 2.286000000000000E10    2.262091822922230E-2   3.749484894797206E-3  
 2.288000000000000E10    1.115883584134281E-3  -2.340695634484291E-2  
 2.290000000000000E10   -2.345856837928295E-2   1.535252667963505E-3  
 2.292000000000000E10    3.685047384351492E-3   2.224822901189327E-2  
 2.294000000000000E10    2.292386069893837E-2  -7.506543304771185E-3  
 2.296000000000000E10   -1.057727076113224E-2  -2.251831255853176E-2  
 2.298000000000000E10   -2.047175914049149E-2   1.069805398583412E-2  
 2.300000000000000E10    1.310948841273785E-2   1.893043704330921E-2  
 2.302000000000000E10    1.706344820559025E-2  -1.594487391412258E-2  
 2.304000000000000E10   -1.679966971278191E-2  -1.496303454041481E-2  
 2.306000000000000E10   -1.356733590364456E-2   1.837255805730820E-2  
 2.308000000000000E10    1.969833485782147E-2   1.118769310414791E-2  
 2.310000000000000E10    7.974681444466114E-3  -2.123883552849293E-2  
 2.312000000000000E10   -2.404925227165222E-2  -5.265825893729925E-3  
 2.314000000000000E10   -3.014897694811225E-3   2.414098381996155E-2  
 2.316000000000000E10    2.356088720262051E-2  -2.805656986311078E-4  
 2.318000000000000E10   -3.283690195530653E-3  -2.447446063160896E-2  
 2.320000000000000E10   -2.280151471495628E-2   4.698519129306078E-3  
 2.322000000000000E10    7.336499169468880E-3   2.162659540772438E-2  
 2.324000000000000E10    2.024040929973126E-2  -8.204038254916668E-3  
 2.326000000000000E10   -1.021205633878708E-2  -1.875785365700722E-2  
 2.328000000000000E10   -1.696699857711792E-2   1.387209538370371E-2  
 2.330000000000000E10    1.417232211679220E-2   1.439819298684597E-2  
 2.332000000000000E10    1.178691070526838E-2  -1.510663516819477E-2  
 2.334000000000000E10   -1.751551963388920E-2  -1.009275950491428E-2  
 2.336000000000000E10   -8.970097638666630E-3   1.910010352730751E-2  
 2.338000000000000E10    2.048479765653610E-2   6.512958556413651E-3  
 2.340000000000000E10    5.111312959343195E-3  -2.159467712044716E-2  
 2.342000000000000E10   -2.246472612023354E-2  -2.460682066157460E-3  
 2.344000000000000E10    5.914478679187596E-4   2.312307991087437E-2  
 2.346000000000000E10    2.188017591834068E-2  -2.438476542010903E-3  
 2.348000000000000E10   -5.229192320257425E-3  -2.034680359065533E-2  
 2.350000000000000E10   -1.940825209021568E-2   7.945663295686245E-3  
 2.352000000000000E10    9.392269887030125E-3   1.796304434537888E-2  
 2.354000000000000E10    1.585088111460209E-2  -1.166481897234917E-2  
 2.356000000000000E10   -1.351162791252136E-2  -1.373557560145855E-2  
 2.358000000000000E10   -1.158668845891953E-2   1.548801921308041E-2  
 2.360000000000000E10    1.636433415114880E-2   1.038447581231594E-2  
 2.362000000000000E10    9.413491934537888E-3  -1.735424995422363E-2  
 2.364000000000000E10   -1.865424215793610E-2  -6.361247040331364E-3  
 2.366000000000000E10   -5.128677003085613E-3   1.870758645236492E-2  
 2.368000000000000E10    1.843477040529251E-2   4.406538326293230E-3  
 2.370000000000000E10    1.527928397990763E-3  -1.902540959417820E-2  
 2.372000000000000E10   -1.864399015903473E-2   6.293620390351862E-5  
 2.374000000000000E10    2.586458576843143E-3   1.809420809149742E-2  
 2.376000000000000E10    1.818477176129818E-2  -5.667133256793022E-3  
 2.378000000000000E10   -7.790514267981052E-3  -1.676343195140362E-2  
 2.380000000000000E10   -1.439632941037417E-2   1.049252506345511E-2  
 2.382000000000000E10    1.252799946814776E-2   1.422978192567825E-2  
 2.384000000000000E10    1.271848380565643E-2  -1.395850162953138E-2  
 2.386000000000000E10   -1.505261193960905E-2  -1.041946187615395E-2  
 2.388000000000000E10   -9.487757459282875E-3   1.565608195960522E-2  
 2.390000000000000E10    1.639712974429131E-2   7.999904453754425E-3  
 2.392000000000000E10    6.834516301751137E-3  -1.683340966701508E-2  
 2.394000000000000E10   -1.634714752435684E-2  -5.280300509184599E-3  
 2.396000000000000E10   -2.240525092929602E-3   1.639123819768429E-2  
 2.398000000000000E10    1.675009913742542E-2   3.747759037651122E-4  
 2.400000000000000E10   -1.710461569018662E-3  -1.597634889185429E-2  
 2.402000000000000E10   -1.481369324028492E-2   6.665536202490330E-3  
 2.404000000000000E10    8.508772589266300E-3   1.380260754376650E-2  
 2.406000000000000E10    1.371450908482075E-2  -1.021774765104055E-2  
 2.408000000000000E10   -1.193766482174397E-2  -1.245545689016581E-2  
 2.410000000000000E10   -1.115373801440001E-2   1.216669473797083E-2  
 2.412000000000000E10    1.349342521280050E-2   9.891687892377377E-3  
 2.414000000000000E10    9.023073129355907E-3  -1.306814607232809E-2  
 2.416000000000000E10   -1.338050421327353E-2  -7.318919990211725E-3  
 2.418000000000000E10   -5.269445013254881E-3   1.385679654777050E-2  
 2.420000000000000E10    1.286488492041826E-2   3.926648758351803E-3  
 2.422000000000000E10    2.347808331251144E-3  -1.347349490970373E-2  
 2.424000000000000E10   -1.396419852972031E-2  -9.396843961440027E-4  
 2.426000000000000E10    9.409005870111287E-4   1.363226585090160E-2  
 2.428000000000000E10    1.441060379147530E-2  -2.392184454947710E-3  
 2.430000000000000E10   -4.025663249194622E-3  -1.493467949330807E-2  
 2.432000000000000E10   -1.390956528484821E-2   6.295099388808012E-3  
 2.434000000000000E10    7.345126941800118E-3   1.391156204044819E-2  
 2.436000000000000E10    1.254525501281023E-2  -8.017842657864094E-3  
 2.438000000000000E10   -8.706417866051197E-3  -1.039785239845514E-2  
 2.440000000000000E10   -9.725733660161495E-3   8.853282779455185E-3  
 2.442000000000000E10    8.612097240984440E-3   8.012967184185982E-3  
 2.444000000000000E10    6.363281048834324E-3  -9.702050127089024E-3  
 2.446000000000000E10   -1.003243215382099E-2  -5.331855267286301E-3  
 2.448000000000000E10   -3.521634498611093E-3   1.015070080757141E-2  
 2.450000000000000E10    1.172832679003477E-2   2.830324228852987E-3  
 2.452000000000000E10    1.815738622099161E-3  -1.287252269685268E-2  
 2.454000000000000E10   -1.223930623382330E-2  -4.349538940005004E-4  
 2.456000000000000E10   -5.169674986973405E-4   1.292590890079737E-2  
 2.458000000000000E10    1.375565305352211E-2  -7.564362604171038E-4  
 2.460000000000000E10   -2.682089805603027E-3  -1.393448840826750E-2  
 2.462000000000000E10   -1.300764922052622E-2   3.030683379620314E-3  
 2.464000000000000E10    4.018971230834723E-3   1.092392951250076E-2  
 2.466000000000000E10    1.035690400749445E-2  -5.557473748922348E-3  
 2.468000000000000E10   -6.350220646709204E-3  -9.966352954506874E-3  
 2.470000000000000E10   -7.828876376152039E-3   7.600069511681795E-3  
 2.472000000000000E10    8.688250556588173E-3   5.607638508081436E-3  
 2.474000000000000E10    5.503984633833170E-3  -9.044023230671883E-3  
 2.476000000000000E10   -1.031944993883371E-2  -5.017930641770363E-3  
 2.478000000000000E10   -5.025219172239304E-3   1.104512624442577E-2  
 2.480000000000000E10    1.074955891817808E-2   3.822070779278874E-3  
 2.482000000000000E10    2.865540562197566E-3  -1.182909309864044E-2  
 2.484000000000000E10   -1.226099953055382E-2  -1.832231762818992E-3  
 2.486000000000000E10   -7.094182656146586E-4   1.202272716909647E-2  
 2.488000000000000E10    1.058193203061819E-2  -1.352804712951183E-3  
 2.490000000000000E10   -2.937741111963987E-3  -9.641831740736961E-3  
 2.492000000000000E10   -9.955978952348232E-3   4.441439174115658E-3  
 2.494000000000000E10    5.539406556636095E-3   9.192462079226971E-3  
 2.496000000000000E10    8.094900287687779E-3  -6.451290100812912E-3  
 2.498000000000000E10   -8.565186522901058E-3  -7.588616572320461E-3  
 2.500000000000000E10   -7.052697706967592E-3   8.637734688818455E-3  
 2.502000000000000E10    9.030304849147797E-3   7.046060170978308E-3  
 2.504000000000000E10    5.849925801157951E-3  -9.339998476207256E-3  
 2.506000000000000E10   -8.341989479959011E-3  -4.673883784562349E-3  
 2.508000000000000E10   -5.118506960570812E-3   8.999467827379704E-3  
 2.510000000000000E10    8.941012434661388E-3   5.345254670828581E-3  
 2.512000000000000E10    3.022424876689911E-3  -9.006566368043423E-3  
 2.514000000000000E10   -9.512319229543209E-3  -9.993459098041058E-4  
 2.516000000000000E10   -2.474126522429287E-4   9.555987082421780E-3  
 2.518000000000000E10    1.019377447664738E-2  -2.323010005056858E-3  
 2.520000000000000E10   -3.730719210579991E-3  -9.816664271056652E-3  
 2.522000000000000E10   -9.185425937175751E-3   5.191829055547714E-3  
 2.524000000000000E10    6.934021133929491E-3   9.400125592947006E-3  
 2.526000000000000E10    9.535455144941807E-3  -6.913491524755955E-3  
 2.528000000000000E10   -7.425990421324968E-3  -7.733037695288658E-3  
 2.530000000000000E10   -7.113048341125250E-3   8.858851157128811E-3  
 2.532000000000000E10    9.211399592459202E-3   6.668876390904188E-3  
 2.534000000000000E10    5.345902405679226E-3  -9.118065237998962E-3  
 2.536000000000000E10   -9.732354432344437E-3  -4.048382863402367E-3  
 2.538000000000000E10   -2.200720133259893E-3   9.622434154152870E-3  
 2.540000000000000E10    1.054095756262541E-2   9.283733670599759E-4  
 2.542000000000000E10   -1.179086757474579E-4  -1.085279416292906E-2  
 2.544000000000000E10   -1.039578858762980E-2   1.797146862372756E-3  
 2.546000000000000E10    3.690384095534682E-3   1.072531659156084E-2  
 2.548000000000000E10    9.987956844270229E-3  -4.850342404097319E-3  
 2.550000000000000E10   -5.826666019856930E-3  -9.045029990375042E-3  
 2.552000000000000E10   -8.395052514970303E-3   6.458730436861515E-3  
 2.554000000000000E10    6.734448950737715E-3   6.241478025913239E-3  
 2.556000000000000E10    5.408016499131918E-3  -7.645940408110619E-3  
 2.558000000000000E10   -7.194062229245901E-3  -4.114880226552486E-3  
 2.560000000000000E10   -2.396198688074946E-3   7.917118258774281E-3  
 2.562000000000000E10    8.656079880893230E-3   1.939700916409493E-3  
 2.564000000000000E10    7.351859239861369E-4  -8.985414169728756E-3  
 2.566000000000000E10   -1.098987087607384E-2   7.624753052368760E-4  
 2.568000000000000E10    1.548003521747887E-3   1.104300189763308E-2  
 2.570000000000000E10    1.112444605678320E-2  -3.928382415324450E-3  
 2.572000000000000E10   -4.445713013410568E-3  -1.075267419219017E-2  
 2.574000000000000E10   -9.643923491239548E-3   4.770028404891491E-3  
 2.576000000000000E10    6.535950116813183E-3   8.963935077190399E-3  
 2.578000000000000E10    7.880649529397488E-3  -6.973053794354200E-3  
 2.580000000000000E10   -6.719182245433331E-3  -5.647071637213230E-3  
 2.582000000000000E10   -4.572949837893248E-3   8.333554491400719E-3  
 2.584000000000000E10    8.287060074508190E-3   2.989498898386955E-3  
 2.586000000000000E10    1.342313364148140E-3  -9.040957316756249E-3  
 2.588000000000000E10   -9.043018333613873E-3  -4.577008949127048E-4  
 2.590000000000000E10    8.712832932360470E-4   8.883671835064888E-3  
 2.592000000000000E10    1.046646293252707E-2  -1.702076988294721E-3  
 2.594000000000000E10   -1.760233892127872E-3  -1.041907258331776E-2  
 2.596000000000000E10   -9.282401762902737E-3   3.414850682020187E-3  
 2.598000000000000E10    4.512061830610037E-3   9.712000377476215E-3  
 2.600000000000000E10    8.701100945472717E-3  -5.695178173482418E-3  
 2.602000000000000E10   -6.859610322862864E-3  -7.649479433894157E-3  
 2.604000000000000E10   -6.661748979240656E-3   7.232637144625187E-3  
 2.606000000000000E10    7.887042127549648E-3   4.244253505021334E-3  
 2.608000000000000E10    3.362019313499332E-3  -9.333993308246136E-3  
 2.610000000000000E10   -9.606632404029369E-3  -2.703344915062189E-3  
 2.612000000000000E10   -1.083312788978219E-3   9.646802209317684E-3  
 2.614000000000000E10    1.005143672227860E-2   6.475243135355413E-4  
 2.616000000000000E10   -6.088797817938030E-4  -9.541471488773823E-3  
 2.618000000000000E10   -9.705485776066780E-3   1.500442274846137E-3  
 2.620000000000000E10    1.290496787987649E-3   8.831974118947983E-3  
 2.622000000000000E10    7.403908763080835E-3  -3.215565113350749E-3  
 2.624000000000000E10   -4.205922130495310E-3  -7.238453254103661E-3  
 2.626000000000000E10   -6.913770455867052E-3   4.405535291880369E-3  
 2.628000000000000E10    6.426028907299042E-3   5.967481061816216E-3  
 2.630000000000000E10    4.964756313711405E-3  -7.808941882103682E-3  
 2.632000000000000E10   -8.667348884046078E-3  -3.591767046600580E-3  
 2.634000000000000E10   -3.016653005033732E-3   1.024930085986853E-2  
 2.636000000000000E10    1.027150824666023E-2   2.498254645615816E-3  
 2.638000000000000E10    1.361293652735185E-5  -9.416932240128517E-3  
 2.640000000000000E10   -9.882306680083275E-3   8.148273918777704E-4  
 2.642000000000000E10    6.572754355147481E-4   9.041128680109978E-3  
 2.644000000000000E10    7.738942746073008E-3  -2.148498548194766E-3  
 2.646000000000000E10   -2.982385223731399E-3  -7.767390925437212E-3  
 2.648000000000000E10   -7.145872339606285E-3   4.182401113212109E-3  
 2.650000000000000E10    5.240812897682190E-3   6.584063172340393E-3  
 2.652000000000000E10    5.327382124960423E-3  -6.876751314848661E-3  
 2.654000000000000E10   -8.462089113891125E-3  -4.358392674475908E-3  
 2.656000000000000E10   -3.783992491662502E-3   9.308103471994400E-3  
 2.658000000000000E10    9.816256351768971E-3   2.289340831339359E-3  
 2.660000000000000E10    1.016695401631296E-3  -1.001827232539654E-2  
 2.662000000000000E10   -9.888431988656521E-3  -3.095537977060303E-5  
 2.664000000000000E10    9.933332912623882E-4   9.624238125979900E-3  
 2.666000000000000E10    8.282620459794998E-3  -2.283758483827114E-3  
 2.668000000000000E10   -3.819275414571166E-3  -7.489859592169523E-3  
 2.670000000000000E10   -6.720391567796469E-3   5.173505283892155E-3  
 2.672000000000000E10    5.790494382381439E-3   6.239851471036673E-3  
 2.674000000000000E10    4.977429285645485E-3  -7.238567806780338E-3  
 2.676000000000000E10   -7.447651121765375E-3  -4.215667024254799E-3  
 2.678000000000000E10   -3.627087920904160E-3   8.771698921918869E-3  
 2.680000000000000E10    9.373484179377556E-3   2.963818376883864E-3  
 2.682000000000000E10    2.530312864109874E-3  -8.433667011559010E-3  
 2.684000000000000E10   -9.038513526320458E-3  -1.283142715692520E-3  
 2.686000000000000E10   -2.613666292745620E-4   9.494123049080372E-3  
 2.688000000000000E10    8.708065375685692E-3  -3.162905341014266E-4  
 2.690000000000000E10   -1.885656733065844E-3  -8.729325607419014E-3  
 2.692000000000000E10   -8.023411966860294E-3   3.741960041224957E-3  
 2.694000000000000E10    5.862588062882423E-3   7.253869436681271E-3  
 2.696000000000000E10    6.476966198533773E-3  -6.828082725405693E-3  
 2.698000000000000E10   -7.379432674497366E-3  -5.367480684071779E-3  
 2.700000000000000E10   -4.461166448891163E-3   8.724531158804894E-3  
 2.702000000000000E10    9.121396578848362E-3   3.812822513282299E-3  
 2.704000000000000E10    3.161218948662281E-3  -9.717779234051704E-3  
 2.706000000000000E10   -9.902364574372768E-3  -2.217084402218461E-3  
 2.708000000000000E10   -1.082567730918527E-3   8.790506049990654E-3  
 2.710000000000000E10    9.765831753611565E-3  -6.076584686525166E-4  
 2.712000000000000E10   -1.548231812193990E-3  -9.159090928733349E-3  
 2.714000000000000E10   -8.263728581368923E-3   2.770629944279790E-3  
 2.716000000000000E10    4.611145704984665E-3   8.329084143042564E-3  
 2.718000000000000E10    8.046986535191536E-3  -5.638735834509134E-3  
 2.720000000000000E10   -6.981554906815291E-3  -7.328788284212351E-3  
 2.722000000000000E10   -6.743107456713915E-3   8.330017328262329E-3  
 2.724000000000000E10    8.319755084812641E-3   5.429791752249003E-3  
 2.726000000000000E10    5.438477266579866E-3  -9.523115120828152E-3  
 2.728000000000000E10   -9.284110739827156E-3  -4.843957722187042E-3  
 2.730000000000000E10   -2.903180429711938E-3   9.290407411754131E-3  
 2.732000000000000E10    1.065369322896004E-2   1.440481166355312E-3  
 2.734000000000000E10    5.570562207140029E-4  -9.864040650427342E-3  
 2.736000000000000E10   -9.758123196661472E-3   2.085205167531967E-3  
 2.738000000000000E10    3.820060752332211E-3   9.281689301133156E-3  
 2.740000000000000E10    8.630929514765739E-3  -5.289672408252955E-3  
 2.742000000000000E10   -7.392794359475374E-3  -8.140358142554760E-3  
 2.744000000000000E10   -7.972070015966892E-3   7.132229860872030E-3  
 2.746000000000000E10    8.022578433156014E-3   6.824105046689510E-3  
 2.748000000000000E10    6.627455819398165E-3  -9.502368979156017E-3  
 2.750000000000000E10   -9.492963552474976E-3  -6.121583748608828E-3  
 2.752000000000000E10   -4.216632340103388E-3   9.537829086184502E-3  
 2.754000000000000E10    1.043816469609737E-2   3.560462035238743E-3  
 2.756000000000000E10    2.239752095192671E-3  -9.722271002829075E-3  
