#  HZ   S   RI   R     50.00 
! Rohde & Schwarz ZVA40 4Ports - Version 3.90 - 1145.1110k42 SN: 100403
! Date: 2023-10-04 10:26:46
! Measurement: S12 
! 
 2.200000000000000E10   -2.623312734067440E-2  -1.221759896725416E-2  
 2.202000000000000E10   -8.255776949226856E-3   2.919280156493187E-2  
 2.204000000000000E10    2.885889634490013E-2   6.533519830554724E-3  
 2.206000000000000E10    2.095961011946201E-3  -2.911682426929474E-2  
 2.208000000000000E10   -2.967766858637333E-2   2.225355478003621E-3  
 2.210000000000000E10    5.288419779390097E-3   2.857014164328575E-2  
 2.212000000000000E10    2.665791660547257E-2  -7.593032438308001E-3  
 2.214000000000000E10   -8.523962460458279E-3  -2.554024569690228E-2  
 2.216000000000000E10   -2.319420501589775E-2   1.128738094121218E-2  
 2.218000000000000E10    1.373248733580113E-2   2.073538862168789E-2  
 2.220000000000000E10    2.026982791721821E-2  -1.405574195086956E-2  
 2.222000000000000E10   -1.535910367965698E-2  -1.747816428542137E-2  
 2.224000000000000E10   -1.533033419400454E-2   1.683552563190460E-2  
 2.226000000000000E10    1.841218210756779E-2   1.336958445608616E-2  
 2.228000000000000E10    1.189706660807133E-2  -2.008672989904881E-2  
 2.230000000000000E10   -2.046703733503819E-2  -1.046583987772465E-2  
 2.232000000000000E10   -7.095972541719675E-3   2.140924148261547E-2  
 2.234000000000000E10    2.253284119069576E-2   3.611930413171649E-3  
 2.236000000000000E10    2.192026004195213E-3  -2.220698818564415E-2  
 2.238000000000000E10   -2.190318517386913E-2  -9.206671966239810E-4  
 2.240000000000000E10    1.592166605405510E-3   2.155503816902638E-2  
 2.242000000000000E10    2.127967029809952E-2  -4.611845128238201E-3  
 2.244000000000000E10   -7.152094040066004E-3  -2.205528318881989E-2  
 2.246000000000000E10   -2.102358080446720E-2   8.355104364454746E-3  
 2.248000000000000E10    1.051458250731230E-2   1.988160610198975E-2  
 2.250000000000000E10    1.926634646952152E-2  -1.346562709659338E-2  
 2.252000000000000E10   -1.532408129423857E-2  -1.829696446657181E-2  
 2.254000000000000E10   -1.679277047514916E-2   1.572544686496258E-2  
 2.256000000000000E10    1.635819859802723E-2   1.553622912615538E-2  
 2.258000000000000E10    1.379263307899237E-2  -1.832565106451511E-2  
 2.260000000000000E10   -1.907758228480816E-2  -1.269330736249685E-2  
 2.262000000000000E10   -9.672239422798157E-3   1.883508637547493E-2  
 2.264000000000000E10    1.945150643587112E-2   7.938025519251823E-3  
 2.266000000000000E10    4.690069239586592E-3  -2.108336798846722E-2  
 2.268000000000000E10   -2.077637426555157E-2  -1.475799013860524E-3  
 2.270000000000000E10    4.849262477364391E-4   2.019643038511276E-2  
 2.272000000000000E10    2.045414969325066E-2  -2.425665035843849E-3  
 2.274000000000000E10   -5.888653453439474E-3  -2.081147395074368E-2  
 2.276000000000000E10   -2.114327996969223E-2   7.710654288530350E-3  
 2.278000000000000E10    1.001215912401676E-2   2.053547091782093E-2  
 2.280000000000000E10    1.881277002394199E-2  -1.233824156224728E-2  
 2.282000000000000E10   -5.864637787453830E-4  -2.234980091452599E-2  
 2.284000000000000E10   -1.689945720136166E-2   1.524460036307573E-2  
 2.286000000000000E10    1.624502427875996E-2   1.475282851606607E-2  
 2.288000000000000E10    1.257084589451551E-2  -1.633580774068832E-2  
 2.290000000000000E10   -1.859041489660740E-2  -1.064693182706833E-2  
 2.292000000000000E10   -8.299564011394978E-3   1.982728391885757E-2  
 2.294000000000000E10    1.984623447060585E-2   6.071657873690128E-3  
 2.296000000000000E10    2.456137910485268E-3  -2.062689512968063E-2  
 2.298000000000000E10   -2.060659043490887E-2  -6.077690632082522E-4  
 2.300000000000000E10    9.010715875774622E-4   2.097125723958015E-2  
 2.302000000000000E10    2.058013156056404E-2  -3.389172721654177E-3  
 2.304000000000000E10   -5.957463756203651E-3  -1.949338428676128E-2  
 2.306000000000000E10   -1.804751530289650E-2   8.113952353596687E-3  
 2.308000000000000E10    8.930507116019726E-3   1.833934523165226E-2  
 2.310000000000000E10    1.756305247545242E-2  -1.052691601216793E-2  
 2.312000000000000E10   -1.393958460539579E-2  -1.432499196380377E-2  
 2.314000000000000E10   -1.265985798090696E-2   1.553704030811787E-2  
 2.316000000000000E10    1.704585924744606E-2   1.094091124832630E-2  
 2.318000000000000E10    7.982347160577774E-3  -1.879009976983070E-2  
 2.320000000000000E10   -1.916276477277279E-2  -5.233033094555140E-3  
 2.322000000000000E10   -3.950713668018580E-3   1.939845085144043E-2  
 2.324000000000000E10    2.080255374312401E-2   2.666505286470056E-3  
 2.326000000000000E10    5.107733304612339E-4  -2.070157416164875E-2  
 2.328000000000000E10   -1.986201480031014E-2   1.605360303074122E-3  
 2.330000000000000E10    4.143265075981617E-3   1.890424825251102E-2  
 2.332000000000000E10    1.758086122572422E-2  -5.434197839349508E-3  
 2.334000000000000E10   -6.901476997882128E-3  -1.558216009289026E-2  
 2.336000000000000E10   -1.451510656625032E-2   8.215963840484619E-3  
 2.338000000000000E10    1.001252792775631E-2   1.326539646834135E-2  
 2.340000000000000E10    1.242301333695650E-2  -1.218970492482185E-2  
 2.342000000000000E10   -1.408869586884975E-2  -1.131243165582418E-2  
 2.344000000000000E10   -9.222247637808323E-3   1.650517433881760E-2  
 2.346000000000000E10    1.793744787573814E-2   6.982226856052876E-3  
 2.348000000000000E10    4.889138042926788E-3  -1.850699074566364E-2  
 2.350000000000000E10   -1.829382032155991E-2  -3.143974347040057E-3  
 2.352000000000000E10   -1.063598901964724E-3   1.861059479415417E-2  
 2.354000000000000E10    1.831542514264584E-2  -8.574884268455207E-4  
 2.356000000000000E10   -2.663294784724712E-3  -1.697184331715107E-2  
 2.358000000000000E10   -1.589473523199558E-2   3.951928112655878E-3  
 2.360000000000000E10    6.024326663464308E-3   1.503605768084526E-2  
 2.362000000000000E10    1.378122530877590E-2  -9.039319120347500E-3  
 2.364000000000000E10   -1.030565891414881E-2  -1.228735130280256E-2  
 2.366000000000000E10   -1.043587084859610E-2   1.086308527737856E-2  
 2.368000000000000E10    1.248158607631922E-2   9.546171873807907E-3  
 2.370000000000000E10    8.841658011078835E-3  -1.286831591278315E-2  
 2.372000000000000E10   -1.366534084081650E-2  -8.078841492533684E-3  
 2.374000000000000E10   -6.912268232554197E-3   1.528458110988140E-2  
 2.376000000000000E10    1.549339480698109E-2   5.388201214373112E-3  
 2.378000000000000E10    2.369941677898169E-3  -1.565562188625336E-2  
 2.380000000000000E10   -1.577097177505493E-2  -7.534048636443913E-4  
 2.382000000000000E10    1.277545699849725E-3   1.457437593489885E-2  
 2.384000000000000E10    1.389204803854227E-2  -3.914718050509691E-3  
 2.386000000000000E10   -5.629051942378283E-3  -1.315271668136120E-2  
 2.388000000000000E10   -1.184746809303761E-2   6.601642351597548E-3  
 2.390000000000000E10    8.166802115738392E-3   1.178501732647419E-2  
 2.392000000000000E10    1.095504406839609E-2  -1.007695216685534E-2  
 2.394000000000000E10   -1.078548002988100E-2  -9.987330064177513E-3  
 2.396000000000000E10   -9.901913814246655E-3   1.152253802865744E-2  
 2.398000000000000E10    1.259196922183037E-2   8.689605630934238E-3  
 2.400000000000000E10    6.874928250908852E-3  -1.312461588531733E-2  
 2.402000000000000E10   -1.303977333009243E-2  -4.173248540610075E-3  
 2.404000000000000E10   -2.158551244065166E-3   1.267544832080603E-2  
 2.406000000000000E10    1.279023289680481E-2   6.812054780311883E-4  
 2.408000000000000E10   -1.719514839351177E-3  -1.282351836562157E-2  
 2.410000000000000E10   -1.199678331613541E-2   3.008824773132801E-3  
 2.412000000000000E10    4.702330101281405E-3   1.141952257603407E-2  
 2.414000000000000E10    1.121354568749666E-2  -6.663567386567593E-3  
 2.416000000000000E10   -7.266268134117127E-3  -1.073421072214842E-2  
 2.418000000000000E10   -9.537670761346817E-3   7.479435298591852E-3  
 2.420000000000000E10    8.375788107514381E-3   8.737926371395588E-3  
 2.422000000000000E10    8.139236830174923E-3  -8.478338830173016E-3  
 2.424000000000000E10   -8.437721990048885E-3  -7.822630926966667E-3  
 2.426000000000000E10   -6.889414507895708E-3   8.929371833801270E-3  
 2.428000000000000E10    9.450812824070454E-3   5.684868898242712E-3  
 2.430000000000000E10    4.178457893431187E-3  -9.916089475154877E-3  
 2.432000000000000E10   -1.021507568657398E-2  -2.833717502653599E-3  
 2.434000000000000E10   -9.102318435907364E-4   1.114657241851091E-2  
 2.436000000000000E10    1.097259484231472E-2  -9.212598670274019E-4  
 2.438000000000000E10   -2.080648439005017E-3  -1.048336178064346E-2  
 2.440000000000000E10   -1.058910228312016E-2   2.902139211073518E-3  
 2.442000000000000E10    3.834028961136937E-3   1.108986884355545E-2  
 2.444000000000000E10    1.009855791926384E-2  -3.690061392262578E-3  
 2.446000000000000E10   -4.486041143536568E-3  -9.580314159393311E-3  
 2.448000000000000E10   -9.539961814880371E-3   4.968273919075728E-3  
 2.450000000000000E10    4.898937884718180E-3   7.836236618459225E-3  
 2.452000000000000E10    7.175238337367773E-3  -5.784020293504000E-3  
 2.454000000000000E10   -6.293902639299631E-3  -6.005411501973867E-3  
 2.456000000000000E10   -4.983450751751661E-3   7.105673197656870E-3  
 2.458000000000000E10    8.116333745419979E-3   4.324371926486492E-3  
 2.460000000000000E10    2.991801826283336E-3  -8.968603797256947E-3  
 2.462000000000000E10   -1.003196556121111E-2  -1.731478609144688E-3  
 2.464000000000000E10   -1.653813058510423E-3   1.040426176041365E-2  
 2.466000000000000E10    9.147722274065018E-3   1.103553920984268E-3  
 2.468000000000000E10   -6.438032141886652E-4  -1.053135842084885E-2  
 2.470000000000000E10   -1.082028727978468E-2   1.084222923964262E-3  
 2.472000000000000E10    1.126748044043779E-3   8.838593959808350E-3  
 2.474000000000000E10    8.094448596239090E-3  -1.768775167874992E-3  
 2.476000000000000E10   -2.359382109716535E-3  -7.360065821558237E-3  
 2.478000000000000E10   -7.271092385053635E-3   3.747652983292937E-3  
 2.480000000000000E10    4.070174414664507E-3   7.402897812426090E-3  
 2.482000000000000E10    6.040793843567371E-3  -4.994882736355066E-3  
 2.484000000000000E10   -7.526800502091646E-3  -4.861034452915192E-3  
 2.486000000000000E10   -4.964197054505348E-3   8.570713922381401E-3  
 2.488000000000000E10    8.469262160360813E-3   4.435024224221706E-3  
 2.490000000000000E10    3.227826440706849E-3  -8.882765658199787E-3  
 2.492000000000000E10   -8.706225082278252E-3  -2.576926723122597E-3  
 2.494000000000000E10   -1.968097640201449E-3   9.235681965947151E-3  
 2.496000000000000E10    9.299212135374546E-3   1.313136774115264E-3  
 2.498000000000000E10   -2.507606986910105E-4  -7.915948517620564E-3  
 2.500000000000000E10   -7.262778468430042E-3   1.638600602746010E-3  
 2.502000000000000E10    2.125720027834177E-3   7.620641961693764E-3  
 2.504000000000000E10    6.838223896920681E-3  -3.090871963649988E-3  
 2.506000000000000E10   -3.766523906961083E-3  -6.042926106601954E-3  
 2.508000000000000E10   -6.025230046361685E-3   4.510263912379742E-3  
 2.510000000000000E10    6.120256613940001E-3   6.775011308491230E-3  
 2.512000000000000E10    6.682407110929489E-3  -6.122204009443522E-3  
 2.514000000000000E10   -6.520912516862154E-3  -5.876494105905294E-3  
 2.516000000000000E10   -5.041192751377821E-3   7.643661461770535E-3  
 2.518000000000000E10    7.942623458802700E-3   5.275317467749119E-3  
 2.520000000000000E10    4.133331589400768E-3  -7.152151316404343E-3  
 2.522000000000000E10   -6.604430731385946E-3  -2.742064418271184E-3  
 2.524000000000000E10   -1.223027473315597E-3   6.930941715836525E-3  
 2.526000000000000E10    7.390488404780626E-3  -1.374123239656910E-4  
 2.528000000000000E10   -2.663920458871871E-4  -7.107610348612070E-3  
 2.530000000000000E10   -6.570782046765089E-3   1.878839801065624E-3  
 2.532000000000000E10    4.133502487093210E-3   7.085588760674000E-3  
 2.534000000000000E10    7.283982820808888E-3  -4.475203808397055E-3  
 2.536000000000000E10   -4.966943990439177E-3  -7.557749748229981E-3  
 2.538000000000000E10   -6.334812380373478E-3   5.259412340819836E-3  
 2.540000000000000E10    6.217292044311762E-3   5.513621959835291E-3  
 2.542000000000000E10    5.623937118798494E-3  -7.360809016972780E-3  
 2.544000000000000E10   -7.134032901376486E-3  -4.954034462571144E-3  
 2.546000000000000E10   -3.053590189665556E-3   6.937683094292879E-3  
 2.548000000000000E10    7.763362955302000E-3   1.827440806664527E-3  
 2.550000000000000E10    1.697617117315531E-4  -7.956247776746750E-3  
 2.552000000000000E10   -8.288476616144180E-3   1.088088611140847E-3  
 2.554000000000000E10    1.920573762618005E-3   7.123007439076901E-3  
 2.556000000000000E10    6.398553960025311E-3  -2.912281779572368E-3  
 2.558000000000000E10   -4.152372945100069E-3  -7.108970545232296E-3  
 2.560000000000000E10   -6.634279154241085E-3   3.808195004239678E-3  
 2.562000000000000E10    4.232203122228384E-3   5.665155127644539E-3  
 2.564000000000000E10    5.558204837143421E-3  -4.282549954950810E-3  
 2.566000000000000E10   -5.161546170711517E-3  -4.914753604680300E-3  
 2.568000000000000E10   -4.217311739921570E-3   6.311177741736174E-3  
 2.570000000000000E10    6.287052296102047E-3   3.473074408248067E-3  
 2.572000000000000E10    9.802683489397168E-4  -6.482028402388096E-3  
 2.574000000000000E10   -7.353858090937138E-3   1.981208042707294E-4  
 2.576000000000000E10    6.809580372646451E-4   7.620528340339661E-3  
 2.578000000000000E10    7.651963736861944E-3  -2.720287302508950E-3  
 2.580000000000000E10   -3.137650666758418E-3  -7.407926488667727E-3  
 2.582000000000000E10   -7.070149295032024E-3   3.988848999142647E-3  
 2.584000000000000E10    4.704271443188191E-3   7.397650275379419E-3  
 2.586000000000000E10    6.377795245498419E-3  -4.933954682201147E-3  
 2.588000000000000E10   -4.908904433250427E-3  -5.053966306149960E-3  
 2.590000000000000E10   -4.226827993988991E-3   4.907718393951654E-3  
 2.592000000000000E10    4.537993110716343E-3   3.591213375329971E-3  
 2.594000000000000E10    2.616540063172579E-3  -5.843614693731070E-3  
 2.596000000000000E10   -5.275834817439318E-3  -2.548640361055732E-3  
 2.598000000000000E10   -5.967400502413511E-4   6.126577034592629E-3  
 2.600000000000000E10    7.510100491344929E-3  -3.867157793138176E-4  
 2.602000000000000E10   -1.060229144059122E-3  -7.698738947510719E-3  
 2.604000000000000E10   -7.330030202865601E-3   2.264332259073854E-3  
 2.606000000000000E10    3.225418040528894E-3   7.209725212305784E-3  
 2.608000000000000E10    6.275700870901346E-3  -3.651690669357777E-3  
 2.610000000000000E10   -4.265948198735714E-3  -6.325574591755867E-3  
 2.612000000000000E10   -5.870007444173098E-3   4.124107770621777E-3  
 2.614000000000000E10    4.825540352612734E-3   4.039259161800146E-3  
 2.616000000000000E10    3.408621530979872E-3  -5.485713481903076E-3  
 2.618000000000000E10   -5.702251568436623E-3  -3.088264027610421E-3  
 2.620000000000000E10   -1.300768111832440E-3   6.868523079901934E-3  
 2.622000000000000E10    6.524995435029268E-3   5.695397267118096E-4  
 2.624000000000000E10    2.047487032541540E-5  -6.523651536554098E-3  
 2.626000000000000E10   -7.647478487342596E-3   9.156420128419995E-4  
 2.628000000000000E10    8.781753713265061E-4   7.193554192781448E-3  
 2.630000000000000E10    6.864362396299839E-3  -1.843600650317967E-3  
 2.632000000000000E10   -2.972891554236412E-3  -6.404833402484655E-3  
 2.634000000000000E10   -5.840687081217766E-3   3.274012124165893E-3  
 2.636000000000000E10    4.345719236880541E-3   5.065471399575472E-3  
 2.638000000000000E10    3.765625646337867E-3  -4.376628436148167E-3  
 2.640000000000000E10   -5.262915510684252E-3  -2.564748516306281E-3  
 2.642000000000000E10   -1.285145641304553E-3   6.669333204627037E-3  
 2.644000000000000E10    6.397825200110674E-3   1.564637175761163E-3  
 2.646000000000000E10    4.668726760428399E-4  -6.816921290010214E-3  
 2.648000000000000E10   -7.670152466744185E-3   1.028478960506618E-3  
 2.650000000000000E10    1.234324765391648E-3   7.667947560548782E-3  
 2.652000000000000E10    7.474558427929878E-3  -1.255413284525275E-3  
 2.654000000000000E10   -2.233904320746660E-3  -6.537748966366053E-3  
 2.656000000000000E10   -5.732659716159105E-3   4.229760728776455E-3  
 2.658000000000000E10    4.254284314811230E-3   5.090560298413038E-3  
 2.660000000000000E10    4.047873429954052E-3  -4.591763950884342E-3  
 2.662000000000000E10   -6.083397194743156E-3  -1.857726718299091E-3  
 2.664000000000000E10   -8.783855009824038E-4   6.844134069979191E-3  
 2.666000000000000E10    7.254104595631361E-3   3.385165764484555E-4  
 2.668000000000000E10   -6.179304327815771E-4  -7.477480918169022E-3  
 2.670000000000000E10   -7.532787043601275E-3   2.146623563021421E-3  
 2.672000000000000E10    2.282582223415375E-3   7.270324043929577E-3  
 2.674000000000000E10    7.707389071583748E-3  -2.569839823991060E-3  
 2.676000000000000E10   -3.445124486461282E-3  -6.649174727499485E-3  
 2.678000000000000E10   -5.665366537868977E-3   4.124671686440706E-3  
 2.680000000000000E10    5.085987970232964E-3   5.195001605898142E-3  
 2.682000000000000E10    4.389650188386440E-3  -5.741269327700138E-3  
 2.684000000000000E10   -6.097491830587387E-3  -3.017582232132554E-3  
 2.686000000000000E10   -1.629547099582851E-3   6.806944962590933E-3  
 2.688000000000000E10    7.969472557306290E-3   7.004541694186628E-4  
 2.690000000000000E10    4.169014864601195E-4  -8.149088360369206E-3  
 2.692000000000000E10   -8.061225526034832E-3   8.493427885696292E-4  
 2.694000000000000E10    1.838180469349027E-3   8.015143685042858E-3  
 2.696000000000000E10    8.686647750437260E-3  -2.818216104060412E-3  
 2.698000000000000E10   -2.646855777129531E-3  -7.756828796118498E-3  
 2.700000000000000E10   -6.894830614328384E-3   3.572335001081228E-3  
 2.702000000000000E10    5.067342426627874E-3   5.899286363273859E-3  
 2.704000000000000E10    5.458205472677946E-3  -4.939795006066561E-3  
 2.706000000000000E10   -5.641132127493620E-3  -4.285798408091068E-3  
 2.708000000000000E10   -3.016976406797767E-3   6.495730020105839E-3  
 2.710000000000000E10    7.355294190347195E-3   2.638418693095446E-3  
 2.712000000000000E10    1.327981357462704E-3  -8.400682359933853E-3  
 2.714000000000000E10   -8.507516235113144E-3  -4.152865149080753E-4  
 2.716000000000000E10    2.551265934016556E-4   8.214491419494152E-3  
 2.718000000000000E10    9.235304780304432E-3  -1.032923930324614E-3  
 2.720000000000000E10   -1.532516907900572E-3  -8.572691120207310E-3  
 2.722000000000000E10   -8.066966198384762E-3   2.397148404270411E-3  
 2.724000000000000E10    3.740222891792655E-3   7.506648078560829E-3  
 2.726000000000000E10    6.954441312700510E-3  -4.201564006507397E-3  
 2.728000000000000E10   -5.166613496840000E-3  -6.367126479744911E-3  
 2.730000000000000E10   -5.674266722053289E-3   5.621181800961494E-3  
 2.732000000000000E10    7.007643114775419E-3   4.674455616623163E-3  
 2.734000000000000E10    4.205727949738503E-3  -8.499266579747200E-3  
 2.736000000000000E10   -8.863504976034164E-3  -4.077816382050514E-3  
 2.738000000000000E10   -1.892299158498645E-3   9.972352534532547E-3  
 2.740000000000000E10    1.011983398348093E-2   7.664875593036413E-4  
 2.742000000000000E10    5.375965265557170E-4  -9.712613187730312E-3  
 2.744000000000000E10   -9.587851352989674E-3   9.781640255823731E-4  
 2.746000000000000E10    1.260677236132324E-3   8.770985528826714E-3  
 2.748000000000000E10    8.075982332229614E-3  -2.656748751178384E-3  
 2.750000000000000E10   -4.222809802740812E-3  -7.725797127932310E-3  
 2.752000000000000E10   -6.795122288167477E-3   4.632466472685337E-3  
 2.754000000000000E10    5.623731296509504E-3   5.892630200833082E-3  
 2.756000000000000E10    5.481261759996414E-3  -6.985594518482685E-3  
