#  HZ   S   RI   R     50.00 
! Rohde & Schwarz ZVA40 4Ports - Version 3.90 - 1145.1110k42 SN: 100403
! Date: 2023-10-04 10:27:07
! Measurement: S12 
! 
 2.200000000000000E10   -2.334527298808098E-2  -1.765237376093864E-2  
 2.202000000000000E10   -1.577346585690975E-2   2.494010329246521E-2  
 2.204000000000000E10    2.502242475748062E-2   1.266859099268913E-2  
 2.206000000000000E10    7.905212230980396E-3  -2.726333960890770E-2  
 2.208000000000000E10   -2.701488882303238E-2  -5.033721216022968E-3  
 2.210000000000000E10   -2.428127219900489E-3   2.560901083052158E-2  
 2.212000000000000E10    2.444344572722912E-2  -4.397604498080909E-4  
 2.214000000000000E10   -2.790020313113928E-3  -2.266653813421726E-2  
 2.216000000000000E10   -2.203503064811230E-2   6.263865157961845E-3  
 2.218000000000000E10    8.039692416787148E-3   2.067009545862675E-2  
 2.220000000000000E10    1.849726401269436E-2  -9.057180024683476E-3  
 2.222000000000000E10   -1.149156503379345E-2  -1.702451892197132E-2  
 2.224000000000000E10   -1.657574623823166E-2   1.377330534160137E-2  
 2.226000000000000E10    1.523106265813112E-2   1.573565602302551E-2  
 2.228000000000000E10    1.451261155307293E-2  -1.675640605390072E-2  
 2.230000000000000E10   -1.772511936724186E-2  -1.295093353837729E-2  
 2.232000000000000E10   -1.123780384659767E-2   2.017478644847870E-2  
 2.234000000000000E10    2.087143063545227E-2   1.001531444489956E-2  
 2.236000000000000E10    7.559593301266432E-3  -1.954287476837635E-2  
 2.238000000000000E10   -1.986057683825493E-2  -5.604157224297524E-3  
 2.240000000000000E10   -3.395712003111839E-3   2.024907991290093E-2  
 2.242000000000000E10    2.061278745532036E-2   1.709410455077887E-3  
 2.244000000000000E10   -1.275290123885498E-4  -1.986864581704140E-2  
 2.246000000000000E10   -1.815173774957657E-2   2.719427226111293E-3  
 2.248000000000000E10    5.267768166959286E-3   1.872384361922741E-2  
 2.250000000000000E10    1.980295218527317E-2  -7.199824322015047E-3  
 2.252000000000000E10   -9.021038189530373E-3  -1.739663816988468E-2  
 2.254000000000000E10   -1.633347570896149E-2   1.047910191118717E-2  
 2.256000000000000E10    1.259102299809456E-2   1.605974882841110E-2  
 2.258000000000000E10    1.480460446327925E-2  -1.457899715751410E-2  
 2.260000000000000E10   -1.438958011567593E-2  -1.371795777231455E-2  
 2.262000000000000E10   -1.115692686289549E-2   1.553211361169815E-2  
 2.264000000000000E10    1.771257258951664E-2   9.771229699254036E-3  
 2.266000000000000E10    8.646648377180100E-3  -1.900911517441273E-2  
 2.268000000000000E10   -1.941230893135071E-2  -6.029822397977114E-3  
 2.270000000000000E10   -2.874702215194702E-3   1.980080828070641E-2  
 2.272000000000000E10    2.002038061618805E-2   1.299699302762747E-3  
 2.274000000000000E10    4.071613657288253E-4  -2.037752047181130E-2  
 2.276000000000000E10   -2.071781828999519E-2   1.594122732058168E-3  
 2.278000000000000E10    4.107061773538590E-3   1.990343816578388E-2  
 2.280000000000000E10    1.909675076603890E-2  -5.702344700694084E-3  
 2.282000000000000E10    5.215368233621121E-3  -1.937563717365265E-2  
 2.284000000000000E10   -1.668368093669415E-2   8.754201233386993E-3  
 2.286000000000000E10    9.876565076410770E-3   1.496711093932390E-2  
 2.288000000000000E10    1.380533352494240E-2  -1.205621194094420E-2  
 2.290000000000000E10   -1.388593949377537E-2  -1.126557774841785E-2  
 2.292000000000000E10   -1.010191626846790E-2   1.488201878964901E-2  
 2.294000000000000E10    1.658381894230843E-2   8.094516582787037E-3  
 2.296000000000000E10    5.421676672995091E-3  -1.885228045284748E-2  
 2.298000000000000E10   -1.915794983506203E-2  -4.304324276745319E-3  
 2.300000000000000E10   -2.583693945780397E-3   1.943648792803288E-2  
 2.302000000000000E10    2.095693163573742E-2  -8.012309554032981E-4  
 2.304000000000000E10   -2.793215448036790E-3  -1.963700912892819E-2  
 2.306000000000000E10   -1.860577426850796E-2   3.231941256672144E-3  
 2.308000000000000E10    4.276576917618513E-3   1.789145730435848E-2  
 2.310000000000000E10    1.646061986684799E-2  -6.438627373427153E-3  
 2.312000000000000E10   -8.781007491052151E-3  -1.565715111792088E-2  
 2.314000000000000E10   -1.510194875299931E-2   9.640935808420181E-3  
 2.316000000000000E10    1.198122929781675E-2   1.256963144987822E-2  
 2.318000000000000E10    9.968422353267670E-3  -1.453240960836411E-2  
 2.320000000000000E10   -1.496429368853569E-2  -8.327040821313858E-3  
 2.322000000000000E10   -6.826284807175398E-3   1.572488248348236E-2  
 2.324000000000000E10    1.705182902514935E-2   5.460444837808609E-3  
 2.326000000000000E10    3.687758231535554E-3  -1.698070764541626E-2  
 2.328000000000000E10   -1.773719862103462E-2  -2.469311002641916E-3  
 2.330000000000000E10    1.289443389396183E-6   1.814583130180836E-2  
 2.332000000000000E10    1.582219079136848E-2  -1.865238184109330E-3  
 2.334000000000000E10   -3.778038313612342E-3  -1.573356427252293E-2  
 2.336000000000000E10   -1.464789547026157E-2   5.709271878004074E-3  
 2.338000000000000E10    7.396729197353125E-3   1.335111260414124E-2  
 2.340000000000000E10    1.273640710860491E-2  -8.688755333423615E-3  
 2.342000000000000E10   -1.002142857760191E-2  -1.166254095733166E-2  
 2.344000000000000E10   -1.101902127265930E-2   1.215098798274994E-2  
 2.346000000000000E10    1.351967453956604E-2   9.729250334203243E-3  
 2.348000000000000E10    7.770066149532795E-3  -1.386147178709507E-2  
 2.350000000000000E10   -1.488438528031111E-2  -6.885543465614319E-3  
 2.352000000000000E10   -5.111522041261196E-3   1.568551920354366E-2  
 2.354000000000000E10    1.517079584300518E-2   3.305927384644747E-3  
 2.356000000000000E10    1.381304929964244E-3  -1.451267208904028E-2  
 2.358000000000000E10   -1.420103851705790E-2   3.236611373722553E-4  
 2.360000000000000E10    2.595033496618271E-3   1.383427157998085E-2  
 2.362000000000000E10    1.346818543970585E-2  -4.311927594244480E-3  
 2.364000000000000E10   -6.520051974803209E-3  -1.194027066230774E-2  
 2.366000000000000E10   -1.084543857723475E-2   8.299162611365318E-3  
 2.368000000000000E10    9.325806982815266E-3   1.056105550378561E-2  
 2.370000000000000E10    9.566645137965679E-3  -1.041359547525644E-2  
 2.372000000000000E10   -1.136931497603655E-2  -8.721447549760342E-3  
 2.374000000000000E10   -8.275048807263374E-3   1.166354957967997E-2  
 2.376000000000000E10    1.326717343181372E-2   7.068536709994078E-3  
 2.378000000000000E10    5.750301759690046E-3  -1.283343881368637E-2  
 2.380000000000000E10   -1.303828228265047E-2  -3.942964132875204E-3  
 2.382000000000000E10   -2.046027919277549E-3   1.319588441401720E-2  
 2.384000000000000E10    1.295543927699328E-2  -8.714397699804977E-5  
 2.386000000000000E10   -1.652429462410510E-3  -1.153909321874380E-2  
 2.388000000000000E10   -1.112294010818005E-2   3.217289457097650E-3  
 2.390000000000000E10    4.625127650797367E-3   1.155695039778948E-2  
 2.392000000000000E10    1.085003092885017E-2  -5.608922336250544E-3  
 2.394000000000000E10   -6.898521445691586E-3  -1.057118084281683E-2  
 2.396000000000000E10   -1.064671669155359E-2   8.222184143960476E-3  
 2.398000000000000E10    9.316009469330311E-3   9.587217122316361E-3  
 2.400000000000000E10    8.221155032515526E-3  -9.925825521349907E-3  
 2.402000000000000E10   -1.066533196717501E-2  -5.237496457993984E-3  
 2.404000000000000E10   -4.036984406411648E-3   1.033838745206595E-2  
 2.406000000000000E10    1.093896664679050E-2   2.487980993464589E-3  
 2.408000000000000E10    1.253886148333550E-3  -1.031503733247519E-2  
 2.410000000000000E10   -1.011225394904614E-2   2.136794937541708E-4  
 2.412000000000000E10    1.852040295489132E-3   1.081818528473377E-2  
 2.414000000000000E10    1.030299812555313E-2  -2.683252561837435E-3  
 2.416000000000000E10   -3.707735566422343E-3  -9.850013069808483E-3  
 2.418000000000000E10   -9.828120470046997E-3   4.858937114477158E-3  
 2.420000000000000E10    5.381021182984114E-3   9.543971158564091E-3  
 2.422000000000000E10    9.002921171486378E-3  -5.213395226746798E-3  
 2.424000000000000E10   -5.482952110469341E-3  -8.748601190745831E-3  
 2.426000000000000E10   -7.968243211507797E-3   6.415209267288446E-3  
 2.428000000000000E10    6.668429821729660E-3   6.617504172027111E-3  
 2.430000000000000E10    5.793319549411535E-3  -7.124745752662420E-3  
 2.432000000000000E10   -8.194033056497574E-3  -4.540083929896355E-3  
 2.434000000000000E10   -2.048863098025322E-3   8.706404827535152E-3  
 2.436000000000000E10    8.942272514104843E-3   6.275073392316699E-4  
 2.438000000000000E10   -1.220680424012244E-4  -8.648138493299484E-3  
 2.440000000000000E10   -8.624901063740253E-3   1.211069175042212E-3  
 2.442000000000000E10    7.903766236267984E-4   9.222083725035191E-3  
 2.444000000000000E10    8.760765194892883E-3  -1.407414791174233E-3  
 2.446000000000000E10   -1.877301605418325E-3  -9.254858829081059E-3  
 2.448000000000000E10   -8.836648426949978E-3   2.042169915512204E-3  
 2.450000000000000E10    2.555159153416753E-3   8.091182447969914E-3  
 2.452000000000000E10    8.078374899923801E-3  -3.417098429054022E-3  
 2.454000000000000E10   -3.695107530802488E-3  -6.584702525287867E-3  
 2.456000000000000E10   -5.682080518454313E-3   4.585366696119309E-3  
 2.458000000000000E10    5.792324431240559E-3   5.439027212560177E-3  
 2.460000000000000E10    4.254967905580998E-3  -6.955787539482117E-3  
 2.462000000000000E10   -7.597160059958696E-3  -3.312879242002964E-3  
 2.464000000000000E10   -2.840072847902775E-3   7.633559871464968E-3  
 2.466000000000000E10    8.265001699328423E-3   1.653171842917800E-3  
 2.468000000000000E10    1.785875414498150E-3  -9.173398837447166E-3  
 2.470000000000000E10   -8.045259863138199E-3  -1.141196000389755E-3  
 2.472000000000000E10    1.595497815287672E-5   7.366629317402840E-3  
 2.474000000000000E10    6.938151083886623E-3   1.845235965447500E-4  
 2.476000000000000E10   -2.766717516351491E-4  -6.569974124431610E-3  
 2.478000000000000E10   -6.533680949360132E-3   8.402834064327180E-4  
 2.480000000000000E10    1.486914465203881E-3   5.495488643646240E-3  
 2.482000000000000E10    5.741764791309834E-3  -3.277595154941082E-3  
 2.484000000000000E10   -4.020933061838150E-3  -6.300048436969519E-3  
 2.486000000000000E10   -6.099988706409931E-3   4.932152573019266E-3  
 2.488000000000000E10    6.489832885563374E-3   4.095098003745079E-3  
 2.490000000000000E10    4.614964127540588E-3  -6.939572282135487E-3  
 2.492000000000000E10   -7.272036280483007E-3  -4.386712331324816E-3  
 2.494000000000000E10   -4.058394581079483E-3   7.524605840444565E-3  
 2.496000000000000E10    7.336935959756374E-3   3.013818291947246E-3  
 2.498000000000000E10    1.465492066927254E-3  -7.577915675938129E-3  
 2.500000000000000E10   -7.212365511804819E-3  -1.455774647183716E-3  
 2.502000000000000E10   -5.525726010091603E-4   6.164161488413811E-3  
 2.504000000000000E10    5.634396336972714E-3  -7.214758661575615E-4  
 2.506000000000000E10   -2.037824597209692E-3  -5.269588902592659E-3  
 2.508000000000000E10   -5.557189229875803E-3   2.413988579064608E-3  
 2.510000000000000E10    2.294065663591027E-3   5.664644297212362E-3  
 2.512000000000000E10    5.083526484668255E-3  -3.877084469422698E-3  
 2.514000000000000E10   -4.844802431762219E-3  -5.446057301014662E-3  
 2.516000000000000E10   -5.931349471211433E-3   5.303456913679838E-3  
 2.518000000000000E10    4.669188987463713E-3   5.382945295423269E-3  
 2.520000000000000E10    4.059881437569857E-3  -5.265200510621071E-3  
 2.522000000000000E10   -5.586122628301382E-3  -3.243987681344152E-3  
 2.524000000000000E10   -3.385493997484446E-3   6.002111360430718E-3  
 2.526000000000000E10    5.532986018806696E-3   2.689434448257089E-3  
 2.528000000000000E10    9.478910942561925E-4  -4.931485280394554E-3  
 2.530000000000000E10   -6.408489309251308E-3   5.500910920090973E-4  
 2.532000000000000E10    5.365971592254937E-4   7.082787808030844E-3  
 2.534000000000000E10    6.564846262335777E-3  -1.207531080581248E-3  
 2.536000000000000E10   -2.569023985415697E-3  -6.337546743452549E-3  
 2.538000000000000E10   -6.393170449882746E-3   3.749852068722248E-3  
 2.540000000000000E10    3.723281668499112E-3   6.999722216278315E-3  
 2.542000000000000E10    6.332390476018190E-3  -3.195910481736064E-3  
 2.544000000000000E10   -4.070322029292584E-3  -4.936227574944496E-3  
 2.546000000000000E10   -4.804718773812056E-3   5.106103140860796E-3  
 2.548000000000000E10    5.151447840034962E-3   4.017868544906378E-3  
 2.550000000000000E10    2.618931233882904E-3  -5.471053533256054E-3  
 2.552000000000000E10   -5.697316955775023E-3  -1.055549015291035E-3  
 2.554000000000000E10    7.205810979939997E-4   5.878629162907600E-3  
 2.556000000000000E10    6.635298486799002E-3  -1.394380698911846E-3  
 2.558000000000000E10   -1.458726008422673E-3  -6.105431821197271E-3  
 2.560000000000000E10   -5.865612532943487E-3   3.105327021330595E-3  
 2.562000000000000E10    3.429393982514739E-3   5.991568788886070E-3  
 2.564000000000000E10    5.790741648525000E-3  -2.651749644428492E-3  
 2.566000000000000E10   -3.983149304986000E-3  -6.263186223804951E-3  
 2.568000000000000E10   -5.988353397697210E-3   3.957659006118774E-3  
 2.570000000000000E10    4.486261866986752E-3   4.092539660632610E-3  
 2.572000000000000E10    3.266867483034730E-3  -5.602766294032335E-3  
 2.574000000000000E10   -5.255991593003273E-3  -2.945434302091599E-3  
 2.576000000000000E10   -1.095210434868932E-3   5.417983513325453E-3  
 2.578000000000000E10    6.285987794399262E-3  -1.546489802422002E-4  
 2.580000000000000E10   -7.361122407019138E-4  -6.344128400087357E-3  
 2.582000000000000E10   -6.471435073763132E-3   2.115956507623196E-3  
 2.584000000000000E10    2.208229852840304E-3   6.007722578942776E-3  
 2.586000000000000E10    5.481657106429339E-3  -3.058285918086767E-3  
 2.588000000000000E10   -3.820069599896669E-3  -5.254483781754971E-3  
 2.590000000000000E10   -4.349975846707821E-3   2.885511144995689E-3  
 2.592000000000000E10    3.365376265719533E-3   3.481942927464843E-3  
 2.594000000000000E10    3.503214102238417E-3  -3.655215958133340E-3  
 2.596000000000000E10   -3.935186192393303E-3  -2.538650762289763E-3  
 2.598000000000000E10   -1.909474609419704E-3   4.927508998662233E-3  
 2.600000000000000E10    5.441606510430574E-3   1.710879616439343E-3  
 2.602000000000000E10    2.820136141963303E-4  -5.720983259379864E-3  
 2.604000000000000E10   -6.566065363585949E-3   6.579874316230416E-4  
 2.606000000000000E10    9.329882450401783E-4   6.405903026461601E-3  
 2.608000000000000E10    6.302239838987589E-3  -1.426180941052735E-3  
 2.610000000000000E10   -1.483341329731047E-3  -6.156532559543848E-3  
 2.612000000000000E10   -5.535241216421127E-3   2.150479005649686E-3  
 2.614000000000000E10    2.629171358421445E-3   5.539320409297943E-3  
 2.616000000000000E10    5.086656659841538E-3  -2.471308456733823E-3  
 2.618000000000000E10   -3.592398948967457E-3  -3.218034515157342E-3  
 2.620000000000000E10   -2.902461914345622E-3   4.646124318242073E-3  
 2.622000000000000E10    4.708641674369574E-3   1.694345264695585E-3  
 2.624000000000000E10    8.420752128586173E-4  -5.573390051722527E-3  
 2.626000000000000E10   -6.351801566779614E-3  -7.376522407867014E-4  
 2.628000000000000E10    2.957214601337910E-4   6.141867022961378E-3  
 2.630000000000000E10    6.979606579989195E-3  -1.532781752757728E-3  
 2.632000000000000E10   -1.768731395713985E-3  -6.767349317669869E-3  
 2.634000000000000E10   -5.916315130889416E-3   2.408468397334218E-3  
 2.636000000000000E10    2.977413590997458E-3   5.705765448510647E-3  
 2.638000000000000E10    4.443351645022631E-3  -3.514766925945878E-3  
 2.640000000000000E10   -4.184445366263390E-3  -3.482114290818572E-3  
 2.642000000000000E10   -2.935745986178517E-3   3.968259785324335E-3  
 2.644000000000000E10    3.995433915406466E-3   1.268913852982223E-3  
 2.646000000000000E10    1.030446728691459E-3  -5.667071323841810E-3  
 2.648000000000000E10   -5.790343042463064E-3  -8.160711149685085E-4  
 2.650000000000000E10   -1.581201213411987E-4   5.574575159698725E-3  
 2.652000000000000E10    6.338994018733501E-3  -1.021600211970508E-3  
 2.654000000000000E10   -1.111953519284725E-3  -6.773158442229033E-3  
 2.656000000000000E10   -6.451352499425411E-3   1.429090974852443E-3  
 2.658000000000000E10    2.089586108922958E-3   5.567698273807764E-3  
 2.660000000000000E10    5.141089670360088E-3  -3.425840055570006E-3  
 2.662000000000000E10   -4.420127719640732E-3  -4.068679641932249E-3  
 2.664000000000000E10   -3.323102602735162E-3   4.296680446714163E-3  
 2.666000000000000E10    5.291561130434275E-3   2.033575437963009E-3  
 2.668000000000000E10    8.218381553888321E-4  -6.157676689326763E-3  
 2.670000000000000E10   -6.808304693549871E-3  -4.423007485456765E-4  
 2.672000000000000E10    3.188269038219005E-4   6.596581079065800E-3  
 2.674000000000000E10    6.290467921644449E-3  -5.518828402273357E-4  
 2.676000000000000E10   -1.254627015441656E-3  -6.879370193928480E-3  
 2.678000000000000E10   -6.779454648494721E-3   1.681716996245086E-3  
 2.680000000000000E10    2.044482622295618E-3   6.709589157253504E-3  
 2.682000000000000E10    5.511197261512280E-3  -2.519888570532203E-3  
 2.684000000000000E10   -3.659256733953953E-3  -5.048549268394709E-3  
 2.686000000000000E10   -5.026455502957106E-3   4.357036668807268E-3  
 2.688000000000000E10    4.575802944600582E-3   3.426693845540285E-3  
 2.690000000000000E10    2.227129880338907E-3  -5.734112113714218E-3  
 2.692000000000000E10   -7.371773477643728E-3  -1.393016660586000E-3  
 2.694000000000000E10   -5.569673958234489E-4   7.689402438700199E-3  
 2.696000000000000E10    7.799942046403885E-3   2.388798602623865E-4  
 2.698000000000000E10   -1.076167798601091E-3  -7.844947278499603E-3  
 2.700000000000000E10   -7.928707636892796E-3   1.967536518350244E-3  
 2.702000000000000E10    1.525655738078058E-3   7.777154445648193E-3  
 2.704000000000000E10    6.217491347342730E-3  -2.567785326391459E-3  
 2.706000000000000E10   -3.826821455731988E-3  -5.583505146205425E-3  
 2.708000000000000E10   -5.055202636867762E-3   4.088663496077061E-3  
 2.710000000000000E10    4.881492350250483E-3   4.223986063152552E-3  
 2.712000000000000E10    2.925192005932331E-3  -5.420109722763300E-3  
 2.714000000000000E10   -6.294804159551859E-3  -1.999357948079705E-3  
 2.716000000000000E10   -1.479997998103499E-3   7.206225302070379E-3  
 2.718000000000000E10    7.329062558710575E-3   1.669562188908458E-3  
 2.720000000000000E10    6.139639881439507E-4  -7.731370162218809E-3  
 2.722000000000000E10   -8.752471767365933E-3   1.473558077123016E-4  
 2.724000000000000E10    1.080872141756117E-3   8.233266882598400E-3  
 2.726000000000000E10    7.483229506760836E-3  -1.306186546571553E-3  
 2.728000000000000E10   -2.049538772553206E-3  -7.769562769681215E-3  
 2.730000000000000E10   -6.160663906484842E-3   3.550271270796657E-3  
 2.732000000000000E10    4.159764386713505E-3   6.230243481695652E-3  
 2.734000000000000E10    5.529251415282488E-3  -5.219582933932543E-3  
 2.736000000000000E10   -6.443427409976721E-3  -3.976745530962944E-3  
 2.738000000000000E10   -3.148403251543641E-3   7.539922371506691E-3  
 2.740000000000000E10    7.860721088945866E-3   3.050233703106642E-3  
 2.742000000000000E10    1.617640024051070E-3  -8.497497998178005E-3  
 2.744000000000000E10   -8.402905426919460E-3  -9.899890283122659E-4  
 2.746000000000000E10    1.501349288446363E-5   8.659194223582745E-3  
 2.748000000000000E10    8.974576368927956E-3  -3.187260590493679E-4  
 2.750000000000000E10   -1.098611042834818E-3  -8.463691920042038E-3  
 2.752000000000000E10   -7.100748829543591E-3   1.878597424365580E-3  
 2.754000000000000E10    2.784795593470335E-3   7.756817620247603E-3  
 2.756000000000000E10    6.976002827286720E-3  -4.128239583224058E-3  
