#  HZ   S   RI   R     50.00 
! Rohde & Schwarz ZVA40 4Ports - Version 3.90 - 1145.1110k42 SN: 100403
! Date: 2023-10-04 10:27:30
! Measurement: S12 
! 
 2.200000000000000E10   -2.157706767320633E-2  -1.251418143510819E-2  
 2.202000000000000E10   -9.288823232054710E-3   2.147883921861649E-2  
 2.204000000000000E10    2.371925301849842E-2   5.287389270961285E-3  
 2.206000000000000E10    3.402543254196644E-3  -2.439532987773418E-2  
 2.208000000000000E10   -2.292395569384098E-2  -1.022010808810592E-3  
 2.210000000000000E10    1.657033921219409E-3   2.258637174963951E-2  
 2.212000000000000E10    2.169646881520748E-2  -4.087979905307293E-3  
 2.214000000000000E10   -6.063111126422882E-3  -2.035075426101685E-2  
 2.216000000000000E10   -2.022923715412617E-2   7.961759343743324E-3  
 2.218000000000000E10    1.000785175710917E-2   1.755853183567524E-2  
 2.220000000000000E10    1.573195308446884E-2  -1.184685155749321E-2  
 2.222000000000000E10   -1.287762913852930E-2  -1.541352551430464E-2  
 2.224000000000000E10   -1.406305748969317E-2   1.377148460596800E-2  
 2.226000000000000E10    1.481335517019033E-2   1.174406055361033E-2  
 2.228000000000000E10    1.052094716578722E-2  -1.532149408012629E-2  
 2.230000000000000E10   -1.671373099088669E-2  -8.997780270874500E-3  
 2.232000000000000E10   -8.397043682634831E-3   1.713925786316395E-2  
 2.234000000000000E10    1.667192392051220E-2   5.487827118486166E-3  
 2.236000000000000E10    2.835755934938788E-3  -1.588164642453194E-2  
 2.238000000000000E10   -1.693491078913212E-2  -2.386728767305613E-3  
 2.240000000000000E10   -1.474810123909265E-4   1.655236072838306E-2  
 2.242000000000000E10    1.649207435548306E-2  -1.721334992907941E-3  
 2.244000000000000E10   -4.351136274635792E-3  -1.614553108811379E-2  
 2.246000000000000E10   -1.574753597378731E-2   6.560538429766893E-3  
 2.248000000000000E10    6.969528272747994E-3   1.716122403740883E-2  
 2.250000000000000E10    1.648094132542610E-2  -9.034110233187676E-3  
 2.252000000000000E10   -1.157420407980681E-2  -1.369243115186691E-2  
 2.254000000000000E10   -1.415865402668715E-2   1.271020714193583E-2  
 2.256000000000000E10    1.318778749555349E-2   1.372980512678623E-2  
 2.258000000000000E10    1.103104744106531E-2  -1.354629267007113E-2  
 2.260000000000000E10   -1.340688485652208E-2  -9.784944355487824E-3  
 2.262000000000000E10   -7.942052558064461E-3   1.465847529470921E-2  
 2.264000000000000E10    1.503888983279467E-2   7.320243865251541E-3  
 2.266000000000000E10    4.945802036672831E-3  -1.515518128871918E-2  
 2.268000000000000E10   -1.589989289641380E-2  -2.264540875330567E-3  
 2.270000000000000E10   -2.934721487690695E-5   1.631579361855984E-2  
 2.272000000000000E10    1.625934243202210E-2  -4.888476687483490E-4  
 2.274000000000000E10   -2.517726738005877E-3  -1.634911075234413E-2  
 2.276000000000000E10   -1.617937535047531E-2   5.059457849711180E-3  
 2.278000000000000E10    6.332822144031525E-3   1.646039634943008E-2  
 2.280000000000000E10    1.580589264631271E-2  -7.432826329022646E-3  
 2.282000000000000E10    9.009399800561369E-4  -1.691266149282455E-2  
 2.284000000000000E10   -1.259058620780706E-2   1.073557883501053E-2  
 2.286000000000000E10    1.235625799745321E-2   1.159342564642429E-2  
 2.288000000000000E10    9.459336288273335E-3  -1.279548835009337E-2  
 2.290000000000000E10   -1.304824184626341E-2  -7.979429326951504E-3  
 2.292000000000000E10   -6.891578901559115E-3   1.446485798805952E-2  
 2.294000000000000E10    1.602456904947758E-2   4.991288762539625E-3  
 2.296000000000000E10    3.137482795864344E-3  -1.608505472540855E-2  
 2.298000000000000E10   -1.553982123732567E-2  -2.604541601613164E-3  
 2.300000000000000E10   -3.217910998500884E-4   1.649813354015350E-2  
 2.302000000000000E10    1.691001094877720E-2  -2.224655356258154E-3  
 2.304000000000000E10   -3.021465847268701E-3  -1.485716644674540E-2  
 2.306000000000000E10   -1.389844436198473E-2   4.432558547705412E-3  
 2.308000000000000E10    5.993494298309088E-3   1.360862981528044E-2  
 2.310000000000000E10    1.263142749667168E-2  -7.198765873908997E-3  
 2.312000000000000E10   -9.606774896383286E-3  -1.153154391795397E-2  
 2.314000000000000E10   -9.834956377744675E-3   1.053803414106369E-2  
 2.316000000000000E10    1.274353917688131E-2   7.272164337337017E-3  
 2.318000000000000E10    6.202740129083395E-3  -1.425771228969097E-2  
 2.320000000000000E10   -1.383327133953571E-2  -4.568297415971756E-3  
 2.322000000000000E10   -2.486687619239092E-3   1.449614763259888E-2  
 2.324000000000000E10    1.505518238991499E-2   2.489120699465275E-3  
 2.326000000000000E10    1.570292748510838E-3  -1.516816578805447E-2  
 2.328000000000000E10   -1.541838422417641E-2   3.557515155989677E-4  
 2.330000000000000E10    1.945412834174931E-3   1.441180147230625E-2  
 2.332000000000000E10    1.240207627415657E-2  -3.872996894642711E-3  
 2.334000000000000E10   -4.711093846708536E-3  -1.201681327074766E-2  
 2.336000000000000E10   -1.123192347586155E-2   5.291970446705818E-3  
 2.338000000000000E10    7.654124870896339E-3   9.578421711921692E-3  
 2.340000000000000E10    9.349260479211807E-3  -8.605796843767166E-3  
 2.342000000000000E10   -9.622876532375813E-3  -7.696442306041718E-3  
 2.344000000000000E10   -7.288477849215269E-3   1.140304189175367E-2  
 2.346000000000000E10    1.244305167347193E-2   5.983100272715092E-3  
 2.348000000000000E10    4.031149204820395E-3  -1.267882343381643E-2  
 2.350000000000000E10   -1.335369516164064E-2  -3.080076305195689E-3  
 2.352000000000000E10   -1.907736295834184E-3   1.334841549396515E-2  
 2.354000000000000E10    1.230181474238634E-2  -3.849578206427395E-4  
 2.356000000000000E10   -1.592129352502525E-3  -1.221317145973444E-2  
 2.358000000000000E10   -1.098320912569761E-2   2.491113962605596E-3  
 2.360000000000000E10    3.551851259544492E-3   1.064031198620796E-2  
 2.362000000000000E10    9.948293678462505E-3  -5.326191429048777E-3  
 2.364000000000000E10   -6.842950824648142E-3  -8.410677313804627E-3  
 2.366000000000000E10   -8.464952930808067E-3   8.179087191820145E-3  
 2.368000000000000E10    8.667089045047760E-3   7.693417835980654E-3  
 2.370000000000000E10    5.902267061173916E-3  -1.001785881817341E-2  
 2.372000000000000E10   -9.694037027657032E-3  -6.170468870550394E-3  
 2.374000000000000E10   -5.825495813041925E-3   1.049698516726494E-2  
 2.376000000000000E10    1.065390650182962E-2   4.459589719772339E-3  
 2.378000000000000E10    3.269699169322848E-3  -1.056509837508202E-2  
 2.380000000000000E10   -1.043161749839783E-2  -1.765968278050423E-3  
 2.382000000000000E10   -1.366973156109452E-4   1.063059549778700E-2  
 2.384000000000000E10    9.117712266743183E-3  -1.603591954335570E-3  
 2.386000000000000E10   -3.664645366370678E-3  -8.424698375165463E-3  
 2.388000000000000E10   -8.389567025005817E-3   4.223081283271313E-3  
 2.390000000000000E10    5.263806320726872E-3   8.127436041831970E-3  
 2.392000000000000E10    7.322369609028101E-3  -6.780504249036312E-3  
 2.394000000000000E10   -7.120507303625345E-3  -7.327059749513865E-3  
 2.396000000000000E10   -7.080298848450184E-3   8.266675285995007E-3  
 2.398000000000000E10    8.280318230390549E-3   6.387060042470694E-3  
 2.400000000000000E10    4.906816873699427E-3  -8.812952786684036E-3  
 2.402000000000000E10   -8.988356217741966E-3  -3.533974522724748E-3  
 2.404000000000000E10   -2.362841507419944E-3   8.667792193591595E-3  
 2.406000000000000E10    8.369240909814835E-3   1.308516599237919E-3  
 2.408000000000000E10   -4.627040761988610E-4  -7.746936287730932E-3  
 2.410000000000000E10   -7.776921149343252E-3   1.330716768279672E-3  
 2.412000000000000E10    2.045863773673773E-3   7.558427285403013E-3  
 2.414000000000000E10    6.406330037862063E-3  -3.278230782598257E-3  
 2.416000000000000E10   -4.598090425133705E-3  -7.176860235631466E-3  
 2.418000000000000E10   -7.338532246649265E-3   5.113634280860424E-3  
 2.420000000000000E10    4.723288584500551E-3   6.264706142246723E-3  
 2.422000000000000E10    5.923203658312559E-3  -5.727283656597138E-3  
 2.424000000000000E10   -5.570593290030956E-3  -6.029634270817041E-3  
 2.426000000000000E10   -5.284869577735663E-3   5.433203186839819E-3  
 2.428000000000000E10    5.749906413257122E-3   4.894355311989784E-3  
 2.430000000000000E10    3.592331893742085E-3  -5.636755377054215E-3  
 2.432000000000000E10   -6.199892610311508E-3  -2.629735274240375E-3  
 2.434000000000000E10   -1.474081422202289E-3   7.221559062600136E-3  
 2.436000000000000E10    6.522109732031822E-3   2.727030077949166E-4  
 2.438000000000000E10   -7.558167562820017E-4  -6.779579445719719E-3  
 2.440000000000000E10   -6.836350075900555E-3   9.701543021947146E-4  
 2.442000000000000E10    1.566792372614145E-3   7.332835812121630E-3  
 2.444000000000000E10    7.383159827440977E-3  -2.358338097110391E-3  
 2.446000000000000E10   -2.222561975941062E-3  -6.725357845425606E-3  
 2.448000000000000E10   -6.949759554117918E-3   2.606578869745135E-3  
 2.450000000000000E10    2.947857836261392E-3   6.410406902432442E-3  
 2.452000000000000E10    5.576285999268293E-3  -2.730505075305700E-3  
 2.454000000000000E10   -3.377642948180437E-3  -4.589343909174204E-3  
 2.456000000000000E10   -3.573124064132571E-3   3.885883837938309E-3  
 2.458000000000000E10    4.501285031437874E-3   3.304277546703816E-3  
 2.460000000000000E10    2.626144792884588E-3  -5.215356592088938E-3  
 2.462000000000000E10   -5.667125340551138E-3  -1.356609980575740E-3  
 2.464000000000000E10   -6.210344145074487E-4   6.243344396352768E-3  
 2.466000000000000E10    6.600396707653999E-3   8.527408353984356E-4  
 2.468000000000000E10    7.861782796680927E-4  -6.719537079334259E-3  
 2.470000000000000E10   -6.455547176301479E-3   6.536552245961502E-5  
 2.472000000000000E10    1.748619979480282E-4   6.231728475540876E-3  
 2.474000000000000E10    5.840514320880175E-3  -8.423208782915026E-5  
 2.476000000000000E10   -2.661402104422450E-4  -5.666368640959263E-3  
 2.478000000000000E10   -4.689138382673264E-3   1.168463495559990E-3  
 2.480000000000000E10    2.077146433293819E-3   4.652551375329495E-3  
 2.482000000000000E10    4.826914984732866E-3  -2.203669166192412E-3  
 2.484000000000000E10   -2.992774127051234E-3  -4.065210465341806E-3  
 2.486000000000000E10   -2.913843840360642E-3   4.552936647087336E-3  
 2.488000000000000E10    5.262234248220921E-3   2.581783803179860E-3  
 2.490000000000000E10    2.599180908873677E-3  -5.333295557647944E-3  
 2.492000000000000E10   -5.560310091823340E-3  -2.291144337505102E-3  
 2.494000000000000E10   -1.891394378617406E-3   5.675645545125008E-3  
 2.496000000000000E10    6.163540761917830E-3   1.566718448884785E-3  
 2.498000000000000E10    1.018527313135564E-3  -6.052527111023665E-3  
 2.500000000000000E10   -4.747947677969933E-3  -1.222092425450683E-3  
 2.502000000000000E10    3.327398444525898E-4   4.626740235835314E-3  
 2.504000000000000E10    4.568766802549362E-3  -1.431686338037252E-3  
 2.506000000000000E10   -1.831651548855007E-3  -4.326793365180492E-3  
 2.508000000000000E10   -3.827049629762769E-3   1.468780683353543E-3  
 2.510000000000000E10    3.050439991056919E-3   3.651007544249296E-3  
 2.512000000000000E10    3.805733285844326E-3  -4.593582823872566E-3  
 2.514000000000000E10   -4.133378621190786E-3  -4.133727867156267E-3  
 2.516000000000000E10   -3.346101380884647E-3   4.159955307841301E-3  
 2.518000000000000E10    4.596483893692493E-3   2.459155162796378E-3  
 2.520000000000000E10    2.472686348482966E-3  -4.994693212211132E-3  
 2.522000000000000E10   -4.609974566847086E-3  -2.484316239133477E-3  
 2.524000000000000E10   -2.382471691817045E-3   3.600965719670057E-3  
 2.526000000000000E10    3.121630288660526E-3   8.514763321727514E-4  
 2.528000000000000E10    1.656459207879379E-4  -4.181253258138895E-3  
 2.530000000000000E10   -4.036187659949064E-3  -6.078322767280042E-4  
 2.532000000000000E10    6.101244362071157E-4   3.222184255719185E-3  
 2.534000000000000E10    3.414138918742538E-3  -1.767745707184076E-3  
 2.536000000000000E10   -2.097951015457511E-3  -4.355537705123425E-3  
 2.538000000000000E10   -4.600625950843096E-3   3.019941039383411E-3  
 2.540000000000000E10    2.784551354125142E-3   4.667303990572691E-3  
 2.542000000000000E10    4.089586902409792E-3  -3.463496221229434E-3  
 2.544000000000000E10   -4.536978434771299E-3  -3.896153764799237E-3  
 2.546000000000000E10   -4.081741441041231E-3   3.721052547916770E-3  
 2.548000000000000E10    3.498442471027374E-3   2.635733224451542E-3  
 2.550000000000000E10    1.582137076184154E-3  -4.258508794009686E-3  
 2.552000000000000E10   -4.665797576308250E-3  -1.140827429480851E-3  
 2.554000000000000E10    5.081110866740346E-4   4.362800624221563E-3  
 2.556000000000000E10    4.087034612894058E-3  -4.498697235248983E-4  
 2.558000000000000E10   -1.442384207621217E-3  -3.779856255277991E-3  
 2.560000000000000E10   -4.337956197559834E-3   2.749420935288072E-3  
 2.562000000000000E10    1.900172559544444E-3   4.608157090842724E-3  
 2.564000000000000E10    4.044795874506235E-3  -2.287069102749229E-3  
 2.566000000000000E10   -3.441544715315104E-3  -4.502122290432453E-3  
 2.568000000000000E10   -4.182003904134035E-3   3.426475217565894E-3  
 2.570000000000000E10    4.128653090447187E-3   3.259130055084825E-3  
 2.572000000000000E10    2.674299292266369E-3  -3.522960934787989E-3  
 2.574000000000000E10   -3.444844158366323E-3  -1.190241076983511E-3  
 2.576000000000000E10   -7.502874359488487E-5   4.780265502631664E-3  
 2.578000000000000E10    4.025747999548912E-3   1.275814720429480E-4  
 2.580000000000000E10   -1.381722628138959E-3  -3.893043380230665E-3  
 2.582000000000000E10   -4.255205858498812E-3   2.389140194281936E-3  
 2.584000000000000E10    2.593420678749681E-3   4.165953490883112E-3  
 2.586000000000000E10    4.020514432340860E-3  -3.527730703353882E-3  
 2.588000000000000E10   -2.875011879950762E-3  -3.351587569341064E-3  
 2.590000000000000E10   -2.684481907635927E-3   3.474007593467832E-3  
 2.592000000000000E10    3.159333486109972E-3   3.601854899898171E-3  
 2.594000000000000E10    2.739449730142951E-3  -2.353843534365296E-3  
 2.596000000000000E10   -2.816449385136366E-3  -2.017265651375055E-3  
 2.598000000000000E10   -1.834651920944452E-3   3.256336087360978E-3  
 2.600000000000000E10    2.749327104538679E-3   1.225244952365756E-3  
 2.602000000000000E10    1.740979205351323E-4  -3.870898857712746E-3  
 2.604000000000000E10   -4.335231147706509E-3   3.644069074653089E-4  
 2.606000000000000E10    1.521015539765358E-3   4.126314073801041E-3  
 2.608000000000000E10    4.530869424343109E-3  -1.226856373250485E-3  
 2.610000000000000E10   -2.080496400594711E-3  -4.471577238291502E-3  
 2.612000000000000E10   -4.490007646381855E-3   2.652483759447932E-3  
 2.614000000000000E10    2.109911292791367E-3   4.399895668029785E-3  
 2.616000000000000E10    3.403885988518596E-3  -2.995263785123825E-3  
 2.618000000000000E10   -3.739672247320414E-3  -3.187964204698801E-3  
 2.620000000000000E10   -2.244147472083569E-3   3.253780538216233E-3  
 2.622000000000000E10    3.589734435081482E-3   8.163300226442516E-4  
 2.624000000000000E10    4.540853842627257E-4  -3.694038372486830E-3  
 2.626000000000000E10   -4.249875899404287E-3   3.208185371477157E-4  
 2.628000000000000E10    1.195687451399863E-3   4.765996709465981E-3  
 2.630000000000000E10    4.701693542301655E-3  -1.536124967969954E-3  
 2.632000000000000E10   -2.428638515993953E-3  -4.768886137753725E-3  
 2.634000000000000E10   -4.635430872440338E-3   3.061054041609168E-3  
 2.636000000000000E10    2.748300787061453E-3   4.200966563075781E-3  
 2.638000000000000E10    3.368902951478958E-3  -3.234675154089928E-3  
 2.640000000000000E10   -3.186807734891772E-3  -2.722399309277535E-3  
 2.642000000000000E10   -1.513608614914119E-3   3.483463544398546E-3  
 2.644000000000000E10    3.888495499268174E-3   1.122240792028606E-3  
 2.646000000000000E10    4.919875646010041E-4  -3.903090488165617E-3  
 2.648000000000000E10   -4.136738367378712E-3   8.632953395135701E-4  
 2.650000000000000E10    1.611273852176964E-3   4.417292308062315E-3  
 2.652000000000000E10    4.962776321917772E-3  -1.908261794596911E-3  
 2.654000000000000E10   -2.470813691616058E-3  -4.791078623384237E-3  
 2.656000000000000E10   -4.481581971049309E-3   2.964260522276163E-3  
 2.658000000000000E10    3.706688759848476E-3   4.365473054349423E-3  
 2.660000000000000E10    4.276691004633904E-3  -3.768536727875471E-3  
 2.662000000000000E10   -3.219926962628961E-3  -3.412064630538225E-3  
 2.664000000000000E10   -1.992773497477174E-3   3.504683496430516E-3  
 2.666000000000000E10    4.163321107625961E-3   1.548027968965471E-3  
 2.668000000000000E10    6.163718644529581E-4  -4.661058075726032E-3  
 2.670000000000000E10   -4.281085450202227E-3   3.623311349656433E-4  
 2.672000000000000E10    1.201227307319641E-3   4.627850838005543E-3  
 2.674000000000000E10    5.121716763824225E-3  -2.277083694934845E-3  
 2.676000000000000E10   -2.494528889656067E-3  -5.461864173412323E-3  
 2.678000000000000E10   -5.101463291794062E-3   3.024489851668477E-3  
 2.680000000000000E10    3.318284172564745E-3   4.785242490470409E-3  
 2.682000000000000E10    4.465600010007620E-3  -4.069126211106777E-3  
 2.684000000000000E10   -4.145427606999874E-3  -4.451848100870848E-3  
 2.686000000000000E10   -3.119297558441758E-3   4.029296338558197E-3  
 2.688000000000000E10    4.933563061058521E-3   2.075188327580690E-3  
 2.690000000000000E10    1.141103799454868E-3  -5.505636800080538E-3  
 2.692000000000000E10   -5.964793730527163E-3  -4.317885031923652E-4  
 2.694000000000000E10    1.295861904509366E-3   5.963558796793222E-3  
 2.696000000000000E10    5.804529879242182E-3  -1.484686858020723E-3  
 2.698000000000000E10   -2.975504845380783E-3  -6.859113462269306E-3  
 2.700000000000000E10   -6.257193628698587E-3   3.003157675266266E-3  
 2.702000000000000E10    3.323307493701577E-3   5.470417439937592E-3  
 2.704000000000000E10    5.542044062167406E-3  -4.999750293791294E-3  
 2.706000000000000E10   -4.348549526184797E-3  -4.911328200250864E-3  
 2.708000000000000E10   -4.432321526110172E-3   4.319023806601763E-3  
 2.710000000000000E10    5.336711183190346E-3   3.311266424134374E-3  
 2.712000000000000E10    2.090992406010628E-3  -5.315658636391163E-3  
 2.714000000000000E10   -6.028372328728437E-3  -1.008802792057395E-3  
 2.716000000000000E10   -3.840856952592731E-4   5.517442710697651E-3  
 2.718000000000000E10    5.728730000555515E-3  -3.499006561469287E-4  
 2.720000000000000E10   -1.521636382676661E-3  -7.105741649866104E-3  
 2.722000000000000E10   -6.829618010669947E-3   2.179865026846528E-3  
 2.724000000000000E10    2.268917392939329E-3   6.767625454813242E-3  
 2.726000000000000E10    6.591792218387127E-3  -3.189618000760675E-3  
 2.728000000000000E10   -3.992366604506970E-3  -5.911882501095533E-3  
 2.730000000000000E10   -5.761474370956421E-3   4.406303167343140E-3  
 2.732000000000000E10    4.227998200803995E-3   4.822382237762213E-3  
 2.734000000000000E10    3.249747678637505E-3  -4.816988483071327E-3  
 2.736000000000000E10   -6.255042739212513E-3  -2.773536602035165E-3  
 2.738000000000000E10   -2.160086762160063E-3   6.418013013899326E-3  
 2.740000000000000E10    6.737459450960159E-3   8.273475687019527E-4  
 2.742000000000000E10   -6.468289211625233E-5  -7.474478334188461E-3  
 2.744000000000000E10   -7.553371600806713E-3   1.140441047027707E-3  
 2.746000000000000E10    1.605846802704036E-3   8.164695464074612E-3  
 2.748000000000000E10    7.533603347837925E-3  -1.821356709115207E-3  
 2.750000000000000E10   -2.887967275455594E-3  -7.139837834984064E-3  
 2.752000000000000E10   -7.302645128220320E-3   3.752944990992546E-3  
 2.754000000000000E10    3.687761956825852E-3   6.556654814630747E-3  
 2.756000000000000E10    5.341629963368177E-3  -4.481076262891293E-3  
