#  HZ   S   RI   R     50.00 
! Rohde & Schwarz ZVA40 4Ports - Version 3.90 - 1145.1110k42 SN: 100403
! Date: 2023-10-04 10:28:06
! Measurement: S12 
! 
 2.200000000000000E10   -1.565090753138065E-2  -1.300968974828720E-2  
 2.202000000000000E10   -1.119892764836550E-2   1.764201372861862E-2  
 2.204000000000000E10    1.976211369037628E-2   9.266116656363010E-3  
 2.206000000000000E10    6.075342185795307E-3  -1.943144015967846E-2  
 2.208000000000000E10   -1.987920515239239E-2  -3.158606356009841E-3  
 2.210000000000000E10   -1.523277373053134E-3   2.001852542161942E-2  
 2.212000000000000E10    1.816561073064804E-2  -4.233473155181855E-4  
 2.214000000000000E10   -1.982210669666529E-3  -1.711661927402020E-2  
 2.216000000000000E10   -1.591150462627411E-2   3.442394081503153E-3  
 2.218000000000000E10    4.892491735517979E-3   1.471207663416863E-2  
 2.220000000000000E10    1.382213179022074E-2  -5.643310956656933E-3  
 2.222000000000000E10   -6.525568198412657E-3  -1.209641247987747E-2  
 2.224000000000000E10   -1.077127549797297E-2   8.815519511699677E-3  
 2.226000000000000E10    9.871692396700382E-3   9.632149711251259E-3  
 2.228000000000000E10    9.010074660181999E-3  -1.019676867872477E-2  
 2.230000000000000E10   -1.128506101667881E-2  -8.407658897340298E-3  
 2.232000000000000E10   -6.579758599400520E-3   1.212831120938063E-2  
 2.234000000000000E10    1.360839605331421E-2   5.783011671155691E-3  
 2.236000000000000E10    4.909188486635685E-3  -1.376857515424490E-2  
 2.238000000000000E10   -1.263577956706286E-2  -3.896390320733190E-3  
 2.240000000000000E10   -2.656776225194335E-3   1.317934505641460E-2  
 2.242000000000000E10    1.411469932645559E-2   9.249484282918274E-4  
 2.244000000000000E10   -4.641365376301110E-5  -1.331078261137009E-2  
 2.246000000000000E10   -1.313157845288515E-2   5.225833156146109E-4  
 2.248000000000000E10    2.142605138942599E-3   1.295720133930445E-2  
 2.250000000000000E10    1.325829699635506E-2  -5.323747638612986E-3  
 2.252000000000000E10   -6.061934866011143E-3  -1.303202100098133E-2  
 2.254000000000000E10   -1.221491768956184E-2   5.899379029870033E-3  
 2.256000000000000E10    8.246348239481449E-3   1.093268580734730E-2  
 2.258000000000000E10    1.003170199692249E-2  -9.312933310866356E-3  
 2.260000000000000E10   -9.392037987709045E-3  -1.045031286776066E-2  
 2.262000000000000E10   -8.396538905799389E-3   9.864695370197296E-3  
 2.264000000000000E10    1.001330092549324E-2   7.150734774768353E-3  
 2.266000000000000E10    6.152452435344458E-3  -1.151828840374947E-2  
 2.268000000000000E10   -1.250715088099241E-2  -4.323384258896112E-3  
 2.270000000000000E10   -3.301595803350210E-3   1.124334987252951E-2  
 2.272000000000000E10    1.228772010654211E-2   1.330076484009624E-3  
 2.274000000000000E10   -6.620060303248465E-4  -1.358936261385679E-2  
 2.276000000000000E10   -1.370484288781881E-2   1.340968767181039E-3  
 2.278000000000000E10    2.643746556714177E-3   1.316583529114723E-2  
 2.280000000000000E10    1.320172194391489E-2  -4.428859334439039E-3  
 2.282000000000000E10    2.590402727946639E-3  -1.387963350862265E-2  
 2.284000000000000E10   -1.296651735901833E-2   6.163534708321095E-3  
 2.286000000000000E10    7.825029082596302E-3   1.090836711227894E-2  
 2.288000000000000E10    8.770058862864971E-3  -7.938638329505920E-3  
 2.290000000000000E10   -8.250555954873562E-3  -8.476748131215572E-3  
 2.292000000000000E10   -7.724243216216564E-3   8.666866458952427E-3  
 2.294000000000000E10    9.571983478963375E-3   5.715819075703621E-3  
 2.296000000000000E10    4.014723934233189E-3  -9.780664928257465E-3  
 2.298000000000000E10   -1.101861521601677E-2  -3.113430691882968E-3  
 2.300000000000000E10   -1.928858575411141E-3   1.231838576495647E-2  
 2.302000000000000E10    1.251683942973614E-2   2.584295725682750E-5  
 2.304000000000000E10   -2.008212730288506E-3  -1.213471125811338E-2  
 2.306000000000000E10   -1.223368011415005E-2   2.947663189843297E-3  
 2.308000000000000E10    3.782361047342420E-3   1.217621099203825E-2  
 2.310000000000000E10    1.101895514875650E-2  -4.456508439034224E-3  
 2.312000000000000E10   -5.718946456909180E-3  -1.015248429030180E-2  
 2.314000000000000E10   -9.511389769613743E-3   6.387757137417793E-3  
 2.316000000000000E10    7.401756476610899E-3   8.536124601960182E-3  
 2.318000000000000E10    6.823465228080750E-3  -8.384092710912228E-3  
 2.320000000000000E10   -9.228886105120182E-3  -5.257865879684687E-3  
 2.322000000000000E10   -4.114836920052767E-3   1.021176576614380E-2  
 2.324000000000000E10    9.905023500323296E-3   3.362268675118685E-3  
 2.326000000000000E10    2.161080483347178E-3  -1.037930697202683E-2  
 2.328000000000000E10   -1.107561029493809E-2  -1.021389849483967E-3  
 2.330000000000000E10   -1.102101014112122E-4   1.102073397487402E-2  
 2.332000000000000E10    1.130896806716919E-2  -9.371466003358364E-4  
 2.334000000000000E10   -1.732302713207901E-3  -1.039584074169397E-2  
 2.336000000000000E10   -9.325908496975899E-3   3.282478312030435E-3  
 2.338000000000000E10    4.345396533608437E-3   9.073685854673386E-3  
 2.340000000000000E10    7.825890555977821E-3  -4.555553197860718E-3  
 2.342000000000000E10   -6.525508128106594E-3  -6.088401656597853E-3  
 2.344000000000000E10   -5.354336928576231E-3   7.456559687852860E-3  
 2.346000000000000E10    7.317525334656239E-3   4.456839524209499E-3  
 2.348000000000000E10    4.234033636748791E-3  -8.398526348173618E-3  
 2.350000000000000E10   -8.553048595786095E-3  -2.996723400428891E-3  
 2.352000000000000E10   -1.698497449979186E-3   9.776866063475609E-3  
 2.354000000000000E10    1.041178964078426E-2   1.565122627653182E-3  
 2.356000000000000E10    1.191748888231814E-3  -9.220940060913563E-3  
 2.358000000000000E10   -8.633641526103020E-3   2.567921765148640E-4  
 2.360000000000000E10    5.110097117722035E-4   9.219138883054256E-3  
 2.362000000000000E10    8.270363323390484E-3  -1.372950267978013E-3  
 2.364000000000000E10   -2.160849748179317E-3  -7.215622812509537E-3  
 2.366000000000000E10   -6.657929625362158E-3   2.742881653830409E-3  
 2.368000000000000E10    4.982805810868740E-3   5.543626379221678E-3  
 2.370000000000000E10    4.687441512942314E-3  -6.065066438168287E-3  
 2.372000000000000E10   -6.203614175319672E-3  -3.891204949468374E-3  
 2.374000000000000E10   -3.126674564555287E-3   6.677953992038965E-3  
 2.376000000000000E10    7.734470535069704E-3   2.842422807589173E-3  
 2.378000000000000E10    2.584557747468352E-3  -7.908489555120468E-3  
 2.380000000000000E10   -7.977856323122978E-3  -2.287931507453322E-3  
 2.382000000000000E10   -1.038891961798072E-3   8.443614467978478E-3  
 2.384000000000000E10    7.613011635839939E-3   1.773674011928961E-4  
 2.386000000000000E10    1.373636678181356E-5  -7.131982594728470E-3  
 2.388000000000000E10   -6.252459250390530E-3   5.752785364165902E-4  
 2.390000000000000E10    1.631253282539547E-3   5.614811088889837E-3  
 2.392000000000000E10    5.452220793813467E-3  -2.849739976227284E-3  
 2.394000000000000E10   -3.230999223887920E-3  -5.147300660610199E-3  
 2.396000000000000E10   -5.157392006367445E-3   4.064528737217188E-3  
 2.398000000000000E10    5.769231356680393E-3   4.846617579460144E-3  
 2.400000000000000E10    3.765095490962267E-3  -6.287738215178251E-3  
 2.402000000000000E10   -6.262854672968388E-3  -2.782155293971300E-3  
 2.404000000000000E10   -2.019828883931041E-3   6.394173484295607E-3  
 2.406000000000000E10    5.970927421003580E-3   1.793738221749663E-3  
 2.408000000000000E10    1.558754127472639E-3  -5.662680603563786E-3  
 2.410000000000000E10   -4.915037192404270E-3  -8.062949636951089E-4  
 2.412000000000000E10   -5.817096462124027E-5   4.396406468003988E-3  
 2.414000000000000E10    4.065005108714104E-3  -4.654420190490782E-4  
 2.416000000000000E10   -1.285695470869541E-3  -3.912028856575489E-3  
 2.418000000000000E10   -3.646408906206489E-3   1.662591821514070E-3  
 2.420000000000000E10    2.941358136013150E-3   3.511883085593581E-3  
 2.422000000000000E10    3.909246530383825E-3  -3.131515579298139E-3  
 2.424000000000000E10   -3.150954144075513E-3  -3.884992096573114E-3  
 2.426000000000000E10   -3.737287828698754E-3   3.624609205871820E-3  
 2.428000000000000E10    3.768874332308769E-3   4.434787202626467E-3  
 2.430000000000000E10    4.160761367529631E-3  -3.725078422576189E-3  
 2.432000000000000E10   -3.644871525466442E-3  -3.661877010017633E-3  
 2.434000000000000E10   -3.406638279557228E-3   3.483789274469018E-3  
 2.436000000000000E10    3.323834855109453E-3   2.529359189793468E-3  
 2.438000000000000E10    1.427324139513075E-3  -3.062569536268711E-3  
 2.440000000000000E10   -3.023542929440737E-3  -9.247034322470427E-4  
 2.442000000000000E10   -1.471408468205482E-4   2.984316553920507E-3  
 2.444000000000000E10    3.728035837411881E-3  -4.088686837349087E-4  
 2.446000000000000E10   -1.349112833850086E-3  -3.717117477208376E-3  
 2.448000000000000E10   -3.928837832063437E-3   1.164332847110927E-3  
 2.450000000000000E10    1.712014898657799E-3   4.264210350811482E-3  
 2.452000000000000E10    4.150813445448875E-3  -1.819732598960400E-3  
 2.454000000000000E10   -1.724608126096427E-3  -4.499897360801697E-3  
 2.456000000000000E10   -4.111137241125107E-3   1.883013173937798E-3  
 2.458000000000000E10    1.843919977545738E-3   3.729759715497494E-3  
 2.460000000000000E10    3.105910262092948E-3  -1.697390340268612E-3  
 2.462000000000000E10   -2.248197328299284E-3  -2.548852702602744E-3  
 2.464000000000000E10   -2.541543450206518E-3   2.414061455056071E-3  
 2.466000000000000E10    2.464804798364639E-3   1.335791661404073E-3  
 2.468000000000000E10    5.699282046407461E-4  -3.032930428162217E-3  
 2.470000000000000E10   -3.763278014957905E-3  -5.841684178449214E-4  
 2.472000000000000E10    1.579980162205175E-4   3.413572441786528E-3  
 2.474000000000000E10    4.181672353297472E-3   2.324141532881185E-4  
 2.476000000000000E10    3.397871914785355E-4  -4.246846307069063E-3  
 2.478000000000000E10   -4.657797515392304E-3   9.045571641763672E-5  
 2.480000000000000E10   -4.989664303138852E-4   4.260378424078226E-3  
 2.482000000000000E10    3.447039751335979E-3   3.108627279289067E-4  
 2.484000000000000E10   -8.094132062979043E-4  -3.480096347630024E-3  
 2.486000000000000E10   -3.212620737031102E-3   7.217020029202104E-4  
 2.488000000000000E10    8.937835227698088E-4   2.023936249315739E-3  
 2.490000000000000E10    1.774552161805332E-3  -1.321232994087040E-3  
 2.492000000000000E10   -2.188805025070906E-3  -2.104548504576087E-3  
 2.494000000000000E10   -1.755422912538052E-3   3.302596509456635E-3  
 2.496000000000000E10    3.264653962105513E-3   1.469713286496699E-3  
 2.498000000000000E10    7.385104545392096E-4  -3.907877951860428E-3  
 2.500000000000000E10   -4.147705622017384E-3  -7.967866258695722E-4  
 2.502000000000000E10   -1.592087908647955E-3   4.675464704632759E-3  
 2.504000000000000E10    3.931626677513123E-3   1.064332085661590E-3  
 2.506000000000000E10    1.080089248716831E-3  -2.887170063331723E-3  
 2.508000000000000E10   -3.100690199062228E-3  -6.684201071038842E-4  
 2.510000000000000E10   -7.691548089496791E-4   3.184296656399965E-3  
 2.512000000000000E10    2.388254506513476E-3   7.335874834097922E-4  
 2.514000000000000E10   -1.125187845900655E-3  -1.266547711566091E-3  
 2.516000000000000E10   -1.957432366907597E-3   2.174808643758297E-3  
 2.518000000000000E10    1.865893136709929E-3   1.965803327038884E-3  
 2.520000000000000E10    1.446243957616389E-3  -2.043471438810229E-3  
 2.522000000000000E10   -2.551156794652343E-3  -1.825185026973486E-3  
 2.524000000000000E10   -1.608565333299339E-3   3.421773901209235E-3  
 2.526000000000000E10    3.567299339920282E-3   2.540772547945380E-3  
 2.528000000000000E10    2.435589209198952E-3  -2.331760246306658E-3  
 2.530000000000000E10   -2.486358396708965E-3  -1.537532196380198E-3  
 2.532000000000000E10   -1.069203019142151E-3   3.942885436117649E-3  
 2.534000000000000E10    2.987273270264268E-3   1.418168772943318E-3  
 2.536000000000000E10    8.794406894594431E-4  -2.137310570105910E-3  
 2.538000000000000E10   -2.161514479666948E-3   1.347379293292761E-4  
 2.540000000000000E10    1.435273792594671E-3   2.393302740529180E-3  
 2.542000000000000E10    2.693218179047108E-3  -1.742984750308096E-3  
 2.544000000000000E10   -1.282505458220840E-3  -2.344318898394704E-3  
 2.546000000000000E10   -1.483644708059728E-3   2.320736646652222E-3  
 2.548000000000000E10    2.949659246951342E-3   2.745214151218534E-3  
 2.550000000000000E10    2.797986613586545E-3  -2.626172499731183E-3  
 2.552000000000000E10   -3.003404708579183E-3  -2.776353619992733E-3  
 2.554000000000000E10   -1.919092494063079E-3   2.362388651818037E-3  
 2.556000000000000E10    2.422061050310731E-3   1.241637510247529E-3  
 2.558000000000000E10    1.380925416015089E-3  -3.077156143262982E-3  
 2.560000000000000E10   -2.059448510408402E-3  -1.067285425961018E-3  
 2.562000000000000E10    6.375005468726158E-4   1.439102576114237E-3  
 2.564000000000000E10    2.205966273322702E-3  -2.584840985946357E-4  
 2.566000000000000E10   -1.211629947647452E-3  -2.753326669335365E-3  
 2.568000000000000E10   -2.681484213098884E-3   1.999216852709651E-3  
 2.570000000000000E10    2.244670409709215E-3   2.247283933684230E-3  
 2.572000000000000E10    2.164224162697792E-3  -3.266913350671530E-3  
 2.574000000000000E10   -3.392827231436968E-3  -3.203029278665781E-3  
 2.576000000000000E10   -2.053345320746303E-3   2.418413991108537E-3  
 2.578000000000000E10    2.562606940045953E-3   1.184401451610029E-3  
 2.580000000000000E10    1.461887150071561E-3  -3.047769190743566E-3  
 2.582000000000000E10   -1.963531598448753E-3  -1.031207735650241E-3  
 2.584000000000000E10   -5.292263231240213E-4   1.742495107464492E-3  
 2.586000000000000E10    1.781653729267418E-3  -2.158107963623479E-4  
 2.588000000000000E10   -1.486237859353423E-3  -1.836547628045082E-3  
 2.590000000000000E10   -2.101774327456951E-3   1.076045096851885E-3  
 2.592000000000000E10    9.382184362038970E-4   1.376584288664162E-3  
 2.594000000000000E10    1.882209326140583E-3  -1.898739137686789E-3  
 2.596000000000000E10   -1.868458581157029E-3  -2.698369557037950E-3  
 2.598000000000000E10   -2.174635417759419E-3   1.691388781182468E-3  
 2.600000000000000E10    1.986108254641295E-3   1.958440057933331E-3  
 2.602000000000000E10    2.379452576860786E-3  -2.392187714576721E-3  
 2.604000000000000E10   -2.260898007079959E-3  -1.337923575192690E-3  
 2.606000000000000E10   -1.083484501577914E-3   1.896474859677255E-3  
 2.608000000000000E10    1.998391468077898E-3  -2.246213407488540E-4  
 2.610000000000000E10   -8.435936179012060E-4  -2.270659897476435E-3  
 2.612000000000000E10   -2.350878901779652E-3   6.552220438607037E-4  
 2.614000000000000E10    1.733047072775662E-3   1.825131126679480E-3  
 2.616000000000000E10    2.919346094131470E-3  -1.921726623550057E-3  
 2.618000000000000E10   -1.747346483170986E-3  -2.876258455216885E-3  
 2.620000000000000E10   -2.455831039696932E-3   2.368523040786386E-3  
 2.622000000000000E10    2.110713627189398E-3   2.862928435206413E-3  
 2.624000000000000E10    2.527057891711593E-3  -1.904955948702991E-3  
 2.626000000000000E10   -2.112780464813113E-3  -1.894068438559771E-3  
 2.628000000000000E10   -1.739002764225006E-3   2.493370091542602E-3  
 2.630000000000000E10    2.559082116931677E-3   5.205763736739755E-4  
 2.632000000000000E10   -4.947760025970638E-4  -2.382584614679217E-3  
 2.634000000000000E10   -2.138972515240312E-3   1.099730492569506E-3  
 2.636000000000000E10    2.083145314827561E-3   2.452359534800053E-3  
 2.638000000000000E10    2.515058498829603E-3  -2.237425418570638E-3  
 2.640000000000000E10   -2.839660504832864E-3  -1.931333099491894E-3  
 2.642000000000000E10   -2.289956435561180E-3   3.224042709916830E-3  
 2.644000000000000E10    3.098533023148775E-3   2.006290247663856E-3  
 2.646000000000000E10    1.486062887124717E-3  -2.630824921652675E-3  
 2.648000000000000E10   -2.455139532685280E-3  -1.516478951089084E-3  
 2.650000000000000E10   -9.575350559316576E-4   2.611350268125534E-3  
 2.652000000000000E10    2.028306480497122E-3   4.427198728080839E-4  
 2.654000000000000E10   -5.083437426947057E-4  -2.022017259150744E-3  
 2.656000000000000E10   -3.253560978919268E-3   1.310857012867928E-3  
 2.658000000000000E10    1.820214325562120E-3   2.673804759979248E-3  
 2.660000000000000E10    2.290795091539621E-3  -2.388734836131334E-3  
 2.662000000000000E10   -3.722551744431257E-3  -2.726346720010042E-3  
 2.664000000000000E10   -2.465446945279837E-3   3.569739637896419E-3  
 2.666000000000000E10    3.102795919403434E-3   2.535325940698385E-3  
 2.668000000000000E10    1.708661089651287E-3  -3.767745336517692E-3  
 2.670000000000000E10   -3.903392469510436E-3  -1.337477355264127E-3  
 2.672000000000000E10   -1.223383238539100E-3   3.837513038888574E-3  
 2.674000000000000E10    3.060786053538322E-3   2.530554775148630E-4  
 2.676000000000000E10   -5.444595008157194E-4  -2.661018865182996E-3  
 2.678000000000000E10   -3.080009715631604E-3   1.306092017330229E-3  
 2.680000000000000E10    1.638013636693358E-3   3.047959413379431E-3  
 2.682000000000000E10    3.443576395511627E-3  -2.144953003153205E-3  
 2.684000000000000E10   -3.062854055315256E-3  -2.866056514903903E-3  
 2.686000000000000E10   -3.072900464758277E-3   3.905508434399962E-3  
 2.688000000000000E10    3.660118672996759E-3   3.490273142233491E-3  
 2.690000000000000E10    3.009908366948366E-3  -4.010817967355251E-3  
 2.692000000000000E10   -4.132549744099379E-3  -2.801191993057728E-3  
 2.694000000000000E10   -1.785439322702587E-3   4.623299930244684E-3  
 2.696000000000000E10    4.528307355940342E-3   9.417829569429159E-4  
 2.698000000000000E10    6.623466615565121E-4  -3.923472017049789E-3  
 2.700000000000000E10   -4.091413691639900E-3   1.410042634233832E-3  
 2.702000000000000E10    2.042832085862756E-3   4.249074496328831E-3  
 2.704000000000000E10    4.594447091221809E-3  -2.126790117472410E-3  
 2.706000000000000E10   -3.590639913454652E-3  -3.509184578433633E-3  
 2.708000000000000E10   -3.605115925893188E-3   4.139589145779610E-3  
 2.710000000000000E10    4.552538506686688E-3   4.143988713622093E-3  
 2.712000000000000E10    3.612779313698411E-3  -5.036613438278437E-3  
 2.714000000000000E10   -4.658173304051161E-3  -2.978658303618431E-3  
 2.716000000000000E10   -1.981948036700487E-3   5.028805229812861E-3  
 2.718000000000000E10    5.066765937954187E-3   2.123095560818911E-3  
 2.720000000000000E10    1.951551181264222E-3  -4.899598658084869E-3  
 2.722000000000000E10   -4.651496652513742E-3   5.125253301230259E-5  
 2.724000000000000E10    2.575257385615259E-4   4.440956283360720E-3  
 2.726000000000000E10    5.154014099389315E-3  -1.180824707262218E-3  
 2.728000000000000E10   -2.659580670297146E-3  -4.980552475899458E-3  
 2.730000000000000E10   -4.807623568922281E-3   2.748290076851845E-3  
 2.732000000000000E10    4.116587806493044E-3   4.958924837410450E-3  
 2.734000000000000E10    5.452897865325213E-3  -4.510594997555018E-3  
 2.736000000000000E10   -4.817239474505186E-3  -4.822354763746262E-3  
 2.738000000000000E10   -4.320353269577026E-3   5.355000961571932E-3  
 2.740000000000000E10    5.663075018674135E-3   3.475277451798320E-3  
 2.742000000000000E10    2.493918640539050E-3  -5.816044751554728E-3  
 2.744000000000000E10   -5.727980285882950E-3  -1.730431569740176E-3  
 2.746000000000000E10   -8.520002011209726E-4   5.073335953056812E-3  
 2.748000000000000E10    5.628455895930529E-3  -8.600127184763551E-4  
 2.750000000000000E10   -1.151284319348633E-3  -5.388580262660980E-3  
 2.752000000000000E10   -5.474730860441923E-3   1.563941943459213E-3  
 2.754000000000000E10    2.905139466747642E-3   5.665871780365706E-3  
 2.756000000000000E10    5.739209707826376E-3  -2.851983532309532E-3  
