#  HZ   S   RI   R     50.00 
! Rohde & Schwarz ZVA40 4Ports - Version 3.90 - 1145.1110k42 SN: 100403
! Date: 2023-10-04 10:30:11
! Measurement: S12 
! 
 2.200000000000000E10   -3.504902822896838E-3  -1.488148584030569E-3  
 2.202000000000000E10   -1.299154246225953E-3   3.088623750954866E-3  
 2.204000000000000E10    3.646604018285871E-3   5.232582334429026E-4  
 2.206000000000000E10   -4.374999552965164E-4  -3.452676115557551E-3  
 2.208000000000000E10   -2.806387608870864E-3   1.166432281024754E-3  
 2.210000000000000E10    2.509353682398796E-3   2.396141877397895E-3  
 2.212000000000000E10    1.521322061307728E-3  -3.485676134005189E-3  
 2.214000000000000E10   -3.879255615174770E-3  -7.553788018412888E-4  
 2.216000000000000E10    3.795537049882114E-4   4.621301311999559E-3  
 2.218000000000000E10    4.552424419671297E-3  -1.278306823223829E-3  
 2.220000000000000E10   -1.991452649235725E-3  -4.178281407803297E-3  
 2.222000000000000E10   -3.543936880305409E-3   2.231470309197903E-3  
 2.224000000000000E10    3.180425846949220E-3   2.792037092149258E-3  
 2.226000000000000E10    2.503982745110989E-3  -4.234889987856150E-3  
 2.228000000000000E10   -3.431353950873017E-3  -8.002491085790098E-4  
 2.230000000000000E10    7.655364461243153E-4   3.617802634835243E-3  
 2.232000000000000E10    4.702367819845676E-3  -1.317261252552271E-3  
 2.234000000000000E10   -1.876821159385145E-3  -3.901136806234717E-3  
 2.236000000000000E10   -3.340772585943341E-3   2.526355674490333E-3  
 2.238000000000000E10    3.379337256774306E-3   3.153693163767457E-3  
 2.240000000000000E10    2.611111849546433E-3  -3.975305240601301E-3  
 2.242000000000000E10   -4.192202817648649E-3  -3.070712089538574E-3  
 2.244000000000000E10   -1.537506235763431E-3   4.116135649383068E-3  
 2.246000000000000E10    4.201389383524656E-3   4.331619420554489E-4  
 2.248000000000000E10   -6.431919173337519E-4  -4.265417810529470E-3  
 2.250000000000000E10   -3.684814786538482E-3   1.522827311418951E-3  
 2.252000000000000E10    1.695368904620409E-3   3.556430339813232E-3  
 2.254000000000000E10    2.867070026695728E-3  -2.780559007078409E-3  
 2.256000000000000E10   -3.338028443977237E-3  -2.893070923164487E-3  
 2.258000000000000E10   -3.411864163354039E-3   3.694642102345824E-3  
 2.260000000000000E10    3.599745454266667E-3   2.335112541913986E-3  
 2.262000000000000E10    2.100732177495956E-3  -3.528326284140348E-3  
 2.264000000000000E10   -4.274409729987383E-3  -2.599688712507486E-3  
 2.266000000000000E10   -1.971554011106491E-3   3.623567754402757E-3  
 2.268000000000000E10    3.314276691526175E-3   1.701814471744001E-3  
 2.270000000000000E10    9.787505259737372E-4  -3.428978146985173E-3  
 2.272000000000000E10   -4.353497177362442E-3  -2.581326116342098E-4  
 2.274000000000000E10   -1.124359478126280E-4   3.975009080022574E-3  
 2.276000000000000E10    3.500257153064013E-3  -1.217540004290640E-3  
 2.278000000000000E10   -2.814877778291702E-3  -3.507822286337614E-3  
 2.280000000000000E10   -3.860094351693988E-3   2.689013956114650E-3  
 2.282000000000000E10    1.022523036226630E-3   4.796158988028765E-3  
 2.284000000000000E10    2.396743977442384E-3  -3.830439643934369E-3  
 2.286000000000000E10   -3.498364239931107E-3  -2.934822579845786E-3  
 2.288000000000000E10   -2.461287193000317E-3   4.732159897685051E-3  
 2.290000000000000E10    3.595112124457955E-3   2.431612927466631E-3  
 2.292000000000000E10    1.516416203230619E-3  -3.573957132175565E-3  
 2.294000000000000E10   -4.305629990994930E-3  -1.528488937765360E-3  
 2.296000000000000E10   -7.869891705922782E-4   4.152726382017136E-3  
 2.298000000000000E10    4.041999112814665E-3   2.769691636785865E-4  
 2.300000000000000E10   -4.397114680614322E-4  -4.738206509500742E-3  
 2.302000000000000E10   -4.439360462129116E-3   1.845002640038729E-3  
 2.304000000000000E10    2.717794384807348E-3   4.427098203450441E-3  
 2.306000000000000E10    4.265442956238985E-3  -2.351855859160423E-3  
 2.308000000000000E10   -3.193499287590385E-3  -4.127650521695614E-3  
 2.310000000000000E10   -4.512397572398186E-3   4.495108500123024E-3  
 2.312000000000000E10    4.155023489147425E-3   3.821175545454025E-3  
 2.314000000000000E10    3.306752070784569E-3  -4.115771036595106E-3  
 2.316000000000000E10   -4.527930635958910E-3  -2.880422165617347E-3  
 2.318000000000000E10   -1.763850217685103E-3   4.223063122481108E-3  
 2.320000000000000E10    4.192523192614317E-3   5.518644466064870E-4  
 2.322000000000000E10    1.098376233130693E-3  -3.271216526627541E-3  
 2.324000000000000E10   -3.652235958725214E-3   2.641737046360504E-5  
 2.326000000000000E10    1.441118074581027E-3   4.334076307713985E-3  
 2.328000000000000E10    4.343073815107346E-3  -1.172159449197352E-3  
 2.330000000000000E10   -3.035771660506725E-3  -4.448138177394867E-3  
 2.332000000000000E10   -4.325179848819971E-3   3.482862608507276E-3  
 2.334000000000000E10    3.658403176814318E-3   4.673810675740242E-3  
 2.336000000000000E10    4.211969673633575E-3  -4.414986819028854E-3  
 2.338000000000000E10   -4.157703369855881E-3  -4.086417146027088E-3  
 2.340000000000000E10   -3.650922095403075E-3   4.065264482051134E-3  
 2.342000000000000E10    5.145045462995768E-3   2.738709561526775E-3  
 2.344000000000000E10    2.302570967003703E-3  -3.912435844540596E-3  
 2.346000000000000E10   -3.631378524005413E-3  -1.859873649664223E-3  
 2.348000000000000E10   -3.698511573020369E-4   4.665675107389689E-3  
 2.350000000000000E10    4.758089315146208E-3   7.965747499838471E-6  
 2.352000000000000E10   -1.249388209544122E-3  -4.435640294104815E-3  
 2.354000000000000E10   -4.074706230312586E-3   1.598298433236778E-3  
 2.356000000000000E10    2.554464386776090E-3   5.036075599491596E-3  
 2.358000000000000E10    5.090449936687946E-3  -3.152465214952827E-3  
 2.360000000000000E10   -3.115174360573292E-3  -5.188421811908484E-3  
 2.362000000000000E10   -4.440176766365767E-3   3.586731152608991E-3  
 2.364000000000000E10    4.420412238687277E-3   4.459502175450325E-3  
 2.366000000000000E10    4.177238792181015E-3  -4.247582051903009E-3  
 2.368000000000000E10   -4.440790507942438E-3  -3.355941502377391E-3  
 2.370000000000000E10   -2.654336392879486E-3   4.110601264983416E-3  
 2.372000000000000E10    4.395505413413048E-3   2.316176192834973E-3  
 2.374000000000000E10    1.761613995768130E-3  -4.543429240584374E-3  
 2.376000000000000E10   -4.734383895993233E-3  -6.325989379547536E-4  
 2.378000000000000E10    5.001628305763006E-4   5.474002566188574E-3  
 2.380000000000000E10    5.493405740708113E-3  -1.791400718502700E-3  
 2.382000000000000E10   -2.059442223981023E-3  -5.659586749970913E-3  
 2.384000000000000E10   -5.898228846490383E-3   2.559555461630225E-3  
 2.386000000000000E10    3.991790581494570E-3   5.566874053329229E-3  
 2.388000000000000E10    5.716332700103521E-3  -4.020954016596079E-3  
 2.390000000000000E10   -4.470099229365587E-3  -5.190995521843433E-3  
 2.392000000000000E10   -4.247452132403851E-3   4.832792095839977E-3  
 2.394000000000000E10    5.086106713861227E-3   3.669935278594494E-3  
 2.396000000000000E10    3.166686045005918E-3  -4.881131462752819E-3  
 2.398000000000000E10   -5.298003554344177E-3  -1.926405820995569E-3  
 2.400000000000000E10   -1.232019974850118E-3   5.324029363691807E-3  
 2.402000000000000E10    5.824243184179068E-3  -1.153182354755700E-3  
 2.404000000000000E10   -1.198837533593178E-3  -5.778748542070389E-3  
 2.406000000000000E10   -5.795313976705074E-3   1.515942858532071E-3  
 2.408000000000000E10    3.128098789602518E-3   5.681497976183891E-3  
 2.410000000000000E10    6.474110297858715E-3  -3.638815367594361E-3  
 2.412000000000000E10   -3.464157693088055E-3  -5.750222131609917E-3  
 2.414000000000000E10   -5.620290990918875E-3   3.668138058856130E-3  
 2.416000000000000E10    4.178613424301148E-3   5.382859613746405E-3  
 2.418000000000000E10    4.226081538945437E-3  -4.900944884866476E-3  
 2.420000000000000E10   -4.008444026112557E-3  -3.717615036293864E-3  
 2.422000000000000E10   -2.714233705773950E-3   4.471272695809603E-3  
 2.424000000000000E10    4.924765788018704E-3   1.411331235431135E-3  
 2.426000000000000E10    1.357978326268494E-3  -5.238877143710852E-3  
 2.428000000000000E10   -5.690440535545349E-3  -4.820080357603729E-4  
 2.430000000000000E10    4.574804042931646E-4   5.965836811810732E-3  
 2.432000000000000E10    6.991967093199492E-3  -1.328119426034391E-3  
 2.434000000000000E10   -2.122410573065281E-3  -6.755363661795855E-3  
 2.436000000000000E10   -6.781605072319508E-3   2.462555421516299E-3  
 2.438000000000000E10    2.872370881959796E-3   7.087273988872767E-3  
 2.440000000000000E10    6.287163123488426E-3  -3.252155380323529E-3  
 2.442000000000000E10   -3.509024623781443E-3  -6.946139503270388E-3  
 2.444000000000000E10   -5.372337065637112E-3   4.038950428366661E-3  
 2.446000000000000E10    3.817525226622820E-3   4.628071095794439E-3  
 2.448000000000000E10    4.024518188089132E-3  -4.911155439913273E-3  
 2.450000000000000E10   -4.666105844080448E-3  -2.981143072247505E-3  
 2.452000000000000E10   -2.294259844347835E-3   5.479177460074425E-3  
 2.454000000000000E10    6.046974565833807E-3   8.070512558333576E-4  
 2.456000000000000E10   -2.988349115184974E-5  -6.021641194820404E-3  
 2.458000000000000E10   -6.839636247605085E-3   8.983664156403393E-5  
 2.460000000000000E10    1.511658076196909E-3   7.254642434418201E-3  
 2.462000000000000E10    6.672188639640808E-3  -1.665781135670841E-3  
 2.464000000000000E10   -2.351831644773483E-3  -7.028754334896803E-3  
 2.466000000000000E10   -6.895503494888544E-3   2.250275574624538E-3  
 2.468000000000000E10    2.504376461729407E-3   6.405342835932970E-3  
 2.470000000000000E10    5.167345982044935E-3  -4.130962770432234E-3  
 2.472000000000000E10   -4.049378447234631E-3  -4.932802636176348E-3  
 2.474000000000000E10   -4.031415563076735E-3   4.269961267709732E-3  
 2.476000000000000E10    4.083115607500076E-3   2.983905607834458E-3  
 2.478000000000000E10    2.235566033050418E-3  -5.365248769521713E-3  
 2.480000000000000E10   -6.339139770716429E-3  -1.432791468687356E-3  
 2.482000000000000E10   -1.512689632363617E-3   6.624432746320963E-3  
 2.484000000000000E10    6.693083327263594E-3   4.345378256402910E-4  
 2.486000000000000E10   -1.312681823037565E-3  -7.527870126068592E-3  
 2.488000000000000E10   -7.983167655766010E-3   1.053699292242527E-3  
 2.490000000000000E10    1.081288210116327E-3   7.006925530731678E-3  
 2.492000000000000E10    6.558939348906279E-3  -1.498742727562785E-3  
 2.494000000000000E10   -2.403090009465814E-3  -6.454237271100283E-3  
 2.496000000000000E10   -5.896218586713076E-3   3.238961566239595E-3  
 2.498000000000000E10    3.250651760026813E-3   5.362801719456911E-3  
 2.500000000000000E10    3.930110018700361E-3  -3.839693265035749E-3  
 2.502000000000000E10   -5.413693841546774E-3  -3.140718443319202E-3  
 2.504000000000000E10   -2.146613551303744E-3   6.267237942665815E-3  
 2.506000000000000E10    5.525768268853426E-3   1.885491423308849E-3  
 2.508000000000000E10    1.137063023634255E-3  -6.326047237962484E-3  
 2.510000000000000E10   -7.258070167154074E-3  -1.744869368849322E-4  
 2.512000000000000E10    9.456407133257017E-5   7.923508994281292E-3  
 2.514000000000000E10    7.837192155420780E-3   3.153436700813472E-4  
 2.516000000000000E10   -5.546119064092636E-4  -6.974685937166214E-3  
 2.518000000000000E10   -7.071833126246929E-3   2.062081359326839E-3  
 2.520000000000000E10    2.049246570095420E-3   7.273524533957243E-3  
 2.522000000000000E10    6.324242334812880E-3  -2.461862517520785E-3  
 2.524000000000000E10   -3.085529664531350E-3  -4.701840225607157E-3  
 2.526000000000000E10   -3.739296691492200E-3   4.669457674026489E-3  
 2.528000000000000E10    5.085232201963663E-3   3.624199191108346E-3  
 2.530000000000000E10    3.475407138466835E-3  -5.597353912889957E-3  
 2.532000000000000E10   -5.433818325400353E-3  -1.488419715315104E-3  
 2.534000000000000E10   -7.403995841741562E-4   7.264422252774239E-3  
 2.536000000000000E10    7.648422848433256E-3   9.411275968886912E-4  
 2.538000000000000E10    2.569317584857345E-4  -6.984170060604811E-3  
 2.540000000000000E10   -6.450060289353132E-3   8.153542294166982E-4  
 2.542000000000000E10    1.498573692515492E-3   6.710247136652470E-3  
 2.544000000000000E10    6.811740808188915E-3  -1.175157260149717E-3  
 2.546000000000000E10   -1.468190341256559E-3  -5.956292152404785E-3  
 2.548000000000000E10   -4.323998466134071E-3   2.954020863398910E-3  
 2.550000000000000E10    3.887592814862728E-3   4.865188151597977E-3  
 2.552000000000000E10    4.048427566885948E-3  -4.710637964308262E-3  
 2.554000000000000E10   -5.142016336321831E-3  -2.591054653748870E-3  
 2.556000000000000E10   -1.874016015790403E-3   5.792928859591484E-3  
 2.558000000000000E10    6.397689227014780E-3   7.199470419436693E-4  
 2.560000000000000E10    8.570361533202231E-4  -6.928768940269947E-3  
 2.562000000000000E10   -6.439665798097849E-3  -1.069459947757423E-3  
 2.564000000000000E10    1.033731168718077E-4   6.547524593770504E-3  
 2.566000000000000E10    7.173014339059591E-3  -5.754390149377286E-4  
 2.568000000000000E10   -1.075244625099003E-3  -7.012354675680399E-3  
 2.570000000000000E10   -6.698086857795715E-3   1.888974918983877E-3  
 2.572000000000000E10    2.392814261838794E-3   5.343447439372540E-3  
 2.574000000000000E10    4.558876156806946E-3  -3.729250514879823E-3  
 2.576000000000000E10   -5.120558198541403E-3  -4.391116555780172E-3  
 2.578000000000000E10   -3.078376175835729E-3   4.761931952089071E-3  
 2.580000000000000E10    5.397069267928600E-3   1.322201336733997E-3  
 2.582000000000000E10    1.201062579639256E-3  -6.745673250406981E-3  
 2.584000000000000E10   -7.257732562720776E-3  -7.978953653946519E-4  
 2.586000000000000E10    5.772551521658897E-4   7.074581459164619E-3  
 2.588000000000000E10    6.496959365904331E-3  -5.569513305090368E-4  
 2.590000000000000E10   -1.690246746875346E-3  -6.704014725983143E-3  
 2.592000000000000E10   -6.553401239216328E-3   1.393489073961973E-3  
 2.594000000000000E10    1.591429230757058E-3   5.493824835866690E-3  
 2.596000000000000E10    4.880747757852078E-3  -2.473162487149239E-3  
 2.598000000000000E10   -2.785607008263469E-3  -4.880948457866907E-3  
 2.600000000000000E10   -4.017133731395006E-3   3.604723839089274E-3  
 2.602000000000000E10    4.288374911993742E-3   3.527871565893292E-3  
 2.604000000000000E10    2.710996195673943E-3  -5.237251054495573E-3  
 2.606000000000000E10   -5.680598318576813E-3  -1.631551072932780E-3  
 2.608000000000000E10   -1.559550524689257E-3   6.130563095211983E-3  
 2.610000000000000E10    5.631595384329557E-3   1.241502817720175E-3  
 2.612000000000000E10    6.754596251994371E-4  -6.743602454662323E-3  
 2.614000000000000E10   -6.682000122964382E-3  -8.285243529826403E-4  
 2.616000000000000E10   -2.176472626160830E-4   6.341903936117888E-3  
 2.618000000000000E10    6.918712984770536E-3  -5.819944781251252E-4  
 2.620000000000000E10   -1.477696001529694E-3  -6.155657116323710E-3  
 2.622000000000000E10   -5.097553599625826E-3   3.024759935215116E-3  
 2.624000000000000E10    3.066910896450281E-3   4.154301248490810E-3  
 2.626000000000000E10    3.802504157647491E-3  -3.182046813890338E-3  
 2.628000000000000E10   -4.939385689795017E-3  -3.318816889077425E-3  
 2.630000000000000E10   -2.580504631623626E-3   5.434510763734579E-3  
 2.632000000000000E10    5.797103513032198E-3   1.797657576389611E-3  
 2.634000000000000E10    1.309436745941639E-3  -6.679375655949116E-3  
 2.636000000000000E10   -6.331969052553177E-3  -1.248596119694412E-3  
 2.638000000000000E10   -4.717485571745783E-4   6.620528642088175E-3  
 2.640000000000000E10    6.213620305061340E-3  -2.866334980353713E-4  
 2.642000000000000E10   -5.935925291851163E-4  -5.892242304980755E-3  
 2.644000000000000E10   -5.516395904123783E-3   1.143115805462003E-3  
 2.646000000000000E10    1.429478288628161E-3   4.592456854879856E-3  
 2.648000000000000E10    4.243962466716766E-3  -2.552388235926628E-3  
 2.650000000000000E10   -3.548447741195560E-3  -3.710839431732893E-3  
 2.652000000000000E10   -3.264399711042643E-3   4.241372924298048E-3  
 2.654000000000000E10    4.786857403814793E-3   1.701720058917999E-3  
 2.656000000000000E10    9.668015409260988E-4  -5.356984678655863E-3  
 2.658000000000000E10   -5.981886759400368E-3  -9.756791987456381E-4  
 2.660000000000000E10   -3.937585570383817E-4   5.350232589989901E-3  
 2.662000000000000E10    5.782244261354208E-3  -1.770197413861752E-4  
 2.664000000000000E10   -7.415621657855809E-4  -5.785140208899975E-3  
 2.666000000000000E10   -5.674862302839756E-3   4.530312435235828E-4  
 2.668000000000000E10    9.095540153793991E-4   4.736652132123709E-3  
 2.670000000000000E10    4.322136752307415E-3  -2.146582584828138E-3  
 2.672000000000000E10   -2.369477646425366E-3  -3.803448751568794E-3  
 2.674000000000000E10   -3.391361795365810E-3   2.493056934326887E-3  
 2.676000000000000E10    2.902836771681905E-3   2.301358385011554E-3  
 2.678000000000000E10    1.649110578000546E-3  -4.025289323180914E-3  
 2.680000000000000E10   -4.411859437823296E-3  -1.518557895906270E-3  
 2.682000000000000E10   -1.151208416558802E-3   4.644944332540035E-3  
 2.684000000000000E10    4.940303042531014E-3   1.016604597680271E-3  
 2.686000000000000E10    1.100739755202085E-4  -5.196077283471823E-3  
 2.688000000000000E10   -5.183938890695572E-3  -1.109206368710147E-5  
 2.690000000000000E10   -2.441909455228597E-4   4.852354060858488E-3  
 2.692000000000000E10    4.702542908489704E-3  -4.689469060394913E-4  
 2.694000000000000E10   -1.519927638582885E-3  -4.118381533771753E-3  
 2.696000000000000E10   -3.504079068079591E-3   1.420320011675358E-3  
 2.698000000000000E10    2.295744605362415E-3   3.464372362941504E-3  
 2.700000000000000E10    2.190412953495979E-3  -2.913950243964791E-3  
 2.702000000000000E10   -3.391970880329609E-3  -1.924368552863598E-3  
 2.704000000000000E10   -1.296962960623205E-3   4.762425553053618E-3  
 2.706000000000000E10    4.110262263566256E-3   1.417229301296175E-3  
 2.708000000000000E10    1.020065043121576E-3  -4.321485292166472E-3  
 2.710000000000000E10   -5.176452919840813E-3  -1.884705416159704E-4  
 2.712000000000000E10   -5.119385314173996E-4   5.043404176831245E-3  
 2.714000000000000E10    5.130042321980000E-3   1.892855361802504E-4  
 2.716000000000000E10   -4.703528538811952E-4  -4.387530032545328E-3  
 2.718000000000000E10   -3.394046332687140E-3   7.591398316435516E-4  
 2.720000000000000E10    1.310289255343378E-3   3.868341678753495E-3  
 2.722000000000000E10    2.839960856363177E-3  -1.542556448839605E-3  
 2.724000000000000E10   -1.799897174350917E-3  -2.330599585548043E-3  
 2.726000000000000E10   -2.256901701912284E-3   3.361376002430916E-3  
 2.728000000000000E10    3.476491430774331E-3   1.832640147767961E-3  
 2.730000000000000E10    1.439289771951735E-3  -4.229524172842503E-3  
 2.732000000000000E10   -4.955882206559181E-3  -4.841960326302797E-4  
 2.734000000000000E10   -5.999514833092690E-4   5.022395867854357E-3  
 2.736000000000000E10    5.611197091639042E-3   1.867348182713613E-4  
 2.738000000000000E10   -2.958308323286474E-4  -4.808657802641392E-3  
 2.740000000000000E10   -4.017928615212441E-3   4.247676697559655E-4  
 2.742000000000000E10    1.364019466564059E-3   4.465668462216854E-3  
 2.744000000000000E10    3.380909096449614E-3  -1.084991032257676E-3  
 2.746000000000000E10   -1.325498917140067E-3  -3.074061824008822E-3  
 2.748000000000000E10   -2.028770046308637E-3   2.542882692068815E-3  
 2.750000000000000E10    2.523984061554074E-3   1.864598365500569E-3  
 2.752000000000000E10    1.644408330321312E-3  -3.103299299255014E-3  
 2.754000000000000E10   -3.032871289178729E-3  -8.120111306197941E-4  
 2.756000000000000E10   -3.547918458934873E-4   3.894518595188856E-3  
