#  HZ   S   RI   R     50.00 
! Rohde & Schwarz ZVA40 4Ports - Version 3.90 - 1145.1110k42 SN: 100403
! Date: 2023-10-04 10:32:42
! Measurement: S12 
! 
 2.200000000000000E10    2.828698139637709E-3   2.715783426538110E-3  
 2.202000000000000E10    2.082068240270019E-3  -2.835916122421622E-3  
 2.204000000000000E10   -3.215380245819688E-3  -2.137796254828572E-3  
 2.206000000000000E10   -1.986928051337600E-3   3.893015673384070E-3  
 2.208000000000000E10    3.343810793012381E-3   2.431241329759359E-3  
 2.210000000000000E10    1.353783532977104E-3  -4.449404310435057E-3  
 2.212000000000000E10   -5.179469473659992E-3  -5.895108915865421E-4  
 2.214000000000000E10   -5.768843111582100E-4   6.695975083857775E-3  
 2.216000000000000E10    7.383225485682488E-3  -5.660431343130767E-4  
 2.218000000000000E10   -2.086540916934609E-3  -7.275358773767948E-3  
 2.220000000000000E10   -8.072790689766407E-3   3.518739249557257E-3  
 2.222000000000000E10    4.294828046113253E-3   8.848202414810658E-3  
 2.224000000000000E10    8.022932335734367E-3  -5.368872079998255E-3  
 2.226000000000000E10   -7.790915202349424E-3  -6.791857536882162E-3  
 2.228000000000000E10   -5.820582155138254E-3   8.793514221906662E-3  
 2.230000000000000E10    9.172729216516018E-3   5.603474564850330E-3  
 2.232000000000000E10    3.190883435308933E-3  -1.020463369786739E-2  
 2.234000000000000E10   -1.014631241559982E-2  -9.131048573181033E-4  
 2.236000000000000E10    1.057740184478462E-3   1.127007044851780E-2  
 2.238000000000000E10    1.093750819563866E-2  -1.623158459551632E-3  
 2.240000000000000E10   -2.692951820790768E-3  -1.026704721152782E-2  
 2.242000000000000E10   -1.034117676317692E-2   6.036823149770498E-3  
 2.244000000000000E10    6.635710131376982E-3   9.695601649582386E-3  
 2.246000000000000E10    9.468731470406056E-3  -7.164601236581802E-3  
 2.248000000000000E10   -8.453977294266224E-3  -7.713245693594217E-3  
 2.250000000000000E10   -6.470854859799147E-3   9.609745815396309E-3  
 2.252000000000000E10    1.107882335782051E-2   5.275728646665812E-3  
 2.254000000000000E10    3.995619248598814E-3  -1.063987053930759E-2  
 2.256000000000000E10   -1.069254148751497E-2  -2.650683047249913E-3  
 2.258000000000000E10   -5.674995918525383E-5   1.147496793419123E-2  
 2.260000000000000E10    1.176204066723585E-2  -4.963458050042391E-4  
 2.262000000000000E10   -2.139608142897487E-3  -1.142789423465729E-2  
 2.264000000000000E10   -1.082320138812065E-2   3.521084086969495E-3  
 2.266000000000000E10    5.321196746081114E-3   1.108611281961203E-2  
 2.268000000000000E10    1.077235676348209E-2  -6.545566488057375E-3  
 2.270000000000000E10   -6.956787779927254E-3  -1.007537171244621E-2  
 2.272000000000000E10   -9.079840034246445E-3   7.804487366229296E-3  
 2.274000000000000E10    8.917736820876598E-3   7.865399122238159E-3  
 2.276000000000000E10    7.398831192404032E-3  -1.031347550451756E-2  
 2.278000000000000E10   -1.035388745367527E-2  -6.189301609992981E-3  
 2.280000000000000E10   -3.970009740442038E-3   1.102961041033268E-2  
 2.282000000000000E10    8.161816745996475E-3   7.725021801888943E-3  
 2.284000000000000E10    6.335359648801386E-4  -1.146361418068409E-2  
 2.286000000000000E10   -1.086927670985460E-2   9.231183212250471E-4  
 2.288000000000000E10    2.505696844309568E-3   1.056902203708887E-2  
 2.290000000000000E10    1.100879255682230E-2  -4.040499683469534E-3  
 2.292000000000000E10   -5.700146779417992E-3  -1.195171941071749E-2  
 2.294000000000000E10   -1.098327059298754E-2   6.666256114840508E-3  
 2.296000000000000E10    8.017608895897865E-3   9.240757673978806E-3  
 2.298000000000000E10    9.134212508797646E-3  -9.297016076743603E-3  
 2.300000000000000E10   -9.599589742720127E-3  -8.818701840937138E-3  
 2.302000000000000E10   -6.558204069733620E-3   1.076048985123634E-2  
 2.304000000000000E10    1.053714472800493E-2   5.089273210614920E-3  
 2.306000000000000E10    3.418905194848776E-3  -1.087552588433027E-2  
 2.308000000000000E10   -1.191238500177860E-2  -2.659799763932824E-3  
 2.310000000000000E10   -1.381733221933246E-3   1.135346665978432E-2  
 2.312000000000000E10    1.112008932977915E-2  -1.859465031884611E-3  
 2.314000000000000E10   -3.394315950572491E-3  -1.266009360551834E-2  
 2.316000000000000E10   -1.177621912211180E-2   4.432450048625469E-3  
 2.318000000000000E10    6.430433131754398E-3   1.017426792532206E-2  
 2.320000000000000E10    1.004270277917385E-2  -7.248152978718281E-3  
 2.322000000000000E10   -8.257211185991764E-3  -9.640297852456570E-3  
 2.324000000000000E10   -8.812300860881805E-3   9.046756662428379E-3  
 2.326000000000000E10    9.226756170392036E-3   8.289044722914696E-3  
 2.328000000000000E10    6.480522919446230E-3  -1.068048924207687E-2  
 2.330000000000000E10   -1.240068115293980E-2  -4.675350151956081E-3  
 2.332000000000000E10   -3.220444777980447E-3   1.169591676443815E-2  
 2.334000000000000E10    1.077327877283096E-2   1.116711879149079E-3  
 2.336000000000000E10   -8.311985875479877E-4  -1.154390629380941E-2  
 2.338000000000000E10   -1.183341629803181E-2   1.899782568216324E-3  
 2.340000000000000E10    3.826731350272894E-3   1.173604838550091E-2  
 2.342000000000000E10    1.101444941014051E-2  -5.050830077379942E-3  
 2.344000000000000E10   -7.068599574267864E-3  -1.151646487414837E-2  
 2.346000000000000E10   -1.088142674416304E-2   8.795553818345070E-3  
 2.348000000000000E10    9.120819158852100E-3   9.254078380763531E-3  
 2.350000000000000E10    8.728438988327980E-3  -9.843557141721249E-3  
 2.352000000000000E10   -1.103476993739605E-2  -6.790447980165482E-3  
 2.354000000000000E10   -5.853380542248488E-3   1.096529420465231E-2  
 2.356000000000000E10    1.116869039833546E-2   4.748234525322914E-3  
 2.358000000000000E10    2.410681918263435E-3  -1.142203900963068E-2  
 2.360000000000000E10   -1.192015130072832E-2  -4.519950889516622E-4  
 2.362000000000000E10    1.232029637321830E-3   1.202662941068411E-2  
 2.364000000000000E10    1.118697505444288E-2  -3.669363912194967E-3  
 2.366000000000000E10   -4.873734433203936E-3  -1.075071282684803E-2  
 2.368000000000000E10   -1.026738435029984E-2   6.610631477087736E-3  
 2.370000000000000E10    7.438241504132748E-3   1.009296160191298E-2  
 2.372000000000000E10    9.564495645463467E-3  -7.865021936595440E-3  
 2.374000000000000E10   -9.019079618155956E-3  -8.889298886060715E-3  
 2.376000000000000E10   -8.713643997907639E-3   1.024477835744619E-2  
 2.378000000000000E10    1.092400215566158E-2   7.398649118840694E-3  
 2.380000000000000E10    5.718260537832975E-3  -1.150902360677719E-2  
 2.382000000000000E10   -1.179386302828789E-2  -3.781949402764440E-3  
 2.384000000000000E10   -1.510240836068988E-3   1.129399426281452E-2  
 2.386000000000000E10    1.160046458244324E-2   5.669462843798101E-4  
 2.388000000000000E10   -8.444840204901993E-4  -1.173226162791252E-2  
 2.390000000000000E10   -1.146388426423073E-2   3.800578415393829E-3  
 2.392000000000000E10    5.255013238638640E-3   1.134657859802246E-2  
 2.394000000000000E10    1.065249554812908E-2  -6.234018132090569E-3  
 2.396000000000000E10   -8.393775671720505E-3  -1.013987697660923E-2  
 2.398000000000000E10   -9.627724997699261E-3   9.086487814784050E-3  
 2.400000000000000E10    1.008026767522097E-2   8.013869635760784E-3  
 2.402000000000000E10    5.954721011221409E-3  -1.145379897207022E-2  
 2.404000000000000E10   -1.115951687097549E-2  -5.494294222444296E-3  
 2.406000000000000E10   -4.371217917650938E-3   1.152261719107628E-2  
 2.408000000000000E10    1.203769166022539E-2   2.721183700487018E-3  
 2.410000000000000E10    1.337936846539378E-3  -1.180365961045027E-2  
 2.412000000000000E10   -1.201507821679115E-2   6.729173474013805E-4  
 2.414000000000000E10    2.267958596348763E-3   1.142600458115339E-2  
 2.416000000000000E10    1.139723788946867E-2  -3.843467682600021E-3  
 2.418000000000000E10   -5.466333590447903E-3  -1.088082510977984E-2  
 2.420000000000000E10   -1.044421363621950E-2   6.763866636902094E-3  
 2.422000000000000E10    7.764896377921104E-3   1.035584416240454E-2  
 2.424000000000000E10    9.886143729090691E-3  -9.165521711111069E-3  
 2.426000000000000E10   -1.023855339735746E-2  -8.409721776843071E-3  
 2.428000000000000E10   -8.248402737081051E-3   1.097161229699850E-2  
 2.430000000000000E10    1.085191220045090E-2   6.736159790307283E-3  
 2.432000000000000E10    5.552419926971197E-3  -1.149230916053057E-2  
 2.434000000000000E10   -1.206739153712988E-2  -3.598013427108526E-3  
 2.436000000000000E10   -1.943324110470712E-3   1.206993125379086E-2  
 2.438000000000000E10    1.172089297324419E-2   9.380847041029483E-5  
 2.440000000000000E10   -1.805760781280696E-3  -1.096674893051386E-2  
 2.442000000000000E10   -1.166149694472551E-2   3.491605864837766E-3  
 2.444000000000000E10    4.728539846837521E-3   1.121474802494049E-2  
 2.446000000000000E10    1.057029794901609E-2  -5.911142565310001E-3  
 2.448000000000000E10   -7.540826220065355E-3  -1.037446875125170E-2  
 2.450000000000000E10   -9.821192361414433E-3   8.670813404023647E-3  
 2.452000000000000E10    9.206343442201614E-3   9.739594534039497E-3  
 2.454000000000000E10    8.108974434435368E-3  -9.739584289491177E-3  
 2.456000000000000E10   -9.727751836180687E-3  -7.319960743188858E-3  
 2.458000000000000E10   -7.199646905064583E-3   1.052184123545885E-2  
 2.460000000000000E10    1.084491703659296E-2   5.353701766580343E-3  
 2.462000000000000E10    3.530533052980900E-3  -1.088255364447832E-2  
 2.464000000000000E10   -1.160759478807449E-2  -1.767186680808663E-3  
 2.466000000000000E10   -1.399746397510171E-4   1.159638725221157E-2  
 2.468000000000000E10    1.209836453199387E-2  -1.652604667469859E-3  
 2.470000000000000E10   -3.911956679075956E-3  -1.173834502696991E-2  
 2.472000000000000E10   -1.069351751357317E-2   5.521428771317005E-3  
 2.474000000000000E10    6.499888841062784E-3   1.096822414547205E-2  
 2.476000000000000E10    1.052299048751593E-2  -7.371158804744482E-3  
 2.478000000000000E10   -8.383829146623612E-3  -9.975117631256580E-3  
 2.480000000000000E10   -8.982100524008274E-3   9.841050021350384E-3  
 2.482000000000000E10    1.024241093546152E-2   8.321185596287251E-3  
 2.484000000000000E10    7.787297479808331E-3  -1.099008135497570E-2  
 2.486000000000000E10   -1.134522538632155E-2  -5.073773674666882E-3  
 2.488000000000000E10   -2.715559676289558E-3   1.101731695234776E-2  
 2.490000000000000E10    1.157445274293423E-2   1.801879494450986E-3  
 2.492000000000000E10    1.056203036569059E-3  -1.077193766832352E-2  
 2.494000000000000E10   -1.060708705335856E-2   1.267984742298722E-3  
 2.496000000000000E10    3.661388996988535E-3   1.127516478300095E-2  
 2.498000000000000E10    1.122077833861113E-2  -4.461994860321283E-3  
 2.500000000000000E10   -5.520634353160858E-3  -1.059980317950249E-2  
 2.502000000000000E10   -1.003339514136314E-2   6.737925112247467E-3  
 2.504000000000000E10    8.875587023794651E-3   9.262965060770512E-3  
 2.506000000000000E10    8.666522800922394E-3  -8.415933698415756E-3  
 2.508000000000000E10   -7.612434681504965E-3  -8.269042707979679E-3  
 2.510000000000000E10   -7.433479186147451E-3   8.669033646583557E-3  
 2.512000000000000E10    1.021209917962551E-2   6.016341503709555E-3  
 2.514000000000000E10    5.877275485545397E-3  -1.096604019403458E-2  
 2.516000000000000E10   -1.062020566314459E-2  -4.322767723351717E-3  
 2.518000000000000E10   -1.111064571887255E-3   1.115003973245621E-2  
 2.520000000000000E10    1.227804273366928E-2  -6.158622563816607E-4  
 2.522000000000000E10   -1.932965009473264E-3  -1.215309742838144E-2  
 2.524000000000000E10   -1.125366147607565E-2   2.857233164831996E-3  
 2.526000000000000E10    4.598613828420639E-3   1.080361008644104E-2  
 2.528000000000000E10    1.131681725382805E-2  -6.318861152976751E-3  
 2.530000000000000E10   -7.804281543940306E-3  -1.183991786092520E-2  
 2.532000000000000E10   -1.035442855209112E-2   7.672519423067570E-3  
 2.534000000000000E10    9.324433282017708E-3   8.589255623519421E-3  
 2.536000000000000E10    7.384665776044130E-3  -1.064816769212484E-2  
 2.538000000000000E10   -1.039261464029551E-2  -6.804046221077442E-3  
 2.540000000000000E10   -4.954577889293432E-3   1.013483852148056E-2  
 2.542000000000000E10    1.093577407300472E-2   3.169006668031216E-3  
 2.544000000000000E10    1.447251066565514E-3  -1.161921117454767E-2  
 2.546000000000000E10   -1.312743593007326E-2  -3.835109819192439E-4  
 2.548000000000000E10    1.375719089992344E-3   1.239139121025801E-2  
 2.550000000000000E10    1.223203632980585E-2  -4.625796806067228E-3  
 2.552000000000000E10   -7.245050743222237E-3  -1.254445686936379E-2  
 2.554000000000000E10   -1.149326004087925E-2   7.575390394777060E-3  
 2.556000000000000E10    8.077826350927353E-3   9.996506385505199E-3  
 2.558000000000000E10    8.993263356387615E-3  -9.460814297199249E-3  
 2.560000000000000E10   -1.048866100609303E-2  -8.214105851948261E-3  
 2.562000000000000E10   -6.983768660575151E-3   1.077947486191988E-2  
 2.564000000000000E10    1.066476944833994E-2   5.881752818822861E-3  
 2.566000000000000E10    3.402033587917686E-3  -1.200198195874691E-2  
 2.568000000000000E10   -1.320681348443031E-2  -1.089649973437190E-3  
 2.570000000000000E10    6.608347175642848E-4   1.236355211585760E-2  
 2.572000000000000E10    1.145019847899675E-2  -1.954882172867656E-3  
 2.574000000000000E10   -3.907954320311546E-3  -1.184710301458836E-2  
 2.576000000000000E10   -1.225694455206394E-2   5.782563704997301E-3  
 2.578000000000000E10    7.539168000221252E-3   1.179560739547014E-2  
 2.580000000000000E10    1.079239137470722E-2  -8.061837404966354E-3  
 2.582000000000000E10   -9.623164311051369E-3  -9.953859262168407E-3  
 2.584000000000000E10   -8.961113169789314E-3   1.100907381623983E-2  
 2.586000000000000E10    1.136953197419643E-2   8.236100897192955E-3  
 2.588000000000000E10    5.937077570706606E-3  -1.096641086041927E-2  
 2.590000000000000E10   -1.091954205185175E-2  -4.579479340463877E-3  
 2.592000000000000E10   -3.640946000814438E-3   1.216424535959959E-2  
 2.594000000000000E10    1.230203732848167E-2   2.441783202812076E-3  
 2.596000000000000E10    3.528722154442221E-4  -1.191925164312124E-2  
 2.598000000000000E10   -1.285864226520062E-2   2.340223873034120E-3  
 2.600000000000000E10    4.097517114132643E-3   1.319818850606680E-2  
 2.602000000000000E10    1.288684736937285E-2  -5.794333759695292E-3  
 2.604000000000000E10   -7.771249394863844E-3  -1.171446405351162E-2  
 2.606000000000000E10   -1.027236785739660E-2   8.942555636167526E-3  
 2.608000000000000E10    9.650965221226215E-3   1.061141304671764E-2  
 2.610000000000000E10    9.653953835368156E-3  -1.016598194837570E-2  
 2.612000000000000E10   -1.056893263012171E-2  -8.197488263249397E-3  
 2.614000000000000E10   -7.073362823575735E-3   1.210878416895866E-2  
 2.616000000000000E10    1.172768604010344E-2   5.635496228933334E-3  
 2.618000000000000E10    4.011529032140970E-3  -1.236256770789623E-2  
 2.620000000000000E10   -1.226957049220800E-2  -2.345203189179301E-3  
 2.622000000000000E10   -1.643430150579661E-4   1.217115297913551E-2  
 2.624000000000000E10    1.240863744169474E-2  -1.506159082055092E-3  
 2.626000000000000E10   -2.147378865629435E-3  -1.249432098120451E-2  
 2.628000000000000E10   -1.296805310994387E-2   4.581843502819538E-3  
 2.630000000000000E10    6.447043735533953E-3   1.241392455995083E-2  
 2.632000000000000E10    1.162673067301512E-2  -8.038436062633991E-3  
 2.634000000000000E10   -9.309662505984306E-3  -1.078587211668491E-2  
 2.636000000000000E10   -9.715946391224861E-3   9.562045335769653E-3  
 2.638000000000000E10    1.095478702336550E-2   7.949681021273136E-3  
 2.640000000000000E10    6.267587188631296E-3  -1.129671558737755E-2  
 2.642000000000000E10   -1.128135528415442E-2  -5.748379975557327E-3  
 2.644000000000000E10   -3.772600786760449E-3   1.201258786022663E-2  
 2.646000000000000E10    1.217644102871418E-2   1.663535251282156E-3  
 2.648000000000000E10   -4.331916570663452E-4  -1.272906176745892E-2  
 2.650000000000000E10   -1.290172990411520E-2   2.122744452208281E-3  
 2.652000000000000E10    3.635911270976067E-3   1.257278118282557E-2  
 2.654000000000000E10    1.168699469417334E-2  -5.759938154369593E-3  
 2.656000000000000E10   -7.757889572530985E-3  -1.156671810895205E-2  
 2.658000000000000E10   -1.091448683291674E-2   8.405057713389397E-3  
 2.660000000000000E10    9.582657366991043E-3   1.017310842871666E-2  
 2.662000000000000E10    8.769644424319267E-3  -1.038232538849115E-2  
 2.664000000000000E10   -1.091851573437452E-2  -7.212195079773665E-3  
 2.666000000000000E10   -5.985742900520563E-3   1.146069541573525E-2  
 2.668000000000000E10    1.189220882952213E-2   4.451964050531387E-3  
 2.670000000000000E10    2.009464427828789E-3  -1.108087692409754E-2  
 2.672000000000000E10   -1.167307887226343E-2  -7.057322072796524E-4  
 2.674000000000000E10    5.209028022363782E-4   1.241506077349186E-2  
 2.676000000000000E10    1.157617289572954E-2  -2.549689961597323E-3  
 2.678000000000000E10   -4.219032824039459E-3  -1.133622601628304E-2  
 2.680000000000000E10   -1.103591825813055E-2   6.174417212605476E-3  
 2.682000000000000E10    7.228310685604811E-3   1.044238451868296E-2  
 2.684000000000000E10    9.971954859793186E-3  -8.134571835398674E-3  
 2.686000000000000E10   -9.119137190282345E-3  -8.706271648406982E-3  
 2.688000000000000E10   -7.531120441854000E-3   9.815604425966740E-3  
 2.690000000000000E10    1.060566399246454E-2   7.109015248715878E-3  
 2.692000000000000E10    5.318715237081051E-3  -9.981155395507813E-3  
 2.694000000000000E10   -1.066187117248774E-2  -3.322697011753917E-3  
 2.696000000000000E10   -2.162962686270475E-3   1.076248008757830E-2  
 2.698000000000000E10    1.049161236733198E-2   9.051332599483430E-4  
 2.700000000000000E10   -9.535900317132473E-4  -1.049265637993813E-2  
 2.702000000000000E10   -1.022678334265947E-2   2.241592155769467E-3  
 2.704000000000000E10    4.011660814285278E-3   9.965299628674984E-3  
 2.706000000000000E10    1.003952138125897E-2  -4.936768673360348E-3  
 2.708000000000000E10   -5.592034664005041E-3  -9.854054078459740E-3  
 2.710000000000000E10   -8.899447508156300E-3   6.936029996722937E-3  
 2.712000000000000E10    8.370575495064259E-3   8.895906619727612E-3  
 2.714000000000000E10    7.513379678130150E-3  -8.704981766641140E-3  
 2.716000000000000E10   -8.908741176128388E-3  -6.362768821418285E-3  
 2.718000000000000E10   -5.150709766894579E-3   8.545778691768646E-3  
 2.720000000000000E10    9.172895923256874E-3   3.774744691327214E-3  
 2.722000000000000E10    2.373054623603821E-3  -9.829412214457989E-3  
 2.724000000000000E10   -9.110912680625916E-3  -1.988729462027550E-3  
 2.726000000000000E10    1.832541020121425E-4   9.453862905502319E-3  
 2.728000000000000E10    9.853892959654331E-3  -1.699221087619662E-3  
 2.730000000000000E10   -2.491507679224014E-3  -9.907065890729427E-3  
 2.732000000000000E10   -9.015633724629879E-3   3.949955105781555E-3  
 2.734000000000000E10    4.616174381226301E-3   9.102000854909420E-3  
 2.736000000000000E10    9.455161169171333E-3  -6.373338866978884E-3  
 2.738000000000000E10   -7.549027912318707E-3  -8.787794038653374E-3  
 2.740000000000000E10   -7.689457852393389E-3   7.478155661374331E-3  
 2.742000000000000E10    8.823766373097897E-3   6.617277860641480E-3  
 2.744000000000000E10    5.331283900886774E-3  -8.813974447548389E-3  
 2.746000000000000E10   -8.916973136365414E-3  -4.365126136690378E-3  
 2.748000000000000E10   -2.664373023435473E-3   8.795918896794319E-3  
 2.750000000000000E10    8.552882820367813E-3   1.324373297393322E-3  
 2.752000000000000E10   -3.937002929887967E-6  -9.264026768505573E-3  
 2.754000000000000E10   -8.853123523294926E-3   9.417182300239801E-4  
 2.756000000000000E10    2.115954179316759E-3   8.984685875475407E-3  
