#  HZ   S   RI   R     50.00 
! Rohde & Schwarz ZVA40 4Ports - Version 3.90 - 1145.1110k42 SN: 100403
! Date: 2023-10-04 10:33:04
! Measurement: S12 
! 
 2.200000000000000E10    3.774941200390458E-3   1.591954729519785E-3  
 2.202000000000000E10    8.605094626545906E-4  -4.045923706144095E-3  
 2.204000000000000E10   -3.764048684388399E-3  -1.363202114589512E-3  
 2.206000000000000E10   -1.276939292438328E-3   4.791223444044590E-3  
 2.208000000000000E10    4.807091783732176E-3   7.397569715976715E-4  
 2.210000000000000E10    1.366836018860340E-3  -6.181336008012295E-3  
 2.212000000000000E10   -7.112273480743170E-3  -1.037546666339040E-3  
 2.214000000000000E10   -1.728903589537367E-4   7.354932837188244E-3  
 2.216000000000000E10    8.618352003395557E-3  -1.263326616026461E-3  
 2.218000000000000E10   -2.620861865580082E-3  -8.704938925802708E-3  
 2.220000000000000E10   -8.820900693535805E-3   2.993640024214983E-3  
 2.222000000000000E10    4.908612463623285E-3   8.238985203206539E-3  
 2.224000000000000E10    6.666056346148253E-3  -6.937925238162279E-3  
 2.226000000000000E10   -8.649032562971115E-3  -7.106713484972715E-3  
 2.228000000000000E10   -4.792351741343737E-3   9.377442300319672E-3  
 2.230000000000000E10    1.007652282714844E-2   3.044685814529657E-3  
 2.232000000000000E10    1.241798978298903E-3  -1.210020203143358E-2  
 2.234000000000000E10   -1.204715203493834E-2   5.345644894987345E-4  
 2.236000000000000E10    1.026277779601514E-3   1.137551292777062E-2  
 2.238000000000000E10    1.083843782544136E-2  -2.869077259674668E-3  
 2.240000000000000E10   -4.674371797591448E-3  -1.137832738459110E-2  
 2.242000000000000E10   -1.182055380195379E-2   5.922150798141956E-3  
 2.244000000000000E10    6.540789268910885E-3   9.731648489832878E-3  
 2.246000000000000E10    8.365752175450325E-3  -7.923740893602371E-3  
 2.248000000000000E10   -1.039899699389935E-2  -8.023673668503761E-3  
 2.250000000000000E10   -6.001708097755909E-3   1.099573727697134E-2  
 2.252000000000000E10    1.107665896415710E-2   4.437921103090048E-3  
 2.254000000000000E10    2.138542011380196E-3  -1.188734453171492E-2  
 2.256000000000000E10   -1.229616347700357E-2  -5.811747978441417E-4  
 2.258000000000000E10    2.114532981067896E-5   1.292996574193239E-2  
 2.260000000000000E10    1.224685553461313E-2  -1.000881078653038E-3  
 2.262000000000000E10   -2.577485516667366E-3  -1.189734693616629E-2  
 2.264000000000000E10   -1.248905993998051E-2   4.749475046992302E-3  
 2.266000000000000E10    5.920921452343464E-3   1.140554621815682E-2  
 2.268000000000000E10    1.030945032835007E-2  -6.290570367127657E-3  
 2.270000000000000E10   -7.515507750213146E-3  -9.294039569795132E-3  
 2.272000000000000E10   -8.111859671771526E-3   9.175868704915047E-3  
 2.274000000000000E10    9.663012810051441E-3   7.467721123248339E-3  
 2.276000000000000E10    6.468874868005514E-3  -1.040608808398247E-2  
 2.278000000000000E10   -1.211565360426903E-2  -3.924329765141010E-3  
 2.280000000000000E10   -2.208200050517917E-3   1.276461873203516E-2  
 2.282000000000000E10    9.694147855043411E-3   8.466537110507488E-3  
 2.284000000000000E10   -4.910904681310058E-4  -1.284232176840305E-2  
 2.286000000000000E10   -1.286766026169062E-2   1.679597422480583E-3  
 2.288000000000000E10    3.130663884803653E-3   1.351834554225206E-2  
 2.290000000000000E10    1.342654600739479E-2  -3.891213331371546E-3  
 2.292000000000000E10   -5.084728356450796E-3  -1.258383784443140E-2  
 2.294000000000000E10   -1.084867119789124E-2   7.878569886088371E-3  
 2.296000000000000E10    8.994940668344498E-3   1.018114387989044E-2  
 2.298000000000000E10    8.894104510545731E-3  -8.641976863145828E-3  
 2.300000000000000E10   -1.009495183825493E-2  -6.765610072761774E-3  
 2.302000000000000E10   -5.093611311167479E-3   1.194091886281967E-2  
 2.304000000000000E10    1.176499202847481E-2   3.282165387645364E-3  
 2.306000000000000E10    2.141481032595038E-3  -1.250851899385452E-2  
 2.308000000000000E10   -1.246635895222426E-2  -9.895958937704563E-4  
 2.310000000000000E10    1.642949413508177E-3   1.393969263881445E-2  
 2.312000000000000E10    1.487534865736961E-2  -3.696709638461471E-3  
 2.314000000000000E10   -3.787663998082280E-3  -1.315221935510635E-2  
 2.316000000000000E10   -1.204014103859663E-2   5.752086639404297E-3  
 2.318000000000000E10    7.726664654910564E-3   1.231360062956810E-2  
 2.320000000000000E10    1.036263257265091E-2  -7.815887220203877E-3  
 2.322000000000000E10   -8.271786384284496E-3  -9.514347650110722E-3  
 2.324000000000000E10   -9.066009894013405E-3   9.181967005133629E-3  
 2.326000000000000E10    1.125760655850172E-2   6.776194088160992E-3  
 2.328000000000000E10    5.772035568952560E-3  -1.288265828043222E-2  
 2.330000000000000E10   -1.283934433013201E-2  -3.830337431281805E-3  
 2.332000000000000E10   -3.301060933154076E-4   1.336333435028791E-2  
 2.334000000000000E10    1.381519716233015E-2  -1.419274718500674E-3  
 2.336000000000000E10   -1.915126456879079E-3  -1.309049874544144E-2  
 2.338000000000000E10   -1.320246513932943E-2   3.360232105478644E-3  
 2.340000000000000E10    4.988965578377247E-3   1.331372465938330E-2  
 2.342000000000000E10    1.278698723763228E-2  -6.486394442617893E-3  
 2.344000000000000E10   -7.662869524210692E-3  -1.228106860071421E-2  
 2.346000000000000E10   -1.120175328105688E-2   8.289510384202004E-3  
 2.348000000000000E10    9.910332970321178E-3   8.812748827040196E-3  
 2.350000000000000E10    7.719856221228838E-3  -1.051287818700075E-2  
 2.352000000000000E10   -1.150473486632109E-2  -5.754554644227028E-3  
 2.354000000000000E10   -3.986663650721312E-3   1.135464664548636E-2  
 2.356000000000000E10    1.238964218646288E-2   2.700386801734567E-3  
 2.358000000000000E10    4.804473428521305E-4  -1.374821551144123E-2  
 2.360000000000000E10   -1.438563130795956E-2   1.117675798013806E-3  
 2.362000000000000E10    2.712119370698929E-3   1.458846312016249E-2  
 2.364000000000000E10    1.355092227458954E-2  -5.664900410920382E-3  
 2.366000000000000E10   -6.971309892833233E-3  -1.311773154884577E-2  
 2.368000000000000E10   -1.272150967270136E-2   7.360303774476051E-3  
 2.370000000000000E10    8.345661684870720E-3   1.102631352841854E-2  
 2.372000000000000E10    9.814401157200337E-3  -9.373703971505165E-3  
 2.374000000000000E10   -1.052636094391346E-2  -9.146827273070812E-3  
 2.376000000000000E10   -7.514579687267542E-3   1.115756109356880E-2  
 2.378000000000000E10    1.194558199495077E-2   5.168928764760494E-3  
 2.380000000000000E10    3.023901022970676E-3  -1.284741051495075E-2  
 2.382000000000000E10   -1.302520651370287E-2  -1.186485402286053E-3  
 2.384000000000000E10    2.542466390877962E-4   1.271990314126015E-2  
 2.386000000000000E10    1.338747236877680E-2  -1.784215332008898E-3  
 2.388000000000000E10   -3.736832179129124E-3  -1.334822550415993E-2  
 2.390000000000000E10   -1.353662926703692E-2   5.228907335549593E-3  
 2.392000000000000E10    6.774268578737974E-3   1.278591342270374E-2  
 2.394000000000000E10    1.182522904127836E-2  -8.050493896007538E-3  
 2.396000000000000E10   -9.010732173919678E-3  -1.114243362098932E-2  
 2.398000000000000E10   -9.968229569494724E-3   1.037103496491909E-2  
 2.400000000000000E10    1.081319712102413E-2   8.280867710709572E-3  
 2.402000000000000E10    5.662578623741865E-3  -1.157883368432522E-2  
 2.404000000000000E10   -1.182003784924746E-2  -4.006513860076666E-3  
 2.406000000000000E10   -2.181492047384381E-3   1.245034020394087E-2  
 2.408000000000000E10    1.292328443378210E-2   8.984141168184578E-4  
 2.410000000000000E10   -1.309018349274993E-3  -1.328744646161795E-2  
 2.412000000000000E10   -1.284782029688358E-2   3.428736934438348E-3  
 2.414000000000000E10    4.653168376535177E-3   1.294652372598648E-2  
 2.416000000000000E10    1.262841653078795E-2  -6.519828923046589E-3  
 2.418000000000000E10   -7.415397558361292E-3  -1.253716461360455E-2  
 2.420000000000000E10   -1.117082964628935E-2   8.602687157690525E-3  
 2.422000000000000E10    9.279638528823853E-3   1.110605243593454E-2  
 2.424000000000000E10    1.003114879131317E-2  -1.065916661173105E-2  
 2.426000000000000E10   -1.100748591125011E-2  -8.489924483001232E-3  
 2.428000000000000E10   -6.979113910347223E-3   1.150410901755095E-2  
 2.430000000000000E10    1.193094998598099E-2   5.395038519054651E-3  
 2.432000000000000E10    3.878916846588254E-3  -1.285040844231844E-2  
 2.434000000000000E10   -1.335519086569548E-2  -1.939566456712782E-3  
 2.436000000000000E10    1.025563105940819E-3   1.319167297333479E-2  
 2.438000000000000E10    1.327176205813885E-2  -2.041943604126573E-3  
 2.440000000000000E10   -3.870180342346430E-3  -1.341214124113321E-2  
 2.442000000000000E10   -1.312535349279642E-2   4.925809800624847E-3  
 2.444000000000000E10    6.924137473106384E-3   1.276435330510140E-2  
 2.446000000000000E10    1.166211254894733E-2  -8.127911947667599E-3  
 2.448000000000000E10   -8.048271760344505E-3  -1.113433763384819E-2  
 2.450000000000000E10   -1.034214533865452E-2   9.416630491614342E-3  
 2.452000000000000E10    9.742446243762970E-3   8.743101730942726E-3  
 2.454000000000000E10    7.757443003356457E-3  -1.094890851527453E-2  
 2.456000000000000E10   -1.046949438750744E-2  -6.159421522170305E-3  
 2.458000000000000E10   -4.892003722488880E-3   1.131014991551638E-2  
 2.460000000000000E10    1.278728991746903E-2   2.952294424176216E-3  
 2.462000000000000E10    1.225714222528040E-3  -1.305796205997467E-2  
 2.464000000000000E10   -1.293262839317322E-2   4.471846914384514E-4  
 2.466000000000000E10    2.264246344566345E-3   1.367161050438881E-2  
 2.468000000000000E10    1.411492656916380E-2  -3.790958318859339E-3  
 2.470000000000000E10   -5.716909654438496E-3  -1.402236614376307E-2  
 2.472000000000000E10   -1.250988431274891E-2   7.099030539393425E-3  
 2.474000000000000E10    7.001293823122978E-3   1.175512559711933E-2  
 2.476000000000000E10    1.131346542388201E-2  -8.597402833402157E-3  
 2.478000000000000E10   -9.350426495075226E-3  -9.935000911355019E-3  
 2.480000000000000E10   -8.826876059174538E-3   1.035103201866150E-2  
 2.482000000000000E10    1.065010670572519E-2   6.953371223062277E-3  
 2.484000000000000E10    4.993407521396875E-3  -1.158612128347158E-2  
 2.486000000000000E10   -1.313395891338587E-2  -2.797097899019718E-3  
 2.488000000000000E10   -1.219688565470278E-3   1.262040529400110E-2  
 2.490000000000000E10    1.239353697746992E-2  -4.580963286571205E-4  
 2.492000000000000E10   -2.185390330851078E-3  -1.285956520587206E-2  
 2.494000000000000E10   -1.378336269408464E-2   3.203580854460597E-3  
 2.496000000000000E10    4.972737748175860E-3   1.353505346924067E-2  
 2.498000000000000E10    1.236027851700783E-2  -6.029014941304922E-3  
 2.500000000000000E10   -7.339327130466700E-3  -1.144190970808268E-2  
 2.502000000000000E10   -1.162560656666756E-2   8.384167216718197E-3  
 2.504000000000000E10    8.623022586107254E-3   9.806163609027863E-3  
 2.506000000000000E10    7.630526088178158E-3  -8.679064922034740E-3  
 2.508000000000000E10   -9.642176330089569E-3  -7.366732694208622E-3  
 2.510000000000000E10   -6.190471351146698E-3   1.062781363725662E-2  
 2.512000000000000E10    1.105449628084898E-2   4.498162306845188E-3  
 2.514000000000000E10    2.805302152410150E-3  -1.173860765993595E-2  
 2.516000000000000E10   -1.257154811173677E-2  -4.332202952355146E-4  
 2.518000000000000E10    6.302464171312749E-4   1.391223352402449E-2  
 2.520000000000000E10    1.322853378951550E-2  -1.694128499366343E-3  
 2.522000000000000E10   -3.875194583088160E-3  -1.250655483454466E-2  
 2.524000000000000E10   -1.285829767584801E-2   5.159316584467888E-3  
 2.526000000000000E10    5.565975327044725E-3   1.299895066767931E-2  
 2.528000000000000E10    1.180266868323088E-2  -6.736831273883581E-3  
 2.530000000000000E10   -7.751762401312590E-3  -1.158864889293909E-2  
 2.532000000000000E10   -9.437184780836105E-3   9.628552012145519E-3  
 2.534000000000000E10    1.039570942521095E-2   8.908205665647984E-3  
 2.536000000000000E10    7.272663060575724E-3  -1.039580907672644E-2  
 2.538000000000000E10   -1.116020884364843E-2  -4.263335373252630E-3  
 2.540000000000000E10   -2.883549779653549E-3   1.260664872825146E-2  
 2.542000000000000E10    1.335120759904385E-2   2.071495400741696E-3  
 2.544000000000000E10    1.448174443794414E-4  -1.344117242842913E-2  
 2.546000000000000E10   -1.394419372081757E-2   1.522954902611673E-3  
 2.548000000000000E10    4.409291315823793E-3   1.427092961966991E-2  
 2.550000000000000E10    1.454611122608185E-2  -6.001718807965517E-3  
 2.552000000000000E10   -7.153033278882504E-3  -1.352050527930260E-2  
 2.554000000000000E10   -1.100531779229641E-2   9.326731786131859E-3  
 2.556000000000000E10    9.776286780834198E-3   9.972369298338890E-3  
 2.558000000000000E10    9.571094997227192E-3  -1.068019308149815E-2  
 2.560000000000000E10   -1.106654107570648E-2  -7.378325797617436E-3  
 2.562000000000000E10   -5.496441852301359E-3   1.132952049374580E-2  
 2.564000000000000E10    1.266253273934126E-2   3.976488485932350E-3  
 2.566000000000000E10    2.712905639782548E-3  -1.381189469248056E-2  
 2.568000000000000E10   -1.415362767875195E-2  -1.262174191651866E-4  
 2.570000000000000E10    2.956874435767531E-3   1.333811413496733E-2  
 2.572000000000000E10    1.319813169538975E-2  -3.946693614125252E-3  
 2.574000000000000E10   -4.950347822159529E-3  -1.377697475254536E-2  
 2.576000000000000E10   -1.356698106974363E-2   6.575664971023798E-3  
 2.578000000000000E10    8.772214874625206E-3   1.213660184293985E-2  
 2.580000000000000E10    1.114260219037533E-2  -1.044089533388615E-2  
 2.582000000000000E10   -1.078033633530140E-2  -1.040868088603020E-2  
 2.584000000000000E10   -8.439505472779274E-3   1.165582891553640E-2  
 2.586000000000000E10    1.241666078567505E-2   6.243160460144281E-3  
 2.588000000000000E10    4.671177361160517E-3  -1.266780216246843E-2  
 2.590000000000000E10   -1.356423087418079E-2  -3.148708259686828E-3  
 2.592000000000000E10   -2.104812301695347E-3   1.308375690132380E-2  
 2.594000000000000E10    1.380419451743364E-2  -6.847033509984613E-4  
 2.596000000000000E10   -2.522357041016221E-3  -1.500478852540255E-2  
 2.598000000000000E10   -1.492758933454752E-2   3.694062121212483E-3  
 2.600000000000000E10    5.859355907887220E-3   1.382391899824143E-2  
 2.602000000000000E10    1.386156026273966E-2  -7.773124147206545E-3  
 2.604000000000000E10   -9.178083389997482E-3  -1.260330714285374E-2  
 2.606000000000000E10   -1.121260784566402E-2   9.615812450647354E-3  
 2.608000000000000E10    9.646384976804256E-3   1.076004747301340E-2  
 2.610000000000000E10    8.851002901792526E-3  -1.125089544802904E-2  
 2.612000000000000E10   -1.226815674453974E-2  -7.436516229063273E-3  
 2.614000000000000E10   -6.271117832511663E-3   1.250189822167158E-2  
 2.616000000000000E10    1.291431579738855E-2   3.721190383657813E-3  
 2.618000000000000E10    2.654389711096883E-3  -1.389142218977213E-2  
 2.620000000000000E10   -1.431466173380613E-2   7.817420555511490E-5  
 2.622000000000000E10    2.099287696182728E-3   1.433451101183891E-2  
 2.624000000000000E10    1.455104257911444E-2  -2.884048270061612E-3  
 2.626000000000000E10   -4.934697877615690E-3  -1.395843271166086E-2  
 2.628000000000000E10   -1.463632378727198E-2   6.817258428782225E-3  
 2.630000000000000E10    8.400429971516132E-3   1.381897088140249E-2  
 2.632000000000000E10    1.224354561418295E-2  -9.727397933602333E-3  
 2.634000000000000E10   -1.044985000044107E-2  -1.102523505687714E-2  
 2.636000000000000E10   -8.758083917200565E-3   1.117152348160744E-2  
 2.638000000000000E10    1.231803372502327E-2   7.250161841511726E-3  
 2.640000000000000E10    5.937296897172928E-3  -1.202081516385078E-2  
 2.642000000000000E10   -1.193670090287924E-2  -3.547682426869869E-3  
 2.644000000000000E10   -2.084688050672412E-3   1.380694936960936E-2  
 2.646000000000000E10    1.397822517901659E-2   3.132537240162492E-4  
 2.648000000000000E10   -1.476877368986607E-3  -1.381329912692308E-2  
 2.650000000000000E10   -1.420694962143898E-2   3.710048971697688E-3  
 2.652000000000000E10    5.526677239686251E-3   1.366681884974241E-2  
 2.654000000000000E10    1.409015990793705E-2  -7.614954374730587E-3  
 2.656000000000000E10   -8.660354651510716E-3  -1.282030250877142E-2  
 2.658000000000000E10   -1.127377152442932E-2   9.843254461884499E-3  
 2.660000000000000E10    1.139297429472208E-2   9.880302473902702E-3  
 2.662000000000000E10    8.351835422217846E-3  -1.186595298349857E-2  
 2.664000000000000E10   -1.237316615879536E-2  -6.465382874011993E-3  
 2.666000000000000E10   -4.524170886725187E-3   1.268992293626070E-2  
 2.668000000000000E10    1.244514435529709E-2   2.015795325860381E-3  
 2.670000000000000E10    3.645732358563691E-4  -1.310727652162314E-2  
 2.672000000000000E10   -1.301204599440098E-2   3.837572876363993E-4  
 2.674000000000000E10    2.367523266002536E-3   1.273584738373756E-2  
 2.676000000000000E10    1.314003486186266E-2  -4.294835962355137E-3  
 2.678000000000000E10   -5.618242081254721E-3  -1.343631278723478E-2  
 2.680000000000000E10   -1.252200547605753E-2   6.858673878014088E-3  
 2.682000000000000E10    7.942087948322296E-3   1.141076255589724E-2  
 2.684000000000000E10    1.071172207593918E-2  -9.500036016106606E-3  
 2.686000000000000E10   -1.075344253331423E-2  -9.297888725996018E-3  
 2.688000000000000E10   -7.795205805450678E-3   1.043513696640730E-2  
 2.690000000000000E10    1.056118030101061E-2   5.822997074574232E-3  
 2.692000000000000E10    3.895891830325127E-3  -1.203673332929611E-2  
 2.694000000000000E10   -1.213647704571486E-2  -2.745751524344087E-3  
 2.696000000000000E10   -8.713733986951411E-4   1.192269008606672E-2  
 2.698000000000000E10    1.169117819517851E-2  -1.835927832871676E-3  
 2.700000000000000E10   -2.885684138163924E-3  -1.265176199376583E-2  
 2.702000000000000E10   -1.201379857957363E-2   4.352448973804712E-3  
 2.704000000000000E10    5.917567759752274E-3   1.156707573682070E-2  
 2.706000000000000E10    1.042841095477343E-2  -6.182861514389515E-3  
 2.708000000000000E10   -7.366197183728218E-3  -9.944624267518520E-3  
 2.710000000000000E10   -1.048629079014063E-2   8.525583893060684E-3  
 2.712000000000000E10    8.861359208822250E-3   8.542458526790142E-3  
 2.714000000000000E10    6.691450718790293E-3  -9.518190287053585E-3  
 2.716000000000000E10   -1.007489021867514E-2  -5.337492562830448E-3  
 2.718000000000000E10   -3.893463639542460E-3   1.002879533916712E-2  
 2.720000000000000E10    1.027852483093739E-2   2.744761062785983E-3  
 2.722000000000000E10    1.118552638217807E-3  -9.995079599320889E-3  
 2.724000000000000E10   -1.020517759025097E-2   5.202920874580741E-4  
 2.726000000000000E10    1.004784950055182E-3   1.104789599776268E-2  
 2.728000000000000E10    1.084352750331163E-2  -2.456147223711014E-3  
 2.730000000000000E10   -3.946826793253422E-3  -1.024585030972958E-2  
 2.732000000000000E10   -1.090809330344200E-2   5.308953579515219E-3  
 2.734000000000000E10    5.688413046300411E-3   1.013086736202240E-2  
 2.736000000000000E10    1.000816188752651E-2  -6.714658346027136E-3  
 2.738000000000000E10   -8.388332091271877E-3  -8.346997201442719E-3  
 2.740000000000000E10   -6.782000418752432E-3   8.427245542407036E-3  
 2.742000000000000E10    9.186308830976486E-3   6.839746143668890E-3  
 2.744000000000000E10    4.262892995029688E-3  -9.080892428755760E-3  
 2.746000000000000E10   -8.943306282162666E-3  -2.666652668267489E-3  
 2.748000000000000E10   -1.930655562318862E-3   9.962769225239754E-3  
 2.750000000000000E10    9.637729264795780E-3   5.222614272497594E-4  
 2.752000000000000E10   -4.408257373142988E-4  -1.001579407602549E-2  
 2.754000000000000E10   -9.925912134349346E-3   2.291530370712280E-3  
 2.756000000000000E10    3.346999641507864E-3   9.748259559273720E-3  
