#  HZ   S   RI   R     50.00 
! Rohde & Schwarz ZVA40 4Ports - Version 3.90 - 1145.1110k42 SN: 100403
! Date: 2023-10-04 10:34:48
! Measurement: S12 
! 
 2.200000000000000E10   -2.574910875409842E-3  -4.339999519288540E-3  
 2.202000000000000E10   -3.907531965523958E-3   2.411209279671311E-3  
 2.204000000000000E10    2.690291730687022E-3   3.767863381654024E-3  
 2.206000000000000E10    4.205425269901753E-3  -2.370315836742520E-3  
 2.208000000000000E10   -1.746365334838629E-3  -5.372857674956322E-3  
 2.210000000000000E10   -5.250209011137486E-3   1.904395408928394E-3  
 2.212000000000000E10    2.760388422757387E-3   6.248046644032002E-3  
 2.214000000000000E10    6.376800592988730E-3  -4.167082719504833E-3  
 2.216000000000000E10   -4.422088619321585E-3  -7.073452696204186E-3  
 2.218000000000000E10   -6.926565896719694E-3   6.036763545125723E-3  
 2.220000000000000E10    7.263071369379759E-3   5.934528540819883E-3  
 2.222000000000000E10    5.356648936867714E-3  -9.075989015400410E-3  
 2.224000000000000E10   -1.083889417350292E-2  -4.316008649766445E-3  
 2.226000000000000E10   -2.407668856903911E-3   1.155016757547855E-2  
 2.228000000000000E10    1.251851953566074E-2  -2.117974363500252E-4  
 2.230000000000000E10   -1.857770956121385E-3  -1.368050184100866E-2  
 2.232000000000000E10   -1.379373483359814E-2   4.463074728846550E-3  
 2.234000000000000E10    5.971582140773535E-3   1.318009849637747E-2  
 2.236000000000000E10    1.169263664633036E-2  -8.319134823977947E-3  
 2.238000000000000E10   -9.635175578296185E-3  -1.091300230473280E-2  
 2.240000000000000E10   -1.067522726953030E-2   1.144612208008766E-2  
 2.242000000000000E10    1.260795816779137E-2   8.401898667216301E-3  
 2.244000000000000E10    5.846995394676924E-3  -1.356872543692589E-2  
 2.246000000000000E10   -1.432822272181511E-2  -4.345395136624575E-3  
 2.248000000000000E10   -2.346824621781707E-3   1.470717880874872E-2  
 2.250000000000000E10    1.538911089301109E-2   3.561399935279042E-4  
 2.252000000000000E10   -2.620553132146597E-3  -1.487127970904112E-2  
 2.254000000000000E10   -1.495874393731356E-2   4.295526538044214E-3  
 2.256000000000000E10    6.163023877888918E-3   1.510188169777393E-2  
 2.258000000000000E10    1.349023077636957E-2  -7.986132055521011E-3  
 2.260000000000000E10   -9.368164464831352E-3  -1.297654025256634E-2  
 2.262000000000000E10   -1.151035632938147E-2   1.154090557247400E-2  
 2.264000000000000E10    1.181085687130690E-2   1.106767170131207E-2  
 2.266000000000000E10    9.741950780153275E-3  -1.372114662081003E-2  
 2.268000000000000E10   -1.479988545179367E-2  -6.614982150495052E-3  
 2.270000000000000E10   -5.291897803544998E-3   1.526627596467733E-2  
 2.272000000000000E10    1.609346456825733E-2   4.453324712812901E-3  
 2.274000000000000E10    1.568711828440428E-3  -1.575487852096558E-2  
 2.276000000000000E10   -1.629205048084259E-2   8.751015411689878E-4  
 2.278000000000000E10    3.304182784631848E-3   1.669306680560112E-2  
 2.280000000000000E10    1.591271348297596E-2  -5.497415084391832E-3  
 2.282000000000000E10    2.480649622157216E-3  -1.635494455695152E-2  
 2.284000000000000E10   -1.393334195017815E-2   9.635344147682190E-3  
 2.286000000000000E10    1.103544980287552E-2   1.331511326134205E-2  
 2.288000000000000E10    1.178948767483234E-2  -1.190010923892260E-2  
 2.290000000000000E10   -1.344068441540003E-2  -1.029809378087521E-2  
 2.292000000000000E10   -8.763077668845654E-3   1.455282699316740E-2  
 2.294000000000000E10    1.526389457285404E-2   7.355788256973028E-3  
 2.296000000000000E10    4.508388228714466E-3  -1.584155485033989E-2  
 2.298000000000000E10   -1.556116715073586E-2  -2.971522742882371E-3  
 2.300000000000000E10   -1.011077314615250E-3   1.669359020888805E-2  
 2.302000000000000E10    1.686639524996281E-2  -1.768456073477864E-3  
 2.304000000000000E10   -3.669630270451307E-3  -1.521275658160448E-2  
 2.306000000000000E10   -1.519381254911423E-2   6.129373796284199E-3  
 2.308000000000000E10    7.496620062738657E-3   1.511879824101925E-2  
 2.310000000000000E10    1.460596732795239E-2  -9.854899719357491E-3  
 2.312000000000000E10   -1.229893323034048E-2  -1.310921460390091E-2  
 2.314000000000000E10   -1.183546427637339E-2   1.302019692957401E-2  
 2.316000000000000E10    1.461098529398441E-2   1.016513630747795E-2  
 2.318000000000000E10    8.212895132601261E-3  -1.654448546469212E-2  
 2.320000000000000E10   -1.610658876597881E-2  -6.405434105545282E-3  
 2.322000000000000E10   -4.534204024821520E-3   1.649747416377068E-2  
 2.324000000000000E10    1.729442551732063E-2   2.590877469629049E-3  
 2.326000000000000E10    1.526449050288647E-4  -1.736958697438240E-2  
 2.328000000000000E10   -1.744181104004383E-2   2.309966599568725E-3  
 2.330000000000000E10    5.084181204438210E-3   1.637349836528301E-2  
 2.332000000000000E10    1.550122443586588E-2  -7.278664968907833E-3  
 2.334000000000000E10   -8.966267108917236E-3  -1.507957186549902E-2  
 2.336000000000000E10   -1.273756846785545E-2   1.102945301681757E-2  
 2.338000000000000E10    1.277879718691111E-2   1.239035557955504E-2  
 2.340000000000000E10    1.140714343637228E-2  -1.505511160939932E-2  
 2.342000000000000E10   -1.595582067966461E-2  -9.142779745161533E-3  
 2.344000000000000E10   -7.787918206304312E-3   1.733908802270889E-2  
 2.346000000000000E10    1.820428110659123E-2   5.644721444696188E-3  
 2.348000000000000E10    3.145840950310230E-3  -1.828693598508835E-2  
 2.350000000000000E10   -1.840703561902046E-2  -1.603318611159921E-3  
 2.352000000000000E10    1.407034927979112E-3   1.817661523818970E-2  
 2.354000000000000E10    1.764328405261040E-2  -3.851093351840973E-3  
 2.356000000000000E10   -5.911018233746290E-3  -1.682660728693008E-2  
 2.358000000000000E10   -1.518271490931511E-2   8.344579488039017E-3  
 2.360000000000000E10    1.118868589401245E-2   1.397357787936926E-2  
 2.362000000000000E10    1.265950500965118E-2  -1.315226312726736E-2  
 2.364000000000000E10   -1.448240876197815E-2  -1.027877721935511E-2  
 2.366000000000000E10   -8.721285499632359E-3   1.535437349230051E-2  
 2.368000000000000E10    1.693332940340042E-2   7.488429546356201E-3  
 2.370000000000000E10    5.834930110722780E-3  -1.800742372870445E-2  
 2.372000000000000E10   -1.818792521953583E-2  -4.105898551642895E-3  
 2.374000000000000E10   -2.288940828293562E-3   1.832861825823784E-2  
 2.376000000000000E10    1.906741224229336E-2   2.672267510206439E-5  
 2.378000000000000E10   -2.166133141145110E-3  -1.882889308035374E-2  
 2.380000000000000E10   -1.740898564457893E-2   4.626346286386251E-3  
 2.382000000000000E10    6.711443886160851E-3   1.646301336586475E-2  
 2.384000000000000E10    1.538765896111727E-2  -9.051373228430748E-3  
 2.386000000000000E10   -1.107216998934746E-2  -1.387574151158333E-2  
 2.388000000000000E10   -1.231609378010035E-2   1.309608947485685E-2  
 2.390000000000000E10    1.500118616968393E-2   1.002347748726606E-2  
 2.392000000000000E10    8.516455069184303E-3  -1.700174435973167E-2  
 2.394000000000000E10   -1.776986010372639E-2  -6.879102904349566E-3  
 2.396000000000000E10   -4.640686325728893E-3   1.855284161865711E-2  
 2.398000000000000E10    1.969568245112896E-2   2.054582582786679E-3  
 2.400000000000000E10    4.638116515707225E-4  -2.016002312302589E-2  
 2.402000000000000E10   -1.854296587407589E-2   4.684063140302897E-3  
 2.404000000000000E10    5.803288891911507E-3   1.764442771673203E-2  
 2.406000000000000E10    1.679790578782558E-2  -7.608669344335794E-3  
 2.408000000000000E10   -9.875853545963764E-3  -1.537362392991781E-2  
 2.410000000000000E10   -1.397845800966024E-2   1.148621365427971E-2  
 2.412000000000000E10    1.223334856331348E-2   1.182533614337444E-2  
 2.414000000000000E10    9.958362206816673E-3  -1.358485035598278E-2  
 2.416000000000000E10   -1.584958285093308E-2  -8.961304090917110E-3  
 2.418000000000000E10   -6.110365502536297E-3   1.620150730013847E-2  
 2.420000000000000E10    1.622820831835270E-2   4.719104152172804E-3  
 2.422000000000000E10    3.970551304519177E-3  -1.696382276713848E-2  
 2.424000000000000E10   -1.796959713101387E-2  -2.639382844790816E-3  
 2.426000000000000E10   -5.213121185079217E-4   1.899299770593643E-2  
 2.428000000000000E10    1.836486533284187E-2  -1.431532087735832E-3  
 2.430000000000000E10   -3.477856749668717E-3  -1.832249946892262E-2  
 2.432000000000000E10   -1.840227656066418E-2   5.911281798034906E-3  
 2.434000000000000E10    7.639455143362284E-3   1.662745140492916E-2  
 2.436000000000000E10    1.473370753228664E-2  -9.998130612075329E-3  
 2.438000000000000E10   -1.168608851730824E-2  -1.334035396575928E-2  
 2.440000000000000E10   -1.104074250906706E-2   1.274091470986605E-2  
 2.442000000000000E10    1.460609491914511E-2   1.030725333839655E-2  
 2.444000000000000E10    7.612994406372309E-3  -1.535262539982796E-2  
 2.446000000000000E10   -1.628961041569710E-2  -5.620197393000126E-3  
 2.448000000000000E10   -4.560201894491911E-3   1.775206252932549E-2  
 2.450000000000000E10    1.783639006316662E-2   2.814208390191197E-3  
 2.452000000000000E10    1.314737135544419E-3  -1.870254240930080E-2  
 2.454000000000000E10   -1.879720948636532E-2   1.016883179545403E-3  
 2.456000000000000E10    1.983766211196780E-3   1.816796325147152E-2  
 2.458000000000000E10    1.834008656442165E-2  -3.546652151271701E-3  
 2.460000000000000E10   -5.651625804603100E-3  -1.749548502266407E-2  
 2.462000000000000E10   -1.635201275348663E-2   7.635801564902067E-3  
 2.464000000000000E10    9.598056785762310E-3   1.491382159292698E-2  
 2.466000000000000E10    1.349778287112713E-2  -1.095205452293158E-2  
 2.468000000000000E10   -1.341175939887762E-2  -1.188493985682726E-2  
 2.470000000000000E10   -8.933270350098610E-3   1.548162009567022E-2  
 2.472000000000000E10    1.580514386296272E-2   6.489341612905264E-3  
 2.474000000000000E10    4.980290308594704E-3  -1.690271683037281E-2  
 2.476000000000000E10   -1.747292838990688E-2  -3.994914703071117E-3  
 2.478000000000000E10   -1.676398445852101E-3   1.784900762140751E-2  
 2.480000000000000E10    1.869619265198708E-2  -5.332121509127319E-4  
 2.482000000000000E10   -1.614774810150266E-3  -1.883657276630402E-2  
 2.484000000000000E10   -1.908172667026520E-2   3.767824266105890E-3  
 2.486000000000000E10    6.241532042622566E-3   1.800064742565155E-2  
 2.488000000000000E10    1.622312143445015E-2  -8.472952991724014E-3  
 2.490000000000000E10   -9.534710086882114E-3  -1.438916195183992E-2  
 2.492000000000000E10   -1.367457769811153E-2   1.040444057434797E-2  
 2.494000000000000E10    1.215503830462694E-2   1.184458937495947E-2  
 2.496000000000000E10    9.419043548405170E-3  -1.434907503426075E-2  
 2.498000000000000E10   -1.548009365797043E-2  -7.547611370682716E-3  
 2.500000000000000E10   -5.427103955298662E-3   1.576500572264195E-2  
 2.502000000000000E10    1.672217808663845E-2   4.040608648210764E-3  
 2.504000000000000E10    6.150848348625004E-4  -1.708519086241722E-2  
 2.506000000000000E10   -1.636444032192230E-2   2.553488593548536E-4  
 2.508000000000000E10   -3.976542793679982E-4   1.677378080785275E-2  
 2.510000000000000E10    1.720814779400826E-2  -1.812558853998780E-3  
 2.512000000000000E10   -4.313143435865641E-3  -1.757217571139336E-2  
 2.514000000000000E10   -1.766100525856018E-2   6.346600130200386E-3  
 2.516000000000000E10    8.046376518905163E-3   1.623062044382095E-2  
 2.518000000000000E10    1.434277091175318E-2  -9.713654406368733E-3  
 2.520000000000000E10   -1.263500191271305E-2  -1.266751345247030E-2  
 2.522000000000000E10   -1.048638205975294E-2   1.346224639564753E-2  
 2.524000000000000E10    1.396970078349114E-2   8.941439911723137E-3  
 2.526000000000000E10    6.259645801037550E-3  -1.544667128473520E-2  
 2.528000000000000E10   -1.624369248747826E-2  -4.508737940341234E-3  
 2.530000000000000E10   -2.761156531050801E-3   1.836028695106506E-2  
 2.532000000000000E10    1.819313131272793E-2   4.221073759254068E-4  
 2.534000000000000E10   -1.527736312709749E-3  -1.754808984696865E-2  
 2.536000000000000E10   -1.777956075966358E-2   4.058471880853176E-3  
 2.538000000000000E10    5.009126383811235E-3   1.742269843816757E-2  
 2.540000000000000E10    1.671393401920795E-2  -6.489155814051628E-3  
 2.542000000000000E10   -8.676513098180294E-3  -1.567147858440876E-2  
 2.544000000000000E10   -1.442695781588554E-2   1.022875681519508E-2  
 2.546000000000000E10    1.242404989898205E-2   1.329697854816914E-2  
 2.548000000000000E10    1.120052859187126E-2  -1.413578912615776E-2  
 2.550000000000000E10   -1.490708254277706E-2  -8.183455094695091E-3  
 2.552000000000000E10   -5.092228297144175E-3   1.669267751276493E-2  
 2.554000000000000E10    1.670543290674686E-2   2.761282725259662E-3  
 2.556000000000000E10    9.734636987559497E-4  -1.594864763319492E-2  
 2.558000000000000E10   -1.640839129686356E-2   1.080453395843506E-3  
 2.560000000000000E10    2.358685247600079E-3   1.739854738116264E-2  
 2.562000000000000E10    1.713518425822258E-2  -4.332475364208221E-3  
 2.564000000000000E10   -5.681746639311314E-3  -1.769583486020565E-2  
 2.566000000000000E10   -1.681539788842201E-2   8.463350124657154E-3  
 2.568000000000000E10    1.137998513877392E-2   1.615800708532333E-2  
 2.570000000000000E10    1.371094584465027E-2  -1.323924679309130E-2  
 2.572000000000000E10   -1.329043600708246E-2  -1.077138818800449E-2  
 2.574000000000000E10   -9.948274120688438E-3   1.471917890012264E-2  
 2.576000000000000E10    1.646822877228260E-2   7.906611077487469E-3  
 2.578000000000000E10    4.518344532698393E-3  -1.718414761126041E-2  
 2.580000000000000E10   -1.713370345532894E-2  -2.168672857806087E-3  
 2.582000000000000E10    6.339998799376190E-4   1.753176376223564E-2  
 2.584000000000000E10    1.753812283277512E-2  -3.385892370715737E-3  
 2.586000000000000E10   -5.593606270849705E-3  -1.737545616924763E-2  
 2.588000000000000E10   -1.559112686663866E-2   7.077903486788273E-3  
 2.590000000000000E10    7.726446725428104E-3   1.564446650445461E-2  
 2.592000000000000E10    1.566166989505291E-2  -9.078446775674820E-3  
 2.594000000000000E10   -1.102107111364603E-2  -1.567821018397808E-2  
 2.596000000000000E10   -1.425357162952423E-2   1.270452328026295E-2  
 2.598000000000000E10    1.430906914174557E-2   1.186661235988140E-2  
 2.600000000000000E10    1.056263688951731E-2  -1.602966338396072E-2  
 2.602000000000000E10   -1.676299236714840E-2  -8.030900731682777E-3  
 2.604000000000000E10   -5.058940034359694E-3   1.721707917749882E-2  
 2.606000000000000E10    1.709780655801296E-2   2.594531979411840E-3  
 2.608000000000000E10    4.070078430231661E-4  -1.716998778283596E-2  
 2.610000000000000E10   -1.772575080394745E-2   1.198327052406967E-3  
 2.612000000000000E10    3.158767009153962E-3   1.782118901610375E-2  
 2.614000000000000E10    1.730705238878727E-2  -6.149078253656626E-3  
 2.616000000000000E10   -7.904123514890671E-3  -1.747022196650505E-2  
 2.618000000000000E10   -1.635552383959293E-2   9.570521302521229E-3  
 2.620000000000000E10    1.133579201996326E-2   1.452063955366612E-2  
 2.622000000000000E10    1.345624867826700E-2  -1.267503108829260E-2  
 2.624000000000000E10   -1.332190819084644E-2  -1.183229032903910E-2  
 2.626000000000000E10   -1.071638800203800E-2   1.452695671468973E-2  
 2.628000000000000E10    1.574090309441090E-2   8.704345673322678E-3  
 2.630000000000000E10    5.829724017530680E-3  -1.716483198106289E-2  
 2.632000000000000E10   -1.740184426307678E-2  -3.223642241209745E-3  
 2.634000000000000E10   -9.231762960553169E-4   1.746718026697636E-2  
 2.636000000000000E10    1.718430593609810E-2  -1.587005914188922E-3  
 2.638000000000000E10   -3.764230757951737E-3  -1.680257357656956E-2  
 2.640000000000000E10   -1.606147736310959E-2   5.879063159227371E-3  
 2.642000000000000E10    7.121493574231863E-3   1.619306020438671E-2  
 2.644000000000000E10    1.573451794683933E-2  -8.753741160035133E-3  
 2.646000000000000E10   -1.069023180752993E-2  -1.462205033749342E-2  
 2.648000000000000E10   -1.342126820236445E-2   1.259602420032024E-2  
 2.650000000000000E10    1.380328647792339E-2   1.207054778933525E-2  
 2.652000000000000E10    1.021053548902273E-2  -1.507162675261498E-2  
 2.654000000000000E10   -1.640851795673370E-2  -7.318402174860239E-3  
 2.656000000000000E10   -4.667365457862616E-3   1.675092056393623E-2  
 2.658000000000000E10    1.688310876488686E-2   2.709667664021254E-3  
 2.660000000000000E10    1.806368236429989E-4  -1.672106422483921E-2  
 2.662000000000000E10   -1.639744266867638E-2   2.829745411872864E-3  
 2.664000000000000E10    5.066015757620335E-3   1.617449708282948E-2  
 2.666000000000000E10    1.488543022423983E-2  -7.468116004019976E-3  
 2.668000000000000E10   -8.888680487871170E-3  -1.355777867138386E-2  
 2.670000000000000E10   -1.249315869063139E-2   1.001624297350645E-2  
 2.672000000000000E10    1.098919007927179E-2   1.197500526905060E-2  
 2.674000000000000E10    1.141986344009638E-2  -1.151497568935156E-2  
 2.676000000000000E10   -1.322907581925392E-2  -1.038165017962456E-2  
 2.678000000000000E10   -8.417855948209763E-3   1.398054882884026E-2  
 2.680000000000000E10    1.473695412278175E-2   6.533861160278320E-3  
 2.682000000000000E10    5.021700169891119E-3  -1.493661664426327E-2  
 2.684000000000000E10   -1.532153133302927E-2  -2.776577370241284E-3  
 2.686000000000000E10   -2.938461148005445E-5   1.517938729375601E-2  
 2.688000000000000E10    1.417016703635454E-2  -1.968704396858811E-3  
 2.690000000000000E10   -3.035480389371514E-3  -1.390898507088423E-2  
 2.692000000000000E10   -1.407668460160494E-2   5.020300392061472E-3  
 2.694000000000000E10    7.386714220046997E-3   1.282340567559004E-2  
 2.696000000000000E10    1.231366489082575E-2  -9.451620280742645E-3  
 2.698000000000000E10   -1.030854415148497E-2  -1.154502574354410E-2  
 2.700000000000000E10   -1.002292893826962E-2   1.127085741609335E-2  
 2.702000000000000E10    1.264285761862993E-2   8.476418443024159E-3  
 2.704000000000000E10    7.382994983345270E-3  -1.290310360491276E-2  
 2.706000000000000E10   -1.273721363395453E-2  -5.858927033841610E-3  
 2.708000000000000E10   -4.477751441299915E-3   1.301581319421530E-2  
 2.710000000000000E10    1.341687235981226E-2   3.025813959538937E-3  
 2.712000000000000E10    8.553036022931337E-4  -1.319792587310076E-2  
 2.714000000000000E10   -1.309568900614977E-2   5.477578379213810E-4  
 2.716000000000000E10    2.648031339049339E-3   1.221641525626183E-2  
 2.718000000000000E10    1.199814863502979E-2  -4.483507014811039E-3  
 2.720000000000000E10   -5.580975208431482E-3  -1.165032573044300E-2  
 2.722000000000000E10   -1.116719096899033E-2   7.265934720635414E-3  
 2.724000000000000E10    8.661201223731041E-3   1.013110391795635E-2  
 2.726000000000000E10    9.536394849419594E-3  -9.245000779628754E-3  
 2.728000000000000E10   -1.056436076760292E-2  -9.029984474182129E-3  
 2.730000000000000E10   -8.065158501267433E-3   1.113042980432510E-2  
 2.732000000000000E10    1.180373877286911E-2   6.415649317204952E-3  
 2.734000000000000E10    5.352444481104612E-3  -1.183779910206795E-2  
 2.736000000000000E10   -1.247206330299377E-2  -4.183091688901186E-3  
 2.738000000000000E10   -1.648002886213362E-3   1.265747193247080E-2  
 2.740000000000000E10    1.174264214932919E-2  -1.222885039169341E-4  
 2.742000000000000E10   -1.978915883228183E-3  -1.128565426915884E-2  
 2.744000000000000E10   -1.091776322573423E-2   3.512704046443105E-3  
 2.746000000000000E10    4.976985510438681E-3   1.001974474638701E-2  
 2.748000000000000E10    8.848959580063820E-3  -6.231293082237244E-3  
 2.750000000000000E10   -7.119072135537863E-3  -9.005031548440456E-3  
 2.752000000000000E10   -8.547265082597733E-3   8.328119292855263E-3  
 2.754000000000000E10    9.236901067197323E-3   6.990016438066959E-3  
 2.756000000000000E10    6.402499973773956E-3  -9.860268794000149E-3  
