#  HZ   S   RI   R     50.00 
! Rohde & Schwarz ZVA40 4Ports - Version 3.90 - 1145.1110k42 SN: 100403
! Date: 2023-10-04 10:37:49
! Measurement: S12 
! 
 2.200000000000000E10   -1.539191580377519E-3  -4.725086037069559E-3  
 2.202000000000000E10   -4.946452099829912E-3   1.881226897239685E-3  
 2.204000000000000E10    1.548441243357956E-3   5.187881179153919E-3  
 2.206000000000000E10    5.275242496281862E-3  -1.166704576462507E-3  
 2.208000000000000E10   -1.425876282155514E-3  -5.667961668223143E-3  
 2.210000000000000E10   -6.181983277201653E-3   1.271257991902530E-3  
 2.212000000000000E10    1.318785478360951E-3   6.983730476349592E-3  
 2.214000000000000E10    7.811850402504206E-3  -1.839035074226558E-3  
 2.216000000000000E10   -2.282089786604047E-3  -8.013929240405560E-3  
 2.218000000000000E10   -8.436883799731731E-3   4.040242172777653E-3  
 2.220000000000000E10    5.612433422356844E-3   9.200939908623695E-3  
 2.222000000000000E10    8.373359218239784E-3  -6.829482968896627E-3  
 2.224000000000000E10   -8.881240151822567E-3  -7.265299558639526E-3  
 2.226000000000000E10   -6.120822392404079E-3   1.059920247644186E-2  
 2.228000000000000E10    1.226671505719423E-2   4.334295634180307E-3  
 2.230000000000000E10    2.539958339184523E-3  -1.350303553044796E-2  
 2.232000000000000E10   -1.421472989022732E-2  -6.010702927596867E-4  
 2.234000000000000E10    2.577740931883454E-3   1.428023073822260E-2  
 2.236000000000000E10    1.380830723792315E-2  -4.455396905541420E-3  
 2.238000000000000E10   -5.367724690586329E-3  -1.391498837620020E-2  
 2.240000000000000E10   -1.297629624605179E-2   7.857907563447952E-3  
 2.242000000000000E10    9.582307189702988E-3   1.209565717726946E-2  
 2.244000000000000E10    1.068952213972807E-2  -1.140997931361198E-2  
 2.246000000000000E10   -1.241483725607395E-2  -8.838586509227753E-3  
 2.248000000000000E10   -7.624414283782244E-3   1.257758308202028E-2  
 2.250000000000000E10    1.516456436365843E-2   5.050263833254576E-3  
 2.252000000000000E10    3.038589144125581E-3  -1.537212263792753E-2  
 2.254000000000000E10   -1.514239236712456E-2  -1.892279251478612E-3  
 2.256000000000000E10    5.381758091971278E-4   1.574128679931164E-2  
 2.258000000000000E10    1.619398780167103E-2  -2.753542503342032E-3  
 2.260000000000000E10   -3.740062005817890E-3  -1.608695648610592E-2  
 2.262000000000000E10   -1.515004038810730E-2   6.096490658819675E-3  
 2.264000000000000E10    7.575953379273415E-3   1.491724606603384E-2  
 2.266000000000000E10    1.363828312605619E-2  -1.036101672798395E-2  
 2.268000000000000E10   -1.174525264650583E-2  -1.274376735091209E-2  
 2.270000000000000E10   -1.089282054454088E-2   1.239695306867361E-2  
 2.272000000000000E10    1.380563154816628E-2   9.288478642702103E-3  
 2.274000000000000E10    7.171166129410267E-3  -1.494023110717535E-2  
 2.276000000000000E10   -1.583818532526493E-2  -5.291361361742020E-3  
 2.278000000000000E10   -3.072003135457635E-3   1.610910706222057E-2  
 2.280000000000000E10    1.615177094936371E-2   4.521643859334290E-4  
 2.282000000000000E10    7.520258426666260E-3  -1.423272863030434E-2  
 2.284000000000000E10   -1.595182344317436E-2   3.606423502787948E-3  
 2.286000000000000E10    5.454965867102146E-3   1.488719694316387E-2  
 2.288000000000000E10    1.423040311783552E-2  -7.201350294053555E-3  
 2.290000000000000E10   -8.710923604667187E-3  -1.411367952823639E-2  
 2.292000000000000E10   -1.340600103139877E-2   1.033347565680742E-2  
 2.294000000000000E10    1.229848340153694E-2   1.256028283387423E-2  
 2.296000000000000E10    1.029601413756609E-2  -1.327177695930004E-2  
 2.298000000000000E10   -1.460376661270857E-2  -8.812352083623409E-3  
 2.300000000000000E10   -8.089900016784668E-3   1.567433774471283E-2  
 2.302000000000000E10    1.623914949595928E-2   5.037996452301741E-3  
 2.304000000000000E10    2.095230622217059E-3  -1.579630747437477E-2  
 2.306000000000000E10   -1.580977253615856E-2  -3.847060434054583E-4  
 2.308000000000000E10    1.368212397210300E-3   1.624830253422260E-2  
 2.310000000000000E10    1.612828485667706E-2  -3.821568796411157E-3  
 2.312000000000000E10   -6.714461371302605E-3  -1.561309956014156E-2  
 2.314000000000000E10   -1.445203833281994E-2   9.491898119449616E-3  
 2.316000000000000E10    1.029336359351873E-2   1.388504449278116E-2  
 2.318000000000000E10    1.200719829648733E-2  -1.227521244436503E-2  
 2.320000000000000E10   -1.348636765033007E-2  -1.020104438066483E-2  
 2.322000000000000E10   -9.154290892183781E-3   1.418973784893751E-2  
 2.324000000000000E10    1.521089300513268E-2   7.815903052687645E-3  
 2.326000000000000E10    6.433756090700626E-3  -1.601336523890495E-2  
 2.328000000000000E10   -1.639302633702755E-2  -4.435640294104815E-3  
 2.330000000000000E10   -1.523830578662455E-3   1.673706434667110E-2  
 2.332000000000000E10    1.643709652125835E-2   3.036962880287319E-5  
 2.334000000000000E10   -2.256273757666349E-3  -1.518105156719685E-2  
 2.336000000000000E10   -1.474301423877478E-2   4.473841749131680E-3  
 2.338000000000000E10    6.370337214320898E-3   1.453673094511032E-2  
 2.340000000000000E10    1.313488837331533E-2  -8.429270237684250E-3  
 2.342000000000000E10   -1.002212427556515E-2  -1.311517134308815E-2  
 2.344000000000000E10   -1.119837537407875E-2   1.219576504081488E-2  
 2.346000000000000E10    1.404717937111855E-2   9.923920966684818E-3  
 2.348000000000000E10    8.509918116033077E-3  -1.530676428228617E-2  
 2.350000000000000E10   -1.631470397114754E-2  -6.370724178850651E-3  
 2.352000000000000E10   -4.515246953815222E-3   1.709947548806667E-2  
 2.354000000000000E10    1.726601831614971E-2   2.873199526220560E-3  
 2.356000000000000E10    8.320187334902585E-4  -1.717623509466648E-2  
 2.358000000000000E10   -1.723778620362282E-2   8.618669817224145E-4  
 2.360000000000000E10    3.057917114347220E-3   1.642055250704289E-2  
 2.362000000000000E10    1.572602055966854E-2  -5.562216043472290E-3  
 2.364000000000000E10   -7.551776710897684E-3  -1.428626105189323E-2  
 2.366000000000000E10   -1.270396541804075E-2   8.853740990161896E-3  
 2.368000000000000E10    1.016443409025669E-2   1.167119480669498E-2  
 2.370000000000000E10    1.021108962595463E-2  -1.174232643097639E-2  
 2.372000000000000E10   -1.342722307890654E-2  -9.057258255779743E-3  
 2.374000000000000E10   -7.601608056575060E-3   1.479252614080906E-2  
 2.376000000000000E10    1.585652120411396E-2   5.825980566442013E-3  
 2.378000000000000E10    4.101260099560022E-3  -1.743518188595772E-2  
 2.380000000000000E10   -1.833627186715603E-2  -1.517478842288256E-3  
 2.382000000000000E10    1.260708086192608E-4   1.812527514994144E-2  
 2.384000000000000E10    1.729672774672508E-2  -2.091273432597518E-3  
 2.386000000000000E10   -4.502699244767427E-3  -1.663451269268990E-2  
 2.388000000000000E10   -1.618972420692444E-2   6.480352953076363E-3  
 2.390000000000000E10    7.909108884632587E-3   1.445914525538683E-2  
 2.392000000000000E10    1.241493783891201E-2  -9.625690057873726E-3  
 2.394000000000000E10   -1.170008908957243E-2  -1.116588991135359E-2  
 2.396000000000000E10   -9.457520209252834E-3   1.286260038614273E-2  
 2.398000000000000E10    1.416809670627117E-2   7.517125457525253E-3  
 2.400000000000000E10    5.719739943742752E-3  -1.553412619978190E-2  
 2.402000000000000E10   -1.623393222689629E-2  -1.119134481996298E-3  
 2.404000000000000E10   -7.016762538114563E-5   1.697180792689323E-2  
 2.406000000000000E10    1.684583164751530E-2  -1.519020763225853E-3  
 2.408000000000000E10   -4.052339587360621E-3  -1.642365194857121E-2  
 2.410000000000000E10   -1.672486029565334E-2   5.352346692234278E-3  
 2.412000000000000E10    6.396483629941940E-3   1.523819006979466E-2  
 2.414000000000000E10    1.447931025177240E-2  -7.308084517717362E-3  
 2.416000000000000E10   -9.135394357144833E-3  -1.413171179592609E-2  
 2.418000000000000E10   -1.185708958655596E-2   1.014687307178974E-2  
 2.420000000000000E10    1.133398432284594E-2   1.018698699772358E-2  
 2.422000000000000E10    8.840171620249748E-3  -1.139295473694801E-2  
 2.424000000000000E10   -1.275148335844278E-2  -7.761048618704081E-3  
 2.426000000000000E10   -5.828759167343378E-3   1.440298184752464E-2  
 2.428000000000000E10    1.442760974168778E-2   4.201858304440975E-3  
 2.430000000000000E10    2.021010266616941E-3  -1.568847149610519E-2  
 2.432000000000000E10   -1.632220856845379E-2  -2.494984655641019E-4  
 2.434000000000000E10    2.253205515444279E-3   1.652149669826031E-2  
 2.436000000000000E10    1.647032983601093E-2  -4.721904173493385E-3  
 2.438000000000000E10   -5.310023203492165E-3  -1.560663431882858E-2  
 2.440000000000000E10   -1.492927130311728E-2   6.697801407426596E-3  
 2.442000000000000E10    8.264264091849327E-3   1.394264679402113E-2  
 2.444000000000000E10    1.270223874598742E-2  -9.282801300287247E-3  
 2.446000000000000E10   -1.042030099779367E-2  -1.101451460272074E-2  
 2.448000000000000E10   -9.857955388724804E-3   1.119057461619377E-2  
 2.450000000000000E10    1.192601025104523E-2   8.362096734344959E-3  
 2.452000000000000E10    6.523411720991135E-3  -1.300270296633244E-2  
 2.454000000000000E10   -1.335592009127140E-2  -4.902880638837814E-3  
 2.456000000000000E10   -3.477478167042136E-3   1.343638263642788E-2  
 2.458000000000000E10    1.481738220900297E-2   1.828747102990747E-3  
 2.460000000000000E10   -3.194961464032531E-4  -1.483643148094416E-2  
 2.462000000000000E10   -1.500814687460661E-2   2.162962453439832E-3  
 2.464000000000000E10    3.672241698950529E-3   1.475587580353022E-2  
 2.466000000000000E10    1.459498889744282E-2  -4.802108742296696E-3  
 2.468000000000000E10   -6.702391430735588E-3  -1.467706263065338E-2  
 2.470000000000000E10   -1.380914263427258E-2   8.163766004145145E-3  
 2.472000000000000E10    9.107044897973537E-3   1.180008705705404E-2  
 2.474000000000000E10    1.044958271086216E-2  -9.884031489491463E-3  
 2.476000000000000E10   -1.091539487242699E-2  -9.651926346123219E-3  
 2.478000000000000E10   -8.106241002678871E-3   1.182890962809324E-2  
 2.480000000000000E10    1.239065267145634E-2   6.187961902469397E-3  
 2.482000000000000E10    4.692811053246260E-3  -1.325565017759800E-2  
 2.484000000000000E10   -1.468506734818220E-2  -2.915698569267988E-3  
 2.486000000000000E10   -3.783364954870194E-4   1.506528537720442E-2  
 2.488000000000000E10    1.416625361889601E-2  -2.113098977133632E-3  
 2.490000000000000E10   -3.807331202551723E-3  -1.374985370784998E-2  
 2.492000000000000E10   -1.409945543855429E-2   5.031645763665438E-3  
 2.494000000000000E10    6.464559119194746E-3   1.412633061408997E-2  
 2.496000000000000E10    1.301890704780817E-2  -7.752034347504377E-3  
 2.498000000000000E10   -9.161652065813541E-3  -1.186335086822510E-2  
 2.500000000000000E10   -1.116453483700752E-2   9.723070077598095E-3  
 2.502000000000000E10    1.065898966044188E-2   1.035399362444878E-2  
 2.504000000000000E10    7.678037509322166E-3  -1.171327196061611E-2  
 2.506000000000000E10   -1.134428195655346E-2  -5.829997360706329E-3  
 2.508000000000000E10   -5.378172732889652E-3   1.182813849300146E-2  
 2.510000000000000E10    1.250141207128763E-2   4.408052656799555E-3  
 2.512000000000000E10    2.150778658688068E-3  -1.273487787693739E-2  
 2.514000000000000E10   -1.306927204132080E-2   2.553415251895785E-4  
 2.516000000000000E10    2.103743143379688E-3   1.365803088992834E-2  
 2.518000000000000E10    1.366215758025646E-2  -3.713769372552633E-3  
 2.520000000000000E10   -5.852949339896441E-3  -1.291627530008555E-2  
 2.522000000000000E10   -1.218902319669724E-2   7.283322978764772E-3  
 2.524000000000000E10    8.629401214420795E-3   1.192776579409838E-2  
 2.526000000000000E10    1.117612700909376E-2  -8.905974216759205E-3  
 2.528000000000000E10   -9.941303171217442E-3  -9.847568348050118E-3  
 2.530000000000000E10   -8.904919959604740E-3   1.164525840431452E-2  
 2.532000000000000E10    1.195362117141485E-2   7.559895049780607E-3  
 2.534000000000000E10    5.811905022710562E-3  -1.256155874580145E-2  
 2.536000000000000E10   -1.217296067625284E-2  -4.089386668056250E-3  
 2.538000000000000E10   -2.198723843321204E-3   1.261870749294758E-2  
 2.540000000000000E10    1.328158844262362E-2   7.315773982554674E-4  
 2.542000000000000E10   -1.008591265417635E-3  -1.262661907821894E-2  
 2.544000000000000E10   -1.220508385449648E-2   3.412850899621844E-3  
 2.546000000000000E10    5.298732314258814E-3   1.237072981894016E-2  
 2.548000000000000E10    1.189767103642225E-2  -6.885592825710774E-3  
 2.550000000000000E10   -8.816309273242950E-3  -1.084709912538528E-2  
 2.552000000000000E10   -9.503712877631187E-3   9.886287152767181E-3  
 2.554000000000000E10    1.127065718173981E-2   8.254370652139187E-3  
 2.556000000000000E10    7.485462818294764E-3  -1.213342230767012E-2  
 2.558000000000000E10   -1.176325324922800E-2  -6.420976482331753E-3  
 2.560000000000000E10   -4.425378516316414E-3   1.278543844819069E-2  
 2.562000000000000E10    1.317024417221546E-2   3.255783347412944E-3  
 2.564000000000000E10    2.004264388233423E-3  -1.298267301172018E-2  
 2.566000000000000E10   -1.334405783563852E-2  -2.282236673636362E-4  
 2.568000000000000E10    1.947310869581997E-3   1.355899590998888E-2  
 2.570000000000000E10    1.243272051215172E-2  -4.768010694533587E-3  
 2.572000000000000E10   -6.055979523807764E-3  -1.149165816605091E-2  
 2.574000000000000E10   -1.072692032903433E-2   7.161255925893784E-3  
 2.576000000000000E10    9.925329126417637E-3   9.674974717199802E-3  
 2.578000000000000E10    8.322174660861492E-3  -1.165855769068003E-2  
 2.580000000000000E10   -1.194904651492834E-2  -7.131840568035841E-3  
 2.582000000000000E10   -5.964104551821947E-3   1.258411537855864E-2  
 2.584000000000000E10    1.326819788664579E-2   4.280998837202787E-3  
 2.586000000000000E10    2.816053573042154E-3  -1.434595417231321E-2  
 2.588000000000000E10   -1.339813042432070E-2  -1.492546289227903E-3  
 2.590000000000000E10    2.693397436814848E-5   1.250477600842714E-2  
 2.592000000000000E10    1.290202420204878E-2  -1.337419380433857E-3  
 2.594000000000000E10   -2.334828488528729E-3  -1.253991015255451E-2  
 2.596000000000000E10   -1.201072894036770E-2   3.889465937390924E-3  
 2.598000000000000E10    5.672010593116283E-3   1.110381074249744E-2  
 2.600000000000000E10    1.050457637757063E-2  -7.106831762939692E-3  
 2.602000000000000E10   -9.144317358732224E-3  -9.980176575481892E-3  
 2.604000000000000E10   -7.988828234374523E-3   1.061197556555271E-2  
 2.606000000000000E10    1.113589294254780E-2   6.346028763800860E-3  
 2.608000000000000E10    5.708103068172932E-3  -1.196287386119366E-2  
 2.610000000000000E10   -1.267049089074135E-2  -4.476317204535008E-3  
 2.612000000000000E10   -3.535907249897718E-3   1.307856384664774E-2  
 2.614000000000000E10    1.297143101692200E-2   2.116199349984527E-3  
 2.616000000000000E10    1.005694968625903E-3  -1.316640153527260E-2  
 2.618000000000000E10   -1.336966361850500E-2   8.677802397869527E-4  
 2.620000000000000E10    2.232952741906047E-3   1.247826963663101E-2  
 2.622000000000000E10    1.132656820118427E-2  -3.636249806731939E-3  
 2.624000000000000E10   -5.201231688261032E-3  -1.074964832514525E-2  
 2.626000000000000E10   -9.566053748130798E-3   6.446702405810356E-3  
 2.628000000000000E10    7.815347053110600E-3   8.430683985352516E-3  
 2.630000000000000E10    7.448622956871986E-3  -8.730757981538773E-3  
 2.632000000000000E10   -1.062654796987772E-2  -6.018204148858786E-3  
 2.634000000000000E10   -4.525230731815100E-3   1.137475762516260E-2  
 2.636000000000000E10    1.160591281950474E-2   3.275919007137418E-3  
 2.638000000000000E10    2.529538935050368E-3  -1.252278406172991E-2  
 2.640000000000000E10   -1.242225803434849E-2  -6.869315984658897E-4  
 2.642000000000000E10    7.484789966838434E-5   1.213321462273598E-2  
 2.644000000000000E10    1.176629215478897E-2  -1.061375136487186E-3  
 2.646000000000000E10   -2.339477650821209E-3  -1.161494478583336E-2  
 2.648000000000000E10   -1.095619518309832E-2   3.656044369563460E-3  
 2.650000000000000E10    4.672988783568144E-3   1.000974420458078E-2  
 2.652000000000000E10    9.075234644114971E-3  -5.661054514348507E-3  
 2.654000000000000E10   -7.180564571171999E-3  -8.343246765434742E-3  
 2.656000000000000E10   -6.250698119401932E-3   7.923697121441364E-3  
 2.658000000000000E10    9.031639434397221E-3   4.700289573520422E-3  
 2.660000000000000E10    3.777190111577511E-3  -9.696436114609242E-3  
 2.662000000000000E10   -9.998317807912827E-3  -2.273827325552702E-3  
 2.664000000000000E10   -2.900601248256862E-4   1.060098502784967E-2  
 2.666000000000000E10    1.012892089784145E-2  -7.482481305487454E-4  
 2.668000000000000E10   -1.575990812852979E-3  -1.043486315757036E-2  
 2.670000000000000E10   -9.670152328908444E-3   2.224705182015896E-3  
 2.672000000000000E10    3.261978970840573E-3   9.181198664009571E-3  
 2.674000000000000E10    8.727118372917175E-3  -3.922808449715376E-3  
 2.676000000000000E10   -4.087670706212521E-3  -8.417678065598011E-3  
 2.678000000000000E10   -7.674899417907000E-3   4.868643358349800E-3  
 2.680000000000000E10    6.273789331316948E-3   6.143559236079454E-3  
 2.682000000000000E10    5.596803035587072E-3  -6.539046764373779E-3  
 2.684000000000000E10   -7.530584000051022E-3  -4.845563322305679E-3  
 2.686000000000000E10   -3.285900922492147E-3   7.607710547745228E-3  
 2.688000000000000E10    8.381099440157414E-3   1.798482029698789E-3  
 2.690000000000000E10    1.370709156617522E-3  -8.532396517693996E-3  
 2.692000000000000E10   -8.781349286437035E-3  -6.168052204884589E-4  
 2.694000000000000E10    1.100667053833604E-3   9.304038248956204E-3  
 2.696000000000000E10    8.792378008365631E-3  -2.103399951010943E-3  
 2.698000000000000E10   -2.353257499635220E-3  -8.671492338180542E-3  
 2.700000000000000E10   -8.897726424038410E-3   3.333514789119363E-3  
 2.702000000000000E10    3.734556725248694E-3   7.818894460797310E-3  
 2.704000000000000E10    6.340959109365940E-3  -4.345727153122425E-3  
 2.706000000000000E10   -4.212961997836828E-3  -6.248427554965019E-3  
 2.708000000000000E10   -5.801087245345116E-3   4.753603134304285E-3  
 2.710000000000000E10    5.745170637965202E-3   4.214535467326641E-3  
 2.712000000000000E10    2.890547038987279E-3  -5.597591400146484E-3  
 2.714000000000000E10   -6.117566488683224E-3  -2.630078932270408E-3  
 2.716000000000000E10   -1.163724809885025E-3   6.750159431248903E-3  
 2.718000000000000E10    6.407124921679497E-3  -2.143885940313339E-4  
 2.720000000000000E10   -7.787888753227890E-4  -6.796728819608688E-3  
 2.722000000000000E10   -7.154562976211309E-3   1.576347509399056E-3  
 2.724000000000000E10    2.093815011903644E-3   7.294285576790571E-3  
 2.726000000000000E10    7.032322231680155E-3  -3.128297626972199E-3  
 2.728000000000000E10   -3.393188584595919E-3  -6.573749240487814E-3  
 2.730000000000000E10   -7.061464712023735E-3   3.626226913183928E-3  
 2.732000000000000E10    4.449608735740185E-3   5.854820366948843E-3  
 2.734000000000000E10    4.811274353414774E-3  -4.363626707345247E-3  
 2.736000000000000E10   -4.258599132299423E-3  -4.862037487328053E-3  
 2.738000000000000E10   -4.132748581469059E-3   5.041498690843582E-3  
 2.740000000000000E10    5.169199313968420E-3   2.565624890848994E-3  
 2.742000000000000E10    1.680183690041304E-3  -4.881730768829584E-3  
 2.744000000000000E10   -5.331532098352909E-3  -1.160552958026528E-3  
 2.746000000000000E10   -5.770130519522354E-5   5.904146470129490E-3  
 2.748000000000000E10    5.649892147630453E-3  -1.264996593818069E-3  
 2.750000000000000E10   -1.859790994785726E-3  -5.344994831830263E-3  
 2.752000000000000E10   -5.798896308988333E-3   2.408254658803344E-3  
 2.754000000000000E10    3.000232856720686E-3   5.889533087611198E-3  
 2.756000000000000E10    5.099022295325995E-3  -3.801251063123345E-3  
