#  HZ   S   RI   R     50.00 
! Rohde & Schwarz ZVA40 4Ports - Version 3.90 - 1145.1110k42 SN: 100403
! Date: 2023-10-04 10:38:20
! Measurement: S12 
! 
 2.200000000000000E10   -2.840237924829125E-3  -5.095043685287237E-3  
 2.202000000000000E10   -4.236577544361353E-3   2.411776222288609E-3  
 2.204000000000000E10    2.152114873751998E-3   4.485672339797020E-3  
 2.206000000000000E10    4.784885328263044E-3  -2.319376450031996E-3  
 2.208000000000000E10   -2.106136176735163E-3  -5.481146275997162E-3  
 2.210000000000000E10   -6.049479357898235E-3   2.388214925304055E-3  
 2.212000000000000E10    2.590705640614033E-3   6.539191585034132E-3  
 2.214000000000000E10    7.107966113835573E-3  -3.651381470263004E-3  
 2.216000000000000E10   -5.179740488529205E-3  -7.729304488748312E-3  
 2.218000000000000E10   -7.440201472491026E-3   6.009990815073252E-3  
 2.220000000000000E10    7.146089337766171E-3   6.709679495543242E-3  
 2.222000000000000E10    5.817367695271969E-3  -9.127769619226456E-3  
 2.224000000000000E10   -1.043207105249167E-2  -4.837010521441698E-3  
 2.226000000000000E10   -3.056267509236932E-3   1.163052860647440E-2  
 2.228000000000000E10    1.250379718840122E-2   1.076329150237143E-3  
 2.230000000000000E10   -7.182651315815747E-4  -1.364640891551971E-2  
 2.232000000000000E10   -1.408888120204210E-2   3.565568011254072E-3  
 2.234000000000000E10    4.985082894563675E-3   1.352331601083279E-2  
 2.236000000000000E10    1.234787516295910E-2  -7.096766494214535E-3  
 2.238000000000000E10   -8.611754514276981E-3  -1.173124648630619E-2  
 2.240000000000000E10   -1.131709851324558E-2   1.058818493038416E-2  
 2.242000000000000E10    1.158569566905499E-2   9.759422391653061E-3  
 2.244000000000000E10    7.647926919162273E-3  -1.269151363521814E-2  
 2.246000000000000E10   -1.405417732894421E-2  -5.997053813189268E-3  
 2.248000000000000E10   -4.363553132861853E-3   1.456833723932505E-2  
 2.250000000000000E10    1.460988074541092E-2   2.325206762179732E-3  
 2.252000000000000E10   -1.165626221336424E-3  -1.527000125497580E-2  
 2.254000000000000E10   -1.472944673150778E-2   2.525046933442354E-3  
 2.256000000000000E10    3.816370619460940E-3   1.519485469907522E-2  
 2.258000000000000E10    1.407993864268065E-2  -6.481562741100788E-3  
 2.260000000000000E10   -7.893150672316551E-3  -1.376673113554716E-2  
 2.262000000000000E10   -1.275544054806233E-2   1.009090337902308E-2  
 2.264000000000000E10    1.128321513533592E-2   1.190395839512348E-2  
 2.266000000000000E10    1.086125802248716E-2  -1.260502543300390E-2  
 2.268000000000000E10   -1.456724572926760E-2  -8.285661228001118E-3  
 2.270000000000000E10   -6.718814838677645E-3   1.442547608166933E-2  
 2.272000000000000E10    1.502139028161764E-2   5.856213625520468E-3  
 2.274000000000000E10    3.254149807617068E-3  -1.551826298236847E-2  
 2.276000000000000E10   -1.584942266345024E-2  -8.939628023654223E-4  
 2.278000000000000E10    1.228907960467041E-3   1.570721343159676E-2  
 2.280000000000000E10    1.521076075732708E-2  -3.027561353519559E-3  
 2.282000000000000E10    4.270394332706928E-3  -1.472517196089029E-2  
 2.284000000000000E10   -1.354353595525026E-2   7.292433176189661E-3  
 2.286000000000000E10    8.540198206901550E-3   1.304294168949127E-2  
 2.288000000000000E10    1.221038587391377E-2  -9.850508533418179E-3  
 2.290000000000000E10   -1.108246576040983E-2  -1.117932610213757E-2  
 2.292000000000000E10   -1.020538154989481E-2   1.278416253626347E-2  
 2.294000000000000E10    1.428396347910166E-2   8.407165296375752E-3  
 2.296000000000000E10    6.595129147171974E-3  -1.550228614360094E-2  
 2.298000000000000E10   -1.518037170171738E-2  -5.058624781668186E-3  
 2.300000000000000E10   -2.629995811730623E-3   1.605519279837608E-2  
 2.302000000000000E10    1.650128886103630E-2   5.946289165876806E-4  
 2.304000000000000E10   -1.555083668790758E-3  -1.555685512721539E-2  
 2.306000000000000E10   -1.475597638636828E-2   3.173088654875755E-3  
 2.308000000000000E10    5.187956616282463E-3   1.425221003592014E-2  
 2.310000000000000E10    1.359673216938973E-2  -7.323056459426880E-3  
 2.312000000000000E10   -9.503239765763283E-3  -1.289250701665878E-2  
 2.314000000000000E10   -1.117492280900478E-2   1.089277490973473E-2  
 2.316000000000000E10    1.258265320211649E-2   9.628426283597946E-3  
 2.318000000000000E10    8.125857450067997E-3  -1.439198199659586E-2  
 2.320000000000000E10   -1.473861467093229E-2  -6.364185363054276E-3  
 2.322000000000000E10   -4.915826488286257E-3   1.505607645958662E-2  
 2.324000000000000E10    1.562551036477089E-2   3.756994381546974E-3  
 2.326000000000000E10    1.732311444357038E-3  -1.649156771600246E-2  
 2.328000000000000E10   -1.678447425365448E-2  -4.601403197739273E-4  
 2.330000000000000E10    1.973315374925733E-3   1.589373499155045E-2  
 2.332000000000000E10    1.470316387712956E-2  -4.356642719358206E-3  
 2.334000000000000E10   -5.706532858312130E-3  -1.436358783394098E-2  
 2.336000000000000E10   -1.304517313838005E-2   7.796233985573053E-3  
 2.338000000000000E10    9.313741698861122E-3   1.163387205451727E-2  
 2.340000000000000E10    1.069223415106535E-2  -1.072525698691607E-2  
 2.342000000000000E10   -1.270207110792399E-2  -9.076663292944431E-3  
 2.344000000000000E10   -7.699992973357439E-3   1.425176020711660E-2  
 2.346000000000000E10    1.496968697756529E-2   5.271294154226780E-3  
 2.348000000000000E10    3.723792033270001E-3  -1.573781296610832E-2  
 2.350000000000000E10   -1.672207005321980E-2  -2.105571096763015E-3  
 2.352000000000000E10    2.177281421609223E-4   1.625996455550194E-2  
 2.354000000000000E10    1.597074232995510E-2  -1.232891809195280E-3  
 2.356000000000000E10   -3.128479467704892E-3  -1.624629832804203E-2  
 2.358000000000000E10   -1.535877864807844E-2   4.994947463274002E-3  
 2.360000000000000E10    6.731358356773853E-3   1.402955967932940E-2  
 2.362000000000000E10    1.289000548422337E-2  -8.132960647344589E-3  
 2.364000000000000E10   -9.952185675501823E-3  -1.097312569618225E-2  
 2.366000000000000E10   -9.335614740848541E-3   1.098561473190785E-2  
 2.368000000000000E10    1.178262941539288E-2   7.801631931215525E-3  
 2.370000000000000E10    6.621073465794325E-3  -1.313581969588995E-2  
 2.372000000000000E10   -1.355139911174774E-2  -4.458830691874027E-3  
 2.374000000000000E10   -2.897917758673430E-3   1.514214463531971E-2  
 2.376000000000000E10    1.584844663739204E-2   1.287213526666164E-3  
 2.378000000000000E10   -7.224543369375169E-4  -1.608902402222157E-2  
 2.380000000000000E10   -1.660080440342426E-2   2.935428405180574E-3  
 2.382000000000000E10    5.295147653669119E-3   1.591411791741848E-2  
 2.384000000000000E10    1.505733001977205E-2  -6.678060628473759E-3  
 2.386000000000000E10   -8.047977462410927E-3  -1.459496375173330E-2  
 2.388000000000000E10   -1.252527534961700E-2   9.501733817160130E-3  
 2.390000000000000E10    1.092828903347254E-2   1.141556259244680E-2  
 2.392000000000000E10    9.778825566172600E-3  -1.195883471518755E-2  
 2.394000000000000E10   -1.255299989134073E-2  -7.974805310368538E-3  
 2.396000000000000E10   -6.313069257885218E-3   1.420279964804649E-2  
 2.398000000000000E10    1.461997814476490E-2   3.846688661724329E-3  
 2.400000000000000E10    1.803226419724524E-3  -1.454978995025158E-2  
 2.402000000000000E10   -1.503227837383747E-2   2.001928864046931E-3  
 2.404000000000000E10    3.303760429844260E-3   1.439160946756601E-2  
 2.406000000000000E10    1.455271616578102E-2  -5.099720787256956E-3  
 2.408000000000000E10   -6.634313147515059E-3  -1.385282631963491E-2  
 2.410000000000000E10   -1.298400200903416E-2   8.035982958972454E-3  
 2.412000000000000E10    9.255837649106979E-3   1.209278684109449E-2  
 2.414000000000000E10    1.115797180682421E-2  -1.008556503802538E-2  
 2.416000000000000E10   -1.101741008460522E-2  -1.048241741955280E-2  
 2.418000000000000E10   -8.137284778058529E-3   1.212414726614952E-2  
 2.420000000000000E10    1.206502970308065E-2   6.483410950750113E-3  
 2.422000000000000E10    5.414202343672514E-3  -1.228470262140036E-2  
 2.424000000000000E10   -1.298890542238951E-2  -3.898954717442393E-3  
 2.426000000000000E10   -2.080003963783383E-3   1.332225743681192E-2  
 2.428000000000000E10    1.425019651651382E-2  -6.877782288938761E-5  
 2.430000000000000E10   -1.807852415367961E-3  -1.373217720538378E-2  
 2.432000000000000E10   -1.434836536645889E-2   3.912442363798618E-3  
 2.434000000000000E10    6.034999154508114E-3   1.404512207955122E-2  
 2.436000000000000E10    1.304561644792557E-2  -7.598990574479103E-3  
 2.438000000000000E10   -8.705560117959976E-3  -1.216314453631640E-2  
 2.440000000000000E10   -1.174525450915098E-2   9.503044188022614E-3  
 2.442000000000000E10    1.074254885315895E-2   1.070523168891668E-2  
 2.444000000000000E10    8.946095593273640E-3  -1.119232829660177E-2  
 2.446000000000000E10   -1.168922055512667E-2  -8.368231356143951E-3  
 2.448000000000000E10   -6.775232963263989E-3   1.201374921947718E-2  
 2.450000000000000E10    1.222295127809048E-2   5.201393738389015E-3  
 2.452000000000000E10    3.601395990699530E-3  -1.252618990838528E-2  
 2.454000000000000E10   -1.270081009715796E-2  -1.540939090773463E-3  
 2.456000000000000E10   -7.768746581859887E-5   1.286571007221937E-2  
 2.458000000000000E10    1.273277029395104E-2  -1.909545506350696E-3  
 2.460000000000000E10   -4.197862930595875E-3  -1.284243352711201E-2  
 2.462000000000000E10   -1.185403205454350E-2   5.672819912433624E-3  
 2.464000000000000E10    7.405277341604233E-3   1.182705909013748E-2  
 2.466000000000000E10    1.113267801702023E-2  -8.418358862400055E-3  
 2.468000000000000E10   -9.636996313929558E-3  -1.043421868234873E-2  
 2.470000000000000E10   -9.039353579282761E-3   1.121000293642283E-2  
 2.472000000000000E10    1.155421417206526E-2   8.091607131063938E-3  
 2.474000000000000E10    7.233581040054560E-3  -1.139154378324747E-2  
 2.476000000000000E10   -1.195851434022188E-2  -5.868581123650074E-3  
 2.478000000000000E10   -4.658100660890341E-3   1.233178097754717E-2  
 2.480000000000000E10    1.278384868055582E-2   3.256410360336304E-3  
 2.482000000000000E10    1.726566581055522E-3  -1.228280924260616E-2  
 2.484000000000000E10   -1.275578141212463E-2  -4.817956505576149E-5  
 2.486000000000000E10    2.970852190628648E-3   1.256044302135706E-2  
 2.488000000000000E10    1.115021575242281E-2  -4.416319075971842E-3  
 2.490000000000000E10   -5.474113859236240E-3  -1.093474216759205E-2  
 2.492000000000000E10   -9.834425523877144E-3   7.020192220807076E-3  
 2.494000000000000E10    8.526612073183060E-3   9.644801728427410E-3  
 2.496000000000000E10    8.916616439819336E-3  -1.016598381102085E-2  
 2.498000000000000E10   -1.014112029224634E-2  -7.130470592528582E-3  
 2.500000000000000E10   -6.156067829579115E-3   1.086343452334404E-2  
 2.502000000000000E10    1.229302212595940E-2   5.550353787839413E-3  
 2.504000000000000E10    4.236232489347458E-3  -1.201994996517897E-2  
 2.506000000000000E10   -1.129812467843294E-2  -2.891937969252467E-3  
 2.508000000000000E10   -2.047103829681873E-3   1.110638678073883E-2  
 2.510000000000000E10    1.186080649495125E-2   9.930527303367853E-4  
 2.512000000000000E10   -3.893497632816434E-4  -1.221532840281725E-2  
 2.514000000000000E10   -1.093602646142244E-2   2.459202660247684E-3  
 2.516000000000000E10    4.230670165270567E-3   1.070911996066570E-2  
 2.518000000000000E10    1.054217945784330E-2  -6.100147496908903E-3  
 2.520000000000000E10   -7.341710850596428E-3  -9.811944328248501E-3  
 2.522000000000000E10   -8.278728462755680E-3   8.649311028420925E-3  
 2.524000000000000E10    9.491624310612679E-3   7.508382666856051E-3  
 2.526000000000000E10    7.124905940145254E-3  -1.037401985377073E-2  
 2.528000000000000E10   -1.099243294447660E-2  -6.126649212092161E-3  
 2.530000000000000E10   -4.863885231316090E-3   1.167144905775785E-2  
 2.532000000000000E10    1.239733491092920E-2   3.433954203501344E-3  
 2.534000000000000E10    2.371330279856920E-3  -1.242848020046949E-2  
 2.536000000000000E10   -1.229573506861925E-2  -6.341975531540811E-4  
 2.538000000000000E10    7.270578062161803E-4   1.113983988761902E-2  
 2.540000000000000E10    1.123935543000698E-2  -2.260609297081828E-3  
 2.542000000000000E10   -3.571997629478574E-3  -1.091405935585499E-2  
 2.544000000000000E10   -9.427572600543499E-3   5.142391659319401E-3  
 2.546000000000000E10    6.552416831254959E-3   8.549666032195091E-3  
 2.548000000000000E10    8.157694712281227E-3  -8.169715292751789E-3  
 2.550000000000000E10   -9.698117151856422E-3  -6.813900545239449E-3  
 2.552000000000000E10   -5.202337168157101E-3   1.069040223956108E-2  
 2.554000000000000E10    1.092742849141359E-2   3.952402155846357E-3  
 2.556000000000000E10    2.710309112444520E-3  -1.144762802869082E-2  
 2.558000000000000E10   -1.237228419631720E-2  -1.739521860145032E-3  
 2.560000000000000E10   -7.775446283631027E-4   1.150781288743019E-2  
 2.562000000000000E10    1.133320759981871E-2  -5.690673715434969E-4  
 2.564000000000000E10   -1.032562693580985E-3  -1.175967417657375E-2  
 2.566000000000000E10   -1.142746768891811E-2   2.479037502780557E-3  
 2.568000000000000E10    4.662775900214911E-3   1.068569160997868E-2  
 2.570000000000000E10    9.479641914367676E-3  -5.893819034099579E-3  
 2.572000000000000E10   -7.412834092974663E-3  -8.045935072004795E-3  
 2.574000000000000E10   -7.231153082102537E-3   8.180045522749424E-3  
 2.576000000000000E10    9.360647760331631E-3   5.658022128045559E-3  
 2.578000000000000E10    4.101198632270098E-3  -1.056637521833181E-2  
 2.580000000000000E10   -1.141385268419981E-2  -2.955159172415733E-3  
 2.582000000000000E10   -1.219933968968689E-3   1.130063924938440E-2  
 2.584000000000000E10    1.191379502415657E-2  -1.678570115473121E-4  
 2.586000000000000E10   -1.464213477447629E-3  -1.192381884902716E-2  
 2.588000000000000E10   -1.158947590738535E-2   2.426876453682780E-3  
 2.590000000000000E10    3.216140437871218E-3   1.081958785653114E-2  
 2.592000000000000E10    1.055560447275639E-2  -4.013773053884506E-3  
 2.594000000000000E10   -4.958796314895153E-3  -1.026276219636202E-2  
 2.596000000000000E10   -9.294727817177773E-3   5.782258696854115E-3  
 2.598000000000000E10    6.872752681374550E-3   8.269906044006348E-3  
 2.600000000000000E10    7.260287180542946E-3  -7.903153076767921E-3  
 2.602000000000000E10   -8.978122845292091E-3  -6.053267512470484E-3  
 2.604000000000000E10   -4.376626107841730E-3   9.834674187004566E-3  
 2.606000000000000E10    9.995033964514732E-3   2.211684128269553E-3  
 2.608000000000000E10    1.316591049544513E-3  -9.947055950760841E-3  
 2.610000000000000E10   -1.055524591356516E-2  -1.684172602836043E-4  
 2.612000000000000E10    1.368249533697963E-3   1.056394819170237E-2  
 2.614000000000000E10    1.102631632238627E-2  -2.185471588745713E-3  
 2.616000000000000E10   -3.151831915602088E-3  -1.072681881487370E-2  
 2.618000000000000E10   -1.024734787642956E-2   3.827228909358382E-3  
 2.620000000000000E10    5.604899488389492E-3   9.879914112389088E-3  
 2.622000000000000E10    8.363511413335800E-3  -6.275583524256945E-3  
 2.624000000000000E10   -6.166218779981136E-3  -8.005223236978054E-3  
 2.626000000000000E10   -7.194302510470152E-3   7.120198570191860E-3  
 2.628000000000000E10    8.063883520662785E-3   5.689461715519428E-3  
 2.630000000000000E10    4.618196282535791E-3  -8.930194191634655E-3  
 2.632000000000000E10   -8.869599550962448E-3  -3.069670172408223E-3  
 2.634000000000000E10   -1.597992493771017E-3   9.235235862433910E-3  
 2.636000000000000E10    9.861422702670097E-3   2.189060614909977E-4  
 2.638000000000000E10   -1.648307079449296E-3  -9.024510160088539E-3  
 2.640000000000000E10   -9.239017963409424E-3   1.966875046491623E-3  
 2.642000000000000E10    3.240614198148251E-3   9.244251064956188E-3  
 2.644000000000000E10    8.401259779930115E-3  -4.166682250797749E-3  
 2.646000000000000E10   -4.860949702560902E-3  -8.330949582159519E-3  
 2.648000000000000E10   -8.137159980833530E-3   5.628224927932024E-3  
 2.650000000000000E10    6.512119434773922E-3   7.148244883865118E-3  
 2.652000000000000E10    5.771743599325419E-3  -7.303410209715366E-3  
 2.654000000000000E10   -7.477689068764448E-3  -4.413528367877007E-3  
 2.656000000000000E10   -3.510068636387587E-3   7.624056655913591E-3  
 2.658000000000000E10    7.722709793597460E-3   1.864873454906046E-3  
 2.660000000000000E10    3.694586848723702E-5  -8.127382025122643E-3  
 2.662000000000000E10   -7.995154708623886E-3   4.823595809284598E-4  
 2.664000000000000E10    1.827355357818306E-3   7.882439531385899E-3  
 2.666000000000000E10    7.694696541875601E-3  -3.260967554524541E-3  
 2.668000000000000E10   -4.663976375013590E-3  -7.004057522863150E-3  
 2.670000000000000E10   -6.891326513141394E-3   4.993452224880457E-3  
 2.672000000000000E10    5.259967874735594E-3   6.351056974381208E-3  
 2.674000000000000E10    5.869882646948099E-3  -6.248615682125092E-3  
 2.676000000000000E10   -6.334816571325064E-3  -4.911107942461968E-3  
 2.678000000000000E10   -4.949161317199469E-3   5.600186530500650E-3  
 2.680000000000000E10    6.361762993037701E-3   4.334895405918360E-3  
 2.682000000000000E10    2.781639574095607E-3  -6.725544109940529E-3  
 2.684000000000000E10   -6.257138680666685E-3  -2.199471462517977E-3  
 2.686000000000000E10   -1.737922313623130E-3   6.543796509504318E-3  
 2.688000000000000E10    6.332597229629755E-3   3.939859743695706E-4  
 2.690000000000000E10   -1.187404734082520E-3  -5.856789648532867E-3  
 2.692000000000000E10   -5.798681173473597E-3   1.969664124771953E-3  
 2.694000000000000E10    2.062684856355190E-3   5.526255350559950E-3  
 2.696000000000000E10    5.611706990748644E-3  -3.795457072556019E-3  
 2.698000000000000E10   -4.598495084792376E-3  -4.724625963717699E-3  
 2.700000000000000E10   -4.320732317864895E-3   4.392802249640226E-3  
 2.702000000000000E10    5.476848687976599E-3   4.259045235812664E-3  
 2.704000000000000E10    3.493529977276921E-3  -5.486798007041216E-3  
 2.706000000000000E10   -5.445831920951605E-3  -2.973718103021383E-3  
 2.708000000000000E10   -3.002885961905122E-3   5.717407912015915E-3  
 2.710000000000000E10    5.925460718572140E-3   2.812729449942708E-3  
 2.712000000000000E10    1.207815599627793E-3  -6.010221783071756E-3  
 2.714000000000000E10   -5.180427338927984E-3  -7.340149750234559E-5  
 2.716000000000000E10   -3.244997060392052E-4   5.086194723844528E-3  
 2.718000000000000E10    5.357225425541401E-3  -9.294411865994334E-4  
 2.720000000000000E10   -2.188997576013207E-3  -4.603324458003044E-3  
 2.722000000000000E10   -4.331254865974188E-3   2.274977043271065E-3  
 2.724000000000000E10    3.072541905567050E-3   4.426794126629829E-3  
 2.726000000000000E10    4.138165153563023E-3  -3.925778903067112E-3  
 2.728000000000000E10   -4.903162829577923E-3  -3.371490631252527E-3  
 2.730000000000000E10   -3.047314705327153E-3   4.717855714261532E-3  
 2.732000000000000E10    4.833432845771313E-3   3.564540762454271E-3  
 2.734000000000000E10    2.738134237006307E-3  -5.254860967397690E-3  
 2.736000000000000E10   -5.072485655546188E-3  -2.329203533008695E-3  
 2.738000000000000E10   -2.219930756837130E-3   4.868332296609879E-3  
 2.740000000000000E10    5.398950073868036E-3   1.249036868102849E-3  
 2.742000000000000E10    3.073418629355729E-4  -4.611131269484758E-3  
 2.744000000000000E10   -3.818038152530789E-3   2.885693102143705E-4  
 2.746000000000000E10    8.395168697461486E-4   3.815935226157308E-3  
 2.748000000000000E10    3.606475656852126E-3  -1.232047681696713E-3  
 2.750000000000000E10   -2.271919976919890E-3  -2.951374743133783E-3  
 2.752000000000000E10   -2.633305732160807E-3   2.820382593199611E-3  
 2.754000000000000E10    2.957827877253294E-3   2.484092488884926E-3  
 2.756000000000000E10    2.181770280003548E-3  -4.122583195567131E-3  
