#  HZ   S   RI   R     50.00 
! Rohde & Schwarz ZVA40 4Ports - Version 3.90 - 1145.1110k42 SN: 100403
! Date: 2023-10-04 10:38:40
! Measurement: S12 
! 
 2.200000000000000E10   -1.200992497615516E-3  -5.440639331936836E-3  
 2.202000000000000E10   -5.101771559566259E-3   1.768825575709343E-3  
 2.204000000000000E10    1.130824675783515E-3   5.046145059168339E-3  
 2.206000000000000E10    5.102965515106916E-3  -1.344835851341486E-3  
 2.208000000000000E10   -1.184727880172432E-3  -5.392912309616804E-3  
 2.210000000000000E10   -6.041384767740965E-3   1.442366396076977E-3  
 2.212000000000000E10    1.979736611247063E-3   5.932143423706293E-3  
 2.214000000000000E10    7.097799796611071E-3  -2.910531358793378E-3  
 2.216000000000000E10   -3.774326527491212E-3  -7.868542335927486E-3  
 2.218000000000000E10   -7.070967927575111E-3   5.867463536560535E-3  
 2.220000000000000E10    6.949560716748238E-3   6.996853742748499E-3  
 2.222000000000000E10    7.036066614091396E-3  -8.265786804258823E-3  
 2.224000000000000E10   -1.006754953414202E-2  -5.773596931248903E-3  
 2.226000000000000E10   -4.232830367982388E-3   1.142991799861193E-2  
 2.228000000000000E10    1.254805736243725E-2   2.959046978503466E-3  
 2.230000000000000E10    1.034099608659744E-3  -1.341649517416954E-2  
 2.232000000000000E10   -1.378795877099037E-2   9.351848275400698E-4  
 2.234000000000000E10    3.413699334487319E-3   1.312362682074308E-2  
 2.236000000000000E10    1.314651779830456E-2  -4.631632473319769E-3  
 2.238000000000000E10   -6.445014383643866E-3  -1.251499075442553E-2  
 2.240000000000000E10   -1.106131635606289E-2   8.403894491493702E-3  
 2.242000000000000E10    1.077440753579140E-2   1.014262251555920E-2  
 2.244000000000000E10    8.072406053543091E-3  -1.232380419969559E-2  
 2.246000000000000E10   -1.253478135913611E-2  -6.433873437345028E-3  
 2.248000000000000E10   -4.520750138908625E-3   1.400668546557427E-2  
 2.250000000000000E10    1.521369721740484E-2   2.454845933243632E-3  
 2.252000000000000E10    9.095765999518335E-4  -1.564565300941467E-2  
 2.254000000000000E10   -1.544047705829144E-2   9.154403232969344E-4  
 2.256000000000000E10    3.088100114837289E-3   1.475918013602495E-2  
 2.258000000000000E10    1.566567085683346E-2  -4.734245128929615E-3  
 2.260000000000000E10   -5.814099218696356E-3  -1.491514220833778E-2  
 2.262000000000000E10   -1.355546899139881E-2   7.464558351784945E-3  
 2.264000000000000E10    8.680935017764568E-3   1.237288210541010E-2  
 2.266000000000000E10    1.134043466299772E-2  -1.029161363840103E-2  
 2.268000000000000E10   -1.206626277416945E-2  -9.965273551642895E-3  
 2.270000000000000E10   -7.668416481465101E-3   1.240084692835808E-2  
 2.272000000000000E10    1.300860568881035E-2   5.857435986399651E-3  
 2.274000000000000E10    4.400928039103746E-3  -1.486653462052345E-2  
 2.276000000000000E10   -1.540523115545511E-2  -2.374422736465931E-3  
 2.278000000000000E10    4.064722161274403E-4   1.533679850399494E-2  
 2.280000000000000E10    1.505538634955883E-2  -2.303742803633213E-3  
 2.282000000000000E10    5.273921880871058E-3  -1.425173878669739E-2  
 2.284000000000000E10   -1.484619267284870E-2   5.950004793703556E-3  
 2.286000000000000E10    7.038463372737169E-3   1.319114118814468E-2  
 2.288000000000000E10    1.269041746854782E-2  -8.254298940300942E-3  
 2.290000000000000E10   -9.444517083466053E-3  -1.225528866052628E-2  
 2.292000000000000E10   -1.097306702286005E-2   1.074811536818743E-2  
 2.294000000000000E10    1.165826525539160E-2   9.215022437274456E-3  
 2.296000000000000E10    7.656578440219164E-3  -1.241429708898068E-2  
 2.298000000000000E10   -1.346510369330645E-2  -5.963781848549843E-3  
 2.300000000000000E10   -4.290072247385979E-3   1.420642342418432E-2  
 2.302000000000000E10    1.408365927636623E-2   2.123410115018487E-3  
 2.304000000000000E10   -2.249279932584614E-4  -1.437738724052906E-2  
 2.306000000000000E10   -1.454633474349976E-2   1.914403284899890E-3  
 2.308000000000000E10    3.451229771599174E-3   1.431439444422722E-2  
 2.310000000000000E10    1.396057754755020E-2  -5.484071094542742E-3  
 2.312000000000000E10   -7.444046437740326E-3  -1.372095011174679E-2  
 2.314000000000000E10   -1.291121914982796E-2   9.263888001441956E-3  
 2.316000000000000E10    1.092230621725321E-2   1.200765743851662E-2  
 2.318000000000000E10    1.007476169615984E-2  -1.160489395260811E-2  
 2.320000000000000E10   -1.255338732153177E-2  -8.499376475811005E-3  
 2.322000000000000E10   -7.141589652746916E-3   1.344749983400106E-2  
 2.324000000000000E10    1.364513579756022E-2   5.577179137617350E-3  
 2.326000000000000E10    4.018920473754406E-3  -1.459741126745939E-2  
 2.328000000000000E10   -1.528034172952175E-2  -1.527779386378825E-3  
 2.330000000000000E10    1.165176159702241E-3   1.464963145554066E-2  
 2.332000000000000E10    1.394600421190262E-2  -2.689188346266747E-3  
 2.334000000000000E10   -4.694735631346703E-3  -1.343471836298704E-2  
 2.336000000000000E10   -1.306449342519045E-2   6.580774206668139E-3  
 2.338000000000000E10    8.296555839478970E-3   1.160275563597679E-2  
 2.340000000000000E10    1.106928940862417E-2  -9.262015111744404E-3  
 2.342000000000000E10   -1.091058831661940E-2  -1.060606818646193E-2  
 2.344000000000000E10   -9.216447360813618E-3   1.198320370167494E-2  
 2.346000000000000E10    1.333026494830847E-2   7.840975187718868E-3  
 2.348000000000000E10    5.658877547830343E-3  -1.401041541248560E-2  
 2.350000000000000E10   -1.421044487506151E-2  -4.464874975383282E-3  
 2.352000000000000E10   -2.601739717647433E-3   1.498140022158623E-2  
 2.354000000000000E10    1.438938174396753E-2   7.387668592855334E-4  
 2.356000000000000E10   -1.382842543534935E-3  -1.455603260546923E-2  
 2.358000000000000E10   -1.370979752391577E-2   3.167171264067292E-3  
 2.360000000000000E10    5.126339383423328E-3   1.320802047848702E-2  
 2.362000000000000E10    1.237146649509668E-2  -7.051805965602398E-3  
 2.364000000000000E10   -8.703941479325295E-3  -1.097375247627497E-2  
 2.366000000000000E10   -9.531129151582718E-3   1.032622903585434E-2  
 2.368000000000000E10    1.135782990604639E-2   8.706111460924149E-3  
 2.370000000000000E10    7.166718598455191E-3  -1.232761237770319E-2  
 2.372000000000000E10   -1.308977324515581E-2  -5.842058919370174E-3  
 2.374000000000000E10   -5.309299100190401E-3   1.400762517005205E-2  
 2.376000000000000E10    1.441692654043436E-2   4.031641874462366E-3  
 2.378000000000000E10    2.064970787614584E-3  -1.506590936332941E-2  
 2.380000000000000E10   -1.513418648391962E-2  -7.670368649996817E-4  
 2.382000000000000E10    1.274751150049269E-3   1.514840591698885E-2  
 2.384000000000000E10    1.415735948830843E-2  -2.914239652454853E-3  
 2.386000000000000E10   -4.946220200508833E-3  -1.308698486536741E-2  
 2.388000000000000E10   -1.209390256553888E-2   6.605054251849651E-3  
 2.390000000000000E10    8.273125626146793E-3   1.068042591214180E-2  
 2.392000000000000E10    9.056368842720985E-3  -9.523497894406319E-3  
 2.394000000000000E10   -1.118385698646307E-2  -7.500968873500824E-3  
 2.396000000000000E10   -6.453793030232191E-3   1.197093818336725E-2  
 2.398000000000000E10    1.348888594657183E-2   4.843083210289478E-3  
 2.400000000000000E10    2.797799417749047E-3  -1.401712279766798E-2  
 2.402000000000000E10   -1.431098207831383E-2  -1.061259463313036E-4  
 2.404000000000000E10    1.498584635555744E-3   1.478639151901007E-2  
 2.406000000000000E10    1.421557925641537E-2  -2.811757847666740E-3  
 2.408000000000000E10   -4.096684977412224E-3  -1.397213060408831E-2  
 2.410000000000000E10   -1.322913542389870E-2   5.357568617910147E-3  
 2.412000000000000E10    6.293633487075567E-3   1.208939775824547E-2  
 2.414000000000000E10    1.148622762411833E-2  -7.618040312081575E-3  
 2.416000000000000E10   -8.931029587984085E-3  -1.007010415196419E-2  
 2.418000000000000E10   -8.483706973493099E-3   9.768599644303322E-3  
 2.420000000000000E10    1.043545454740524E-2   6.819604430347681E-3  
 2.422000000000000E10    5.797449499368668E-3  -1.074610743671656E-2  
 2.424000000000000E10   -1.185955479741097E-2  -4.800891503691673E-3  
 2.426000000000000E10   -3.413388272747397E-3   1.264431234449148E-2  
 2.428000000000000E10    1.273120287805796E-2   1.649171230383217E-3  
 2.430000000000000E10    2.907759917434305E-4  -1.349101215600967E-2  
 2.432000000000000E10   -1.379488687962294E-2   8.892408222891390E-4  
 2.434000000000000E10    2.641221741214395E-3   1.407149806618691E-2  
 2.436000000000000E10    1.322903949767351E-2  -4.513089079409838E-3  
 2.438000000000000E10   -5.169659387320280E-3  -1.262953691184521E-2  
 2.440000000000000E10   -1.138983108103275E-2   5.948706995695829E-3  
 2.442000000000000E10    7.774873636662960E-3   1.051816437393427E-2  
 2.444000000000000E10    8.977727033197880E-3  -8.591043762862682E-3  
 2.446000000000000E10   -8.804350160062313E-3  -7.416191976517439E-3  
 2.448000000000000E10   -6.211221218109131E-3   9.661560878157616E-3  
 2.450000000000000E10    1.060168351978064E-2   4.800946451723576E-3  
 2.452000000000000E10    3.623369848355651E-3  -1.126752234995365E-2  
 2.454000000000000E10   -1.140863541513681E-2  -1.796892029233277E-3  
 2.456000000000000E10   -9.310502209700644E-4   1.172559522092342E-2  
 2.458000000000000E10    1.255109068006277E-2  -4.031080170534551E-4  
 2.460000000000000E10   -1.788059365935624E-3  -1.280288305133581E-2  
 2.462000000000000E10   -1.244953926652670E-2   3.129540244117379E-3  
 2.464000000000000E10    4.324766807258129E-3   1.194592192769051E-2  
 2.466000000000000E10    1.158528681844473E-2  -5.246411077678204E-3  
 2.468000000000000E10   -6.242366973310709E-3  -1.164474617689848E-2  
 2.470000000000000E10   -1.043815445154905E-2   7.050348911434412E-3  
 2.472000000000000E10    7.921427488327026E-3   8.594656363129616E-3  
 2.474000000000000E10    7.200891617685556E-3  -7.955634035170078E-3  
 2.476000000000000E10   -9.225402027368546E-3  -6.193013861775398E-3  
 2.478000000000000E10   -4.709857050329447E-3   9.482720866799355E-3  
 2.480000000000000E10    9.804534725844860E-3   2.873786259442568E-3  
 2.482000000000000E10    1.798428827896714E-3  -1.074718963354826E-2  
 2.484000000000000E10   -1.123960223048925E-2  -3.583171564969234E-5  
 2.486000000000000E10    1.695408951491118E-3   1.156900078058243E-2  
 2.488000000000000E10    1.088576670736074E-2  -3.612442407757044E-3  
 2.490000000000000E10   -4.051928874105215E-3  -1.074740570038557E-2  
 2.492000000000000E10   -1.107136998325586E-2   5.841521546244621E-3  
 2.494000000000000E10    6.515851709991694E-3   1.012236904352903E-2  
 2.496000000000000E10    9.248348884284496E-3  -7.616814225912094E-3  
 2.498000000000000E10   -8.475794456899166E-3  -8.229490369558334E-3  
 2.500000000000000E10   -7.735059130936861E-3   8.295316249132156E-3  
 2.502000000000000E10    8.808108977973461E-3   6.692836526781321E-3  
 2.504000000000000E10    4.468816798180342E-3  -9.218176826834679E-3  
 2.506000000000000E10   -9.125798009335995E-3  -3.653516527265310E-3  
 2.508000000000000E10   -2.935466123744845E-3   9.418668225407600E-3  
 2.510000000000000E10    9.108180180191994E-3   1.563296071253717E-3  
 2.512000000000000E10    5.253818744677119E-5  -9.728893637657166E-3  
 2.514000000000000E10   -1.013607997447252E-2   1.423521665856242E-3  
 2.516000000000000E10    2.728357212617993E-3   9.803211316466332E-3  
 2.518000000000000E10    9.584574028849602E-3  -4.072390962392092E-3  
 2.520000000000000E10   -5.337120965123177E-3  -9.179254993796349E-3  
 2.522000000000000E10   -9.259747341275215E-3   6.650400813668966E-3  
 2.524000000000000E10    7.291767746210098E-3   8.345059119164944E-3  
 2.526000000000000E10    7.334735244512558E-3  -7.558147422969341E-3  
 2.528000000000000E10   -9.060935117304325E-3  -7.190405856817961E-3  
 2.530000000000000E10   -5.897931754589081E-3   1.007398962974548E-2  
 2.532000000000000E10    9.302315302193165E-3   4.394863266497850E-3  
 2.534000000000000E10    3.029765794053674E-3  -9.579088538885117E-3  
 2.536000000000000E10   -9.725003503262997E-3  -1.560131902806461E-3  
 2.538000000000000E10   -1.721783191896975E-4   9.720264934003353E-3  
 2.540000000000000E10    9.248821064829826E-3  -1.049849786795676E-3  
 2.542000000000000E10   -2.546408912166953E-3  -8.868109434843063E-3  
 2.544000000000000E10   -9.446927346289158E-3   4.455202259123325E-3  
 2.546000000000000E10    5.225782748311758E-3   8.497016504406929E-3  
 2.548000000000000E10    7.547004614025354E-3  -6.340082734823227E-3  
 2.550000000000000E10   -8.015267550945282E-3  -7.138878572732210E-3  
 2.552000000000000E10   -6.041450891643763E-3   8.588650263845921E-3  
 2.554000000000000E10    8.898842148482800E-3   4.763291683048010E-3  
 2.556000000000000E10    4.183439537882805E-3  -8.557043038308621E-3  
 2.558000000000000E10   -9.421084076166153E-3  -3.208215814083815E-3  
 2.560000000000000E10   -1.795456162653863E-3   9.671363979578018E-3  
 2.562000000000000E10    8.876963518559933E-3   9.874844690784812E-4  
 2.564000000000000E10    1.210763584822416E-4  -8.864223957061768E-3  
 2.566000000000000E10   -9.143576957285404E-3   1.466639456339181E-3  
 2.568000000000000E10    3.300619078800082E-3   8.686184883117676E-3  
 2.570000000000000E10    7.679807022213936E-3  -4.701146855950356E-3  
 2.572000000000000E10   -5.572454072535038E-3  -6.959094665944576E-3  
 2.574000000000000E10   -6.464855279773474E-3   6.376031320542097E-3  
 2.576000000000000E10    8.251762948930264E-3   5.750107113271952E-3  
 2.578000000000000E10    4.601731430739164E-3  -8.587676100432873E-3  
 2.580000000000000E10   -9.192738682031632E-3  -3.771464107558131E-3  
 2.582000000000000E10   -2.975334180518985E-3   9.469862096011639E-3  
 2.584000000000000E10    9.829420596361160E-3   2.039285376667976E-3  
 2.586000000000000E10    1.186582725495100E-3  -1.010251697152853E-2  
 2.588000000000000E10   -9.304430335760117E-3   6.555590061907424E-6  
 2.590000000000000E10    9.174623992294073E-4   9.044807404279709E-3  
 2.592000000000000E10    8.615041151642799E-3  -1.443290966562927E-3  
 2.594000000000000E10   -2.460438059642911E-3  -8.256789296865463E-3  
 2.596000000000000E10   -7.391236256808043E-3   3.605172270908952E-3  
 2.598000000000000E10    4.860031884163618E-3   7.063786499202251E-3  
 2.600000000000000E10    6.446697749197483E-3  -6.012346129864454E-3  
 2.602000000000000E10   -7.125391159206629E-3  -5.236243363469839E-3  
 2.604000000000000E10   -3.579438431188464E-3   8.287474513053894E-3  
 2.606000000000000E10    9.108179248869419E-3   3.231381298974156E-3  
 2.608000000000000E10    1.994393300265074E-3  -9.175507351756096E-3  
 2.610000000000000E10   -8.841565810143948E-3  -1.209346344694495E-3  
 2.612000000000000E10   -6.410512723959982E-4   9.909097105264664E-3  
 2.614000000000000E10    9.461382403969765E-3  -5.006993305869401E-4  
 2.616000000000000E10   -1.445412286557257E-3  -9.197436273097992E-3  
 2.618000000000000E10   -8.891399018466473E-3   1.736440346576273E-3  
 2.620000000000000E10    2.749676816165447E-3   8.344379253685474E-3  
 2.622000000000000E10    7.657839916646481E-3  -4.123735241591930E-3  
 2.624000000000000E10   -4.120745230466127E-3  -6.098894868046045E-3  
 2.626000000000000E10   -5.524833686649799E-3   4.810348153114319E-3  
 2.628000000000000E10    5.804289132356644E-3   4.885297268629074E-3  
 2.630000000000000E10    3.593884641304612E-3  -6.430289708077908E-3  
 2.632000000000000E10   -7.170203607529402E-3  -2.426076214760542E-3  
 2.634000000000000E10   -1.491890172474086E-3   7.408761885017157E-3  
 2.636000000000000E10    8.181556127965450E-3   8.118320838548243E-4  
 2.638000000000000E10   -7.903994992375374E-4  -8.497854694724083E-3  
 2.640000000000000E10   -7.568265777081251E-3   1.064466196112335E-3  
 2.642000000000000E10    1.400415203534067E-3   7.749847136437893E-3  
 2.644000000000000E10    8.119112811982632E-3  -2.358884084969759E-3  
 2.646000000000000E10   -2.833910752087832E-3  -7.033838424831629E-3  
 2.648000000000000E10   -6.888812407851219E-3   3.665779018774629E-3  
 2.650000000000000E10    3.980804234743118E-3   6.215729750692844E-3  
 2.652000000000000E10    5.506548099219799E-3  -4.937081597745419E-3  
 2.654000000000000E10   -5.549566820263863E-3  -3.904819721356034E-3  
 2.656000000000000E10   -2.829367294907570E-3   5.766353104263544E-3  
 2.658000000000000E10    6.648785900324583E-3   2.400539116933942E-3  
 2.660000000000000E10    6.236775079742074E-4  -6.604323163628578E-3  
 2.662000000000000E10   -6.399740930646658E-3   4.246395837981254E-4  
 2.664000000000000E10    9.263526881113648E-4   6.577474530786276E-3  
 2.666000000000000E10    6.969227455556393E-3  -1.619009533897042E-3  
 2.668000000000000E10   -2.614320721477270E-3  -6.359552498906851E-3  
 2.670000000000000E10   -5.441264715045691E-3   3.107622265815735E-3  
 2.672000000000000E10    3.109084209427238E-3   5.153439007699490E-3  
 2.674000000000000E10    5.249687004834414E-3  -3.181360429152846E-3  
 2.676000000000000E10   -3.438105806708336E-3  -4.405064508318901E-3  
 2.678000000000000E10   -3.742643399164081E-3   3.839282086119056E-3  
 2.680000000000000E10    3.830291097983718E-3   3.697255859151483E-3  
 2.682000000000000E10    2.854247810319066E-3  -4.323566798120737E-3  
 2.684000000000000E10   -4.741692915558815E-3  -1.522002276033163E-3  
 2.686000000000000E10   -5.725111113861203E-4   4.412777256220579E-3  
 2.688000000000000E10    5.120244808495045E-3  -4.630595140042715E-5  
 2.690000000000000E10   -7.918595802038908E-4  -5.153796169906855E-3  
 2.692000000000000E10   -4.739196039736271E-3   1.854263944551349E-3  
 2.694000000000000E10    2.308298833668232E-3   4.911785479635000E-3  
 2.696000000000000E10    5.210469476878643E-3  -2.413964597508311E-3  
 2.698000000000000E10   -3.281338140368462E-3  -5.111609585583210E-3  
 2.700000000000000E10   -4.681070800870657E-3   3.684463445097208E-3  
 2.702000000000000E10    3.109901910647750E-3   4.401238169521093E-3  
 2.704000000000000E10    4.221547860652208E-3  -3.952474799007177E-3  
 2.706000000000000E10   -3.900193842127919E-3  -3.073489293456078E-3  
 2.708000000000000E10   -2.665252191945911E-3   3.523441497236490E-3  
 2.710000000000000E10    3.451785538345575E-3   2.533310092985630E-3  
 2.712000000000000E10    1.821864512749016E-3  -3.786920337006450E-3  
 2.714000000000000E10   -3.798587946221232E-3  -3.398364642634988E-4  
 2.716000000000000E10    2.199959853896871E-4   2.943400060757995E-3  
 2.718000000000000E10    3.125012153759599E-3  -3.657285124063492E-4  
 2.720000000000000E10   -1.171940239146352E-3  -3.688311902806163E-3  
 2.722000000000000E10   -3.104914445430040E-3   1.858528470620513E-3  
 2.724000000000000E10    1.884686411358416E-3   3.432964906096458E-3  
 2.726000000000000E10    3.903728676959872E-3  -2.651565475389361E-3  
 2.728000000000000E10   -3.361986950039864E-3  -3.665085649117827E-3  
 2.730000000000000E10   -2.768853912129998E-3   3.732370678335428E-3  
 2.732000000000000E10    3.501611528918147E-3   2.674131421372294E-3  
 2.734000000000000E10    3.042478114366531E-3  -3.398019354790449E-3  
 2.736000000000000E10   -3.569286083802581E-3  -2.016421174630523E-3  
 2.738000000000000E10   -1.451255055144429E-3   3.471710020676255E-3  
 2.740000000000000E10    2.917230362072587E-3   1.332067186012864E-3  
 2.742000000000000E10    6.026304326951504E-4  -3.078050678595901E-3  
 2.744000000000000E10   -2.718775067478418E-3   5.237411241978407E-4  
 2.746000000000000E10    9.428070625290275E-4   2.011314732953906E-3  
 2.748000000000000E10    2.400520024821162E-3  -1.592064625583589E-3  
 2.750000000000000E10   -1.651966362260282E-3  -2.399324672296643E-3  
 2.752000000000000E10   -1.967308577150106E-3   2.430541208013892E-3  
 2.754000000000000E10    2.752013737335801E-3   2.117382828146219E-3  
 2.756000000000000E10    2.308995462954044E-3  -2.811834681779146E-3  
