#  HZ   S   RI   R     50.00 
! Rohde & Schwarz ZVA40 4Ports - Version 3.90 - 1145.1110k42 SN: 100403
! Date: 2023-10-04 10:39:05
! Measurement: S12 
! 
 2.200000000000000E10    1.805201900424436E-4  -4.776779562234879E-3  
 2.202000000000000E10   -4.614387638866901E-3  -1.164494387921877E-4  
 2.204000000000000E10   -5.592261441051960E-4   4.553035367280245E-3  
 2.206000000000000E10    4.426190163940191E-3   4.094923497177661E-5  
 2.208000000000000E10    2.943764848168939E-4  -4.952329210937023E-3  
 2.210000000000000E10   -5.827373359352350E-3  -7.078228918544482E-6  
 2.212000000000000E10    6.543840863741934E-4   6.553437560796738E-3  
 2.214000000000000E10    7.337709423154593E-3  -1.131098833866417E-3  
 2.216000000000000E10   -2.210104838013649E-3  -7.911670021712780E-3  
 2.218000000000000E10   -7.791707757860422E-3   4.289980512112379E-3  
 2.220000000000000E10    4.919093567878008E-3   8.777304552495480E-3  
 2.222000000000000E10    8.286531083285809E-3  -6.142648402601481E-3  
 2.224000000000000E10   -7.774312980473042E-3  -7.137944456189871E-3  
 2.226000000000000E10   -6.822611670941114E-3   9.839861653745174E-3  
 2.228000000000000E10    1.087065413594246E-2   5.405861884355545E-3  
 2.230000000000000E10    3.917151130735874E-3  -1.132935471832752E-2  
 2.232000000000000E10   -1.261562108993530E-2  -2.086986787617207E-3  
 2.234000000000000E10    5.719955661334097E-4   1.245744526386261E-2  
 2.236000000000000E10    1.247149985283613E-2  -2.070891205221415E-3  
 2.238000000000000E10   -3.471267176792026E-3  -1.213582605123520E-2  
 2.240000000000000E10   -1.169289276003838E-2   6.008413620293140E-3  
 2.242000000000000E10    8.436452597379684E-3   1.142671238631010E-2  
 2.244000000000000E10    1.012651342898607E-2  -9.714874438941479E-3  
 2.246000000000000E10   -1.071069017052651E-2  -8.636179380118847E-3  
 2.248000000000000E10   -7.521655876189470E-3   1.214323751628399E-2  
 2.250000000000000E10    1.369894389063120E-2   5.864074453711510E-3  
 2.252000000000000E10    4.509098362177610E-3  -1.430847775191069E-2  
 2.254000000000000E10   -1.318710949271917E-2  -2.580952364951372E-3  
 2.256000000000000E10   -8.413652540184557E-4   1.374670676887035E-2  
 2.258000000000000E10    1.435545459389687E-2  -1.325576566159725E-3  
 2.260000000000000E10   -1.769183203577995E-3  -1.327805686742067E-2  
 2.262000000000000E10   -1.251645758748055E-2   3.726741997525096E-3  
 2.264000000000000E10    5.538171622902155E-3   1.255175285041332E-2  
 2.266000000000000E10    1.153911557048559E-2  -7.762040942907333E-3  
 2.268000000000000E10   -9.343462064862251E-3  -1.094790268689394E-2  
 2.270000000000000E10   -9.561819024384022E-3   9.860599413514137E-3  
 2.272000000000000E10    1.134888082742691E-2   8.085492998361588E-3  
 2.274000000000000E10    6.822902709245682E-3  -1.293189451098442E-2  
 2.276000000000000E10   -1.345038972795010E-2  -5.588180851191282E-3  
 2.278000000000000E10   -3.475473495200276E-3   1.388285588473082E-2  
 2.280000000000000E10    1.404233556240797E-2   1.636727363802493E-3  
 2.282000000000000E10    8.054804988205433E-3  -1.119801960885525E-2  
 2.284000000000000E10   -1.378298923373222E-2   8.800384239293635E-4  
 2.286000000000000E10    2.853147918358445E-3   1.324857491999865E-2  
 2.288000000000000E10    1.230305526405573E-2  -5.213653668761253E-3  
 2.290000000000000E10   -5.947157740592957E-3  -1.179310586303473E-2  
 2.292000000000000E10   -1.020696293562651E-2   7.244804874062538E-3  
 2.294000000000000E10    8.822296746075153E-3   9.308931417763233E-3  
 2.296000000000000E10    7.620049174875021E-3  -1.016906648874283E-2  
 2.298000000000000E10   -1.055967248976231E-2  -6.571381818503141E-3  
 2.300000000000000E10   -5.956566426903009E-3   1.180402003228664E-2  
 2.302000000000000E10    1.270768791437149E-2   4.177559167146683E-3  
 2.304000000000000E10    2.189869293943048E-3  -1.334948185831308E-2  
 2.306000000000000E10   -1.345464028418064E-2  -1.503134379163384E-3  
 2.308000000000000E10   -5.523698055185378E-4   1.311499904841185E-2  
 2.310000000000000E10    1.339512225240469E-2  -1.579524949193001E-3  
 2.312000000000000E10   -2.431369386613369E-3  -1.316714566200972E-2  
 2.314000000000000E10   -1.287871319800615E-2   3.722309833392501E-3  
 2.316000000000000E10    5.503345280885696E-3   1.197316311299801E-2  
 2.318000000000000E10    1.057629380375147E-2  -6.605527363717556E-3  
 2.320000000000000E10   -8.165000006556511E-3  -9.386388584971428E-3  
 2.322000000000000E10   -8.023101836442947E-3   8.672695606946945E-3  
 2.324000000000000E10    9.765983559191227E-3   6.919321138411760E-3  
 2.326000000000000E10    5.020668730139732E-3  -1.177507452666760E-2  
 2.328000000000000E10   -1.188173703849316E-2  -3.455696394667029E-3  
 2.330000000000000E10   -1.670547178946436E-3   1.251873560249806E-2  
 2.332000000000000E10    1.278077159076929E-2   2.409485568932723E-5  
 2.334000000000000E10   -1.089783268980682E-3  -1.288520637899637E-2  
 2.336000000000000E10   -1.333639491349459E-2   3.019555006176233E-3  
 2.338000000000000E10    3.918436355888844E-3   1.263246778398752E-2  
 2.340000000000000E10    1.178820617496967E-2  -5.025848746299744E-3  
 2.342000000000000E10   -6.353222765028477E-3  -1.136413868516684E-2  
 2.344000000000000E10   -1.058946829289198E-2   7.599915377795696E-3  
 2.346000000000000E10    8.456423878669739E-3   9.525460191071034E-3  
 2.348000000000000E10    7.576668169349432E-3  -8.910011500120163E-3  
 2.350000000000000E10   -1.000608690083027E-2  -6.449583917856216E-3  
 2.352000000000000E10   -4.576034843921661E-3   1.087616197764874E-2  
 2.354000000000000E10    1.113499142229557E-2   3.345667151734233E-3  
 2.356000000000000E10    1.938256784342229E-3  -1.163980271667242E-2  
 2.358000000000000E10   -1.228858903050423E-2   3.281554090790451E-4  
 2.360000000000000E10    1.865308498963714E-3   1.186274923384190E-2  
 2.362000000000000E10    1.263131760060787E-2  -3.323224140331149E-3  
 2.364000000000000E10   -5.041994154453278E-3  -1.179440412670374E-2  
 2.366000000000000E10   -1.037361193448305E-2   6.729084998369217E-3  
 2.368000000000000E10    7.740918081253767E-3   1.023041736334562E-2  
 2.370000000000000E10    9.670097380876541E-3  -8.534707129001617E-3  
 2.372000000000000E10   -9.338910691440105E-3  -7.850513793528080E-3  
 2.374000000000000E10   -6.878782063722611E-3   1.007724180817604E-2  
 2.376000000000000E10    1.025668811053038E-2   5.893809255212545E-3  
 2.378000000000000E10    5.062168464064598E-3  -1.066587772220373E-2  
 2.380000000000000E10   -1.118371449410915E-2  -3.410130972042680E-3  
 2.382000000000000E10   -1.522450824268162E-3   1.140628848224878E-2  
 2.384000000000000E10    1.103897579014301E-2  -3.107927623204887E-4  
 2.386000000000000E10   -1.488338923081756E-3  -1.141100469976664E-2  
 2.388000000000000E10   -1.064170338213444E-2   3.666229080408812E-3  
 2.390000000000000E10    4.652126692235470E-3   9.889666922390461E-3  
 2.392000000000000E10    9.683690033853054E-3  -6.448363419622183E-3  
 2.394000000000000E10   -7.293222006410360E-3  -8.657249622046948E-3  
 2.396000000000000E10   -8.266414515674114E-3   7.899335585534573E-3  
 2.398000000000000E10    9.375826455652714E-3   6.998380646109581E-3  
 2.400000000000000E10    6.430860608816147E-3  -9.600163437426090E-3  
 2.402000000000000E10   -1.112099643796682E-2  -4.078421741724014E-3  
 2.404000000000000E10   -2.125382190570235E-3   1.058116834610701E-2  
 2.406000000000000E10    1.046985574066639E-2   1.712051569484174E-3  
 2.408000000000000E10    1.535003248136491E-4  -1.083281356841326E-2  
 2.410000000000000E10   -9.748704731464386E-3   9.903816971927881E-4  
 2.412000000000000E10    2.105757594108582E-3   9.729506447911263E-3  
 2.414000000000000E10    8.857171982526779E-3  -3.979861736297607E-3  
 2.416000000000000E10   -4.814499057829380E-3  -8.955030702054501E-3  
 2.418000000000000E10   -8.307787589728832E-3   6.409092340618372E-3  
 2.420000000000000E10    7.403421681374311E-3   7.181806955486536E-3  
 2.422000000000000E10    6.709037348628044E-3  -7.872736081480980E-3  
 2.424000000000000E10   -9.209604002535343E-3  -6.220596376806498E-3  
 2.426000000000000E10   -5.199398379772902E-3   9.780728258192539E-3  
 2.428000000000000E10    9.986400604248047E-3   4.608953371644020E-3  
 2.430000000000000E10    3.566467436030507E-3  -1.060265582054853E-2  
 2.432000000000000E10   -1.058091502636671E-2  -3.307103179395199E-3  
 2.434000000000000E10   -2.054607495665550E-3   1.084939483553171E-2  
 2.436000000000000E10    1.087051630020142E-2   1.060603826772422E-4  
 2.438000000000000E10   -3.919540031347424E-4  -9.804336354136467E-3  
 2.440000000000000E10   -9.460389614105225E-3   1.976980129256845E-3  
 2.442000000000000E10    3.436096245422959E-3   8.732247166335583E-3  
 2.444000000000000E10    7.575781084597111E-3  -4.220264032483101E-3  
 2.446000000000000E10   -5.143830552697182E-3  -6.745703984051943E-3  
 2.448000000000000E10   -5.924190394580364E-3   6.264295428991318E-3  
 2.450000000000000E10    7.527811452746391E-3   5.602344404906035E-3  
 2.452000000000000E10    4.651075229048729E-3  -8.344274014234543E-3  
 2.454000000000000E10   -8.577596396207809E-3  -3.559138393029571E-3  
 2.456000000000000E10   -2.848378848284483E-3   9.913052432239056E-3  
 2.458000000000000E10    1.005001645535231E-2   2.165366429835558E-3  
 2.460000000000000E10    1.289289910346270E-3  -9.783416055142880E-3  
 2.462000000000000E10   -1.015854626893997E-2  -2.400170633336529E-4  
 2.464000000000000E10    1.868786930572242E-4   9.384253993630409E-3  
 2.466000000000000E10    9.346272796392441E-3  -8.001633686944842E-4  
 2.468000000000000E10   -1.881798729300499E-3  -9.178066626191139E-3  
 2.470000000000000E10   -8.730980567634106E-3   3.115328028798103E-3  
 2.472000000000000E10    4.235319793224335E-3   7.531834766268730E-3  
 2.474000000000000E10    6.654338445514441E-3  -4.857423715293407E-3  
 2.476000000000000E10   -5.164599511772394E-3  -5.673338659107685E-3  
 2.478000000000000E10   -4.416461102664471E-3   6.202235817909241E-3  
 2.480000000000000E10    7.218089886009693E-3   3.936853725463152E-3  
 2.482000000000000E10    3.213014453649521E-3  -8.038809522986412E-3  
 2.484000000000000E10   -8.197968825697899E-3  -2.213330473750830E-3  
 2.486000000000000E10   -7.503728265874088E-4   8.738214150071144E-3  
 2.488000000000000E10    8.974807336926460E-3  -7.513816672144458E-5  
 2.490000000000000E10   -7.402068586088717E-4  -8.776142261922360E-3  
 2.492000000000000E10   -8.761941455304623E-3   1.329547143541277E-3  
 2.494000000000000E10    2.192573621869087E-3   8.111624047160149E-3  
 2.496000000000000E10    8.220266550779343E-3  -3.590268082916737E-3  
 2.498000000000000E10   -3.808387788012624E-3  -6.948974914848805E-3  
 2.500000000000000E10   -5.977025255560875E-3   3.889812855049968E-3  
 2.502000000000000E10    4.794788546860218E-3   5.712084006518126E-3  
 2.504000000000000E10    4.232233390212059E-3  -5.791658069938421E-3  
 2.506000000000000E10   -5.567594431340694E-3  -3.618110436946154E-3  
 2.508000000000000E10   -2.793091814965010E-3   5.959910340607166E-3  
 2.510000000000000E10    6.819859147071838E-3   1.946349279023707E-3  
 2.512000000000000E10    1.022291020490229E-3  -7.470798678696156E-3  
 2.514000000000000E10   -7.478688843548298E-3  -7.634848589077592E-4  
 2.516000000000000E10    2.508588659111410E-4   7.331983651965857E-3  
 2.518000000000000E10    8.173911832273006E-3  -1.336398301646113E-3  
 2.520000000000000E10   -2.092134440317750E-3  -7.642368786036968E-3  
 2.522000000000000E10   -7.389295380562544E-3   1.945096533745527E-3  
 2.524000000000000E10    2.424188656732440E-3   6.968163419514895E-3  
 2.526000000000000E10    6.595843471586704E-3  -3.175933146849275E-3  
 2.528000000000000E10   -4.092910327017307E-3  -6.223317701369524E-3  
 2.530000000000000E10   -5.322723649442196E-3   3.975831903517246E-3  
 2.532000000000000E10    4.825324751436710E-3   4.236062522977591E-3  
 2.534000000000000E10    3.110363380983472E-3  -5.427361465990543E-3  
 2.536000000000000E10   -5.494455806910992E-3  -2.515977015718818E-3  
 2.538000000000000E10   -2.069871639832854E-3   5.979003850370646E-3  
 2.540000000000000E10    6.348066963255405E-3   2.391951711615548E-4  
 2.542000000000000E10   -1.062756287865341E-3  -7.451304234564304E-3  
 2.544000000000000E10   -6.996544077992439E-3   1.566668972373009E-3  
 2.546000000000000E10    1.984406961128116E-3   6.792292930185795E-3  
 2.548000000000000E10    6.941053550690413E-3  -3.742241766303778E-3  
 2.550000000000000E10   -4.467216320335865E-3  -6.502226926386356E-3  
 2.552000000000000E10   -5.989947821944952E-3   4.626689013093710E-3  
 2.554000000000000E10    4.950855858623982E-3   5.478012841194868E-3  
 2.556000000000000E10    4.343172069638968E-3  -5.103403702378273E-3  
 2.558000000000000E10   -5.664318334311247E-3  -4.048739559948444E-3  
 2.560000000000000E10   -3.149691503494978E-3   5.217989441007376E-3  
 2.562000000000000E10    5.342505872249603E-3   1.956618856638670E-3  
 2.564000000000000E10    9.654143359512091E-4  -5.952571984380484E-3  
 2.566000000000000E10   -5.675610620528460E-3  -3.844500752165914E-4  
 2.568000000000000E10    1.185409375466406E-3   5.622716154903173E-3  
 2.570000000000000E10    5.125733092427254E-3  -2.349903574213386E-3  
 2.572000000000000E10   -2.894736826419830E-3  -4.773930180817843E-3  
 2.574000000000000E10   -5.406687036156654E-3   3.977549728006125E-3  
 2.576000000000000E10    4.523588344454765E-3   4.776891786605120E-3  
 2.578000000000000E10    3.901253221556544E-3  -5.454737227410078E-3  
 2.580000000000000E10   -6.196874193847179E-3  -3.709770040586591E-3  
 2.582000000000000E10   -3.399497829377651E-3   5.821433849632740E-3  
 2.584000000000000E10    6.054600700736046E-3   2.277298830449581E-3  
 2.586000000000000E10    1.789613626897335E-3  -6.408015266060829E-3  
 2.588000000000000E10   -5.738241598010063E-3  -1.281499047763646E-3  
 2.590000000000000E10   -4.031197167932987E-4   5.339717958122492E-3  
 2.592000000000000E10    4.984036087989807E-3   2.160621370421723E-4  
 2.594000000000000E10   -5.307381507009268E-4  -4.845074377954006E-3  
 2.596000000000000E10   -5.034713074564934E-3   1.323996228165925E-3  
 2.598000000000000E10    2.401462756097317E-3   4.770273342728615E-3  
 2.600000000000000E10    4.101403523236513E-3  -2.877009334042668E-3  
 2.602000000000000E10   -4.111962392926216E-3  -3.735892707481980E-3  
 2.604000000000000E10   -2.927504945546389E-3   4.595811013132334E-3  
 2.606000000000000E10    4.967659246176481E-3   2.960294717922807E-3  
 2.608000000000000E10    2.073529409244657E-3  -5.054176319390535E-3  
 2.610000000000000E10   -5.188664421439171E-3  -2.431375207379460E-3  
 2.612000000000000E10   -1.645508455112577E-3   5.911067593842745E-3  
 2.614000000000000E10    4.957801662385464E-3   1.238803262822330E-3  
 2.616000000000000E10    8.260518079623580E-4  -5.139979533851147E-3  
 2.618000000000000E10   -5.435063503682613E-3  -2.219391462858766E-4  
 2.620000000000000E10    6.177998147904873E-4   4.992432892322540E-3  
 2.622000000000000E10    4.094237461686134E-3  -1.144535257481039E-3  
 2.624000000000000E10   -1.575770322233439E-3  -4.114926327019930E-3  
 2.626000000000000E10   -3.912518266588450E-3   2.498633461073041E-3  
 2.628000000000000E10    3.298085415735841E-3   3.099874593317509E-3  
 2.630000000000000E10    2.554073929786682E-3  -3.635872388258576E-3  
 2.632000000000000E10   -4.358178470283747E-3  -2.372108865529299E-3  
 2.634000000000000E10   -1.359139685519040E-3   4.738159012049437E-3  
 2.636000000000000E10    4.779470618814230E-3   9.859352139756084E-4  
 2.638000000000000E10    5.551700014621019E-4  -5.127303767949343E-3  
 2.640000000000000E10   -4.712461028248072E-3  -6.170493434183300E-4  
 2.642000000000000E10   -1.354850537609309E-4   4.696519114077091E-3  
 2.644000000000000E10    4.102692473679781E-3  -3.687580174300820E-4  
 2.646000000000000E10   -4.536624765023589E-4  -4.099485464394093E-3  
 2.648000000000000E10   -4.060644656419754E-3   6.188129191286862E-4  
 2.650000000000000E10    1.306209014728665E-3   3.516574623063207E-3  
 2.652000000000000E10    2.533121732994914E-3  -1.942238886840642E-3  
 2.654000000000000E10   -2.139734802767634E-3  -2.414267044514418E-3  
 2.656000000000000E10   -1.740009640343487E-3   2.641478320583701E-3  
 2.658000000000000E10    3.198869759216905E-3   1.027998514473438E-3  
 2.660000000000000E10    3.700551169458777E-4  -3.291066735982895E-3  
 2.662000000000000E10   -3.881228854879737E-3  -2.239061577711254E-4  
 2.664000000000000E10    5.820493242936209E-5   3.788218135014176E-3  
 2.666000000000000E10    3.952814731746912E-3  -7.876243325881660E-4  
 2.668000000000000E10   -8.093361393548548E-4  -3.603352000936866E-3  
 2.670000000000000E10   -3.727528732270002E-3   8.274597348645330E-4  
 2.672000000000000E10    1.033535343594849E-3   3.786585293710232E-3  
 2.674000000000000E10    3.113069804385305E-3  -8.437065407633781E-4  
 2.676000000000000E10   -9.309549932368100E-4  -2.877475228160620E-3  
 2.678000000000000E10   -2.892308868467808E-3   8.731449488550425E-4  
 2.680000000000000E10    1.728193834424019E-3   2.236950909718871E-3  
 2.682000000000000E10    1.486257300712168E-3  -1.645926851779223E-3  
 2.684000000000000E10   -1.559248543344438E-3  -1.184361521154642E-3  
 2.686000000000000E10   -9.469485958106816E-4   2.044219290837646E-3  
 2.688000000000000E10    2.109405118972063E-3  -4.526211705524474E-4  
 2.690000000000000E10   -2.482435374986380E-4  -1.505516935139895E-3  
 2.692000000000000E10   -2.134501468390226E-3   3.048631187994033E-4  
 2.694000000000000E10    7.045624079182744E-4   2.917094854637981E-3  
 2.696000000000000E10    2.667728113010526E-3  -1.515574287623167E-3  
 2.698000000000000E10   -1.400563283823431E-3  -2.423505298793316E-3  
 2.700000000000000E10   -2.841049339622259E-3   1.148531329818070E-3  
 2.702000000000000E10    1.317976391874254E-3   2.916288562119007E-3  
 2.704000000000000E10    2.072490518912673E-3  -1.619341084733605E-3  
 2.706000000000000E10   -9.916777489706874E-4  -2.140337601304054E-3  
 2.708000000000000E10   -2.077390905469656E-3   1.150608644820750E-3  
 2.710000000000000E10    1.076215645298362E-3   1.449553528800607E-3  
 2.712000000000000E10    6.916657439433038E-4  -1.003602752462030E-3  
 2.714000000000000E10   -4.914195742458105E-4  -3.904954646714032E-4  
 2.716000000000000E10   -4.662713618017733E-4   1.382363261654973E-3  
 2.718000000000000E10    9.863884188234806E-4  -6.858382839709520E-4  
 2.720000000000000E10   -6.354755605570972E-4  -7.657724199816585E-4  
 2.722000000000000E10   -1.354801002889872E-3   5.527121829800308E-4  
 2.724000000000000E10    1.102373120374978E-3   1.751600299030542E-3  
 2.726000000000000E10    1.425416208803654E-3  -1.254698378033936E-3  
 2.728000000000000E10   -1.319198403507471E-3  -1.496522454544902E-3  
 2.730000000000000E10   -1.885440782643855E-3   1.217237673699856E-3  
 2.732000000000000E10    1.535737654194236E-3   2.299149753525853E-3  
 2.734000000000000E10    1.420002896338701E-3  -6.959838792681694E-4  
 2.736000000000000E10   -7.095354376360774E-4  -1.845522434450686E-3  
 2.738000000000000E10   -1.920603914186359E-3   1.185947679914534E-3  
 2.740000000000000E10    4.775814304593951E-4   1.151931472122669E-3  
 2.742000000000000E10    8.160471334122121E-4  -3.995481529273093E-4  
 2.744000000000000E10   -5.917227827012539E-4  -5.638216971419752E-4  
 2.746000000000000E10   -1.329612859990448E-4   4.380586033221334E-4  
 2.748000000000000E10    3.869039937853813E-4  -6.123176426626742E-4  
 2.750000000000000E10   -8.129230700433254E-4  -6.690057489322498E-5  
 2.752000000000000E10   -7.191948825493455E-4   9.635036112740636E-4  
 2.754000000000000E10    1.324522774666548E-3   7.257314864546061E-4  
 2.756000000000000E10    2.123362064594403E-4  -1.446026493795216E-3  
