#  HZ   S   RI   R     50.00 
! Rohde & Schwarz ZVA40 4Ports - Version 3.90 - 1145.1110k42 SN: 100403
! Date: 2023-10-04 10:39:21
! Measurement: S12 
! 
 2.200000000000000E10   -1.861108321463689E-4  -4.575608763843775E-3  
 2.202000000000000E10   -4.977241624146700E-3   8.047716110013425E-4  
 2.204000000000000E10    1.409177086316049E-3   4.149333108216524E-3  
 2.206000000000000E10    5.423728376626968E-3  -1.003922778181732E-3  
 2.208000000000000E10   -1.177268568426371E-3  -5.525955464690924E-3  
 2.210000000000000E10   -5.857718642801046E-3   1.439752872101963E-3  
 2.212000000000000E10    2.493460429832339E-3   6.695937830954790E-3  
 2.214000000000000E10    7.042077835649252E-3  -3.260646713897586E-3  
 2.216000000000000E10   -3.735054749995470E-3  -8.169754408299923E-3  
 2.218000000000000E10   -7.779245730489492E-3   5.234299227595329E-3  
 2.220000000000000E10    6.009390112012625E-3   7.144968491047621E-3  
 2.222000000000000E10    7.088592275977135E-3  -8.010860532522202E-3  
 2.224000000000000E10   -8.916689082980156E-3  -6.469742394983769E-3  
 2.226000000000000E10   -4.708078224211931E-3   9.681391529738903E-3  
 2.228000000000000E10    1.138313952833414E-2   3.331792075186968E-3  
 2.230000000000000E10    1.162699889391661E-3  -1.208189502358437E-2  
 2.232000000000000E10   -1.253341045230627E-2   5.972420331090689E-4  
 2.234000000000000E10    2.536948537454009E-3   1.215207390487194E-2  
 2.236000000000000E10    1.148082502186298E-2  -4.802618175745010E-3  
 2.238000000000000E10   -6.167919375002384E-3  -1.148497685790062E-2  
 2.240000000000000E10   -1.087610330432653E-2   8.093995042145252E-3  
 2.242000000000000E10    9.321479126811028E-3   9.518368169665337E-3  
 2.244000000000000E10    8.083238266408444E-3  -1.126124616712332E-2  
 2.246000000000000E10   -1.204094104468823E-2  -6.682896986603737E-3  
 2.248000000000000E10   -5.814824718981981E-3   1.220652740448713E-2  
 2.250000000000000E10    1.352577656507492E-2   4.189749713987112E-3  
 2.252000000000000E10    1.473858952522278E-3  -1.358083728700876E-2  
 2.254000000000000E10   -1.364028174430132E-2   1.818317541619763E-4  
 2.256000000000000E10    1.624769065529108E-3   1.341538969427347E-2  
 2.258000000000000E10    1.235327310860157E-2  -3.002685261890292E-3  
 2.260000000000000E10   -4.467985127121210E-3  -1.219159178435803E-2  
 2.262000000000000E10   -1.130580622702837E-2   6.643005646765232E-3  
 2.264000000000000E10    7.466436829417944E-3   1.049818191677332E-2  
 2.266000000000000E10    9.840799495577812E-3  -9.326612576842308E-3  
 2.268000000000000E10   -1.048855297267437E-2  -8.535575121641159E-3  
 2.270000000000000E10   -7.202639244496822E-3   1.185079477727413E-2  
 2.272000000000000E10    1.268137898296118E-2   6.377317011356354E-3  
 2.274000000000000E10    4.706344101577997E-3  -1.279762573540211E-2  
 2.276000000000000E10   -1.370098534971476E-2  -2.272537909448147E-3  
 2.278000000000000E10   -1.095368759706616E-3   1.364111527800560E-2  
 2.280000000000000E10    1.316070742905140E-2  -1.720245782053098E-4  
 2.282000000000000E10    5.605401005595923E-3  -1.168283820152283E-2  
 2.284000000000000E10   -1.207307819277048E-2   3.718780353665352E-3  
 2.286000000000000E10    5.235975142568350E-3   1.171256322413683E-2  
 2.288000000000000E10    1.034092064946890E-2  -6.158535834401846E-3  
 2.290000000000000E10   -7.340998388826847E-3  -8.942713961005211E-3  
 2.292000000000000E10   -8.299935609102249E-3   8.862854912877083E-3  
 2.294000000000000E10    1.019057724624872E-2   7.697060704231262E-3  
 2.296000000000000E10    6.246925797313452E-3  -1.078387163579464E-2  
 2.298000000000000E10   -1.135257259011269E-2  -4.795010201632977E-3  
 2.300000000000000E10   -3.789664246141911E-3   1.211144216358662E-2  
 2.302000000000000E10    1.328218542039394E-2   2.505441894754767E-3  
 2.304000000000000E10    9.361263946630061E-4  -1.219657436013222E-2  
 2.306000000000000E10   -1.187155861407518E-2   8.722619968466461E-4  
 2.308000000000000E10    1.813433715142310E-3   1.175077352672815E-2  
 2.310000000000000E10    1.152536924928427E-2  -3.023689379915595E-3  
 2.312000000000000E10   -4.792638123035431E-3  -1.096071861684322E-2  
 2.314000000000000E10   -9.819692932069302E-3   5.835751071572304E-3  
 2.316000000000000E10    7.195283658802509E-3   9.053556248545647E-3  
 2.318000000000000E10    7.981244474649429E-3  -8.767134509980679E-3  
 2.320000000000000E10   -9.043639525771141E-3  -6.308645475655794E-3  
 2.322000000000000E10   -4.801810719072819E-3   1.017039269208908E-2  
 2.324000000000000E10    1.031940337270498E-2   4.162161145359278E-3  
 2.326000000000000E10    3.485239110887051E-3  -1.088487729430199E-2  
 2.328000000000000E10   -1.212917454540730E-2  -1.604417921043932E-3  
 2.330000000000000E10   -3.723185800481588E-4   1.225808728486300E-2  
 2.332000000000000E10    1.264141499996185E-2  -1.241892343387008E-3  
 2.334000000000000E10   -2.404782921075821E-3  -1.237649843096733E-2  
 2.336000000000000E10   -1.180708501487970E-2   3.431877819821239E-3  
 2.338000000000000E10    5.055954679846764E-3   1.066859066486359E-2  
 2.340000000000000E10    9.914859198033810E-3  -5.903061013668776E-3  
 2.342000000000000E10   -6.350739393383265E-3  -9.907465428113937E-3  
 2.344000000000000E10   -8.334334939718247E-3   7.471619639545679E-3  
 2.346000000000000E10    8.015566505491734E-3   6.858968175947666E-3  
 2.348000000000000E10    5.761233158409596E-3  -8.963351137936115E-3  
 2.350000000000000E10   -9.922749362885952E-3  -4.712847527116537E-3  
 2.352000000000000E10   -2.253906568512321E-3   1.031719520688057E-2  
 2.354000000000000E10    1.063319668173790E-2   1.119701308198273E-3  
 2.356000000000000E10   -5.535517120733857E-4  -1.143049262464047E-2  
 2.358000000000000E10   -1.176119968295097E-2   1.934378175064921E-3  
 2.360000000000000E10    3.310655709356070E-3   1.134580746293068E-2  
 2.362000000000000E10    1.057407073676586E-2  -4.842152819037437E-3  
 2.364000000000000E10   -6.232199724763632E-3  -1.078633964061737E-2  
 2.366000000000000E10   -9.501146152615547E-3   7.097580004483461E-3  
 2.368000000000000E10    7.296655792742968E-3   8.102540858089924E-3  
 2.370000000000000E10    7.353765424340963E-3  -7.962536998093128E-3  
 2.372000000000000E10   -8.708812296390533E-3  -6.464628968387842E-3  
 2.374000000000000E10   -5.469236522912979E-3   9.002828039228916E-3  
 2.376000000000000E10    9.115311317145824E-3   3.985225223004818E-3  
 2.378000000000000E10    2.518514636904001E-3  -9.437014348804951E-3  
 2.380000000000000E10   -1.015480514615774E-2  -5.934835644438863E-4  
 2.382000000000000E10    8.224208722822368E-4   9.888561442494392E-3  
 2.384000000000000E10    9.651884436607361E-3  -2.294443314895034E-3  
 2.386000000000000E10   -3.478582482784987E-3  -9.399702772498131E-3  
 2.388000000000000E10   -9.064240381121635E-3   5.130268167704344E-3  
 2.390000000000000E10    6.273232400417328E-3   8.317306637763977E-3  
 2.392000000000000E10    7.578934542834759E-3  -6.615507416427136E-3  
 2.394000000000000E10   -7.991994731128216E-3  -6.916936486959457E-3  
 2.396000000000000E10   -6.496713496744633E-3   8.635058067739010E-3  
 2.398000000000000E10    8.771757595241070E-3   5.729002878069878E-3  
 2.400000000000000E10    4.186726175248623E-3  -9.223537519574165E-3  
 2.402000000000000E10   -9.612613357603550E-3  -2.292549004778266E-3  
 2.404000000000000E10   -9.676262270659208E-4   9.793807752430439E-3  
 2.406000000000000E10    9.254456497728825E-3   1.823621860239655E-4  
 2.408000000000000E10   -7.425413932651281E-4  -8.873988874256611E-3  
 2.410000000000000E10   -8.813397958874703E-3   2.420949051156640E-3  
 2.412000000000000E10    3.074996406212449E-3   8.159600198268890E-3  
 2.414000000000000E10    7.847339846193790E-3  -3.820364130660892E-3  
 2.416000000000000E10   -5.332718137651682E-3  -7.312657311558723E-3  
 2.418000000000000E10   -6.616219878196716E-3   6.247489713132381E-3  
 2.420000000000000E10    6.976996082812548E-3   5.575967952609062E-3  
 2.422000000000000E10    5.636163521558046E-3  -7.407458964735270E-3  
 2.424000000000000E10   -8.147869259119034E-3  -4.877388477325440E-3  
 2.426000000000000E10   -3.571146866306663E-3   8.852274157106876E-3  
 2.428000000000000E10    8.782675489783287E-3   3.041356801986694E-3  
 2.430000000000000E10    2.269762102514505E-3  -9.191557765007019E-3  
 2.432000000000000E10   -8.918952196836472E-3  -7.384077180176973E-4  
 2.434000000000000E10   -2.020796528086066E-4   8.593127131462097E-3  
 2.436000000000000E10    8.537908084690571E-3  -1.056241919286549E-3  
 2.438000000000000E10   -2.379399491474032E-3  -7.627988234162331E-3  
 2.440000000000000E10   -6.968768313527107E-3   2.991006942465901E-3  
 2.442000000000000E10    4.031353630125523E-3   6.447534542530775E-3  
 2.444000000000000E10    5.471005104482174E-3  -5.415216553956270E-3  
 2.446000000000000E10   -6.068035494536161E-3  -4.808316472917795E-3  
 2.448000000000000E10   -4.623888991773129E-3   6.857040338218212E-3  
 2.450000000000000E10    7.574210409075022E-3   3.596026217564941E-3  
 2.452000000000000E10    3.099253168329597E-3  -8.151788264513016E-3  
 2.454000000000000E10   -8.152906782925129E-3  -2.246661577373743E-3  
 2.456000000000000E10   -1.965424744412303E-3   7.673727348446846E-3  
 2.458000000000000E10    8.389204740524292E-3   1.356280059553683E-3  
 2.460000000000000E10    9.032137459143996E-4  -8.349543437361717E-3  
 2.462000000000000E10   -7.946772500872612E-3  -1.134841950261034E-4  
 2.464000000000000E10    5.379749927669764E-4   6.873588543385267E-3  
 2.466000000000000E10    6.736587733030319E-3  -1.288220519199967E-3  
 2.468000000000000E10   -1.930006663314998E-3  -6.969904061406851E-3  
 2.470000000000000E10   -5.562989041209221E-3   2.989897737279534E-3  
 2.472000000000000E10    3.602160373702645E-3   4.799399990588427E-3  
 2.474000000000000E10    4.082453902810812E-3  -4.252113401889801E-3  
 2.476000000000000E10   -5.374831147491932E-3  -3.392489161342382E-3  
 2.478000000000000E10   -2.613353310152888E-3   5.782073829323053E-3  
 2.480000000000000E10    6.110550835728645E-3   1.963785383850336E-3  
 2.482000000000000E10    1.105255912989378E-3  -7.313619833439589E-3  
 2.484000000000000E10   -7.675812114030123E-3  -3.435922553762794E-4  
 2.486000000000000E10    3.265490231569856E-4   7.362500764429569E-3  
 2.488000000000000E10    7.689158432185650E-3  -1.036574249155819E-3  
 2.490000000000000E10   -1.637083361856639E-3  -7.216511294245720E-3  
 2.492000000000000E10   -6.999600678682327E-3   2.166974591091275E-3  
 2.494000000000000E10    2.104648621752858E-3   6.557696964591742E-3  
 2.496000000000000E10    5.405583884567022E-3  -3.060177434235811E-3  
 2.498000000000000E10   -3.680279478430748E-3  -5.079089663922787E-3  
 2.500000000000000E10   -4.187521990388632E-3   3.777246456593275E-3  
 2.502000000000000E10    3.750204574316740E-3   3.515631891787052E-3  
 2.504000000000000E10    2.580377506092191E-3  -4.838629625737667E-3  
 2.506000000000000E10   -4.656495060771704E-3  -1.451064250431955E-3  
 2.508000000000000E10   -1.281163422390819E-3   4.936383571475744E-3  
 2.510000000000000E10    5.368881393224001E-3   1.140142674557865E-3  
 2.512000000000000E10    4.207380698062480E-5  -5.602255929261446E-3  
 2.514000000000000E10   -6.533036474138498E-3   7.588724838569760E-4  
 2.516000000000000E10    1.090933918021619E-3   6.107623688876629E-3  
 2.518000000000000E10    5.917839705944061E-3  -1.659558387473226E-3  
 2.520000000000000E10   -2.586801070719957E-3  -5.959939211606979E-3  
 2.522000000000000E10   -4.849780350923538E-3   2.687532454729080E-3  
 2.524000000000000E10    2.538962522521615E-3   5.006307270377874E-3  
 2.526000000000000E10    4.515264648944140E-3  -2.832017373293638E-3  
 2.528000000000000E10   -3.089078003540635E-3  -3.532880684360862E-3  
 2.530000000000000E10   -3.195341676473618E-3   3.904188983142376E-3  
 2.532000000000000E10    3.990494180470705E-3   2.164887031540275E-3  
 2.534000000000000E10    1.250699046067894E-3  -4.110328387469053E-3  
 2.536000000000000E10   -4.417425021529198E-3  -4.200752300675958E-4  
 2.538000000000000E10    1.159457460744306E-4   4.449696280062199E-3  
 2.540000000000000E10    4.858817905187607E-3  -5.350939463824034E-4  
 2.542000000000000E10   -1.192623749375343E-3  -4.615156445652247E-3  
 2.544000000000000E10   -4.653852898627520E-3   1.844060141593218E-3  
 2.546000000000000E10    2.180778887122870E-3   5.184637848287821E-3  
 2.548000000000000E10    4.998608492314816E-3  -2.614404307678342E-3  
 2.550000000000000E10   -3.307097125798464E-3  -4.389070440083742E-3  
 2.552000000000000E10   -4.062307067215443E-3   3.851451212540269E-3  
 2.554000000000000E10    3.447228111326695E-3   3.566561965271831E-3  
 2.556000000000000E10    2.659484511241317E-3  -3.781240666285157E-3  
 2.558000000000000E10   -3.602534998208284E-3  -2.555381972342730E-3  
 2.560000000000000E10   -1.382515416480601E-3   3.919070586562157E-3  
 2.562000000000000E10    4.019618500024080E-3   9.689045255072415E-4  
 2.564000000000000E10    5.344004603102803E-4  -3.379154950380325E-3  
 2.566000000000000E10   -4.073484335094690E-3   9.704252006486058E-4  
 2.568000000000000E10    1.663742354139686E-3   4.170324187725782E-3  
 2.570000000000000E10    3.608970902860165E-3  -2.097337041050196E-3  
 2.572000000000000E10   -2.978091593831778E-3  -3.331230720505118E-3  
 2.574000000000000E10   -3.596327500417829E-3   3.314614761620760E-3  
 2.576000000000000E10    4.727294202893972E-3   3.308935323730111E-3  
 2.578000000000000E10    2.613318618386984E-3  -4.633319098502398E-3  
 2.580000000000000E10   -4.011751152575016E-3  -2.005470450967550E-3  
 2.582000000000000E10   -1.569399260915816E-3   4.716360010206699E-3  
 2.584000000000000E10    4.172614309936762E-3   1.918954891152680E-3  
 2.586000000000000E10    1.016849069856107E-3  -3.837484866380692E-3  
 2.588000000000000E10   -3.761216998100281E-3  -3.658401255961508E-4  
 2.590000000000000E10   -2.461887488607317E-4   3.220559563487768E-3  
 2.592000000000000E10    2.922862535342574E-3  -4.468904517125338E-4  
 2.594000000000000E10   -9.810612536966801E-4  -2.339380327612162E-3  
 2.596000000000000E10   -2.326660789549351E-3   1.196859870105982E-3  
 2.598000000000000E10    1.995468046516180E-3   2.704522106796503E-3  
 2.600000000000000E10    1.855297829024494E-3  -2.598874038085342E-3  
 2.602000000000000E10   -3.065749071538448E-3  -2.012276323512197E-3  
 2.604000000000000E10   -1.845289603807032E-3   3.710749559104443E-3  
 2.606000000000000E10    3.797220299020410E-3   1.310180407017469E-3  
 2.608000000000000E10    1.011148095130920E-3  -3.906405530869961E-3  
 2.610000000000000E10   -3.940156660974026E-3  -1.266311854124069E-3  
 2.612000000000000E10   -8.888819138519466E-4   3.897242480888963E-3  
 2.614000000000000E10    4.144882317632437E-3   3.339226241223514E-4  
 2.616000000000000E10    5.533962394110858E-4  -3.222872735932469E-3  
 2.618000000000000E10   -3.368789562955499E-3  -4.934876342304051E-4  
 2.620000000000000E10    3.113366547040641E-4   3.317642724141479E-3  
 2.622000000000000E10    2.502071438357234E-3  -1.041414914652705E-3  
 2.624000000000000E10   -9.093027911148965E-4  -2.324952278286219E-3  
 2.626000000000000E10   -2.166558755561709E-3   1.661348040215671E-3  
 2.628000000000000E10    2.076147124171257E-3   1.542752375826240E-3  
 2.630000000000000E10    1.192882307805121E-3  -2.693845191970468E-3  
 2.632000000000000E10   -2.663982799276710E-3  -7.930169813334942E-4  
 2.634000000000000E10   -1.091058511519805E-4   3.213986754417419E-3  
 2.636000000000000E10    3.556719748303294E-3  -2.779274268505105E-7  
 2.638000000000000E10   -2.189045189879835E-4  -3.040723269805312E-3  
 2.640000000000000E10   -2.880206098780036E-3   2.703228965401650E-4  
 2.642000000000000E10    2.251234254799783E-4   3.028839826583862E-3  
 2.644000000000000E10    2.638511592522264E-3  -3.745822468772531E-4  
 2.646000000000000E10   -7.269548950716853E-4  -2.411343855783343E-3  
 2.648000000000000E10   -2.328434726223350E-3   7.585089770145714E-4  
 2.650000000000000E10    1.124680391512811E-3   1.854169298894703E-3  
 2.652000000000000E10    1.217460725456476E-3  -1.293844310566783E-3  
 2.654000000000000E10   -1.089058234356344E-3  -8.700658800080419E-4  
 2.656000000000000E10   -4.229423939250410E-4   1.789398142136633E-3  
 2.658000000000000E10    1.965080620720983E-3   3.082821203861386E-4  
 2.660000000000000E10   -6.892499368404970E-5  -1.970113255083561E-3  
 2.662000000000000E10   -2.084598876535893E-3   3.414404054637998E-4  
 2.664000000000000E10    4.365411878097802E-4   2.070522634312511E-3  
 2.666000000000000E10    2.047955757007003E-3  -2.965596213471144E-4  
 2.668000000000000E10   -7.598560769110918E-4  -2.398842014372349E-3  
 2.670000000000000E10   -2.125167753547430E-3   2.288572140969336E-4  
 2.672000000000000E10    4.345011548139155E-4   2.134055830538273E-3  
 2.674000000000000E10    1.847093575634062E-3  -6.581619963981211E-4  
 2.676000000000000E10   -2.568524214439094E-4  -1.326597644947469E-3  
 2.678000000000000E10   -1.573613961227238E-3   3.563065547496080E-4  
 2.680000000000000E10    1.141657867265167E-5   1.314327004365623E-3  
 2.682000000000000E10    4.179293464403600E-4  -7.303860038518906E-4  
 2.684000000000000E10   -4.112500173505396E-4   1.527685526525602E-4  
 2.686000000000000E10    1.394158316543326E-4   4.601093532983214E-4  
 2.688000000000000E10    5.522159626707435E-4  -3.213849849998951E-4  
 2.690000000000000E10   -4.465155070647597E-4  -8.965251618064940E-4  
 2.692000000000000E10   -1.462319749407470E-3   6.600017077289522E-4  
 2.694000000000000E10    9.017389966174960E-4   1.454434590414167E-3  
 2.696000000000000E10    1.561537035740912E-3  -1.020709634758532E-3  
 2.698000000000000E10   -1.221033628098667E-3  -1.648301025852561E-3  
 2.700000000000000E10   -1.381814246997237E-3   9.674242464825511E-4  
 2.702000000000000E10    6.868871860206127E-4   1.644136849790812E-3  
 2.704000000000000E10    1.746541238389909E-3  -7.688780315220356E-4  
 2.706000000000000E10   -2.803601964842528E-4  -1.098977169021964E-3  
 2.708000000000000E10   -1.132417470216751E-3   5.244782078079879E-4  
 2.710000000000000E10   -7.884043589001522E-5   9.594956063665450E-4  
 2.712000000000000E10    5.314566660672426E-4   1.542833633720875E-4  
 2.714000000000000E10   -3.635167013271712E-5  -3.732620389200747E-4  
 2.716000000000000E10    3.246345149818808E-4  -3.629415587056428E-4  
 2.718000000000000E10   -1.595469366293401E-4  -2.486678131390363E-4  
 2.720000000000000E10   -9.901064913719893E-4   2.597688289824873E-4  
 2.722000000000000E10    5.072603817097843E-4   5.749841802753508E-4  
 2.724000000000000E10    8.281174814328551E-4   1.730650255922228E-4  
 2.726000000000000E10    2.380804071435705E-4  -5.824324907734990E-4  
 2.728000000000000E10   -4.671902279369533E-4  -6.347404560074210E-4  
 2.730000000000000E10   -7.807745714671910E-4   7.465601665899158E-4  
 2.732000000000000E10    5.133927916176617E-4   9.845094755291939E-4  
 2.734000000000000E10    1.308277831412852E-3  -4.523048410192132E-4  
 2.736000000000000E10   -8.578640699852258E-5  -1.027387683279812E-3  
 2.738000000000000E10   -7.950674626044929E-4   5.296655217534863E-5  
 2.740000000000000E10    2.718159230425954E-4   7.678750553168356E-4  
 2.742000000000000E10    7.376249996013939E-4   5.925956647843123E-4  
 2.744000000000000E10    5.904024583287537E-4  -3.760312392842025E-4  
 2.746000000000000E10   -9.140376641880721E-5  -4.931219737045467E-4  
 2.748000000000000E10   -7.054878515191376E-4   1.381666224915534E-4  
 2.750000000000000E10   -1.982932008104399E-4   2.950897032860667E-4  
 2.752000000000000E10    5.916795926168561E-4   3.969239187426865E-4  
 2.754000000000000E10    1.032626023516059E-3  -1.118729123845696E-4  
 2.756000000000000E10    1.782455074135214E-4  -7.564949919469655E-4  
