#  HZ   S   RI   R     50.00 
! Rohde & Schwarz ZVA40 4Ports - Version 3.90 - 1145.1110k42 SN: 100403
! Date: 2023-10-04 10:40:27
! Measurement: S12 
! 
 2.200000000000000E10    2.632550196722150E-3  -4.518247209489346E-3  
 2.202000000000000E10   -4.771416075527668E-3  -1.865208614617586E-3  
 2.204000000000000E10   -2.137436997145414E-3   5.434122402220964E-3  
 2.206000000000000E10    5.662116222083569E-3   2.068327274173498E-3  
 2.208000000000000E10    1.952395075932145E-3  -5.887193139642477E-3  
 2.210000000000000E10   -7.126622833311558E-3  -1.395700848661363E-3  
 2.212000000000000E10   -5.944225704297423E-4   7.235172670334578E-3  
 2.214000000000000E10    8.040127344429493E-3   6.485879421234131E-4  
 2.216000000000000E10   -1.632933417567983E-4  -8.824600838124752E-3  
 2.218000000000000E10   -8.606949821114540E-3   1.720259780995548E-3  
 2.220000000000000E10    2.353077288717032E-3   9.317561984062195E-3  
 2.222000000000000E10    9.515794925391674E-3  -3.677716013044119E-3  
 2.224000000000000E10   -5.477861966937780E-3  -8.653057739138603E-3  
 2.226000000000000E10   -7.954698987305164E-3   7.407145109027624E-3  
 2.228000000000000E10    8.735499344766140E-3   6.839044392108917E-3  
 2.230000000000000E10    5.852956790477037E-3  -1.002732850611210E-2  
 2.232000000000000E10   -1.090080291032791E-2  -3.839956363663077E-3  
 2.234000000000000E10   -1.761342980898917E-3   1.222744863480330E-2  
 2.236000000000000E10    1.192908454686403E-2   1.139094383688644E-4  
 2.238000000000000E10   -1.129746087826788E-3  -1.209292095154524E-2  
 2.240000000000000E10   -1.253099925816059E-2   3.253194037824869E-3  
 2.242000000000000E10    5.180986598134041E-3   1.194419711828232E-2  
 2.244000000000000E10    1.080645434558392E-2  -6.390239112079144E-3  
 2.246000000000000E10   -7.170014549046755E-3  -9.882001206278801E-3  
 2.248000000000000E10   -9.116007015109062E-3   8.630528114736080E-3  
 2.250000000000000E10    9.908122941851616E-3   8.216297253966332E-3  
 2.252000000000000E10    6.482334341853857E-3  -1.068477332592011E-2  
 2.254000000000000E10   -1.088815834373236E-2  -4.873085301369429E-3  
 2.256000000000000E10   -3.082049079239368E-3   1.138492207974196E-2  
 2.258000000000000E10    1.150315068662167E-2   1.242557191289961E-3  
 2.260000000000000E10    2.867346847779118E-5  -1.126682478934526E-2  
 2.262000000000000E10   -1.031932793557644E-2   1.504501327872276E-3  
 2.264000000000000E10    2.740068593993783E-3   1.039885729551315E-2  
 2.266000000000000E10    1.023305859416723E-2  -4.114064387977123E-3  
 2.268000000000000E10   -5.232266150414944E-3  -9.899561293423176E-3  
 2.270000000000000E10   -9.323025122284889E-3   6.140777375549078E-3  
 2.272000000000000E10    6.931968033313751E-3   8.515953086316586E-3  
 2.274000000000000E10    7.782763801515102E-3  -8.411202579736710E-3  
 2.276000000000000E10   -9.217380546033382E-3  -7.057643961161375E-3  
 2.278000000000000E10   -5.565127357840538E-3   9.215472266077995E-3  
 2.280000000000000E10    1.002928521484137E-2   4.273662343621254E-3  
 2.282000000000000E10    8.538109250366688E-3  -6.243613082915545E-3  
 2.284000000000000E10   -1.057067979127169E-2  -1.904896227642894E-3  
 2.286000000000000E10   -4.177379196335096E-6   1.055277697741985E-2  
 2.288000000000000E10    9.091042913496494E-3  -1.461367821320891E-3  
 2.290000000000000E10   -2.837330568581820E-3  -9.601825848221779E-3  
 2.292000000000000E10   -8.960744366049767E-3   3.650018246844411E-3  
 2.294000000000000E10    4.655936267226934E-3   8.111620321869850E-3  
 2.296000000000000E10    7.211690768599510E-3  -6.645806599408388E-3  
 2.298000000000000E10   -6.250998936593533E-3  -6.813892163336277E-3  
 2.300000000000000E10   -6.691950373351574E-3   7.096393965184689E-3  
 2.302000000000000E10    8.616152219474316E-3   5.905096884816885E-3  
 2.304000000000000E10    4.195714369416237E-3  -8.605266921222210E-3  
 2.306000000000000E10   -8.936721831560135E-3  -3.401597728952766E-3  
 2.308000000000000E10   -2.877382561564446E-3   8.853929117321968E-3  
 2.310000000000000E10    8.575915358960629E-3   2.051476854830980E-3  
 2.312000000000000E10    4.848808748647571E-4  -8.853630162775517E-3  
 2.314000000000000E10   -8.538711816072464E-3   5.883941776119173E-4  
 2.316000000000000E10    1.028791652061045E-3   8.447903208434582E-3  
 2.318000000000000E10    7.455414161086083E-3  -3.130549564957619E-3  
 2.320000000000000E10   -3.741479944437742E-3  -6.393503863364458E-3  
 2.322000000000000E10   -6.353454664349556E-3   4.127554129809141E-3  
 2.324000000000000E10    5.205840803682804E-3   5.887659266591072E-3  
 2.326000000000000E10    5.025028251111507E-3  -5.718187894672155E-3  
 2.328000000000000E10   -6.709657143801451E-3  -4.411983303725720E-3  
 2.330000000000000E10   -3.847423940896988E-3   7.365044672042131E-3  
 2.332000000000000E10    7.897822186350822E-3   3.381289076060057E-3  
 2.334000000000000E10    1.885458710603416E-3  -8.189324289560318E-3  
 2.336000000000000E10   -8.312088437378407E-3  -1.200316823087633E-3  
 2.338000000000000E10   -7.389953825622797E-4   8.530272170901299E-3  
 2.340000000000000E10    7.917445152997971E-3  -2.849828160833567E-4  
 2.342000000000000E10   -1.019926858134568E-3  -8.073832839727402E-3  
 2.344000000000000E10   -7.567527238279581E-3   1.957377186045051E-3  
 2.346000000000000E10    2.552970778197050E-3   7.394996937364340E-3  
 2.348000000000000E10    6.287906784564257E-3  -3.524225438013673E-3  
 2.350000000000000E10   -4.056777339428663E-3  -5.589352920651436E-3  
 2.352000000000000E10   -4.674462135881186E-3   5.177726503461599E-3  
 2.354000000000000E10    5.524225998669863E-3   4.403066821396351E-3  
 2.356000000000000E10    3.206480992957950E-3  -6.596280727535486E-3  
 2.358000000000000E10   -6.663173902779818E-3  -2.038218779489398E-3  
 2.360000000000000E10   -1.556481467559934E-3   7.249141577631235E-3  
 2.362000000000000E10    8.051793090999126E-3   7.691789651289582E-4  
 2.364000000000000E10   -2.459865936543793E-4  -8.062829263508320E-3  
 2.366000000000000E10   -7.430715486407280E-3   9.583117207512260E-4  
 2.368000000000000E10    1.408742857165635E-3   7.835557684302330E-3  
 2.370000000000000E10    7.645422592759132E-3  -2.427457598969340E-3  
 2.372000000000000E10   -2.751250751316547E-3  -6.957930978387594E-3  
 2.374000000000000E10   -6.607519462704659E-3   3.602900309488177E-3  
 2.376000000000000E10    3.931276500225067E-3   5.845915526151657E-3  
 2.378000000000000E10    5.123411770910025E-3  -4.717908799648285E-3  
 2.380000000000000E10   -5.044123623520136E-3  -4.244987852871418E-3  
 2.382000000000000E10   -2.986898412927985E-3   5.633482243865728E-3  
 2.384000000000000E10    6.002681795507669E-3   2.327172085642815E-3  
 2.386000000000000E10    9.252230520360172E-4  -6.447136867791414E-3  
 2.388000000000000E10   -6.409291177988052E-3  -1.977105130208656E-4  
 2.390000000000000E10    9.882877347990871E-4   6.255883723497391E-3  
 2.392000000000000E10    6.404751911759377E-3  -1.988091273233295E-3  
 2.394000000000000E10   -2.357623074203730E-3  -6.260211579501629E-3  
 2.396000000000000E10   -5.968097131699324E-3   2.724978607147932E-3  
 2.398000000000000E10    2.959464443847537E-3   6.163951009511948E-3  
 2.400000000000000E10    5.749128293246031E-3  -4.091436509042978E-3  
 2.402000000000000E10   -4.722882993519306E-3  -4.816044587641954E-3  
 2.404000000000000E10   -4.127804655581713E-3   4.560065921396017E-3  
 2.406000000000000E10    4.784208256751299E-3   3.336184425279498E-3  
 2.408000000000000E10    2.542733913287520E-3  -5.226371344178915E-3  
 2.410000000000000E10   -5.167356692254543E-3  -2.349821152165532E-3  
 2.412000000000000E10   -9.759310050867498E-4   4.999609198421240E-3  
 2.414000000000000E10    4.674650263041258E-3   3.011951339431107E-4  
 2.416000000000000E10   -4.042879154440016E-4  -4.811040591448546E-3  
 2.418000000000000E10   -4.754558205604553E-3   1.389012904837728E-3  
 2.420000000000000E10    1.509033842012286E-3   4.962857346981764E-3  
 2.422000000000000E10    4.939384758472443E-3  -2.964653540402651E-3  
 2.424000000000000E10   -3.695332212373614E-3  -4.639156628400087E-3  
 2.426000000000000E10   -4.536754917353392E-3   3.597288625314832E-3  
 2.428000000000000E10    4.426018334925175E-3   4.122633486986160E-3  
 2.430000000000000E10    4.246086813509464E-3  -4.466055426746607E-3  
 2.432000000000000E10   -4.835948348045349E-3  -3.651047823950648E-3  
 2.434000000000000E10   -3.570545464754105E-3   5.011457484215498E-3  
 2.436000000000000E10    4.988614935427904E-3   2.740685362368822E-3  
 2.438000000000000E10    1.535969320684671E-3  -5.078027956187725E-3  
 2.440000000000000E10   -4.694897681474686E-3  -1.447402639314532E-3  
 2.442000000000000E10   -9.638854535296559E-4   4.303380846977234E-3  
 2.444000000000000E10    3.854110836982727E-3  -2.566829207353294E-4  
 2.446000000000000E10   -5.150606157258153E-4  -3.312658751383424E-3  
 2.448000000000000E10   -3.437898587435484E-3   1.281711272895336E-3  
 2.450000000000000E10    1.836463925428689E-3   2.636113436892629E-3  
 2.452000000000000E10    3.060230286791921E-3  -1.953745028004050E-3  
 2.454000000000000E10   -3.113939659669995E-3  -2.318514976650477E-3  
 2.456000000000000E10   -2.731917425990105E-3   3.270113607868552E-3  
 2.458000000000000E10    3.918085712939501E-3   3.067342098802328E-3  
 2.460000000000000E10    2.202922943979502E-3  -4.861138295382261E-3  
 2.462000000000000E10   -4.227256868034601E-3  -1.459792838431895E-3  
 2.464000000000000E10   -1.543382415547967E-3   4.285486880689859E-3  
 2.466000000000000E10    4.390647634863854E-3   1.566542778164148E-3  
 2.468000000000000E10    1.165817491710186E-3  -3.952525090426207E-3  
 2.470000000000000E10   -3.707250114530325E-3  -3.975381550844759E-4  
 2.472000000000000E10   -7.931330765131861E-5   3.684152849018574E-3  
 2.474000000000000E10    3.306119935587049E-3  -1.495675969636068E-4  
 2.476000000000000E10   -8.448795415461063E-4  -2.339736325666308E-3  
 2.478000000000000E10   -2.191924490034580E-3   8.733216091059148E-4  
 2.480000000000000E10    1.783414394594729E-3   2.613406162708998E-3  
 2.482000000000000E10    1.975799445062876E-3  -2.106151543557644E-3  
 2.484000000000000E10   -2.235842170193791E-3  -1.363047398626804E-3  
 2.486000000000000E10   -1.335275126621127E-3   3.052301472052932E-3  
 2.488000000000000E10    3.319543087854981E-3   1.213422743603587E-3  
 2.490000000000000E10    8.967223111540079E-4  -3.026844933629036E-3  
 2.492000000000000E10   -3.109358483925462E-3  -4.210853076074272E-4  
 2.494000000000000E10   -7.724551833234727E-4   3.199651837348938E-3  
 2.496000000000000E10    3.788735717535019E-3   2.578738785814494E-4  
 2.498000000000000E10    1.555548224132508E-4  -3.025692887604237E-3  
 2.500000000000000E10   -2.202771836891770E-3   1.869658735813573E-4  
 2.502000000000000E10   -1.179980317829177E-4   2.637677360326052E-3  
 2.504000000000000E10    2.256823936477304E-3  -3.949958190787584E-4  
 2.506000000000000E10   -1.169800889329054E-4  -1.502339146099985E-3  
 2.508000000000000E10   -1.538503216579557E-3   4.528288263827562E-4  
 2.510000000000000E10    1.223374973051250E-3   1.047734986059368E-3  
 2.512000000000000E10    1.072690822184086E-3  -1.339955837465823E-3  
 2.514000000000000E10   -1.525797299109399E-3  -7.135260966606438E-4  
 2.516000000000000E10    2.636962744873017E-4   2.051199786365032E-3  
 2.518000000000000E10    2.541217254474759E-3   2.314147131983191E-4  
 2.520000000000000E10   -1.257453113794327E-4  -2.447404898703098E-3  
 2.522000000000000E10   -2.176126232370734E-3   2.433334157103673E-5  
 2.524000000000000E10    3.437771010794677E-5   2.372386632487178E-3  
 2.526000000000000E10    2.750998595729470E-3  -3.534396819304675E-4  
 2.528000000000000E10    7.545245171058923E-5  -2.614666474983096E-3  
 2.530000000000000E10   -2.485789358615875E-3   8.990634523797780E-5  
 2.532000000000000E10    7.368114311248064E-4   1.648450270295143E-3  
 2.534000000000000E10    2.132559893652797E-3  -3.428681520745158E-4  
 2.536000000000000E10   -1.839524775277823E-4  -1.603762269951403E-3  
 2.538000000000000E10   -8.737727184779942E-4   6.663330132141709E-4  
 2.540000000000000E10    7.518767961300910E-4   6.744429119862616E-4  
 2.542000000000000E10    2.899803221225739E-4  -1.023380202241242E-3  
 2.544000000000000E10   -9.223719825968146E-4  -3.449424984864891E-4  
 2.546000000000000E10   -4.362427716841921E-5   7.379831513389945E-4  
 2.548000000000000E10    1.135337282903493E-3  -1.140914624556899E-3  
 2.550000000000000E10   -3.743619599845260E-4  -1.577163347974420E-3  
 2.552000000000000E10   -1.396444742567837E-3   3.770519688259810E-4  
 2.554000000000000E10    8.493040804751217E-4   1.496783923357725E-3  
 2.556000000000000E10    1.558720134198666E-3  -3.622292715590447E-4  
 2.558000000000000E10   -3.606247191783041E-4  -1.617309870198369E-3  
 2.560000000000000E10   -1.781593426130712E-3   2.488057361915708E-4  
 2.562000000000000E10   -9.311490430263802E-5   1.320112147368491E-3  
 2.564000000000000E10    1.301217707805336E-3  -1.950798905454576E-4  
 2.566000000000000E10   -1.065521282725968E-4  -1.851364504545927E-3  
 2.568000000000000E10   -1.010781619697809E-3  -2.957794058602303E-4  
 2.570000000000000E10    1.156429570983164E-4   8.529487531632185E-4  
 2.572000000000000E10    7.722723530605435E-4  -2.408434556855355E-5  
 2.574000000000000E10   -3.397329419385642E-4  -4.139668599236757E-4  
 2.576000000000000E10    1.280601100006606E-5   1.286812039325014E-4  
 2.578000000000000E10    3.026294871233404E-4  -2.706481900531799E-4  
 2.580000000000000E10   -7.229088223539293E-4  -8.372601587325335E-4  
 2.582000000000000E10   -1.075879437848926E-3   9.013747330754995E-4  
 2.584000000000000E10    6.662999512627721E-4   7.844135398045182E-4  
 2.586000000000000E10    1.447433256544173E-3  -1.246174448169768E-3  
 2.588000000000000E10   -1.316270325332880E-3  -1.422351342625916E-3  
 2.590000000000000E10   -1.132575212977827E-3   1.155959209427238E-3  
 2.592000000000000E10    7.798931910656393E-4   1.159562612883747E-3  
 2.594000000000000E10    1.102617708966136E-3  -9.152195416390896E-4  
 2.596000000000000E10   -4.637488455045968E-4  -1.400214852765203E-3  
 2.598000000000000E10   -1.031195977702737E-3   1.994966878555715E-4  
 2.600000000000000E10   -3.957603767048568E-4   9.342486737295985E-4  
 2.602000000000000E10    6.480419542640448E-4  -3.558957541827112E-4  
 2.604000000000000E10    3.373002982698381E-4  -4.864735528826714E-4  
 2.606000000000000E10   -6.123696221038699E-4  -4.377933510113508E-4  
 2.608000000000000E10   -1.406724331900477E-4   4.004937072750181E-4  
 2.610000000000000E10   -1.394994906149805E-4   9.162325295619667E-5  
 2.612000000000000E10   -1.300015992455883E-5  -3.117772575933486E-4  
 2.614000000000000E10   -7.389274105662480E-5   5.293179856380448E-5  
 2.616000000000000E10    1.904173986986280E-4   8.011588943190873E-5  
 2.618000000000000E10    7.287867629202083E-5  -8.489311439916492E-4  
 2.620000000000000E10   -3.985819639638066E-4  -2.101847931044176E-4  
 2.622000000000000E10   -3.929088707081974E-4   1.112857251428068E-3  
 2.624000000000000E10    1.418083673343062E-3  -1.287298800889403E-5  
 2.626000000000000E10    1.881123607745394E-4  -1.197485835291445E-3  
 2.628000000000000E10   -1.265762955881655E-3  -4.765499907080084E-4  
 2.630000000000000E10   -2.794115280266851E-4   1.447799731977284E-3  
 2.632000000000000E10    1.326504745520651E-3   2.532015205360949E-4  
 2.634000000000000E10    5.664019263349474E-4  -1.211453578434885E-3  
 2.636000000000000E10   -8.788592531345785E-4  -3.695696359500289E-4  
 2.638000000000000E10   -2.733107539825141E-4   8.364169043488801E-4  
 2.640000000000000E10    5.323339137248695E-4  -3.381260030437261E-4  
 2.642000000000000E10   -2.963195147458464E-4  -3.053365217056125E-4  
 2.644000000000000E10   -4.183290293440223E-4   2.891083713620901E-4  
 2.646000000000000E10    1.113723265007138E-3   1.807090593501926E-4  
 2.648000000000000E10   -3.815381205640733E-4  -1.362180686555803E-3  
 2.650000000000000E10   -9.394782828167081E-4   6.958636804483831E-4  
 2.652000000000000E10    1.439414772903547E-4   1.358777750283480E-3  
 2.654000000000000E10    1.858338015154004E-3  -4.097165656276047E-4  
 2.656000000000000E10   -5.724953953176737E-4  -1.958461711183190E-3  
 2.658000000000000E10   -1.702766749076545E-3   2.320570783922449E-4  
 2.660000000000000E10   -3.730220123543404E-5   2.105358522385359E-3  
 2.662000000000000E10    1.745128422044218E-3   8.716217962501105E-6  
 2.664000000000000E10    4.073989694006741E-4  -1.971772871911526E-3  
 2.666000000000000E10   -1.893735490739346E-3  -3.384395095054060E-4  
 2.668000000000000E10   -9.796862286748365E-5   1.749776769429445E-3  
 2.670000000000000E10    1.086761010810733E-3   3.072310064453632E-4  
 2.672000000000000E10   -1.679921842878684E-5  -7.003335631452501E-4  
 2.674000000000000E10   -1.077386550605297E-3  -3.147954703308642E-4  
 2.676000000000000E10    1.700269203865901E-4   5.511605413630605E-4  
 2.678000000000000E10   -1.447495451429859E-4  -4.796925059054047E-4  
 2.680000000000000E10   -5.740303895436227E-4   1.099381479434669E-4  
 2.682000000000000E10    7.431759877363220E-5   9.677577763795853E-4  
 2.684000000000000E10    1.162007800303400E-3  -6.346189184114337E-4  
 2.686000000000000E10   -6.478925351984799E-4  -1.117390696890652E-3  
 2.688000000000000E10   -1.613601809367538E-3   6.661550141870976E-4  
 2.690000000000000E10    4.957963828928769E-4   1.819302095100284E-3  
 2.692000000000000E10    1.872193766757846E-3  -6.121228216215968E-4  
 2.694000000000000E10   -8.208903018385172E-4  -1.870348467491567E-3  
 2.696000000000000E10   -1.672659884206951E-3   7.002058555372059E-4  
 2.698000000000000E10    7.644303259439766E-4   1.700709457509220E-3  
 2.700000000000000E10    1.434258185327053E-3  -5.771322757937014E-4  
 2.702000000000000E10   -3.972585545852780E-4  -1.086767297238112E-3  
 2.704000000000000E10   -8.387885754927993E-4   6.254104082472622E-4  
 2.706000000000000E10    1.108573051169515E-3   7.482967339456081E-4  
 2.708000000000000E10    3.462216773186810E-5  -1.009482541121543E-3  
 2.710000000000000E10   -7.386542274616659E-4   3.189950948581100E-4  
 2.712000000000000E10    7.069681887514889E-4   1.060976879671216E-3  
 2.714000000000000E10    1.136942184530199E-3  -5.907051963731647E-4  
 2.716000000000000E10   -7.601685356348753E-4  -1.561801997013390E-3  
 2.718000000000000E10   -1.266771578229964E-3   8.773081935942173E-4  
 2.720000000000000E10    1.017172471620143E-3   1.660330803133547E-3  
 2.722000000000000E10    1.880993833765388E-3  -8.522614953108132E-4  
 2.724000000000000E10   -9.262619423680008E-4  -1.475205412134528E-3  
 2.726000000000000E10   -1.419146661646664E-3   5.511820781975985E-4  
 2.728000000000000E10    1.101684640161693E-3   1.353972591459751E-3  
 2.730000000000000E10    1.295519410632551E-3  -3.435132093727589E-4  
 2.732000000000000E10   -2.651744580361992E-4  -1.051725936122239E-3  
 2.734000000000000E10   -4.827506199944764E-4   3.934937121812254E-4  
 2.736000000000000E10   -4.722419907920994E-5   4.778570437338203E-4  
 2.738000000000000E10    1.825632498366758E-4  -5.296806339174509E-4  
 2.740000000000000E10   -3.355601802468300E-4   1.080320507753640E-4  
 2.742000000000000E10    6.789375911466777E-4   4.093901079613715E-4  
 2.744000000000000E10    1.027591642923653E-3  -1.193374744616449E-3  
 2.746000000000000E10   -1.023091957904398E-3  -8.833037572912872E-4  
 2.748000000000000E10   -1.001239172182977E-3   1.521403202787042E-3  
 2.750000000000000E10    1.356056425720453E-3   8.287129458039999E-4  
 2.752000000000000E10    1.395147060975432E-3  -1.358231180347502E-3  
 2.754000000000000E10   -1.843429054133594E-3  -1.623045420274139E-3  
 2.756000000000000E10   -1.510690897703171E-3   1.097170752473176E-3  
