#  HZ   S   RI   R     50.00 
! Rohde & Schwarz ZVA40 4Ports - Version 3.90 - 1145.1110k42 SN: 100403
! Date: 2023-10-04 10:41:16
! Measurement: S12 
! 
 2.200000000000000E10    4.352878779172897E-3  -6.278538494370878E-4  
 2.202000000000000E10   -7.906281971372664E-4  -4.580329637974501E-3  
 2.204000000000000E10   -4.888972267508507E-3   6.266445852816105E-4  
 2.206000000000000E10    1.294607180170715E-3   5.008070729672909E-3  
 2.208000000000000E10    5.319398362189531E-3  -2.246065530925989E-3  
 2.210000000000000E10   -2.554949838668108E-3  -6.226681172847748E-3  
 2.212000000000000E10   -6.166542414575815E-3   3.702505957335234E-3  
 2.214000000000000E10    4.760951269418001E-3   6.031244993209839E-3  
 2.216000000000000E10    5.980632267892361E-3  -5.543717183172703E-3  
 2.218000000000000E10   -7.336625363677740E-3  -5.070730578154326E-3  
 2.220000000000000E10   -4.487260710448027E-3   7.524030748754740E-3  
 2.222000000000000E10    8.171079680323601E-3   3.091821679845452E-3  
 2.224000000000000E10    1.725468900986016E-3  -9.499007835984230E-3  
 2.226000000000000E10   -9.586941450834274E-3  -3.876123519148678E-4  
 2.228000000000000E10    1.585659221746028E-3   9.648125618696213E-3  
 2.230000000000000E10    9.286987595260143E-3  -2.775492845103145E-3  
 2.232000000000000E10   -4.582518246024847E-3  -8.796234615147114E-3  
 2.234000000000000E10   -8.003829047083855E-3   6.218823138624430E-3  
 2.236000000000000E10    6.117844022810459E-3   6.504204124212265E-3  
 2.238000000000000E10    6.176481489092112E-3  -7.223184220492840E-3  
 2.240000000000000E10   -8.709258399903774E-3  -5.600734613835812E-3  
 2.242000000000000E10   -4.430146422237158E-3   9.046579711139202E-3  
 2.244000000000000E10    9.671852923929691E-3   3.090374171733856E-3  
 2.246000000000000E10    1.171678653918207E-3  -9.470908902585506E-3  
 2.248000000000000E10   -9.471549652516842E-3  -2.588372153695673E-4  
 2.250000000000000E10    1.261118915863335E-3   9.615028277039528E-3  
 2.252000000000000E10    9.480297565460205E-3  -1.975108636543155E-3  
 2.254000000000000E10   -3.466676454991102E-3  -8.583391085267067E-3  
 2.256000000000000E10   -7.848428562283516E-3   5.423747934401035E-3  
 2.258000000000000E10    5.752235185354948E-3   7.338202558457851E-3  
 2.260000000000000E10    6.430551409721375E-3  -5.849479697644711E-3  
 2.262000000000000E10   -7.059473544359207E-3  -4.273030441254377E-3  
 2.264000000000000E10   -3.949759993702173E-3   7.560085505247116E-3  
 2.266000000000000E10    8.045469410717487E-3   3.499428741633892E-3  
 2.268000000000000E10    2.731703454628587E-3  -8.149259723722935E-3  
 2.270000000000000E10   -8.542490191757679E-3  -1.237323507666588E-3  
 2.272000000000000E10   -7.436509476974607E-4   8.580327033996582E-3  
 2.274000000000000E10    8.643735200166702E-3  -1.196931698359549E-4  
 2.276000000000000E10   -1.461073174141347E-3  -8.210057392716408E-3  
 2.278000000000000E10   -7.384643889963627E-3   2.402866957709193E-3  
 2.280000000000000E10    2.729391911998391E-3   6.725510116666555E-3  
 2.282000000000000E10    6.907809525728226E-3   1.086210366338491E-3  
 2.284000000000000E10   -3.868674160912633E-3  -5.711403209716082E-3  
 2.286000000000000E10   -4.470348823815584E-3   4.501947201788425E-3  
 2.288000000000000E10    4.695061128586531E-3   4.082031548023224E-3  
 2.290000000000000E10    3.194129094481468E-3  -5.294809117913246E-3  
 2.292000000000000E10   -5.333456210792065E-3  -2.134990878403187E-3  
 2.294000000000000E10   -1.431565848179162E-3   5.675733555108309E-3  
 2.296000000000000E10    6.466425955295563E-3   6.686375709250569E-4  
 2.298000000000000E10    5.306752282194793E-4  -5.939003545790911E-3  
 2.300000000000000E10   -6.399842910468578E-3  -1.950380537891761E-4  
 2.302000000000000E10    1.766038010828197E-3   6.726154591888189E-3  
 2.304000000000000E10    6.431337911635637E-3  -1.929097110405564E-3  
 2.306000000000000E10   -2.232855884358287E-3  -6.084355991333723E-3  
 2.308000000000000E10   -5.427058786153793E-3   2.671174472197890E-3  
 2.310000000000000E10    3.163047600537539E-3   4.853847436606884E-3  
 2.312000000000000E10    4.413104616105557E-3  -3.589900443330407E-3  
 2.314000000000000E10   -3.448710776865482E-3  -3.776836208999157E-3  
 2.316000000000000E10   -3.323319833725691E-3   3.614556742832065E-3  
 2.318000000000000E10    4.428029526025057E-3   1.881534466519952E-3  
 2.320000000000000E10    1.963226357474923E-3  -3.990381024777889E-3  
 2.322000000000000E10   -4.364926367998123E-3  -1.574021065607667E-3  
 2.324000000000000E10   -1.940376969287172E-4   4.060879815369844E-3  
 2.326000000000000E10    4.764139186590910E-3   1.405673247063533E-4  
 2.328000000000000E10   -6.011771620251238E-4  -4.981572274118662E-3  
 2.330000000000000E10   -4.826187156140804E-3   7.798304432071745E-4  
 2.332000000000000E10    2.245500916615129E-3   4.689074121415615E-3  
 2.334000000000000E10    4.634022247046232E-3  -2.409812994301319E-3  
 2.336000000000000E10   -2.288057701662183E-3  -4.722117912024260E-3  
 2.338000000000000E10   -3.870449494570494E-3   2.792283194139600E-3  
 2.340000000000000E10    3.206720808520913E-3   3.542469348758459E-3  
 2.342000000000000E10    3.473893040791154E-3  -3.185295267030597E-3  
 2.344000000000000E10   -3.508173394948244E-3  -3.180555533617735E-3  
 2.346000000000000E10   -2.823997288942337E-3   3.723113564774394E-3  
 2.348000000000000E10    3.519788151606917E-3   1.649693003855646E-3  
 2.350000000000000E10    1.443756162188947E-3  -3.365759039297700E-3  
 2.352000000000000E10   -3.574279835447669E-3  -1.088932971470058E-3  
 2.354000000000000E10   -5.611965898424387E-4   2.989622764289379E-3  
 2.356000000000000E10    3.440751228481531E-3  -4.148716980125755E-4  
 2.358000000000000E10   -8.202902390621603E-4  -3.721708897501230E-3  
 2.360000000000000E10   -3.477954771369696E-3   1.454652869142592E-3  
 2.362000000000000E10    1.868320629000664E-3   3.269190434366465E-3  
 2.364000000000000E10    2.680804114788771E-3  -2.637955360114574E-3  
 2.366000000000000E10   -2.959992503747344E-3  -3.120864508673549E-3  
 2.368000000000000E10   -2.888230374082923E-3   3.224004525691271E-3  
 2.370000000000000E10    3.064008429646492E-3   2.768534468486905E-3  
 2.372000000000000E10    2.542841481044889E-3  -3.410248318687081E-3  
 2.374000000000000E10   -3.894059220328927E-3  -2.613574499264360E-3  
 2.376000000000000E10   -2.280547050759196E-3   3.452492179349065E-3  
 2.378000000000000E10    3.484681248664856E-3   1.921606250107288E-3  
 2.380000000000000E10    1.109605538658798E-3  -3.456889418885112E-3  
 2.382000000000000E10   -3.508259076625109E-3  -9.576674201525748E-4  
 2.384000000000000E10   -2.574905811343342E-4   3.191513940691948E-3  
 2.386000000000000E10    2.820402616634965E-3  -9.992290288209915E-4  
 2.388000000000000E10   -1.108807162381709E-3  -2.565586008131504E-3  
 2.390000000000000E10   -2.602274296805263E-3   1.821046229451895E-3  
 2.392000000000000E10    2.084626816213131E-3   2.166498918086290E-3  
 2.394000000000000E10    1.680196844972670E-3  -2.485064323991537E-3  
 2.396000000000000E10   -2.936467761173844E-3  -1.431863056495786E-3  
 2.398000000000000E10   -1.894618384540081E-3   3.178443526849151E-3  
 2.400000000000000E10    3.482523374259472E-3   1.538120443001390E-3  
 2.402000000000000E10    5.608414066955447E-4  -3.648580051958561E-3  
 2.404000000000000E10   -3.528990549966693E-3  -3.047148056793958E-4  
 2.406000000000000E10   -3.675450861919671E-4   3.453620010986924E-3  
 2.408000000000000E10    3.188232425600290E-3   3.734537458512932E-4  
 2.410000000000000E10    1.389283534081187E-5  -3.153951140120626E-3  
 2.412000000000000E10   -2.997786505147815E-3   4.443204379640520E-4  
 2.414000000000000E10    1.313621323788539E-4   2.640589606016874E-3  
 2.416000000000000E10    2.430346328765154E-3  -7.372235995717347E-4  
 2.418000000000000E10   -8.361878572031856E-4  -1.820021541789174E-3  
 2.420000000000000E10   -2.061664359644055E-3   1.388831180520356E-3  
 2.422000000000000E10    2.009023912250996E-3   1.686798175796866E-3  
 2.424000000000000E10    6.458218558691442E-4  -1.767773414030671E-3  
 2.426000000000000E10   -2.443019533529878E-3  -3.989878750871867E-4  
 2.428000000000000E10   -3.311045657028444E-5   2.949043642729521E-3  
 2.430000000000000E10    2.736711641773582E-3   3.353539796080440E-4  
 2.432000000000000E10   -1.221936545334756E-4  -3.175254911184311E-3  
 2.434000000000000E10   -3.013413166627288E-3   7.249336922541261E-4  
 2.436000000000000E10    7.803100743331015E-4   2.712103771045804E-3  
 2.438000000000000E10    2.877273596823216E-3  -7.412355626001954E-4  
 2.440000000000000E10   -4.031827265862376E-4  -2.470586914569140E-3  
 2.442000000000000E10   -2.129934495314956E-3   7.369136437773705E-4  
 2.444000000000000E10    7.575199124403298E-4   1.676055602729321E-3  
 2.446000000000000E10    1.402670051902533E-3  -5.231594695942476E-5  
 2.448000000000000E10   -8.683780906721950E-4  -1.026097568683326E-3  
 2.450000000000000E10   -6.715828785672784E-4   2.429240994388238E-4  
 2.452000000000000E10    6.529756356030703E-4   7.857109885662794E-4  
 2.454000000000000E10    4.063754458911717E-4  -7.236306555569172E-4  
 2.456000000000000E10   -3.183739318046719E-4  -8.812829764792696E-5  
 2.458000000000000E10    1.793083538359497E-5   9.919526055455208E-4  
 2.460000000000000E10    1.331790233962238E-3  -1.205770749947988E-4  
 2.462000000000000E10   -3.121241752523929E-4  -1.450667157769203E-3  
 2.464000000000000E10   -1.792386174201965E-3   2.506703021936119E-4  
 2.466000000000000E10   -1.164110872196034E-4   1.224559498950839E-3  
 2.468000000000000E10    2.073334064334631E-3  -3.090318641625345E-4  
 2.470000000000000E10   -6.802833377150819E-5  -2.127479296177626E-3  
 2.472000000000000E10   -1.682633883319795E-3  -9.562147897668183E-5  
 2.474000000000000E10   -5.339002746040933E-5   1.855206442996860E-3  
 2.476000000000000E10    1.600067480467260E-3   1.389297249261290E-4  
 2.478000000000000E10    5.498309619724751E-4  -1.390469959005714E-3  
 2.480000000000000E10   -1.185293542221189E-3  -1.686886535026133E-4  
 2.482000000000000E10   -3.598471812438220E-4   8.922333945520222E-4  
 2.484000000000000E10    4.188829916529357E-4   6.434865645132959E-5  
 2.486000000000000E10    2.686706138774753E-4  -5.865640705451369E-4  
 2.488000000000000E10   -4.295024555176497E-4  -3.387607866898179E-4  
 2.490000000000000E10    4.536502237897366E-4  -2.189200749853626E-4  
 2.492000000000000E10   -3.364170843269676E-4  -4.272473743185401E-4  
 2.494000000000000E10   -7.265572203323245E-4   3.151754499413073E-4  
 2.496000000000000E10    1.718065032036975E-4   7.276915130205452E-4  
 2.498000000000000E10    9.065869380719960E-4  -2.190077648265287E-4  
 2.500000000000000E10   -2.043474232777953E-4  -1.220081583596766E-3  
 2.502000000000000E10   -1.711783464998007E-3  -3.709385346155614E-4  
 2.504000000000000E10   -2.278267202200368E-4   1.850129803642631E-3  
 2.506000000000000E10    1.551116118207574E-3  -7.742368325125426E-5  
 2.508000000000000E10    7.504288223572075E-4  -1.913609565235674E-3  
 2.510000000000000E10   -2.021285006776452E-3  -5.505866720341146E-4  
 2.512000000000000E10   -6.166695966385305E-4   1.741985324770212E-3  
 2.514000000000000E10    1.765068038366735E-3   3.492948017083108E-4  
 2.516000000000000E10    4.974858602508903E-4  -1.791266258805990E-3  
 2.518000000000000E10   -1.644799369387329E-3  -3.477573336567730E-4  
 2.520000000000000E10   -3.267753927502781E-4   8.349409326910973E-4  
 2.522000000000000E10    8.047660230658948E-4  -1.417825405951589E-4  
 2.524000000000000E10   -1.612442283658311E-4  -1.382829388603568E-3  
 2.526000000000000E10   -5.646829376928508E-4   5.532474024221301E-4  
 2.528000000000000E10    6.699695368297398E-4   2.817662025336176E-4  
 2.530000000000000E10    1.577812363393605E-4  -1.327988225966692E-3  
 2.532000000000000E10   -1.431602519005537E-3  -2.094804367516190E-4  
 2.534000000000000E10   -8.566198630433064E-6   1.637234585359693E-3  
 2.536000000000000E10    1.062940107658505E-3   1.631987470318563E-5  
 2.538000000000000E10   -1.287508930545300E-4  -2.328336006030440E-3  
 2.540000000000000E10   -2.468821126967669E-3  -2.007128059631214E-4  
 2.542000000000000E10   -1.956193300429732E-4   1.658261870034039E-3  
 2.544000000000000E10    2.265780931338668E-3   2.747688558883965E-4  
 2.546000000000000E10   -1.732105920382310E-5  -2.265561139211059E-3  
 2.548000000000000E10   -2.178761642426252E-3   1.961797970579937E-4  
 2.550000000000000E10   -9.387607133248821E-5   1.738231279887259E-3  
 2.552000000000000E10    1.560116535983980E-3   1.634794025449082E-4  
 2.554000000000000E10   -8.479447569698095E-4  -1.536895055323839E-3  
 2.556000000000000E10   -1.008202903904021E-3   5.050058243796229E-4  
 2.558000000000000E10    3.932653635274619E-4   6.824987940490246E-4  
 2.560000000000000E10    5.586846382357180E-4  -1.060482463799417E-3  
 2.562000000000000E10   -1.206728396937251E-3  -2.467018784955144E-4  
 2.564000000000000E10    1.267437824026274E-6   1.433372730389237E-3  
 2.566000000000000E10    1.581809949129820E-3   7.688155164942145E-5  
 2.568000000000000E10   -7.147059659473598E-4  -1.593834487721324E-3  
 2.570000000000000E10   -2.694916445761919E-3   1.016399357467890E-3  
 2.572000000000000E10    4.512233717832714E-4   1.995953498408198E-3  
 2.574000000000000E10    2.130754524841905E-3  -5.973250954411924E-4  
 2.576000000000000E10   -1.214057090692222E-3  -2.800861140713096E-3  
 2.578000000000000E10   -2.644607797265053E-3   1.337999477982521E-3  
 2.580000000000000E10    9.250488365069032E-4   2.086756285279989E-3  
 2.582000000000000E10    2.269618678838015E-3  -9.847395122051239E-4  
 2.584000000000000E10   -1.510770292952657E-3  -1.901537063531578E-3  
 2.586000000000000E10   -1.736718229949474E-3   1.662401715293527E-3  
 2.588000000000000E10    1.433448866009712E-3   1.440678955987096E-3  
 2.590000000000000E10    9.255378390662372E-4  -1.833912800066173E-3  
 2.592000000000000E10   -2.475318033248186E-3  -3.169368719682097E-4  
 2.594000000000000E10   -1.044819728122093E-4   1.795287127606571E-3  
 2.596000000000000E10    2.671132562682033E-3  -4.535692642093636E-5  
 2.598000000000000E10   -7.344255573116243E-4  -2.255000872537494E-3  
 2.600000000000000E10   -2.588541945442557E-3   1.172381802462041E-3  
 2.602000000000000E10    1.512813032604754E-3   2.599499188363552E-3  
 2.604000000000000E10    2.450405620038509E-3  -1.230152207426727E-3  
 2.606000000000000E10   -1.737298909574747E-3  -2.056953497231007E-3  
 2.608000000000000E10   -2.320659346878529E-3   1.740194275043905E-3  
 2.610000000000000E10    1.207594410516322E-3   2.045749220997095E-3  
 2.612000000000000E10    2.024322282522917E-3  -1.437479280866683E-3  
 2.614000000000000E10   -1.414042315445840E-3  -1.531596644781530E-3  
 2.616000000000000E10   -1.570496242493391E-3   1.200177473947406E-3  
 2.618000000000000E10    1.558659248985350E-3   8.051610784605146E-4  
 2.620000000000000E10    5.500147817656398E-4  -1.262033125385642E-3  
 2.622000000000000E10   -1.450412790291011E-3  -2.400690427748486E-4  
 2.624000000000000E10    3.524546336848289E-4   1.776330522261560E-3  
 2.626000000000000E10    1.281183911487460E-3  -5.035002250224352E-4  
 2.628000000000000E10   -1.046749763190746E-3  -1.786068198271096E-3  
 2.630000000000000E10   -2.067974535748363E-3   1.655364176258445E-3  
 2.632000000000000E10    1.597368973307312E-3   2.040873514488339E-3  
 2.634000000000000E10    2.427182625979185E-3  -1.763998414389789E-3  
 2.636000000000000E10   -2.412958536297083E-3  -2.512289443984628E-3  
 2.638000000000000E10   -2.425759565085173E-3   2.458360977470875E-3  
 2.640000000000000E10    3.039598232135177E-3   2.370567526668310E-3  
 2.642000000000000E10    2.029548399150372E-3  -2.595511265099049E-3  
 2.644000000000000E10   -2.886653179302812E-3  -1.845746883191168E-3  
 2.646000000000000E10   -1.940470538102090E-3   2.873606048524380E-3  
 2.648000000000000E10    2.581591019406915E-3   1.193590462207794E-3  
 2.650000000000000E10    8.306987001560628E-4  -2.064431086182594E-3  
 2.652000000000000E10   -2.665636828169227E-3  -2.493316424079239E-4  
 2.654000000000000E10    3.052793908864260E-4   2.001276006922126E-3  
 2.656000000000000E10    1.979120308533311E-3  -9.280174854211509E-4  
 2.658000000000000E10   -1.273021567612886E-3  -1.184504828415811E-3  
 2.660000000000000E10   -1.508504152297974E-3   1.982751768082380E-3  
 2.662000000000000E10    2.512754872441292E-3   6.929352530278266E-4  
 2.664000000000000E10    5.570841603912413E-4  -2.573417732492089E-3  
 2.666000000000000E10   -2.732262015342712E-3  -2.538442786317319E-4  
 2.668000000000000E10   -3.652903833426535E-4   3.002298530191183E-3  
 2.670000000000000E10    2.829492790624499E-3   1.343816984444857E-4  
 2.672000000000000E10   -1.182131927635055E-5  -2.734021050855517E-3  
 2.674000000000000E10   -2.646705601364374E-3  -4.780998642672785E-5  
 2.676000000000000E10   -2.086856547975913E-4   2.759899478405714E-3  
 2.678000000000000E10    2.342134248465300E-3  -2.901515108533204E-4  
 2.680000000000000E10   -2.290349802933633E-4  -2.015224192291498E-3  
 2.682000000000000E10   -1.931210746988654E-3   4.925134126096964E-4  
 2.684000000000000E10    1.026863115839660E-3   1.663588103838265E-3  
 2.686000000000000E10    1.285812351852655E-3  -1.275178976356983E-3  
 2.688000000000000E10   -1.370157813653350E-3  -7.766478229314089E-4  
 2.690000000000000E10   -9.253416792489588E-4   1.639610854908824E-3  
 2.692000000000000E10    2.346607157960534E-3   5.973443039692938E-4  
 2.694000000000000E10    2.637500292621553E-4  -2.239847555756569E-3  
 2.696000000000000E10   -2.400186844170094E-3  -8.009565499378368E-5  
 2.698000000000000E10    1.064584866981022E-4   2.554126782342792E-3  
 2.700000000000000E10    2.861340064555407E-3  -2.657028380781412E-4  
 2.702000000000000E10   -4.174951172899455E-4  -2.810839563608170E-3  
 2.704000000000000E10   -2.401065081357956E-3   5.407948628999293E-4  
 2.706000000000000E10    5.061059491708875E-4   2.434435999020934E-3  
 2.708000000000000E10    1.852830057032406E-3  -6.202816730365157E-4  
 2.710000000000000E10   -3.601709322538227E-4  -1.644740696065128E-3  
 2.712000000000000E10   -1.282136538065970E-3   3.657501656562090E-4  
 2.714000000000000E10    8.640376036055386E-4   7.751579396426678E-4  
 2.716000000000000E10    6.133664282970130E-4  -9.178521577268839E-4  
 2.718000000000000E10   -7.291072979569435E-4   3.710553937708028E-5  
 2.720000000000000E10    3.282575344201177E-4   1.039579161442816E-3  
 2.722000000000000E10    1.652114209719002E-3  -4.451478889677674E-4  
 2.724000000000000E10   -1.019216724671423E-3  -1.273916801437736E-3  
 2.726000000000000E10   -1.302543911151588E-3   1.296086935326457E-3  
 2.728000000000000E10    1.216688542626798E-3   1.577909803017974E-3  
 2.730000000000000E10    1.916813664138317E-3  -1.700094668194652E-3  
 2.732000000000000E10   -1.377996057271957E-3  -2.162685384973884E-3  
 2.734000000000000E10   -1.861706492491067E-3   1.245355000719428E-3  
 2.736000000000000E10    1.533299568109214E-3   2.084826817736030E-3  
 2.738000000000000E10    2.086026826873422E-3  -1.278515323065221E-3  
 2.740000000000000E10   -1.304266625083983E-3  -1.565147074870765E-3  
 2.742000000000000E10   -1.180504681542516E-3   1.073337974958122E-3  
 2.744000000000000E10    9.220604551956058E-4   8.948208414949477E-4  
 2.746000000000000E10    8.027110598050058E-4  -8.462017867714167E-4  
 2.748000000000000E10   -4.766987985931337E-4  -4.174440400674939E-4  
 2.750000000000000E10   -6.956767174415290E-5   8.239419548772275E-5  
 2.752000000000000E10    6.927610374987125E-4  -2.805488766171038E-4  
 2.754000000000000E10   -9.046950144693255E-4  -1.702402805676684E-4  
 2.756000000000000E10   -1.925364485941827E-4   9.529296075925231E-4  
