#  HZ   S   RI   R     50.00 
! Rohde & Schwarz ZVA40 4Ports - Version 3.90 - 1145.1110k42 SN: 100403
! Date: 2023-10-04 10:41:34
! Measurement: S12 
! 
 2.200000000000000E10    4.685092717409134E-3  -4.099935176782310E-4  
 2.202000000000000E10   -9.828945621848106E-4  -4.497390706092119E-3  
 2.204000000000000E10   -5.252825096249580E-3   9.902748279273510E-4  
 2.206000000000000E10    1.523125800304115E-3   5.415688734501600E-3  
 2.208000000000000E10    5.370461847633123E-3  -2.540933433920145E-3  
 2.210000000000000E10   -3.389856312423945E-3  -5.389092955738306E-3  
 2.212000000000000E10   -5.647663027048111E-3   3.589102067053318E-3  
 2.214000000000000E10    5.285625811666250E-3   5.480082239955664E-3  
 2.216000000000000E10    4.919843282550573E-3  -6.027712952345610E-3  
 2.218000000000000E10   -7.114796899259090E-3  -4.212597385048866E-3  
 2.220000000000000E10   -3.491090610623360E-3   8.106863126158714E-3  
 2.222000000000000E10    8.141064085066319E-3   2.208634978160262E-3  
 2.224000000000000E10    4.491580766625702E-4  -8.459343574941158E-3  
 2.226000000000000E10   -8.790694177150726E-3   3.815272648353130E-4  
 2.228000000000000E10    1.800029887817800E-3   8.582553826272488E-3  
 2.230000000000000E10    7.902911864221096E-3  -3.367027267813683E-3  
 2.232000000000000E10   -4.703363869339228E-3  -7.544569671154022E-3  
 2.234000000000000E10   -6.491715088486671E-3   5.635390989482403E-3  
 2.236000000000000E10    6.760529708117247E-3   5.988271441310644E-3  
 2.238000000000000E10    5.092371255159378E-3  -6.775153800845146E-3  
 2.240000000000000E10   -7.837851531803608E-3  -4.386555403470993E-3  
 2.242000000000000E10   -2.915349788963795E-3   9.115924127399921E-3  
 2.244000000000000E10    9.123541414737701E-3   1.169354887679219E-3  
 2.246000000000000E10    5.017312359996140E-4  -8.832533843815327E-3  
 2.248000000000000E10   -9.007035754621029E-3   3.602016076911241E-4  
 2.250000000000000E10    2.003571949899197E-3   8.666681125760078E-3  
 2.252000000000000E10    8.021323010325432E-3  -3.286909777671099E-3  
 2.254000000000000E10   -3.596511203795672E-3  -7.088341284543276E-3  
 2.256000000000000E10   -6.615926511585712E-3   4.597920924425125E-3  
 2.258000000000000E10    5.633182357996702E-3   5.189344286918640E-3  
 2.260000000000000E10    4.603611771017313E-3  -5.786968860775232E-3  
 2.262000000000000E10   -6.034335587173700E-3  -3.584445221349597E-3  
 2.264000000000000E10   -2.726390492171049E-3   6.064625922590494E-3  
 2.266000000000000E10    6.736835930496454E-3   2.153988461941481E-3  
 2.268000000000000E10    1.600226503796876E-3  -6.867083255201578E-3  
 2.270000000000000E10   -6.784106139093638E-3  -7.072605076245964E-4  
 2.272000000000000E10    2.509334444766864E-5   6.888932082802057E-3  
 2.274000000000000E10    6.912642158567905E-3  -1.124858856201172E-3  
 2.276000000000000E10   -1.104050083085895E-3  -6.502056960016489E-3  
 2.278000000000000E10   -5.770244169980288E-3   2.185962628573179E-3  
 2.280000000000000E10    2.824592171236873E-3   5.006584338843823E-3  
 2.282000000000000E10    5.867874249815941E-3   2.121624129358679E-4  
 2.284000000000000E10   -3.983729518949986E-3  -3.927114885300398E-3  
 2.286000000000000E10   -3.058983245864511E-3   3.636472159996629E-3  
 2.288000000000000E10    4.532816354185343E-3   2.551386365666986E-3  
 2.290000000000000E10    1.931675709784031E-3  -4.609507042914629E-3  
 2.292000000000000E10   -4.544991068542004E-3  -1.240744139067829E-3  
 2.294000000000000E10   -6.216811016201973E-4   4.748797044157982E-3  
 2.296000000000000E10    4.943446256220341E-3   2.911092888098210E-4  
 2.298000000000000E10   -6.791179766878486E-4  -4.833847284317017E-3  
 2.300000000000000E10   -4.713589325547218E-3   6.719700177200139E-4  
 2.302000000000000E10    1.250764471478760E-3   4.836908075958490E-3  
 2.304000000000000E10    4.861121065914631E-3  -2.281389432027936E-3  
 2.306000000000000E10   -2.054094104096293E-3  -4.175898618996143E-3  
 2.308000000000000E10   -4.007214680314064E-3   1.943770330399275E-3  
 2.310000000000000E10    2.397882984951139E-3   3.914533648639917E-3  
 2.312000000000000E10    3.138310741633177E-3  -2.671181689947844E-3  
 2.314000000000000E10   -2.560131950303912E-3  -2.715598791837692E-3  
 2.316000000000000E10   -2.961971331387758E-3   2.327062189579010E-3  
 2.318000000000000E10    2.365282969549298E-3   2.122984966263175E-3  
 2.320000000000000E10    9.091789252124727E-4  -2.936248201876879E-3  
 2.322000000000000E10   -2.753435866907239E-3  -1.651344588026404E-3  
 2.324000000000000E10   -1.037918962538242E-3   2.556262770667672E-3  
 2.326000000000000E10    2.918370999395847E-3  -3.472983080428094E-4  
 2.328000000000000E10   -6.128546665422618E-4  -3.199280472472310E-3  
 2.330000000000000E10   -3.143713576719165E-3   7.514461758546531E-4  
 2.332000000000000E10    1.383729744702578E-3   3.533475566655397E-3  
 2.334000000000000E10    2.974770963191986E-3  -2.073685638606548E-3  
 2.336000000000000E10   -2.160901669412851E-3  -3.185668028891087E-3  
 2.338000000000000E10   -3.291626926511526E-3   2.306837355718017E-3  
 2.340000000000000E10    2.445301273837686E-3   2.342579420655966E-3  
 2.342000000000000E10    2.715106587857008E-3  -2.765991492196918E-3  
 2.344000000000000E10   -2.938535762950778E-3  -2.690688474103808E-3  
 2.346000000000000E10   -2.250740304589272E-3   2.914564684033394E-3  
 2.348000000000000E10    2.895086305215955E-3   1.363347168080509E-3  
 2.350000000000000E10    1.162428990937769E-3  -2.340023871511221E-3  
 2.352000000000000E10   -2.562592271715403E-3  -1.257503288798034E-3  
 2.354000000000000E10   -4.992144531570375E-4   2.452475251629949E-3  
 2.356000000000000E10    2.097955206409097E-3   8.353028533747420E-5  
 2.358000000000000E10    9.318203228758648E-5  -1.965700183063746E-3  
 2.360000000000000E10   -2.018007216975093E-3   5.912151536904275E-4  
 2.362000000000000E10    9.495469275861979E-4   2.325092675164342E-3  
 2.364000000000000E10    2.325388835743070E-3  -1.268708729185164E-3  
 2.366000000000000E10   -2.003301400691271E-3  -2.398814307525754E-3  
 2.368000000000000E10   -2.028639195486903E-3   2.388801891356707E-3  
 2.370000000000000E10    2.474315464496613E-3   2.337011508643627E-3  
 2.372000000000000E10    2.172716194763780E-3  -2.412121044471860E-3  
 2.374000000000000E10   -2.879901323467493E-3  -1.898277318105102E-3  
 2.376000000000000E10   -1.633205451071262E-3   2.721084048971534E-3  
 2.378000000000000E10    2.683299360796809E-3   1.496117911301553E-3  
 2.380000000000000E10    1.484073000028729E-3  -2.502843970432878E-3  
 2.382000000000000E10   -2.660841215401888E-3  -7.111189770512283E-4  
 2.384000000000000E10   -4.980192752555013E-4   2.387628657743335E-3  
 2.386000000000000E10    1.973167993128300E-3   1.805209612939507E-4  
 2.388000000000000E10   -1.622131967451423E-4  -1.962700393050909E-3  
 2.390000000000000E10   -1.940996036864817E-3   5.888095474801958E-4  
 2.392000000000000E10    1.240713056176901E-3   1.917953137308359E-3  
 2.394000000000000E10    1.297538634389639E-3  -1.468365080654621E-3  
 2.396000000000000E10   -1.907913014292717E-3  -1.295012771151960E-3  
 2.398000000000000E10   -1.174439326860011E-3   2.620117273181677E-3  
 2.400000000000000E10    2.302543492987752E-3   9.879500139504671E-4  
 2.402000000000000E10    6.858135457150638E-4  -2.715742215514183E-3  
 2.404000000000000E10   -2.491226885467768E-3  -4.221419658279046E-5  
 2.406000000000000E10   -3.963606432080269E-4   2.531056758016348E-3  
 2.408000000000000E10    3.006667364388704E-3   7.700510905124247E-4  
 2.410000000000000E10    5.503395805135369E-4  -2.785650081932545E-3  
 2.412000000000000E10   -2.648027846589685E-3  -3.494633419904858E-4  
 2.414000000000000E10   -1.051533981808461E-4   2.457548631355166E-3  
 2.416000000000000E10    2.188010839745402E-3   6.624761590501294E-5  
 2.418000000000000E10    2.926252200268209E-4  -2.115136943757534E-3  
 2.420000000000000E10   -1.676327316090465E-3   5.935507942922413E-4  
 2.422000000000000E10    6.667525158263743E-4   1.478914986364543E-3  
 2.424000000000000E10    1.116178696975112E-3  -1.221601851284504E-3  
 2.426000000000000E10   -7.495624013245106E-4  -5.681433831341565E-4  
 2.428000000000000E10   -2.206721110269427E-4   1.288470928557217E-3  
 2.430000000000000E10    1.790863228961825E-3   5.221526953391731E-5  
 2.432000000000000E10   -6.128953100414947E-5  -1.360212801955640E-3  
 2.434000000000000E10   -1.955130137503147E-3   1.657533721299842E-4  
 2.436000000000000E10    5.032534827478230E-4   1.652635517530143E-3  
 2.438000000000000E10    1.911482657305896E-3  -2.455638023093343E-4  
 2.440000000000000E10    2.115190145559609E-4  -2.229863312095404E-3  
 2.442000000000000E10   -1.894977060146630E-3  -1.323142496403307E-4  
 2.444000000000000E10    3.684081821120344E-5   1.767845824360848E-3  
 2.446000000000000E10    1.785557949915528E-3  -2.434497873764485E-4  
 2.448000000000000E10    3.622207441367209E-4  -1.815219409763813E-3  
 2.450000000000000E10   -1.402876456268132E-3  -2.239867171738297E-4  
 2.452000000000000E10   -2.796289627440274E-4   6.331278709694743E-4  
 2.454000000000000E10    7.995425257831812E-4   4.667503526434302E-4  
 2.456000000000000E10    4.915247554890811E-4  -1.012802124023438E-3  
 2.458000000000000E10   -4.656536038964987E-4  -4.748547507915646E-4  
 2.460000000000000E10    3.286753490101546E-4   5.559026976698078E-5  
 2.462000000000000E10    1.243843726115301E-4  -5.051320185884833E-4  
 2.464000000000000E10   -1.200927072204649E-4  -1.837787567637861E-4  
 2.466000000000000E10   -1.449249830329791E-4   4.728824133053422E-4  
 2.468000000000000E10    5.440387176349759E-4  -1.094193430617452E-4  
 2.470000000000000E10    6.878538988530636E-4  -1.228948589414358E-3  
 2.472000000000000E10   -1.408485579304397E-3  -3.225419786758721E-4  
 2.474000000000000E10   -5.153855890966952E-4   1.179619692265987E-3  
 2.476000000000000E10    1.704352092929184E-3   5.720644257962704E-4  
 2.478000000000000E10    5.039359093643725E-4  -1.673588412813842E-3  
 2.480000000000000E10   -1.976437633857131E-3  -8.173432433977723E-4  
 2.482000000000000E10   -8.765096426941454E-4   1.620255177840591E-3  
 2.484000000000000E10    1.730196061544120E-3   8.261132752522826E-4  
 2.486000000000000E10    2.785509568639100E-4  -2.074452815577388E-3  
 2.488000000000000E10   -1.714095124043524E-3  -8.162698941305280E-4  
 2.490000000000000E10   -4.877121828030795E-4   1.309736748225987E-3  
 2.492000000000000E10    1.047758385539055E-3   5.169751602807082E-5  
 2.494000000000000E10    9.077240974875167E-6  -1.363135990686715E-3  
 2.496000000000000E10   -1.579024828970432E-3   2.271833945997059E-4  
 2.498000000000000E10    7.354478002525866E-4   7.487697293981910E-4  
 2.500000000000000E10    5.127800395712256E-4  -1.129218377172947E-3  
 2.502000000000000E10   -1.700546941719949E-3  -7.460660999640822E-4  
 2.504000000000000E10   -9.182029752992094E-4   1.559726893901825E-3  
 2.506000000000000E10    1.758973347023130E-3   5.226595676504076E-4  
 2.508000000000000E10    9.877392585622147E-5  -1.873787841759622E-3  
 2.510000000000000E10   -2.130125416442752E-3  -6.556773441843689E-4  
 2.512000000000000E10   -7.677532266825438E-4   2.304524881765246E-3  
 2.514000000000000E10    2.022421918809414E-3   5.348159465938807E-4  
 2.516000000000000E10    6.196462200023234E-4  -2.239788183942437E-3  
 2.518000000000000E10   -2.524456707760692E-3  -3.927169309463352E-4  
 2.520000000000000E10   -6.248644785955548E-4   2.332834061235189E-3  
 2.522000000000000E10    1.932165352627635E-3   1.217488679685630E-4  
 2.524000000000000E10   -4.397519205667777E-6  -2.029227325692773E-3  
 2.526000000000000E10   -1.763434614986181E-3   3.538014716468751E-4  
 2.528000000000000E10    3.286555875092745E-4   1.459781196899712E-3  
 2.530000000000000E10    1.084278454072774E-3  -6.127673550508916E-4  
 2.532000000000000E10   -1.280903350561857E-3  -1.046083401888609E-3  
 2.534000000000000E10   -1.116856699809432E-3   1.906704390421510E-3  
 2.536000000000000E10    1.662009628489614E-3   7.202671258710325E-4  
 2.538000000000000E10    2.412254434602801E-5  -1.890010084025562E-3  
 2.540000000000000E10   -3.010141663253307E-3   3.214297248632647E-5  
 2.542000000000000E10   -9.731858881423250E-6   2.801203867420554E-3  
 2.544000000000000E10    2.529845340177417E-3  -3.659524954855442E-4  
 2.546000000000000E10   -4.685221065301448E-4  -2.775430679321289E-3  
 2.548000000000000E10   -3.334945300593972E-3   5.496322992257774E-4  
 2.550000000000000E10    6.559604662470520E-4   3.043501172214747E-3  
 2.552000000000000E10    2.611240604892373E-3  -7.790338131599128E-4  
 2.554000000000000E10   -1.231182948686183E-3  -2.215857850387693E-3  
 2.556000000000000E10   -2.212987979874015E-3   1.479774131439626E-3  
 2.558000000000000E10    1.418334897607565E-3   1.551730791106820E-3  
 2.560000000000000E10    5.063759745098651E-4  -1.133310026489198E-3  
 2.562000000000000E10   -1.239663572050631E-3  -7.242920110002160E-4  
 2.564000000000000E10   -5.891608889214695E-4   1.353171071968973E-3  
 2.566000000000000E10    1.650643418543041E-3   3.532896516844630E-4  
 2.568000000000000E10   -4.704287857748568E-4  -1.886608428321779E-3  
 2.570000000000000E10   -2.619223436340690E-3   9.577630553394556E-4  
 2.572000000000000E10    8.986346656456590E-4   2.849202835932374E-3  
 2.574000000000000E10    2.758463146165013E-3  -1.300626317970455E-3  
 2.576000000000000E10   -1.643117167986929E-3  -2.862834371626377E-3  
 2.578000000000000E10   -3.240224206820130E-3   2.039682352915406E-3  
 2.580000000000000E10    2.157197333872318E-3   3.075061831623316E-3  
 2.582000000000000E10    2.730100881308317E-3  -2.209873637184501E-3  
 2.584000000000000E10   -2.309420611709356E-3  -2.799533540382981E-3  
 2.586000000000000E10   -2.560901222750545E-3   2.536454470828176E-3  
 2.588000000000000E10    2.678756369277835E-3   2.262933878228068E-3  
 2.590000000000000E10    1.749260467477143E-3  -2.641149330884218E-3  
 2.592000000000000E10   -2.469004131853581E-3  -1.324219745583832E-3  
 2.594000000000000E10   -6.234758766368032E-4   2.652433468028903E-3  
 2.596000000000000E10    2.423186553642154E-3   4.403078855830245E-5  
 2.598000000000000E10   -5.981065332889557E-4  -2.173139713704586E-3  
 2.600000000000000E10   -2.394250594079495E-3   1.162225264124572E-3  
 2.602000000000000E10    1.706288778223097E-3   2.271040808409452E-3  
 2.604000000000000E10    2.300156047567725E-3  -2.538270549848676E-3  
 2.606000000000000E10   -2.407498424872756E-3  -1.602748874574900E-3  
 2.608000000000000E10   -1.599340583197773E-3   2.732103457674384E-3  
 2.610000000000000E10    3.215682925656438E-3   1.985040726140142E-3  
 2.612000000000000E10    1.376996398903430E-3  -3.323802025988698E-3  
 2.614000000000000E10   -3.152468008920550E-3  -1.224371255375445E-3  
 2.616000000000000E10   -1.060597947798669E-3   3.453593933954835E-3  
 2.618000000000000E10    3.499194281175733E-3   8.123741718009114E-4  
 2.620000000000000E10    1.346634380752221E-4  -3.291345201432705E-3  
 2.622000000000000E10   -2.781649120151997E-3  -3.255475894547999E-5  
 2.624000000000000E10    1.806151267373934E-4   2.687171101570129E-3  
 2.626000000000000E10    2.670929068699479E-3  -6.514487322419882E-4  
 2.628000000000000E10   -1.239188830368221E-3  -2.232238417491317E-3  
 2.630000000000000E10   -1.973613630980253E-3   1.779572572559118E-3  
 2.632000000000000E10    1.864639227278531E-3   2.012537792325020E-3  
 2.634000000000000E10    1.624017138965428E-3  -2.293452154844999E-3  
 2.636000000000000E10   -2.585349371656776E-3  -1.371582970023155E-3  
 2.638000000000000E10   -1.411408768035471E-3   2.840048633515835E-3  
 2.640000000000000E10    3.170956624671817E-3   1.139718224294484E-3  
 2.642000000000000E10    1.086215255782008E-3  -3.104863455519080E-3  
 2.644000000000000E10   -3.183024004101753E-3  -7.158264052122831E-4  
 2.646000000000000E10   -7.326321210712194E-4   3.165956586599350E-3  
 2.648000000000000E10    3.252873895689845E-3   7.051677093841136E-4  
 2.650000000000000E10    1.822192571125925E-4  -3.113863291218877E-3  
 2.652000000000000E10   -2.595206722617149E-3   8.804342360235751E-5  
 2.654000000000000E10    5.271713016554713E-4   2.541960682719946E-3  
 2.656000000000000E10    2.199599985033274E-3  -8.555628592148423E-4  
 2.658000000000000E10   -1.253280206583440E-3  -1.506707165390253E-3  
 2.660000000000000E10   -1.164898159913719E-3   1.788317575119436E-3  
 2.662000000000000E10    1.953623257577419E-3   7.721413276158273E-4  
 2.664000000000000E10    2.831684250850231E-4  -2.102159429341555E-3  
 2.666000000000000E10   -2.628700574859977E-3   1.739984872983769E-4  
 2.668000000000000E10    3.451467782724649E-4   3.107173833996058E-3  
 2.670000000000000E10    3.103827359154820E-3  -3.730696626007557E-4  
 2.672000000000000E10   -7.500106003135443E-4  -3.475068369880319E-3  
 2.674000000000000E10   -3.424451453611255E-3   1.092241029255092E-3  
 2.676000000000000E10    1.263779937289655E-3   3.429880365729332E-3  
 2.678000000000000E10    3.250542562454939E-3  -8.611374069005251E-4  
 2.680000000000000E10   -1.275746151804924E-3  -3.125426592305303E-3  
 2.682000000000000E10   -2.501525450497866E-3   1.502725528553128E-3  
 2.684000000000000E10    1.394571736454964E-3   2.456961432471871E-3  
 2.686000000000000E10    2.174456370994449E-3  -1.442943350411952E-3  
 2.688000000000000E10   -1.540342462249100E-3  -1.039806054905057E-3  
 2.690000000000000E10   -7.536754128523171E-4   1.359363785013557E-3  
 2.692000000000000E10    1.295667490921915E-3   4.863065259996802E-4  
 2.694000000000000E10   -2.971572976093739E-4  -1.412138924933970E-3  
 2.696000000000000E10   -1.739254919812083E-3   6.755552603863180E-4  
 2.698000000000000E10    1.211615046486259E-3   1.507740933448076E-3  
 2.700000000000000E10    1.500806538388133E-3  -1.390946097671986E-3  
 2.702000000000000E10   -1.519137644208968E-3  -1.781047205440700E-3  
 2.704000000000000E10   -1.456548110581935E-3   1.719177002087236E-3  
 2.706000000000000E10    1.755490782670677E-3   1.534138456918299E-3  
 2.708000000000000E10    1.717722392641008E-3  -1.480544917285442E-3  
 2.710000000000000E10   -1.853555790148675E-3  -1.868088962510228E-3  
 2.712000000000000E10   -1.437075668945909E-3   1.836473122239113E-3  
 2.714000000000000E10    1.621169736608863E-3   1.316344132646918E-3  
 2.716000000000000E10    1.023959484882653E-3  -1.777390600182116E-3  
 2.718000000000000E10   -1.470552757382393E-3  -1.119367661885917E-3  
 2.720000000000000E10   -5.451428587548435E-4   8.748556138016284E-4  
 2.722000000000000E10    1.052157371304929E-3   3.705979615915567E-4  
 2.724000000000000E10   -2.276309533044696E-4  -1.250295783393085E-3  
 2.726000000000000E10   -1.179119572043419E-3   5.570700741373003E-4  
 2.728000000000000E10    1.010766369290650E-3   1.132407458499074E-3  
 2.730000000000000E10    9.031944209709764E-4  -1.507015898823738E-3  
 2.732000000000000E10   -1.779446611180902E-3  -1.466672751121223E-3  
 2.734000000000000E10   -6.053149118088186E-4   2.086924389004707E-3  
 2.736000000000000E10    2.211710903793573E-3   6.266586715355516E-4  
 2.738000000000000E10    8.237949805334210E-4  -2.303254092112184E-3  
 2.740000000000000E10   -2.399327931925654E-3  -7.107196724973619E-4  
 2.742000000000000E10   -4.802588373422623E-4   2.323536435142160E-3  
 2.744000000000000E10    2.067657420411706E-3   8.021741523407400E-4  
 2.746000000000000E10    5.159870488569140E-4  -1.986071234568954E-3  
 2.748000000000000E10   -1.503770472481847E-3  -6.786517915315926E-4  
 2.750000000000000E10   -2.837662468664348E-4   9.314086055383086E-4  
 2.752000000000000E10    7.920417119748890E-4   8.298928150907159E-5  
 2.754000000000000E10   -2.645387758093420E-5  -5.969853955321014E-4  
 2.756000000000000E10    3.139543696306646E-4   3.094911226071417E-4  
