#  HZ   S   RI   R     50.00 
! Rohde & Schwarz ZVA40 4Ports - Version 3.90 - 1145.1110k42 SN: 100403
! Date: 2023-10-04 10:42:06
! Measurement: S12 
! 
 2.200000000000000E10    1.780697493813932E-4   3.722914261743426E-3  
 2.202000000000000E10    4.034241661429405E-3  -6.505909841507673E-4  
 2.204000000000000E10   -6.297138752415776E-4  -3.851437941193581E-3  
 2.206000000000000E10   -4.647944122552872E-3   1.301862648688257E-3  
 2.208000000000000E10    1.665314892306924E-3   4.672153852880001E-3  
 2.210000000000000E10    4.181913100183010E-3  -2.320930594578385E-3  
 2.212000000000000E10   -3.602596465498209E-3  -4.305236507207155E-3  
 2.214000000000000E10   -4.662332590669394E-3   4.451792221516371E-3  
 2.216000000000000E10    5.291131790727377E-3   4.127510357648134E-3  
 2.218000000000000E10    2.799140987917781E-3  -6.241674069315195E-3  
 2.220000000000000E10   -7.349933963268995E-3  -2.630157163366675E-3  
 2.222000000000000E10   -1.661145943216980E-3   7.849027402698994E-3  
 2.224000000000000E10    8.291187696158886E-3   1.432290737284347E-4  
 2.226000000000000E10   -1.229942892678082E-3  -7.829416543245316E-3  
 2.228000000000000E10   -8.237255737185478E-3   2.301383530721068E-3  
 2.230000000000000E10    3.874711692333221E-3   7.457355968654156E-3  
 2.232000000000000E10    6.270931102335453E-3  -4.806349053978920E-3  
 2.234000000000000E10   -5.796061363071203E-3  -5.256329197436571E-3  
 2.236000000000000E10   -3.914189059287310E-3   6.171149201691151E-3  
 2.238000000000000E10    6.432298105210066E-3   3.449163166806102E-3  
 2.240000000000000E10    2.107485895976424E-3  -7.042700890451670E-3  
 2.242000000000000E10   -7.116799242794514E-3  -1.263151410967112E-3  
 2.244000000000000E10   -9.200139320455492E-4   7.771665230393410E-3  
 2.246000000000000E10    7.642535958439112E-3  -6.612000288441777E-4  
 2.248000000000000E10   -1.713987905532122E-3  -6.887780502438545E-3  
 2.250000000000000E10   -6.757628172636032E-3   2.509779762476683E-3  
 2.252000000000000E10    3.388591576367617E-3   6.036600098013878E-3  
 2.254000000000000E10    5.605821963399649E-3  -3.507184330374003E-3  
 2.256000000000000E10   -3.920906689018011E-3  -4.576326813548803E-3  
 2.258000000000000E10   -3.739819861948490E-3   4.491310101002455E-3  
 2.260000000000000E10    4.701524507254362E-3   3.667364828288555E-3  
 2.262000000000000E10    2.430724911391735E-3  -4.843712318688631E-3  
 2.264000000000000E10   -4.554465413093567E-3  -2.074060728773475E-3  
 2.266000000000000E10   -9.101682226173580E-4   5.005917511880398E-3  
 2.268000000000000E10    5.520729348063469E-3   4.792587715201080E-4  
 2.270000000000000E10   -9.933589899446815E-5  -5.430023651570082E-3  
 2.272000000000000E10   -4.675558302551508E-3   5.668345256708562E-4  
 2.274000000000000E10    1.767081557773054E-3   4.966914653778076E-3  
 2.276000000000000E10    5.381236318498850E-3  -1.916786190122366E-3  
 2.278000000000000E10   -2.543653594329953E-3  -4.335802979767323E-3  
 2.280000000000000E10   -3.788060043007135E-3   2.964551560580730E-3  
 2.282000000000000E10    6.982036284171045E-4   4.645809531211853E-3  
 2.284000000000000E10    2.889206400141120E-3  -3.476622747257352E-3  
 2.286000000000000E10   -3.296305192634463E-3  -2.438336145132780E-3  
 2.288000000000000E10   -1.701155910268426E-3   2.788959071040154E-3  
 2.290000000000000E10    3.623526310548186E-3   9.337356896139681E-4  
 2.292000000000000E10    8.339053601957858E-4  -3.490521106868982E-3  
 2.294000000000000E10   -2.561726374551654E-3  -2.525353047531098E-4  
 2.296000000000000E10    2.884556015487760E-4   2.597846090793610E-3  
 2.298000000000000E10    2.572125988081098E-3  -5.752077559009194E-4  
 2.300000000000000E10   -8.265166543424130E-4  -2.655078191310167E-3  
 2.302000000000000E10   -2.714143600314856E-3   5.788282142020762E-4  
 2.304000000000000E10    1.374496612697840E-3   1.843122765421867E-3  
 2.306000000000000E10    2.320883795619011E-3  -1.508449786342681E-3  
 2.308000000000000E10   -1.357676228508353E-3  -2.667242661118507E-3  
 2.310000000000000E10   -2.209190977737308E-3   1.615719986148179E-3  
 2.312000000000000E10    2.083841012790799E-3   2.199358539655805E-3  
 2.314000000000000E10    2.019593026489019E-3  -1.910832128487527E-3  
 2.316000000000000E10   -1.782701001502574E-3  -2.166837221011519E-3  
 2.318000000000000E10   -2.211834769695997E-3   2.227556193247438E-3  
 2.320000000000000E10    2.004198962822557E-3   1.519511919468641E-3  
 2.322000000000000E10    1.159441308118403E-3  -2.374439965933561E-3  
 2.324000000000000E10   -2.177074784412980E-3  -1.371741294860840E-3  
 2.326000000000000E10   -7.880697958171368E-4   1.201088074594736E-3  
 2.328000000000000E10    1.622624462470412E-3   5.927428137511015E-4  
 2.330000000000000E10    1.018375696730800E-4  -1.626661163754761E-3  
 2.332000000000000E10   -1.463688560761511E-3  -2.803693132591434E-5  
 2.334000000000000E10    6.485964986495674E-4   1.285731792449951E-3  
 2.336000000000000E10    9.136952576227486E-4  -1.003252808004618E-3  
 2.338000000000000E10   -8.889521704986692E-4  -1.231941161677241E-3  
 2.340000000000000E10   -1.586763886734843E-3   1.290290383622050E-3  
 2.342000000000000E10    1.450544339604676E-3   8.624737965874374E-4  
 2.344000000000000E10    1.418987754732370E-3  -1.575507107190788E-3  
 2.346000000000000E10   -2.017220016568899E-3  -1.971922582015395E-3  
 2.348000000000000E10   -1.488669659011066E-3   1.519354991614819E-3  
 2.350000000000000E10    1.463706372305751E-3   1.874068635515869E-3  
 2.352000000000000E10    1.282674260437489E-3  -1.993360230699182E-3  
 2.354000000000000E10   -2.342663239687681E-3  -1.609678147360683E-3  
 2.356000000000000E10   -1.254982431419194E-3   1.702500972896814E-3  
 2.358000000000000E10    1.389697776176035E-3   1.016152324154973E-3  
 2.360000000000000E10    1.237976714037359E-3  -1.620264258235693E-3  
 2.362000000000000E10   -1.997078070417047E-3  -6.650649593211711E-4  
 2.364000000000000E10   -6.892494275234640E-4   1.103867194615305E-3  
 2.366000000000000E10    1.067104865796864E-3   2.611635136418045E-4  
 2.368000000000000E10   -1.174466597149149E-4  -1.267291954718530E-3  
 2.370000000000000E10   -1.489432062953711E-3   1.411473349435255E-4  
 2.372000000000000E10    6.051949458196759E-4   1.040316070429981E-3  
 2.374000000000000E10    9.526180219836533E-4  -1.195224700495601E-3  
 2.376000000000000E10   -1.892318483442068E-3  -8.024098933674395E-4  
 2.378000000000000E10   -7.068052655085921E-4   2.123888116329908E-3  
 2.380000000000000E10    1.871985150501132E-3   8.149936329573393E-4  
 2.382000000000000E10    1.139218336902559E-3  -1.944658462889493E-3  
 2.384000000000000E10   -2.522402675822377E-3  -6.196260801516473E-4  
 2.386000000000000E10   -7.916794857010245E-4   2.229752484709024E-3  
 2.388000000000000E10    2.162862569093704E-3   8.417354547418654E-4  
 2.390000000000000E10    9.404299780726433E-4  -2.016208134591579E-3  
 2.392000000000000E10   -2.027285750955343E-3  -4.996073548682034E-4  
 2.394000000000000E10   -3.765014698728919E-4   2.014759229496121E-3  
 2.396000000000000E10    1.463319757021964E-3   3.108996897935867E-4  
 2.398000000000000E10    2.107157779391855E-4  -1.613540458492935E-3  
 2.400000000000000E10   -1.718161627650261E-3   9.776093065738678E-5  
 2.402000000000000E10    5.345040117390454E-4   1.245367689989507E-3  
 2.404000000000000E10    1.126103335991502E-3  -8.819356444291771E-4  
 2.406000000000000E10   -1.136256614699960E-3  -9.237595950253308E-4  
 2.408000000000000E10   -5.183942848816514E-4   1.553910202346742E-3  
 2.410000000000000E10    2.052561379969120E-3   7.488751434721053E-4  
 2.412000000000000E10    2.240672765765339E-4  -1.460437779314816E-3  
 2.414000000000000E10   -1.584423938766122E-3  -1.699546992313117E-4  
 2.416000000000000E10   -6.782576383557171E-5   2.250646939501166E-3  
 2.418000000000000E10    1.661388552747667E-3   5.105088930577040E-4  
 2.420000000000000E10    5.244776257313788E-4  -2.056008204817772E-3  
 2.422000000000000E10   -1.753548742271960E-3  -2.236644068034366E-4  
 2.424000000000000E10   -1.560723467264324E-4   1.781700178980827E-3  
 2.426000000000000E10    1.930500031448901E-3   6.223776726983488E-4  
 2.428000000000000E10    5.091483471915126E-4  -1.552716945298016E-3  
 2.430000000000000E10   -1.191400107927620E-3  -6.274598417803645E-4  
 2.432000000000000E10    2.476100598869380E-5   1.456760568544269E-3  
 2.434000000000000E10    7.973510655574501E-4   1.726675982354209E-4  
 2.436000000000000E10   -1.484922977397218E-4  -6.903776084072888E-4  
 2.438000000000000E10   -2.419669035589322E-4   2.399115182925016E-4  
 2.440000000000000E10    5.670718383044004E-4   2.426285500405356E-4  
 2.442000000000000E10    3.687183198053390E-4  -5.163638852536678E-4  
 2.444000000000000E10   -1.095126266591251E-3  -3.172963624820113E-4  
 2.446000000000000E10   -2.996461407747120E-4   8.727482054382563E-4  
 2.448000000000000E10    1.271283370442689E-3   1.087715281755664E-4  
 2.450000000000000E10    3.701395180542022E-4  -1.665777526795864E-3  
 2.452000000000000E10   -2.107061678543687E-3  -6.455007824115455E-4  
 2.454000000000000E10   -2.752393775153905E-4   1.687193405814469E-3  
 2.456000000000000E10    1.957672182470560E-3   6.999372853897512E-4  
 2.458000000000000E10    1.240703975781798E-3  -2.487444551661611E-3  
 2.460000000000000E10   -2.050306182354689E-3  -7.224728469736874E-4  
 2.462000000000000E10   -7.745980401523411E-4   1.773385796695948E-3  
 2.464000000000000E10    2.052822615951300E-3   7.133921026252210E-4  
 2.466000000000000E10    3.619772905949503E-4  -1.911049708724022E-3  
 2.468000000000000E10   -1.724148401990533E-3  -1.139771309681237E-3  
 2.470000000000000E10   -3.573453577701002E-4   1.489937189035118E-3  
 2.472000000000000E10    1.608577324077487E-3  -3.231265291105956E-4  
 2.474000000000000E10   -2.522532595321536E-4  -1.413524034433067E-3  
 2.476000000000000E10   -8.171460358425975E-4   5.379137583076954E-4  
 2.478000000000000E10    1.032474567182362E-3   1.068365294486284E-3  
 2.480000000000000E10    9.792946511879563E-4  -1.701297354884446E-3  
 2.482000000000000E10   -1.956583932042122E-3  -8.701152983121574E-4  
 2.484000000000000E10   -1.032247324474156E-3   2.422611927613616E-3  
 2.486000000000000E10    2.587272319942713E-3   3.248108259867877E-4  
 2.488000000000000E10    3.028863866347820E-4  -3.390551544725895E-3  
 2.490000000000000E10   -3.431888064369559E-3  -3.215663309674710E-4  
 2.492000000000000E10    2.091433634632267E-5   3.040617099031806E-3  
 2.494000000000000E10    3.309250110760331E-3  -1.340185262961313E-4  
 2.496000000000000E10   -1.603219134267420E-4  -3.182519227266312E-3  
 2.498000000000000E10   -3.196605714038014E-3   3.801997518166900E-4  
 2.500000000000000E10    1.801062608137727E-4   2.943418920040131E-3  
 2.502000000000000E10    2.282916801050305E-3  -7.890316774137318E-4  
 2.504000000000000E10   -1.075775711797178E-3  -2.617114456370473E-3  
 2.506000000000000E10   -1.909960061311722E-3   9.934350382536650E-4  
 2.508000000000000E10    1.107840100303292E-3   1.466767047531903E-3  
 2.510000000000000E10    1.171785988844931E-3  -1.896427595056593E-3  
 2.512000000000000E10   -1.653327490203083E-3  -8.213963592424989E-4  
 2.514000000000000E10   -7.064869860187173E-4   2.291164593771100E-3  
 2.516000000000000E10    2.676004078239203E-3   5.038554663769901E-4  
 2.518000000000000E10   -9.560895705362782E-5  -2.750820247456431E-3  
 2.520000000000000E10   -3.517656121402979E-3   1.271877699764445E-4  
 2.522000000000000E10    2.074061339953914E-4   3.235756419599056E-3  
 2.524000000000000E10    3.328409045934677E-3  -9.242302039638162E-4  
 2.526000000000000E10   -9.138442110270262E-4  -3.527287859469652E-3  
 2.528000000000000E10   -3.517981618642807E-3   6.619030027650297E-4  
 2.530000000000000E10    1.290363026782870E-3   3.217034973204136E-3  
 2.532000000000000E10    3.044743090867996E-3  -1.665754592977464E-3  
 2.534000000000000E10   -1.487889792770147E-3  -2.396656200289726E-3  
 2.536000000000000E10   -2.783480798825622E-3   1.838613767176867E-3  
 2.538000000000000E10    1.945173949934542E-3   2.062417333945632E-3  
 2.540000000000000E10    1.132691162638366E-3  -2.232899889349937E-3  
 2.542000000000000E10   -2.993597183376551E-3  -8.144093444570899E-4  
 2.544000000000000E10   -6.567191448993981E-4   2.642551437020302E-3  
 2.546000000000000E10    2.784064738079906E-3  -2.725964295677841E-4  
 2.548000000000000E10   -1.286704675294459E-3  -3.281705779954791E-3  
 2.550000000000000E10   -3.330186009407044E-3   1.338491449132562E-3  
 2.552000000000000E10    1.878495095297694E-3   3.257944481447339E-3  
 2.554000000000000E10    2.971934620290995E-3  -2.457605209201574E-3  
 2.556000000000000E10   -2.501512411981821E-3  -2.613245276734233E-3  
 2.558000000000000E10   -3.087140619754791E-3   2.597866812720895E-3  
 2.560000000000000E10    2.793893450871110E-3   2.720810705795884E-3  
 2.562000000000000E10    2.221576170995832E-3  -2.909400500357151E-3  
 2.564000000000000E10   -3.079644171521068E-3  -2.214045030996203E-3  
 2.566000000000000E10   -2.251768717542291E-3   3.348526079207659E-3  
 2.568000000000000E10    3.102467162534595E-3   1.420468091964722E-3  
 2.570000000000000E10    6.474565016105771E-4  -3.407021053135395E-3  
 2.572000000000000E10   -2.623746404424310E-3   2.757352558546700E-5  
 2.574000000000000E10   -2.244941570097581E-4   2.970313886180520E-3  
 2.576000000000000E10    2.865977119654417E-3  -8.154117385856807E-4  
 2.578000000000000E10   -1.787903252989054E-3  -2.528437413275242E-3  
 2.580000000000000E10   -2.466350328177214E-3   2.320247469469905E-3  
 2.582000000000000E10    2.264091977849603E-3   2.176972571760416E-3  
 2.584000000000000E10    1.648247707635164E-3  -2.958091441541910E-3  
 2.586000000000000E10   -3.497974714264274E-3  -1.765268156304956E-3  
 2.588000000000000E10   -1.851520617492497E-3   3.129797987639904E-3  
 2.590000000000000E10    3.186687361449003E-3   1.616076333448291E-3  
 2.592000000000000E10    2.098536351695657E-3  -4.035333171486855E-3  
 2.594000000000000E10   -3.575384151190519E-3  -1.282616518437862E-3  
 2.596000000000000E10   -1.223170431330800E-3   4.342814907431603E-3  
 2.598000000000000E10    3.769526258111000E-3   7.800672319717705E-4  
 2.600000000000000E10   -5.768065966549330E-5  -3.717019222676754E-3  
 2.602000000000000E10   -3.674757666885853E-3   4.600473912432790E-4  
 2.604000000000000E10    1.018748851493001E-3   3.134918166324496E-3  
 2.606000000000000E10    2.627911977469921E-3  -1.591945299878717E-3  
 2.608000000000000E10   -2.129756379872561E-3  -1.891041174530983E-3  
 2.610000000000000E10   -1.365564763545990E-3   2.380339661613107E-3  
 2.612000000000000E10    2.675647614523768E-3   1.263151643797755E-3  
 2.614000000000000E10    8.635730482637882E-4  -2.998579991981387E-3  
 2.616000000000000E10   -3.684565192088485E-3  -2.693701026146300E-5  
 2.618000000000000E10   -2.021747932303697E-4   4.090018570423126E-3  
 2.620000000000000E10    4.044635221362114E-3   1.421145134372637E-4  
 2.622000000000000E10   -6.425931351259351E-4  -4.140873439610004E-3  
 2.624000000000000E10   -4.124719649553299E-3   4.880843334831297E-4  
 2.626000000000000E10    7.505919784307480E-4   4.313728306442499E-3  
 2.628000000000000E10    3.983378876000643E-3  -9.933618130162358E-4  
 2.630000000000000E10   -1.336368382908404E-3  -3.712425706908107E-3  
 2.632000000000000E10   -2.847297349944711E-3   1.869166851975024E-3  
 2.634000000000000E10    1.365442876704037E-3   2.623655833303928E-3  
 2.636000000000000E10    2.253275830298662E-3  -1.510250032879412E-3  
 2.638000000000000E10   -2.056987024843693E-3  -1.612555235624313E-3  
 2.640000000000000E10   -1.267463900148869E-3   2.157235983759165E-3  
 2.642000000000000E10    1.978328684344888E-3   6.890693330205977E-4  
 2.644000000000000E10    2.612441312521696E-4  -2.169915242120624E-3  
 2.646000000000000E10   -2.482191426679492E-3   2.247326192446053E-4  
 2.648000000000000E10    4.361247410997748E-4   2.847909927368164E-3  
 2.650000000000000E10    2.644346561282873E-3  -8.662193431518972E-4  
 2.652000000000000E10   -1.221881015226245E-3  -3.006742103025317E-3  
 2.654000000000000E10   -3.187202615663409E-3   2.032631076872349E-3  
 2.656000000000000E10    2.213432686403394E-3   2.988222753629088E-3  
 2.658000000000000E10    2.559468150138855E-3  -1.849655178375542E-3  
 2.660000000000000E10   -2.491234103217721E-3  -2.202805830165744E-3  
 2.662000000000000E10   -2.002678811550140E-3   2.364573767408729E-3  
 2.664000000000000E10    2.199807204306126E-3   1.724633504636586E-3  
 2.666000000000000E10    1.282471930608153E-3  -2.352031646296382E-3  
 2.668000000000000E10   -2.461194992065430E-3  -7.746917544864118E-4  
 2.670000000000000E10   -3.346312732901424E-4   2.297862665727735E-3  
 2.672000000000000E10    2.307525137439370E-3  -2.365313594054896E-5  
 2.674000000000000E10   -2.640514576341957E-4  -2.518877387046814E-3  
 2.676000000000000E10   -2.565884031355381E-3   1.198102603666484E-3  
 2.678000000000000E10    1.664843992330134E-3   2.568734111264348E-3  
 2.680000000000000E10    2.065272768959403E-3  -2.109283814206719E-3  
 2.682000000000000E10   -2.415267284959555E-3  -2.187393140047789E-3  
 2.684000000000000E10   -1.793920062482357E-3   2.668597036972642E-3  
 2.686000000000000E10    3.076320514082909E-3   1.392720383591950E-3  
 2.688000000000000E10    1.487056259065867E-3  -2.677205484360457E-3  
 2.690000000000000E10   -2.806070959195495E-3  -1.327786012552679E-3  
 2.692000000000000E10   -1.178195700049400E-3   2.760201925411820E-3  
 2.694000000000000E10    2.558361040428281E-3   7.890986162237823E-4  
 2.696000000000000E10    4.724816535599530E-4  -2.185013843700290E-3  
 2.698000000000000E10   -1.707636285573244E-3  -4.487198311835527E-4  
 2.700000000000000E10    2.864833222702146E-4   1.574073336087167E-3  
 2.702000000000000E10    1.023194869048894E-3  -5.410224548541009E-4  
 2.704000000000000E10   -9.111293475143611E-4  -9.602851932868362E-4  
 2.706000000000000E10   -3.005178296007216E-4   1.303179305978119E-3  
 2.708000000000000E10    1.593429362401366E-3   1.711433287709951E-4  
 2.710000000000000E10   -6.400842539733276E-5  -1.853261375799775E-3  
 2.712000000000000E10   -2.160177798941732E-3   1.445492216589628E-5  
 2.714000000000000E10    2.026631118496880E-4   2.446555066853762E-3  
 2.716000000000000E10    2.615197096019983E-3  -1.597385999048129E-4  
 2.718000000000000E10    3.720691529451869E-5  -2.774763852357864E-3  
 2.720000000000000E10   -2.926795976236463E-3   3.314165514893830E-4  
 2.722000000000000E10    5.016094073653221E-4   2.510190708562732E-3  
 2.724000000000000E10    2.282662549987435E-3   1.081618393072859E-4  
 2.726000000000000E10   -3.257918797316961E-5  -2.621856518089771E-3  
 2.728000000000000E10   -1.920144888572395E-3  -1.838859679992311E-5  
 2.730000000000000E10    3.703196489368565E-5   1.697380095720291E-3  
 2.732000000000000E10    1.377216540277004E-3  -3.545001673046500E-4  
 2.734000000000000E10   -1.942097587743774E-4  -8.527716854587197E-4  
 2.736000000000000E10   -3.862062876578420E-4   2.907838206738234E-4  
 2.738000000000000E10    5.877228686586022E-4   1.830630753829610E-5  
 2.740000000000000E10   -1.815194555092603E-4  -5.156850675120950E-4  
 2.742000000000000E10   -1.100483001209796E-3   3.387412871234119E-4  
 2.744000000000000E10    1.009174971841276E-3   1.116225845180452E-3  
 2.746000000000000E10    9.606369421817362E-4  -1.105878618545830E-3  
 2.748000000000000E10   -1.021218718960881E-3  -1.673079794272780E-3  
 2.750000000000000E10   -1.334418077021837E-3   1.385623821988702E-3  
 2.752000000000000E10    1.020608586259186E-3   1.618629554286599E-3  
 2.754000000000000E10    1.874359091743827E-3  -1.075278501957655E-3  
 2.756000000000000E10   -1.157917780801654E-3  -1.640525413677096E-3  
