#  HZ   S   RI   R     50.00 
! Rohde & Schwarz ZVA40 4Ports - Version 3.90 - 1145.1110k42 SN: 100403
! Date: 2023-10-04 10:42:42
! Measurement: S12 
! 
 2.200000000000000E10    2.021510154008865E-3   2.791722305119038E-3  
 2.202000000000000E10    3.090269165113568E-3  -2.090848749503493E-3  
 2.204000000000000E10   -2.120889490470290E-3  -3.563875798135996E-3  
 2.206000000000000E10   -3.495863871648908E-3   2.794843167066574E-3  
 2.208000000000000E10    3.509119618684053E-3   3.321489086374641E-3  
 2.210000000000000E10    3.497739322483540E-3  -4.107307642698288E-3  
 2.212000000000000E10   -4.659506957978010E-3  -3.194442717358470E-3  
 2.214000000000000E10   -2.046023262664676E-3   5.566378589719534E-3  
 2.216000000000000E10    5.590897053480148E-3   1.316135167144239E-3  
 2.218000000000000E10    9.222586522810161E-4  -6.476989481598139E-3  
 2.220000000000000E10   -6.458445452153683E-3   1.374840212520212E-4  
 2.222000000000000E10    1.316396053880453E-3   5.829238798469305E-3  
 2.224000000000000E10    5.915068555623293E-3  -2.559704706072807E-3  
 2.226000000000000E10   -3.927146084606648E-3  -5.263528320938349E-3  
 2.228000000000000E10   -4.632910713553429E-3   4.811079706996679E-3  
 2.230000000000000E10    5.453497171401978E-3   3.331045620143414E-3  
 2.232000000000000E10    2.426896011456847E-3  -6.135051138699055E-3  
 2.234000000000000E10   -6.361789070069790E-3  -1.390140736475587E-3  
 2.236000000000000E10   -5.026226281188428E-4   6.203925702720881E-3  
 2.238000000000000E10    6.120866164565086E-3   8.132570656016469E-6  
 2.240000000000000E10   -1.050964114256203E-3  -6.749833934009075E-3  
 2.242000000000000E10   -5.997520405799151E-3   1.737866899929941E-3  
 2.244000000000000E10    2.468651626259089E-3   5.441536661237478E-3  
 2.246000000000000E10    4.939121194183826E-3  -3.286201739683747E-3  
 2.248000000000000E10   -3.433031262829900E-3  -4.449637606739998E-3  
 2.250000000000000E10   -3.368498757481575E-3   3.848898690193892E-3  
 2.252000000000000E10    4.006237722933292E-3   2.885072724893689E-3  
 2.254000000000000E10    2.234293147921562E-3  -3.897322574630380E-3  
 2.256000000000000E10   -4.156216513365507E-3  -1.477963058277965E-3  
 2.258000000000000E10   -6.962388288229704E-4   4.301576875150204E-3  
 2.260000000000000E10    3.905267920345068E-3  -1.170844116131775E-4  
 2.262000000000000E10   -7.941657677292824E-4  -3.557598683983088E-3  
 2.264000000000000E10   -3.349255071952939E-3   1.173265511170030E-3  
 2.266000000000000E10    1.419262611307204E-3   3.265965031459928E-3  
 2.268000000000000E10    3.351757070049644E-3  -1.820380799472332E-3  
 2.270000000000000E10   -2.134080044925213E-3  -2.878310624510050E-3  
 2.272000000000000E10   -2.201593946665525E-3   2.353589981794357E-3  
 2.274000000000000E10    2.214058069512248E-3   2.424134640023112E-3  
 2.276000000000000E10    1.761265913955867E-3  -2.622885163873434E-3  
 2.278000000000000E10   -2.244786359369755E-3  -1.240948215126991E-3  
 2.280000000000000E10   -1.221748651005328E-3   2.313829027116299E-3  
 2.282000000000000E10    1.333924708887935E-3   1.994114136323333E-3  
 2.284000000000000E10    3.248057037126273E-4  -1.579170464538038E-3  
 2.286000000000000E10   -1.466496498323977E-3  -3.046279889531434E-4  
 2.288000000000000E10    6.947720248717815E-5   1.205452601425350E-3  
 2.290000000000000E10    1.649468904361129E-3   1.394726859871298E-4  
 2.292000000000000E10   -7.810865063220263E-4  -1.092828810214996E-3  
 2.294000000000000E10   -6.036430713720620E-4   6.986433872953057E-4  
 2.296000000000000E10    7.620104588568211E-4   1.282268320210278E-3  
 2.298000000000000E10    4.984873230569065E-4  -9.432085789740086E-4  
 2.300000000000000E10   -5.472204647958279E-4  -6.119876634329557E-4  
 2.302000000000000E10   -1.030138693749905E-3   9.383756550960243E-4  
 2.304000000000000E10    1.092578051611781E-3   1.153229037299752E-3  
 2.306000000000000E10    1.293777721002698E-3  -6.098540034145117E-4  
 2.308000000000000E10   -8.542874129489064E-4  -1.106807845644653E-3  
 2.310000000000000E10   -9.944905759766698E-4   9.366322192363441E-4  
 2.312000000000000E10    4.578395746648312E-4   1.463726279325783E-3  
 2.314000000000000E10    1.113989972509444E-3  -3.592579450923950E-4  
 2.316000000000000E10   -4.555397899821401E-4  -1.635364256799221E-3  
 2.318000000000000E10   -1.554646063596010E-3   7.917014299891889E-4  
 2.320000000000000E10    3.497664874885231E-4   1.348127378150821E-3  
 2.322000000000000E10    1.243970822542906E-3  -3.364301228430122E-4  
 2.324000000000000E10   -6.440849392674863E-4  -1.058495836332440E-3  
 2.326000000000000E10   -1.061470829881728E-3   3.163014189340174E-4  
 2.328000000000000E10    9.431440266780555E-4   1.081222086213529E-3  
 2.330000000000000E10    9.273738833144307E-4  -8.353669545613229E-4  
 2.332000000000000E10   -9.519412997178733E-4  -6.868808413855732E-4  
 2.334000000000000E10   -1.614402281120420E-4   1.175226643681526E-3  
 2.336000000000000E10    1.109053380787373E-3   7.473889127140865E-5  
 2.338000000000000E10    2.105652238242328E-4  -1.743178581818938E-3  
 2.340000000000000E10   -1.341846189461649E-3   3.764125285670161E-4  
 2.342000000000000E10    2.219637826783583E-4   1.700953464023769E-3  
 2.344000000000000E10    2.283401787281036E-3  -2.466822043061256E-4  
 2.346000000000000E10   -9.595670271664858E-4  -2.203150885179639E-3  
 2.348000000000000E10   -2.013064455240965E-3   4.905007081106305E-4  
 2.350000000000000E10    1.173401484265924E-3   2.677348442375660E-3  
 2.352000000000000E10    2.123653190210462E-3  -1.705046859569848E-3  
 2.354000000000000E10   -1.137490849941969E-3  -2.037869067862630E-3  
 2.356000000000000E10   -1.918798778206110E-3   1.323177479207516E-3  
 2.358000000000000E10    1.623723423108459E-3   1.669242163188756E-3  
 2.360000000000000E10    1.489138347096741E-3  -1.992373261600733E-3  
 2.362000000000000E10   -1.502549275755882E-3  -1.373100443743169E-3  
 2.364000000000000E10   -6.881308509036899E-4   1.790634938515723E-3  
 2.366000000000000E10    2.013635588809848E-3  -2.955841227958445E-5  
 2.368000000000000E10    3.654902684502304E-5  -1.972176600247622E-3  
 2.370000000000000E10   -1.954134553670883E-3   2.676746225915849E-4  
 2.372000000000000E10    9.592682472430170E-4   2.481997013092041E-3  
 2.374000000000000E10    2.242557005956769E-3  -1.271084183827043E-3  
 2.376000000000000E10   -1.616606139577925E-3  -2.002236666157842E-3  
 2.378000000000000E10   -2.152791246771812E-3   1.573680317960680E-3  
 2.380000000000000E10    2.133995527401567E-3   2.366749336943030E-3  
 2.382000000000000E10    2.090632449835539E-3  -2.667853143066168E-3  
 2.384000000000000E10   -1.819356344640255E-3  -1.696116174571216E-3  
 2.386000000000000E10   -1.893531880341470E-3   2.060490427538753E-3  
 2.388000000000000E10    2.751706866547465E-3   1.755484263412654E-3  
 2.390000000000000E10    1.115012099035084E-3  -2.722753444686532E-3  
 2.392000000000000E10   -2.216957975178957E-3  -1.195476274006069E-3  
 2.394000000000000E10   -7.204554276540875E-4   2.201632829383016E-3  
 2.396000000000000E10    2.121248980984092E-3   2.676837611943483E-4  
 2.398000000000000E10   -1.187538655358367E-4  -2.176081296056509E-3  
 2.400000000000000E10   -1.870740205049515E-3   3.385638701729477E-4  
 2.402000000000000E10    1.143607427366078E-3   1.461511943489313E-3  
 2.404000000000000E10    1.331037026830018E-3  -1.330069615505636E-3  
 2.406000000000000E10   -2.115515992045403E-3  -1.295879483222961E-3  
 2.408000000000000E10   -1.406130730174482E-3   2.218911889940500E-3  
 2.410000000000000E10    2.449974650517106E-3   1.156004727818072E-3  
 2.412000000000000E10    7.592021138407290E-4  -2.803341019898653E-3  
 2.414000000000000E10   -3.122190944850445E-3  -9.704733965918422E-4  
 2.416000000000000E10   -8.884345879778266E-4   3.414760809391737E-3  
 2.418000000000000E10    3.272086847573519E-3   6.231662700884044E-4  
 2.420000000000000E10    3.753966302610934E-4  -3.541445359587669E-3  
 2.422000000000000E10   -3.477661637589335E-3  -2.653764386195689E-4  
 2.424000000000000E10   -6.582259084098041E-4   3.099401481449604E-3  
 2.426000000000000E10    2.825272269546986E-3   9.763055713847280E-4  
 2.428000000000000E10   -1.537358548375778E-5  -3.037315793335438E-3  
 2.430000000000000E10   -3.017781302332878E-3  -4.210487168165855E-5  
 2.432000000000000E10    8.713876013644040E-5   2.540141809731722E-3  
 2.434000000000000E10    1.861629774793983E-3  -4.948225105181336E-4  
 2.436000000000000E10   -8.954540826380253E-4  -1.702784327790141E-3  
 2.438000000000000E10   -1.837472314946353E-3   9.168588439933956E-4  
 2.440000000000000E10    1.144757610745728E-3   1.347514335066080E-3  
 2.442000000000000E10    1.173596479929984E-3  -1.605957397259772E-3  
 2.444000000000000E10   -2.105663763359189E-3  -9.860005229711533E-4  
 2.446000000000000E10   -1.001427415758371E-3   2.373822964727879E-3  
 2.448000000000000E10    2.673574257642031E-3   9.898957796394825E-4  
 2.450000000000000E10    3.140210756100714E-4  -3.153753466904163E-3  
 2.452000000000000E10   -3.621104871854186E-3  -2.690379624255002E-4  
 2.454000000000000E10   -7.980036316439509E-4   3.688567550852895E-3  
 2.456000000000000E10    3.646238939836621E-3   2.214379346696660E-4  
 2.458000000000000E10    9.135024811257608E-6  -4.010105505585671E-3  
 2.460000000000000E10   -4.005842842161655E-3   7.474854937754571E-4  
 2.462000000000000E10    2.420967211946845E-4   3.653274150565267E-3  
 2.464000000000000E10    3.052433719858527E-3  -6.620337953791022E-4  
 2.466000000000000E10   -1.301820040680468E-3  -2.871282864362001E-3  
 2.468000000000000E10   -3.116357373073697E-3   1.272143330425024E-3  
 2.470000000000000E10    1.876792870461941E-3   2.661006292328239E-3  
 2.472000000000000E10    1.625472679734230E-3  -2.083670347929001E-3  
 2.474000000000000E10   -2.331796335056424E-3  -1.650415826588869E-3  
 2.476000000000000E10   -9.085463243536651E-4   2.935877069830895E-3  
 2.478000000000000E10    2.806301927193999E-3   9.764683200046420E-4  
 2.480000000000000E10    1.643736031837761E-4  -3.108717501163483E-3  
 2.482000000000000E10   -3.801127430051565E-3  -6.241855589905754E-5  
 2.484000000000000E10    2.140519354725257E-4   4.058948252350092E-3  
 2.486000000000000E10    3.950400277972221E-3  -9.688157588243485E-4  
 2.488000000000000E10   -1.236140145920217E-3  -3.843257203698158E-3  
 2.490000000000000E10   -4.185321740806103E-3   1.852984772995114E-3  
 2.492000000000000E10    1.942255184985697E-3   3.868660191074014E-3  
 2.494000000000000E10    3.726141992956400E-3  -1.791233196854591E-3  
 2.496000000000000E10   -2.615464385598898E-3  -3.414716804400086E-3  
 2.498000000000000E10   -2.730586566030979E-3   2.911287127062678E-3  
 2.500000000000000E10    2.210262930020690E-3   2.746272599324584E-3  
 2.502000000000000E10    2.236627507954836E-3  -2.298256382346153E-3  
 2.504000000000000E10   -2.878464292734861E-3  -1.550757442601025E-3  
 2.506000000000000E10   -8.760149357840419E-4   3.283540252596140E-3  
 2.508000000000000E10    2.949199173599482E-3   8.348618284799159E-4  
 2.510000000000000E10    1.840295735746622E-4  -3.390196245163679E-3  
 2.512000000000000E10   -3.596807364374399E-3   1.044135773554444E-3  
 2.514000000000000E10    1.489538117311895E-3   3.661739174276590E-3  
 2.516000000000000E10    3.789084265008569E-3  -1.546858227811754E-3  
 2.518000000000000E10   -2.359622856602073E-3  -3.167724935337901E-3  
 2.520000000000000E10   -3.205878194421530E-3   3.075201064348221E-3  
 2.522000000000000E10    3.207769710570574E-3   3.693160833790898E-3  
 2.524000000000000E10    2.890040166676045E-3  -3.279624274000526E-3  
 2.526000000000000E10   -3.290950786322355E-3  -2.445491263642907E-3  
 2.528000000000000E10   -2.267823321744800E-3   4.093786235898733E-3  
 2.530000000000000E10    3.403196111321449E-3   2.344436012208462E-3  
 2.532000000000000E10    1.804539700970054E-3  -3.576921764761210E-3  
 2.534000000000000E10   -3.617556532844901E-3  -8.392919553443790E-4  
 2.536000000000000E10   -7.176512153819203E-4   3.537167329341173E-3  
 2.538000000000000E10    3.445995738729835E-3   1.879424671642482E-4  
 2.540000000000000E10   -3.739259555004537E-4  -2.972387010231614E-3  
 2.542000000000000E10   -3.221384249627590E-3   1.215415308251977E-3  
 2.544000000000000E10    1.931917504407466E-3   2.889082301408052E-3  
 2.546000000000000E10    3.085837699472904E-3  -2.151333494111896E-3  
 2.548000000000000E10   -2.927352208644152E-3  -2.360253594815731E-3  
 2.550000000000000E10   -1.713963807560504E-3   3.557959338650107E-3  
 2.552000000000000E10    3.722151741385460E-3   2.177353249862790E-3  
 2.554000000000000E10    1.530204317532480E-3  -4.393657203763723E-3  
 2.556000000000000E10   -4.240183625370264E-3  -9.492200915701687E-4  
 2.558000000000000E10   -5.904327845200896E-4   4.825329873710871E-3  
 2.560000000000000E10    4.827512893825769E-3   7.116894121281803E-4  
 2.562000000000000E10    2.713729045353830E-4  -4.303604830056429E-3  
 2.564000000000000E10   -4.187752958387137E-3   3.232666931580752E-4  
 2.566000000000000E10    7.302815793082118E-4   4.339755512773991E-3  
 2.568000000000000E10    4.158995579928160E-3  -1.408795127645135E-3  
 2.570000000000000E10   -2.064001513645053E-3  -3.374315332621336E-3  
 2.572000000000000E10   -2.587629947811365E-3   2.191895386204124E-3  
 2.574000000000000E10    2.504330594092608E-3   2.237356966361404E-3  
 2.576000000000000E10    2.106596017256379E-3  -3.198668593540788E-3  
 2.578000000000000E10   -3.249129047617316E-3  -1.012870343402028E-3  
 2.580000000000000E10   -5.746373972215224E-6   3.397635417059064E-3  
 2.582000000000000E10    4.262885078787804E-3   2.947788452729583E-4  
 2.584000000000000E10   -4.533002793323249E-4  -4.552382975816727E-3  
 2.586000000000000E10   -4.328792449086905E-3   1.290285261347890E-3  
 2.588000000000000E10    1.798277487978339E-3   4.362984094768763E-3  
 2.590000000000000E10    4.568334668874741E-3  -2.062742598354816E-3  
 2.592000000000000E10   -2.298879902809858E-3  -4.439638461917639E-3  
 2.594000000000000E10   -3.520129714161158E-3   2.672604750841856E-3  
 2.596000000000000E10    2.605302026495338E-3   3.550907364115119E-3  
 2.598000000000000E10    3.461091779172421E-3  -2.843259833753109E-3  
 2.600000000000000E10   -3.143955720588565E-3  -2.845857990905643E-3  
 2.602000000000000E10   -2.229197183623910E-3   2.843233523890376E-3  
 2.604000000000000E10    3.159198677167296E-3   1.572021166794002E-3  
 2.606000000000000E10    1.013886299915612E-3  -3.489212365821004E-3  
 2.608000000000000E10   -3.081931499764323E-3  -2.614505065139383E-4  
 2.610000000000000E10    3.128864918835461E-4   3.185892710462213E-3  
 2.612000000000000E10    3.359974361956120E-3  -6.680325604975224E-4  
 2.614000000000000E10   -1.101748435758054E-3  -3.114033723250032E-3  
 2.616000000000000E10   -3.281461074948311E-3   1.731297932565212E-3  
 2.618000000000000E10    2.375044859945774E-3   3.629843005910516E-3  
 2.620000000000000E10    3.039456903934479E-3  -2.905299421399832E-3  
 2.622000000000000E10   -3.229472553357482E-3  -2.946819411590695E-3  
 2.624000000000000E10   -2.635119250044227E-3   2.990158740431070E-3  
 2.626000000000000E10    3.429620992392302E-3   2.153233857825398E-3  
 2.628000000000000E10    2.345866290852428E-3  -3.486745757982135E-3  
 2.630000000000000E10   -3.264327067881823E-3  -1.952486811205745E-3  
 2.632000000000000E10   -1.155055477283895E-3   3.542840713635087E-3  
 2.634000000000000E10    3.417682135477662E-3   5.845978739671409E-4  
 2.636000000000000E10    2.781463845167309E-4  -2.918610116466880E-3  
 2.638000000000000E10   -3.295436035841703E-3   3.938348090741783E-4  
 2.640000000000000E10    1.253913273103535E-3   2.411301247775555E-3  
 2.642000000000000E10    2.385755535215139E-3  -1.241899910382927E-3  
 2.644000000000000E10   -2.145543228834868E-3  -2.616126788780093E-3  
 2.646000000000000E10   -1.887204241938889E-3   2.412095665931702E-3  
 2.648000000000000E10    3.379473462700844E-3   1.472042175009847E-3  
 2.650000000000000E10    1.563711208291352E-3  -3.379200818017125E-3  
 2.652000000000000E10   -3.831050591543317E-3  -1.312589854933322E-3  
 2.654000000000000E10   -5.144895985722542E-4   4.542350769042969E-3  
 2.656000000000000E10    3.815487259998918E-3   3.596055030357093E-4  
 2.658000000000000E10    5.248145898804069E-4  -3.788615576922894E-3  
 2.660000000000000E10   -3.906686324626207E-3   1.256229006685317E-4  
 2.662000000000000E10    7.198490784503520E-4   3.365186508744955E-3  
 2.664000000000000E10    2.958518685773015E-3  -4.919178900308907E-4  
 2.666000000000000E10   -5.199837614782155E-4  -2.664752304553986E-3  
 2.668000000000000E10   -2.208347665145993E-3   1.309556304477155E-3  
 2.670000000000000E10    1.085433643311262E-3   1.115217572078109E-3  
 2.672000000000000E10    1.133517711423338E-3  -1.009989995509386E-3  
 2.674000000000000E10   -1.346151926554740E-3  -8.234311244450510E-4  
 2.676000000000000E10   -5.726433009840548E-4   1.782677252776921E-3  
 2.678000000000000E10    2.202966017648578E-3  -1.724033354548737E-4  
 2.680000000000000E10   -3.623946977313608E-4  -2.275121863931418E-3  
 2.682000000000000E10   -2.547478536143899E-3   4.604764399118722E-4  
 2.684000000000000E10    1.402680529281497E-3   2.640078309923410E-3  
 2.686000000000000E10    2.617595018818975E-3  -1.569257234223187E-3  
 2.688000000000000E10   -1.346635399386287E-3  -2.767738420516253E-3  
 2.690000000000000E10   -2.783954143524170E-3   1.457483624108136E-3  
 2.692000000000000E10    1.453500241041184E-3   2.457360504195094E-3  
 2.694000000000000E10    2.668487373739481E-3  -1.574002439156175E-3  
 2.696000000000000E10   -1.634098473004997E-3  -2.252851612865925E-3  
 2.698000000000000E10   -2.266618655994535E-3   1.444399007596076E-3  
 2.700000000000000E10    1.411585835739970E-3   1.615807996131480E-3  
 2.702000000000000E10    1.301259500905871E-3  -1.633796491660178E-3  
 2.704000000000000E10   -1.315194997005165E-3  -8.519178372807801E-4  
 2.706000000000000E10   -3.658402129076421E-4   1.246661180630326E-3  
 2.708000000000000E10    1.300911419093609E-3  -3.489627270027995E-4  
 2.710000000000000E10   -7.280443096533418E-4  -1.733919372782111E-3  
 2.712000000000000E10   -1.334648812189698E-3   1.221191021613777E-3  
 2.714000000000000E10    1.832789159379900E-3   1.178103848360479E-3  
 2.716000000000000E10    1.506604952737689E-3  -1.805050880648196E-3  
 2.718000000000000E10   -2.070674207061529E-3  -1.670926227234304E-3  
 2.720000000000000E10   -1.196119817905128E-3   2.553254365921021E-3  
 2.722000000000000E10    2.568952040746808E-3   1.049083773978055E-3  
 2.724000000000000E10    1.217644894495606E-3  -2.555998973548412E-3  
 2.726000000000000E10   -2.381564816460013E-3  -1.039204304106534E-3  
 2.728000000000000E10   -6.185767706483603E-4   2.109884982928634E-3  
 2.730000000000000E10    1.410730066709220E-3   6.624548113904893E-4  
 2.732000000000000E10    7.740995497442782E-4  -1.791316433809698E-3  
 2.734000000000000E10   -1.307668513618410E-3  -2.017300575971603E-4  
 2.736000000000000E10   -3.944661293644458E-4   6.327007431536913E-4  
 2.738000000000000E10    7.233145297504962E-4   1.989810698432848E-5  
 2.740000000000000E10   -5.298656178638339E-4  -5.498224054463208E-4  
 2.742000000000000E10   -2.875937789212912E-4   8.800714276731014E-4  
 2.744000000000000E10    1.136337872594595E-3   4.804156487807632E-4  
 2.746000000000000E10   -4.803248157259077E-5  -1.207476481795311E-3  
 2.748000000000000E10   -1.799235353246331E-3  -1.073166367859813E-5  
 2.750000000000000E10    5.247468652669340E-5   1.850170898251236E-3  
 2.752000000000000E10    1.437681145034730E-3  -1.572918699821457E-4  
 2.754000000000000E10    2.625467604957521E-4  -2.280401298776269E-3  
 2.756000000000000E10   -2.182388445362449E-3  -1.087306827685097E-5  
