#  HZ   S   RI   R     50.00 
! Rohde & Schwarz ZVA40 4Ports - Version 3.90 - 1145.1110k42 SN: 100403
! Date: 2023-10-04 10:43:15
! Measurement: S12 
! 
 2.200000000000000E10    6.688504945486784E-4   3.861432662233710E-3  
 2.202000000000000E10    3.223006147891283E-3  -9.563782368786633E-4  
 2.204000000000000E10   -1.198068959638476E-3  -3.680787514895201E-3  
 2.206000000000000E10   -3.968957811594009E-3   1.556614763103426E-3  
 2.208000000000000E10    1.775254146195948E-3   3.737260587513447E-3  
 2.210000000000000E10    3.639824688434601E-3  -2.685849554836750E-3  
 2.212000000000000E10   -3.009457373991609E-3  -3.988682758063078E-3  
 2.214000000000000E10   -3.633699147030711E-3   3.584602382034063E-3  
 2.216000000000000E10    4.871477372944355E-3   2.764256671071053E-3  
 2.218000000000000E10    2.253011334687471E-3  -5.031163804233074E-3  
 2.220000000000000E10   -5.545217543840408E-3  -1.764930086210370E-3  
 2.222000000000000E10   -5.456664366647601E-4   5.703651811927557E-3  
 2.224000000000000E10    5.613874644041061E-3  -7.463033543899655E-4  
 2.226000000000000E10   -1.684019807726145E-3  -5.889200605452061E-3  
 2.228000000000000E10   -5.260780453681946E-3   2.550894394516945E-3  
 2.230000000000000E10    3.282947931438685E-3   4.689915105700493E-3  
 2.232000000000000E10    4.070960450917482E-3  -4.791012033820152E-3  
 2.234000000000000E10   -4.839228000491858E-3  -3.331217449158430E-3  
 2.236000000000000E10   -2.743096556514502E-3   5.090869031846523E-3  
 2.238000000000000E10    5.341112613677979E-3   1.948012853972614E-3  
 2.240000000000000E10    1.078026369214058E-3  -5.466842558234930E-3  
 2.242000000000000E10   -5.671214777976275E-3  -1.832496636779979E-4  
 2.244000000000000E10   -2.466678852215409E-4   5.492979660630226E-3  
 2.246000000000000E10    4.875558428466320E-3  -7.132788887247443E-4  
 2.248000000000000E10   -1.628229860216379E-3  -4.771136213093996E-3  
 2.250000000000000E10   -3.828736720606685E-3   2.014405559748411E-3  
 2.252000000000000E10    2.037844620645046E-3   3.646741621196270E-3  
 2.254000000000000E10    2.607258036732674E-3  -2.894845325499773E-3  
 2.256000000000000E10   -3.118705237284303E-3  -2.165401354432106E-3  
 2.258000000000000E10   -1.749132876284421E-3   3.316890913993120E-3  
 2.260000000000000E10    3.017309587448835E-3   1.224915497004986E-3  
 2.262000000000000E10   -1.120739398174919E-4  -3.407818730920553E-3  
 2.264000000000000E10   -2.972154878079891E-3   4.375328426249325E-4  
 2.266000000000000E10    3.050111990887672E-4   2.903256798163056E-3  
 2.268000000000000E10    3.254524432122707E-3  -9.410100756213069E-4  
 2.270000000000000E10   -1.071788021363318E-3  -2.162575721740723E-3  
 2.272000000000000E10   -2.234612591564655E-3   1.159826875664294E-3  
 2.274000000000000E10    1.080416142940521E-3   2.346532419323921E-3  
 2.276000000000000E10    2.373219467699528E-3  -6.738590891472995E-4  
 2.278000000000000E10   -1.346317352727056E-3  -1.621041097678244E-3  
 2.280000000000000E10   -1.315742032602429E-3   9.396935929544270E-4  
 2.282000000000000E10   -2.341424988117069E-4   1.523063983768225E-3  
 2.284000000000000E10    1.190150855109096E-3  -8.305811788886786E-4  
 2.286000000000000E10   -3.447113558650017E-4  -9.552012779749930E-4  
 2.288000000000000E10   -7.091775187291205E-4   3.841661964543164E-4  
 2.290000000000000E10    6.523490883409977E-4   6.356216617859900E-4  
 2.292000000000000E10    6.705218111164868E-4  -4.871920682489872E-4  
 2.294000000000000E10   -4.944365355186164E-5   1.373598934151232E-4  
 2.296000000000000E10   -1.715695980237797E-4   4.373744595795870E-4  
 2.298000000000000E10    3.651449515018612E-4   4.221038252580911E-4  
 2.300000000000000E10    7.834031566744670E-5  -5.224973428994417E-4  
 2.302000000000000E10   -5.260110483504832E-4  -7.185130380094051E-5  
 2.304000000000000E10   -1.585010177223012E-4   3.998665197286755E-4  
 2.306000000000000E10    1.154295867308974E-3   2.595679834485054E-4  
 2.308000000000000E10    6.364971632137895E-4  -7.644976139999926E-4  
 2.310000000000000E10   -8.234241395257413E-4  -3.945044300053269E-4  
 2.312000000000000E10   -2.107125474140048E-4   1.512549701146781E-3  
 2.314000000000000E10    1.482862629927695E-3   7.303628372028470E-4  
 2.316000000000000E10    1.113507081754506E-3  -1.121394452638924E-3  
 2.318000000000000E10   -1.272756955586374E-3  -1.109533128328621E-3  
 2.320000000000000E10   -7.445624796673656E-4   1.690154429525137E-3  
 2.322000000000000E10    1.575290691107512E-3   7.641737465746701E-4  
 2.324000000000000E10    1.465442008338869E-3  -1.927290926687419E-3  
 2.326000000000000E10   -1.939471578225493E-3  -6.242662784643471E-4  
 2.328000000000000E10   -2.946206077467650E-4   1.771000912413001E-3  
 2.330000000000000E10    2.062348416075110E-3   2.856746723409742E-4  
 2.332000000000000E10   -9.500475425738841E-5  -1.670859986916184E-3  
 2.334000000000000E10   -1.597391907125711E-3   5.159492720849812E-4  
 2.336000000000000E10    7.258513942360878E-4   1.705212518572807E-3  
 2.338000000000000E10    1.455546473152936E-3  -1.484127831645310E-3  
 2.340000000000000E10   -1.311549451202154E-3  -1.094285515137017E-3  
 2.342000000000000E10   -1.066250377334654E-3   2.274546772241592E-3  
 2.344000000000000E10    2.371398033574224E-3   7.735175895504654E-4  
 2.346000000000000E10    7.114337058737874E-4  -2.311693970113993E-3  
 2.348000000000000E10   -2.613159362226725E-3  -7.242278661578894E-4  
 2.350000000000000E10   -6.818127585574985E-4   2.837471431121230E-3  
 2.352000000000000E10    3.498925361782312E-3   2.706587292777840E-5  
 2.354000000000000E10   -6.159474141895771E-4  -3.329884959384799E-3  
 2.356000000000000E10   -2.830926328897476E-3   2.942642095149495E-5  
 2.358000000000000E10    5.357980262488127E-4   3.208514070138335E-3  
 2.360000000000000E10    3.054078435525298E-3  -7.155601051636040E-4  
 2.362000000000000E10   -9.501661988906562E-4  -2.991111250594258E-3  
 2.364000000000000E10   -2.955535193905234E-3   1.433420111425221E-3  
 2.366000000000000E10    1.985679147765040E-3   2.022304106503725E-3  
 2.368000000000000E10    1.629430917091668E-3  -2.161804353818297E-3  
 2.370000000000000E10   -2.266609575599432E-3  -1.402685185894370E-3  
 2.372000000000000E10   -7.085927063599229E-4   2.289785770699382E-3  
 2.374000000000000E10    2.902017440646887E-3   3.036616544704884E-4  
 2.376000000000000E10   -2.561559767855215E-6  -3.069708356633782E-3  
 2.378000000000000E10   -3.185346955433488E-3   3.392111684661359E-4  
 2.380000000000000E10    4.696992109529674E-4   3.177798120304942E-3  
 2.382000000000000E10    3.457232844084501E-3  -1.618190435692668E-3  
 2.384000000000000E10   -1.523273414932191E-3  -3.445226233452559E-3  
 2.386000000000000E10   -3.163015935570002E-3   1.352345105260611E-3  
 2.388000000000000E10    2.020508982241154E-3   3.211561357602477E-3  
 2.390000000000000E10    3.239090321585536E-3  -2.543542999774218E-3  
 2.392000000000000E10   -2.617822494357824E-3  -2.496490022167563E-3  
 2.394000000000000E10   -2.340980106964707E-3   2.440982498228550E-3  
 2.396000000000000E10    2.626911271363497E-3   2.141504548490048E-3  
 2.398000000000000E10    1.218052348122001E-3  -3.000827040523291E-3  
 2.400000000000000E10   -2.891437616199255E-3  -9.578427416272461E-4  
 2.402000000000000E10   -9.196766040986404E-5   2.648342167958617E-3  
 2.404000000000000E10    2.484917175024748E-3  -1.893284788820893E-4  
 2.406000000000000E10   -6.121564074419439E-4  -2.793168881908059E-3  
 2.408000000000000E10   -2.460994059219956E-3   1.220827922224999E-3  
 2.410000000000000E10    1.701259170658886E-3   2.438716823235154E-3  
 2.412000000000000E10    2.154670422896743E-3  -1.897801528684795E-3  
 2.414000000000000E10   -2.820052672177553E-3  -2.567338990047574E-3  
 2.416000000000000E10   -2.615151461213827E-3   2.792099257931113E-3  
 2.418000000000000E10    3.077529137954116E-3   2.365123480558395E-3  
 2.420000000000000E10    2.249611075967550E-3  -3.023051423951984E-3  
 2.422000000000000E10   -3.526598913595080E-3  -1.829933840781450E-3  
 2.424000000000000E10   -2.235570922493935E-3   3.198654390871525E-3  
 2.426000000000000E10    3.226828761398792E-3   2.455945126712322E-3  
 2.428000000000000E10    1.742060179822147E-3  -3.117828164249659E-3  
 2.430000000000000E10   -3.963630180805922E-3  -1.049813115969300E-3  
 2.432000000000000E10   -1.075097708962858E-3   3.259320743381977E-3  
 2.434000000000000E10    3.060494316741824E-3   7.815350545570254E-4  
 2.436000000000000E10   -6.611764547415078E-5  -2.701560268178582E-3  
 2.438000000000000E10   -2.789195626974106E-3   5.803491803817451E-4  
 2.440000000000000E10    6.038203136995435E-4   2.427824540063739E-3  
 2.442000000000000E10    2.166165038943291E-3  -8.710357942618430E-4  
 2.444000000000000E10   -1.819956814870238E-3  -2.073252806439996E-3  
 2.446000000000000E10   -2.442040480673313E-3   2.515617059543729E-3  
 2.448000000000000E10    2.565436298027635E-3   1.978825312107801E-3  
 2.450000000000000E10    1.803935389034450E-3  -3.133812686428428E-3  
 2.452000000000000E10   -4.086548462510109E-3  -1.417177147231996E-3  
 2.454000000000000E10   -1.381505280733109E-3   4.190835636109114E-3  
 2.456000000000000E10    3.684461349621415E-3   1.543882652185857E-3  
 2.458000000000000E10    1.104968483559787E-3  -4.075619857758284E-3  
 2.460000000000000E10   -4.455050919204950E-3  -5.853447946719825E-4  
 2.462000000000000E10   -9.412532090209425E-4   4.770578350871801E-3  
 2.464000000000000E10    4.293174482882023E-3   6.931611569598317E-4  
 2.466000000000000E10   -7.285627361852676E-5  -4.039201885461807E-3  
 2.468000000000000E10   -4.502316936850548E-3   6.341245607472956E-4  
 2.470000000000000E10    9.620555792935193E-4   4.276781342923641E-3  
 2.472000000000000E10    3.571020439267159E-3  -1.153061632066965E-3  
 2.474000000000000E10   -1.870188629254699E-3  -2.935850527137518E-3  
 2.476000000000000E10   -2.786475000903010E-3   2.365187508985400E-3  
 2.478000000000000E10    2.867584349587560E-3   2.689702901989222E-3  
 2.480000000000000E10    1.738749677315354E-3  -3.243986284360290E-3  
 2.482000000000000E10   -3.684032242745161E-3  -1.385433832183480E-3  
 2.484000000000000E10   -1.198560930788517E-3   4.615833982825279E-3  
 2.486000000000000E10    4.646396264433861E-3   4.661710991058499E-4  
 2.488000000000000E10   -3.064335614908487E-4  -4.707158543169498E-3  
 2.490000000000000E10   -4.651819355785847E-3   1.072169397957623E-3  
 2.492000000000000E10    9.404824231751263E-4   5.120513495057821E-3  
 2.494000000000000E10    4.830582533031702E-3  -1.133379875682294E-3  
 2.496000000000000E10   -1.478143734857440E-3  -4.202079959213734E-3  
 2.498000000000000E10   -4.110137000679970E-3   2.241688780486584E-3  
 2.500000000000000E10    1.907000201754272E-3   3.912108484655619E-3  
 2.502000000000000E10    3.549955086782575E-3  -1.893362030386925E-3  
 2.504000000000000E10   -2.349644200876355E-3  -2.849570941179991E-3  
 2.506000000000000E10   -2.372721908614039E-3   2.505882643163204E-3  
 2.508000000000000E10    2.789262682199478E-3   2.266570227220655E-3  
 2.510000000000000E10    1.790201524272561E-3  -2.897739177569747E-3  
 2.512000000000000E10   -3.536751726642251E-3  -8.706774679012597E-4  
 2.514000000000000E10    7.061445649014786E-5   3.808236215263605E-3  
 2.516000000000000E10    3.817443503066897E-3  -3.119556058663875E-4  
 2.518000000000000E10   -7.272050133906305E-4  -3.763365093618631E-3  
 2.520000000000000E10   -4.273314960300922E-3   1.803106628358364E-3  
 2.522000000000000E10    2.375976182520390E-3   3.717609215527773E-3  
 2.524000000000000E10    4.282155074179173E-3  -2.296402119100094E-3  
 2.526000000000000E10   -3.025886835530400E-3  -4.041109234094620E-3  
 2.528000000000000E10   -3.471032716333866E-3   3.587360261008143E-3  
 2.530000000000000E10    3.674200503155589E-3   3.779888385906816E-3  
 2.532000000000000E10    3.754575969651341E-3  -3.428416792303324E-3  
 2.534000000000000E10   -4.208381753414869E-3  -2.983059501275420E-3  
 2.536000000000000E10   -1.918191206641495E-3   4.218222107738257E-3  
 2.538000000000000E10    4.117375239729881E-3   1.728830044157803E-3  
 2.540000000000000E10    1.376980566419661E-3  -4.232071805745363E-3  
 2.542000000000000E10   -3.878434887155891E-3  -6.892134842928499E-5  
 2.544000000000000E10    6.516661960631609E-4   3.673378378152847E-3  
 2.546000000000000E10    3.523278748616576E-3  -7.581796962767839E-4  
 2.548000000000000E10   -1.211314462125301E-3  -3.510178532451391E-3  
 2.550000000000000E10   -2.627823967486620E-3   2.194022061303258E-3  
 2.552000000000000E10    2.727340674027801E-3   2.702985890209675E-3  
 2.554000000000000E10    2.586485352367163E-3  -3.198015969246626E-3  
 2.556000000000000E10   -3.606273327022791E-3  -2.058892743662000E-3  
 2.558000000000000E10   -1.567254657857120E-3   4.220509435981512E-3  
 2.560000000000000E10    4.282374866306782E-3   1.172299613244832E-3  
 2.562000000000000E10    1.009677187539637E-3  -4.054239951074123E-3  
 2.564000000000000E10   -4.286753479391336E-3  -1.059969654306769E-3  
 2.566000000000000E10   -6.945647328393534E-5   4.500695504248142E-3  
 2.568000000000000E10    4.610444419085980E-3  -1.105649062083103E-4  
 2.570000000000000E10   -6.868718191981316E-4  -4.526845645159483E-3  
 2.572000000000000E10   -4.043031949549913E-3   1.728054718114436E-3  
 2.574000000000000E10    1.760373590514064E-3   3.661785274744034E-3  
 2.576000000000000E10    3.051582723855972E-3  -2.432865556329489E-3  
 2.578000000000000E10   -3.035233821719885E-3  -2.320584608241916E-3  
 2.580000000000000E10   -1.989081501960754E-3   3.449859330430627E-3  
 2.582000000000000E10    3.908184822648764E-3   1.016171532683075E-3  
 2.584000000000000E10    1.091428450308740E-3  -4.318441729992628E-3  
 2.586000000000000E10   -4.707789048552513E-3  -5.325311794877052E-4  
 2.588000000000000E10    9.738826774992049E-4   5.051588639616966E-3  
 2.590000000000000E10    4.384097177535296E-3  -8.530270424671471E-4  
 2.592000000000000E10   -1.121911569498479E-3  -4.832687787711620E-3  
 2.594000000000000E10   -4.578740336000919E-3   1.833598944358528E-3  
 2.596000000000000E10    1.568264910019934E-3   4.513491876423359E-3  
 2.598000000000000E10    4.280473105609417E-3  -2.032408490777016E-3  
 2.600000000000000E10   -2.614071127027273E-3  -4.354197531938553E-3  
 2.602000000000000E10   -3.371064085513353E-3   2.822556300088763E-3  
 2.604000000000000E10    2.893567550927401E-3   2.563806250691414E-3  
 2.606000000000000E10    2.182108582928777E-3  -2.915242454037070E-3  
 2.608000000000000E10   -2.862321911379695E-3  -1.714535290375352E-3  
 2.610000000000000E10   -8.094032527878881E-4   2.752113621681929E-3  
 2.612000000000000E10    2.735081827268004E-3   5.506125744432211E-4  
 2.614000000000000E10   -1.150389107351657E-5  -2.845890820026398E-3  
 2.616000000000000E10   -2.897999016568065E-3   1.344668795354664E-3  
 2.618000000000000E10    1.325223012827337E-3   2.664972562342882E-3  
 2.620000000000000E10    2.961825579404831E-3  -1.956066116690636E-3  
 2.622000000000000E10   -2.682733116671443E-3  -2.802927978336811E-3  
 2.624000000000000E10   -2.541097113862634E-3   2.556570805609226E-3  
 2.626000000000000E10    3.210333641618490E-3   2.599990926682949E-3  
 2.628000000000000E10    2.652278402820230E-3  -3.328553168103099E-3  
 2.630000000000000E10   -3.468224778771401E-3  -2.329810988157988E-3  
 2.632000000000000E10   -1.810099114663899E-3   4.084709566086531E-3  
 2.634000000000000E10    3.628874663263559E-3   1.836834591813386E-3  
 2.636000000000000E10    1.508178538642824E-3  -3.682838752865791E-3  
 2.638000000000000E10   -3.370716935023665E-3  -5.627740174531937E-4  
 2.640000000000000E10   -2.723002216953319E-5   2.983612008392811E-3  
 2.642000000000000E10    2.834040904417634E-3  -2.325746318092570E-4  
 2.644000000000000E10   -5.265095387585461E-4  -2.693123649805784E-3  
 2.646000000000000E10   -2.420433331280947E-3   9.200597414746881E-4  
 2.648000000000000E10    2.018976258113980E-3   2.160898875445128E-3  
 2.650000000000000E10    2.287920797243714E-3  -2.073820913210511E-3  
 2.652000000000000E10   -2.414262620732188E-3  -1.780184800736606E-3  
 2.654000000000000E10   -1.248216605745256E-3   3.075438318774104E-3  
 2.656000000000000E10    3.090968821197748E-3   9.147454402409494E-4  
 2.658000000000000E10    6.778613897040486E-4  -3.426585812121630E-3  
 2.660000000000000E10   -3.420707769691944E-3  -3.034087712876499E-4  
 2.662000000000000E10   -1.421720953658223E-4   3.092664293944836E-3  
 2.664000000000000E10    3.476277459412813E-3  -3.382844151929021E-4  
 2.666000000000000E10   -1.856547896750271E-4  -2.907904563471675E-3  
 2.668000000000000E10   -2.586012706160545E-3   1.960497902473435E-4  
 2.670000000000000E10    6.832884391769767E-4   2.229490550234914E-3  
 2.672000000000000E10    2.101874444633722E-3  -8.689940441399813E-4  
 2.674000000000000E10   -1.029459526762366E-3  -1.877820817753673E-3  
 2.676000000000000E10   -1.605081371963024E-3   1.662038732320070E-3  
 2.678000000000000E10    1.206997083500028E-3   6.445217295549810E-4  
 2.680000000000000E10    4.197782254777849E-4  -2.222748706117272E-3  
 2.682000000000000E10   -1.913819462060928E-3  -1.842171477619559E-4  
 2.684000000000000E10    1.062054798239842E-4   2.099819248542190E-3  
 2.686000000000000E10    2.366560278460383E-3  -5.508277099579573E-4  
 2.688000000000000E10   -7.931206491775811E-4  -2.561691682785749E-3  
 2.690000000000000E10   -2.731788670644164E-3   1.171219861134887E-3  
 2.692000000000000E10    1.131550758145750E-3   2.724169520661235E-3  
 2.694000000000000E10    2.918260637670755E-3  -1.463621738366783E-3  
 2.696000000000000E10   -1.345297554507852E-3  -2.537237014621496E-3  
 2.698000000000000E10   -2.789441263303161E-3   1.005605445243418E-3  
 2.700000000000000E10    1.090912846848369E-3   2.175343222916126E-3  
 2.702000000000000E10    2.225239528343082E-3  -1.114800805225968E-3  
 2.704000000000000E10   -8.575660758651793E-4  -2.184092300012708E-3  
 2.706000000000000E10   -1.530989771708846E-3   7.929909043014050E-4  
 2.708000000000000E10    6.543462513945997E-4   1.162392087280750E-3  
 2.710000000000000E10    9.214801830239594E-4  -8.643187466077507E-4  
 2.712000000000000E10   -1.059742993675172E-3  -2.233898558188230E-4  
 2.714000000000000E10    2.840105298673734E-5   8.883879636414349E-4  
 2.716000000000000E10    7.700945716351271E-4  -7.900657365098596E-4  
 2.718000000000000E10   -1.006189733743668E-3  -9.017690317705274E-4  
 2.720000000000000E10   -1.075465697795153E-3   8.738723699934781E-4  
 2.722000000000000E10    1.564712380059063E-3   8.759417687542737E-4  
 2.724000000000000E10    1.163556706160307E-3  -1.746492576785386E-3  
 2.726000000000000E10   -1.888781087473035E-3  -1.534354756586254E-3  
 2.728000000000000E10   -1.223543542437255E-3   2.129215747117996E-3  
 2.730000000000000E10    2.023942768573761E-3   1.301595475524664E-3  
 2.732000000000000E10    1.213772920891643E-3  -2.075014635920525E-3  
 2.734000000000000E10   -2.004756592214108E-3  -1.241223770193756E-3  
 2.736000000000000E10   -1.253420952707529E-3   2.226948505267501E-3  
 2.738000000000000E10    1.701393164694309E-3   5.798256606794894E-4  
 2.740000000000000E10    4.189189348835498E-4  -1.528528635390103E-3  
 2.742000000000000E10   -1.261941157281399E-3  -2.122198638971895E-4  
 2.744000000000000E10   -2.415256676613353E-5   9.514595149084926E-4  
 2.746000000000000E10    5.866368883289397E-4   1.544460101285949E-4  
 2.748000000000000E10   -5.153600359335542E-4  -4.929518327116966E-4  
 2.750000000000000E10   -4.895980237051845E-4   5.348186823539436E-4  
 2.752000000000000E10    8.964716689661145E-4   2.997623814735562E-4  
 2.754000000000000E10   -1.802430633688346E-4  -1.801369944587350E-3  
 2.756000000000000E10   -1.248217420652509E-3   1.548072614241391E-4  
