#  HZ   S   RI   R     50.00 
! Rohde & Schwarz ZVA40 4Ports - Version 3.90 - 1145.1110k42 SN: 100403
! Date: 2023-10-04 10:43:50
! Measurement: S12 
! 
 2.200000000000000E10   -7.469222182407975E-4   3.072009654715657E-3  
 2.202000000000000E10    3.997197840362787E-3   8.179640281014144E-4  
 2.204000000000000E10    4.440065240487456E-4  -3.558988915756345E-3  
 2.206000000000000E10   -4.253893159329891E-3   5.713911014026962E-5  
 2.208000000000000E10    4.335106932558119E-4   4.903066437691450E-3  
 2.210000000000000E10    4.396660719066858E-3  -6.728112930431962E-4  
 2.212000000000000E10   -1.859555020928383E-3  -4.364527296274900E-3  
 2.214000000000000E10   -4.610477015376091E-3   2.430513733997941E-3  
 2.216000000000000E10    2.801477909088135E-3   4.270738922059536E-3  
 2.218000000000000E10    3.225935390219092E-3  -4.236192442476749E-3  
 2.220000000000000E10   -4.574066027998924E-3  -2.348988782614470E-3  
 2.222000000000000E10   -2.002057852223516E-3   5.043755751103163E-3  
 2.224000000000000E10    5.501421634107828E-3   1.066197524778545E-3  
 2.226000000000000E10   -5.142005975358188E-4  -5.387476179748774E-3  
 2.228000000000000E10   -5.940684117376804E-3   1.364995376206935E-3  
 2.230000000000000E10    2.111910376697779E-3   5.486237816512585E-3  
 2.232000000000000E10    4.963864106684923E-3  -3.000910859555006E-3  
 2.234000000000000E10   -3.962512593716383E-3  -4.028466995805502E-3  
 2.236000000000000E10   -3.048227867111564E-3   3.945634234696627E-3  
 2.238000000000000E10    4.149232525378466E-3   3.162952139973640E-3  
 2.240000000000000E10    2.830130280926824E-3  -4.444065503776074E-3  
 2.242000000000000E10   -4.106079693883658E-3  -1.418886124156416E-3  
 2.244000000000000E10   -8.960428531281650E-4   4.138653632253408E-3  
 2.246000000000000E10    4.021776840090752E-3   3.828027693089098E-4  
 2.248000000000000E10   -2.640241000335664E-4  -3.808537498116493E-3  
 2.250000000000000E10   -3.471981734037399E-3   7.546462002210319E-4  
 2.252000000000000E10    1.490605063736439E-3   3.162464825436473E-3  
 2.254000000000000E10    3.082026494666934E-3  -1.606959966011345E-3  
 2.256000000000000E10   -1.674102619290352E-3  -2.678142162039876E-3  
 2.258000000000000E10   -1.748577225953341E-3   2.474494511261582E-3  
 2.260000000000000E10    2.730322070419788E-3   1.873473636806011E-3  
 2.262000000000000E10    1.581511809490621E-3  -2.592818345874548E-3  
 2.264000000000000E10   -2.700835699215531E-3  -9.396818932145834E-4  
 2.266000000000000E10   -1.168707269243896E-3   2.718483330681920E-3  
 2.268000000000000E10    2.660726895555854E-3   7.914785528555512E-4  
 2.270000000000000E10    2.561118162702769E-4  -2.957947319373488E-3  
 2.272000000000000E10   -2.264201873913407E-3  -6.060501909814775E-4  
 2.274000000000000E10   -2.135317336069420E-4   2.226449782028794E-3  
 2.276000000000000E10    2.338818507269025E-3  -1.836514711612836E-4  
 2.278000000000000E10    2.391829730186146E-5  -1.485671731643379E-3  
 2.280000000000000E10   -8.947001188062131E-4   1.742735767038539E-4  
 2.282000000000000E10   -2.437051298329607E-4   6.158085307106376E-4  
 2.284000000000000E10    5.692007835023105E-4   5.255095893517137E-4  
 2.286000000000000E10   -1.229682384291664E-4  -8.089462062343955E-4  
 2.288000000000000E10   -4.794510023202747E-4  -1.516402990091592E-4  
 2.290000000000000E10    1.862619828898460E-4   1.924343814607710E-4  
 2.292000000000000E10    4.612350676325150E-5  -3.414141247048974E-4  
 2.294000000000000E10    3.242836974095553E-4  -3.154920123051852E-4  
 2.296000000000000E10    1.106824711314403E-4  -4.227278623147868E-6  
 2.298000000000000E10   -3.417678817640990E-5  -2.050008697551675E-5  
 2.300000000000000E10    3.445840557105839E-4   3.478418148006313E-5  
 2.302000000000000E10   -1.792634247976821E-5  -1.083748415112495E-3  
 2.304000000000000E10   -1.192891504615545E-3  -1.449186238460243E-4  
 2.306000000000000E10    5.266673397272825E-4   1.427608891390264E-3  
 2.308000000000000E10    1.219067140482366E-3  -1.082893344573677E-3  
 2.310000000000000E10   -6.867349147796631E-4  -1.880415366031230E-3  
 2.312000000000000E10   -1.430812408216298E-3   9.539570892229676E-4  
 2.314000000000000E10    1.136683509685099E-3   1.679496024735272E-3  
 2.316000000000000E10    1.752167008817196E-3  -1.083946088328958E-3  
 2.318000000000000E10   -1.097733154892921E-3  -1.807305263355374E-3  
 2.320000000000000E10   -1.813463983125985E-3   1.005339203402400E-3  
 2.322000000000000E10    1.443588524125516E-3   1.592509448528290E-3  
 2.324000000000000E10    1.568987616337836E-3  -1.562792109325528E-3  
 2.326000000000000E10   -1.373407663777471E-3  -1.612133462913334E-3  
 2.328000000000000E10   -4.495986504480243E-4   1.386483199894428E-3  
 2.330000000000000E10    1.881326432339847E-3   6.252041785046458E-4  
 2.332000000000000E10    2.503076393622905E-4  -2.294025383889675E-3  
 2.334000000000000E10   -2.005088841542602E-3  -3.750854375539348E-5  
 2.336000000000000E10    7.102808449417353E-4   1.897127949632704E-3  
 2.338000000000000E10    1.949441269971430E-3  -8.634397527202964E-4  
 2.340000000000000E10   -1.039728871546686E-3  -2.304781461134553E-3  
 2.342000000000000E10   -2.351142698898912E-3   1.280090538784862E-3  
 2.344000000000000E10    1.881084754131734E-3   2.248952863737941E-3  
 2.346000000000000E10    2.348846523091197E-3  -2.214393578469753E-3  
 2.348000000000000E10   -2.407051390036941E-3  -2.451459877192974E-3  
 2.350000000000000E10   -2.290536416694522E-3   3.268427215516567E-3  
 2.352000000000000E10    3.020993666723371E-3   1.492732437327504E-3  
 2.354000000000000E10    1.430960139259696E-3  -3.279931843280792E-3  
 2.356000000000000E10   -3.369733691215515E-3  -1.207024906761944E-3  
 2.358000000000000E10   -8.559013367630541E-4   2.948260633274913E-3  
 2.360000000000000E10    3.133691381663084E-3   4.518100467976183E-4  
 2.362000000000000E10   -2.848344156518579E-4  -3.428468713536859E-3  
 2.364000000000000E10   -2.946014050394297E-3   9.513607365079224E-4  
 2.366000000000000E10    1.072365907020867E-3   2.670619869604707E-3  
 2.368000000000000E10    1.722505898214877E-3  -1.324068638496101E-3  
 2.370000000000000E10   -2.342952182516456E-3  -2.254312392324209E-3  
 2.372000000000000E10   -2.001694869250059E-3   2.799292793497443E-3  
 2.374000000000000E10    2.910553244873881E-3   1.141594955697656E-3  
 2.376000000000000E10    1.333394087851048E-3  -2.788567217066884E-3  
 2.378000000000000E10   -3.493344644084573E-3  -8.860017987899482E-4  
 2.380000000000000E10   -6.789533072151244E-4   3.905230201780796E-3  
 2.382000000000000E10    3.857143688946962E-3   3.763236163649708E-4  
 2.384000000000000E10    1.064104581018910E-4  -3.714060178026557E-3  
 2.386000000000000E10   -4.161685239523649E-3   1.953812170540914E-4  
 2.388000000000000E10    1.711400400381535E-4   4.038746468722820E-3  
 2.390000000000000E10    3.802086692303419E-3  -7.936084875836968E-4  
 2.392000000000000E10   -9.797473903745413E-4  -3.342319512739778E-3  
 2.394000000000000E10   -2.971040550619364E-3   1.658289693295956E-3  
 2.396000000000000E10    1.750880619511008E-3   2.932472852990031E-3  
 2.398000000000000E10    2.586669521406293E-3  -1.770687405951321E-3  
 2.400000000000000E10   -2.148188650608063E-3  -1.927113742567599E-3  
 2.402000000000000E10   -1.030821003951132E-3   3.174294950440526E-3  
 2.404000000000000E10    2.411134075373411E-3   6.598186446353793E-4  
 2.406000000000000E10    7.737358100712299E-4  -2.765821292996407E-3  
 2.408000000000000E10   -3.373926272615790E-3  -9.863977538770996E-6  
 2.410000000000000E10    8.146314066834748E-4   3.254157025367022E-3  
 2.412000000000000E10    3.449565498158336E-3  -6.008636555634439E-4  
 2.414000000000000E10   -1.049323007464409E-3  -3.474144730716944E-3  
 2.416000000000000E10   -3.470156341791153E-3   1.353258034214377E-3  
 2.418000000000000E10    1.921229879371822E-3   3.696364117786288E-3  
 2.420000000000000E10    3.285185433924198E-3  -2.026971662417054E-3  
 2.422000000000000E10   -2.017792779952288E-3  -3.285519778728485E-3  
 2.424000000000000E10   -2.693798160180450E-3   2.139875199645758E-3  
 2.426000000000000E10    2.428904175758362E-3   2.926729153841734E-3  
 2.428000000000000E10    2.723788609728217E-3  -2.133000409230590E-3  
 2.430000000000000E10   -2.440474461764097E-3  -2.198727801442146E-3  
 2.432000000000000E10   -1.881332253105938E-3   2.833102131262422E-3  
 2.434000000000000E10    2.732322085648775E-3   1.393631333485246E-3  
 2.436000000000000E10    7.047520484775305E-4  -2.617067890241742E-3  
 2.438000000000000E10   -2.984412014484406E-3  -3.319625102449209E-4  
 2.440000000000000E10    3.807991452049464E-4   2.984204096719623E-3  
 2.442000000000000E10    2.975617535412312E-3  -5.363887757994235E-4  
 2.444000000000000E10   -5.306879174895585E-4  -3.196956589818001E-3  
 2.446000000000000E10   -3.391206730157137E-3   1.684721675701439E-3  
 2.448000000000000E10    1.965966541320086E-3   3.329267026856542E-3  
 2.450000000000000E10    3.796380711719394E-3  -2.212917432188988E-3  
 2.452000000000000E10   -3.013800363987684E-3  -3.350584069266915E-3  
 2.454000000000000E10   -3.253414761275053E-3   3.107728902250528E-3  
 2.456000000000000E10    3.195011056959629E-3   3.534475341439247E-3  
 2.458000000000000E10    3.517473349347711E-3  -3.202160354703665E-3  
 2.460000000000000E10   -3.954672254621983E-3  -3.027390688657761E-3  
 2.462000000000000E10   -2.285301918163896E-3   3.967619966715574E-3  
 2.464000000000000E10    4.190848208963871E-3   2.232393017038703E-3  
 2.466000000000000E10    1.657106098718941E-3  -4.010983742773533E-3  
 2.468000000000000E10   -3.628028323873878E-3  -5.847535212524235E-4  
 2.470000000000000E10    1.541553210699931E-4   3.826450789347291E-3  
 2.472000000000000E10    4.208965692669153E-3  -3.347466408740729E-4  
 2.474000000000000E10   -8.457216899842024E-4  -3.234934061765671E-3  
 2.476000000000000E10   -3.012078115716577E-3   2.113863825798035E-3  
 2.478000000000000E10    2.509849844500423E-3   3.179705236107111E-3  
 2.480000000000000E10    3.093285951763392E-3  -2.943448955193162E-3  
 2.482000000000000E10   -3.594758221879602E-3  -2.306525362655520E-3  
 2.484000000000000E10   -2.335662953555584E-3   3.995480947196484E-3  
 2.486000000000000E10    4.815662745386362E-3   2.093094168230891E-3  
 2.488000000000000E10    1.486641587689519E-3  -4.897575359791517E-3  
 2.490000000000000E10   -4.719058517366648E-3  -8.673829142935574E-4  
 2.492000000000000E10   -4.111105808988214E-4   5.070386920124292E-3  
 2.494000000000000E10    4.985345527529717E-3   3.343326097819954E-4  
 2.496000000000000E10   -3.021855081897229E-5  -5.006489809602499E-3  
 2.498000000000000E10   -4.056010860949755E-3   9.448596392758191E-4  
 2.500000000000000E10    5.965493619441986E-4   4.609878640621901E-3  
 2.502000000000000E10    4.090283066034317E-3  -1.202301471494138E-3  
 2.504000000000000E10   -1.668205135501921E-3  -3.398236818611622E-3  
 2.506000000000000E10   -2.928551053628326E-3   1.870497013442218E-3  
 2.508000000000000E10    2.640643157064915E-3   3.071886254474521E-3  
 2.510000000000000E10    2.631122944876552E-3  -2.815417014062405E-3  
 2.512000000000000E10   -3.223951905965805E-3  -1.639786292798817E-3  
 2.514000000000000E10   -1.345405238680542E-3   4.230845253914595E-3  
 2.516000000000000E10    4.389652982354164E-3   6.919114384800196E-4  
 2.518000000000000E10    2.497855457477272E-4  -4.268778488039970E-3  
 2.520000000000000E10   -4.337037447839975E-3   1.213854920933954E-4  
 2.522000000000000E10    3.592577413655818E-4   4.990090616047382E-3  
 2.524000000000000E10    4.811736289411783E-3  -9.389361366629601E-4  
 2.526000000000000E10   -8.857002248987556E-4  -4.361143335700035E-3  
 2.528000000000000E10   -4.717834759503603E-3   1.164123998023570E-3  
 2.530000000000000E10    2.373800380155444E-3   4.496174398809671E-3  
 2.532000000000000E10    4.190596751868725E-3  -1.816335716284812E-3  
 2.534000000000000E10   -2.267593750730157E-3  -3.395621199160814E-3  
 2.536000000000000E10   -3.177881706506014E-3   2.731026848778129E-3  
 2.538000000000000E10    2.921122359111905E-3   2.543410984799266E-3  
 2.540000000000000E10    2.012192737311125E-3  -2.827963558956981E-3  
 2.542000000000000E10   -3.135337959975004E-3  -1.481146086007357E-3  
 2.544000000000000E10   -6.850599311292172E-4   3.561320947483182E-3  
 2.546000000000000E10    3.688453463837504E-3  -4.134207556489855E-4  
 2.548000000000000E10   -6.908187060616911E-4  -3.556211944669485E-3  
 2.550000000000000E10   -3.492334857583046E-3   1.232368405908346E-3  
 2.552000000000000E10    2.565557602792978E-3   3.734639612957835E-3  
 2.554000000000000E10    3.345121396705508E-3  -3.006913932040334E-3  
 2.556000000000000E10   -2.900057239457965E-3  -3.305732971057296E-3  
 2.558000000000000E10   -3.304439829662442E-3   3.802819410338998E-3  
 2.560000000000000E10    4.164847545325756E-3   3.065802855417132E-3  
 2.562000000000000E10    2.541431458666921E-3  -4.623789340257645E-3  
 2.564000000000000E10   -4.474307410418987E-3  -2.349243499338627E-3  
 2.566000000000000E10   -2.046435605734587E-3   4.586004652082920E-3  
 2.568000000000000E10    5.400760564953089E-3   8.848043507896364E-4  
 2.570000000000000E10    4.094393516425043E-4  -4.726442508399487E-3  
 2.572000000000000E10   -4.062026273459196E-3  -3.512209514155984E-4  
 2.574000000000000E10    6.112172850407660E-4   4.295863211154938E-3  
 2.576000000000000E10    3.632833482697606E-3  -1.236094743944705E-3  
 2.578000000000000E10   -1.747187809087336E-3  -3.164967522025108E-3  
 2.580000000000000E10   -2.923472551628947E-3   1.861121156252921E-3  
 2.582000000000000E10    2.198247471824288E-3   2.260666806250811E-3  
 2.584000000000000E10    2.203465905040503E-3  -3.383582923561335E-3  
 2.586000000000000E10   -3.323022741824389E-3  -1.949276193045080E-3  
 2.588000000000000E10   -1.446620677597821E-3   3.354601329192519E-3  
 2.590000000000000E10    4.302754998207092E-3   8.603298338130117E-4  
 2.592000000000000E10    7.786708883941174E-4  -4.170958884060383E-3  
 2.594000000000000E10   -4.335565492510796E-3  -3.346489975228906E-4  
 2.596000000000000E10    2.958875556942076E-4   4.469349980354309E-3  
 2.598000000000000E10    4.271555691957474E-3  -7.232041680254042E-4  
 2.600000000000000E10   -8.327609393745661E-4  -4.719961434602737E-3  
 2.602000000000000E10   -3.736294340342283E-3   1.639914349652827E-3  
 2.604000000000000E10    2.137600444257259E-3   3.401637775823474E-3  
 2.606000000000000E10    2.987554296851158E-3  -2.721264725551009E-3  
 2.608000000000000E10   -2.906088018789887E-3  -2.260952489450574E-3  
 2.610000000000000E10   -1.424883841536939E-3   3.121041692793369E-3  
 2.612000000000000E10    3.591656917706132E-3   1.063966308720410E-3  
 2.614000000000000E10    4.921182407997549E-4  -3.547094296664000E-3  
 2.616000000000000E10   -4.029602278023958E-3   9.482118184678257E-5  
 2.618000000000000E10    6.822303985245526E-4   3.903991309925914E-3  
 2.620000000000000E10    3.956764936447144E-3  -1.230408088304102E-3  
 2.622000000000000E10   -1.223841682076454E-3  -4.046059213578701E-3  
 2.624000000000000E10   -4.066994413733482E-3   1.889180624857545E-3  
 2.626000000000000E10    2.051105024293065E-3   3.627324476838112E-3  
 2.628000000000000E10    3.728969255462289E-3  -2.071905881166458E-3  
 2.630000000000000E10   -2.464257879182696E-3  -3.646947676315904E-3  
 2.632000000000000E10   -2.910937415435910E-3   2.532933373004198E-3  
 2.634000000000000E10    2.472935244441032E-3   2.717197407037020E-3  
 2.636000000000000E10    2.344931242987514E-3  -2.061234321445227E-3  
 2.638000000000000E10   -2.481851261109114E-3  -1.918679219670594E-3  
 2.640000000000000E10   -9.007308399304748E-4   2.367260633036494E-3  
 2.642000000000000E10    1.744372886605561E-3   5.172069068066776E-4  
 2.644000000000000E10    5.756675382144749E-4  -2.475022803992033E-3  
 2.646000000000000E10   -2.162855817005038E-3   2.855163475032896E-4  
 2.648000000000000E10    7.337400456890464E-4   1.737899729050696E-3  
 2.650000000000000E10    1.987096853554249E-3  -1.351515180431306E-3  
 2.652000000000000E10   -2.099338686093688E-3  -2.248603384941816E-3  
 2.654000000000000E10   -1.825727522373200E-3   2.501563401892781E-3  
 2.656000000000000E10    2.871017670258880E-3   1.819947035983205E-3  
 2.658000000000000E10    1.476397970691323E-3  -3.326834412291646E-3  
 2.660000000000000E10   -3.486029570922256E-3  -1.629781560041010E-3  
 2.662000000000000E10   -1.147717935964465E-3   3.668052610009909E-3  
 2.664000000000000E10    3.525297390297055E-3   5.573485395871103E-4  
 2.666000000000000E10    9.132208651863039E-4  -3.448206465691328E-3  
 2.668000000000000E10   -3.320163348689675E-3  -1.217155877384357E-4  
 2.670000000000000E10   -1.274486858164892E-4   2.539415610954166E-3  
 2.672000000000000E10    2.331542316824198E-3  -1.118784493883140E-4  
 2.674000000000000E10   -7.486571557819843E-4  -2.024858724325895E-3  
 2.676000000000000E10   -1.737016951665282E-3   6.233805324882269E-4  
 2.678000000000000E10    1.069643534719944E-3   1.299745636060834E-3  
 2.680000000000000E10    7.859239703975618E-4  -1.430324395187199E-3  
 2.682000000000000E10   -1.595555222593248E-3  -1.042977208271623E-3  
 2.684000000000000E10   -2.398138167336583E-4   1.876834197901189E-3  
 2.686000000000000E10    1.971498830243945E-3   3.601480057113804E-5  
 2.688000000000000E10   -3.349120961502194E-4  -2.180765150114894E-3  
 2.690000000000000E10   -2.391598885878921E-3   2.026863949140534E-4  
 2.692000000000000E10    3.430250799283385E-4   2.402213634923101E-3  
 2.694000000000000E10    2.174263354390860E-3  -5.643303738906980E-4  
 2.696000000000000E10   -4.557198553811759E-4  -2.458767732605338E-3  
 2.698000000000000E10   -2.388927619904280E-3   1.299302239203826E-4  
 2.700000000000000E10    3.822623111773282E-4   2.088865963742137E-3  
 2.702000000000000E10    1.807569875381887E-3  -5.704067880287767E-4  
 2.704000000000000E10   -5.328130791895092E-4  -1.819307450205088E-3  
 2.706000000000000E10   -1.340060378424823E-3   4.493151500355452E-4  
 2.708000000000000E10    4.021824570372701E-4   8.672491530887783E-4  
 2.710000000000000E10    6.070633535273373E-4  -4.479244526010007E-4  
 2.712000000000000E10   -4.402404883876443E-4  -5.081248236820102E-4  
 2.714000000000000E10   -4.498527050600387E-5   5.224949563853443E-4  
 2.716000000000000E10    8.835053304210305E-4  -3.860979632008821E-4  
 2.718000000000000E10   -6.399862468242645E-4  -1.110233715735376E-3  
 2.720000000000000E10   -1.496222685091198E-3   8.687203517183662E-4  
 2.722000000000000E10    1.169057097285986E-3   1.129452371969819E-3  
 2.724000000000000E10    1.418124767951667E-3  -1.287405029870570E-3  
 2.726000000000000E10   -1.509286230430007E-3  -1.628051744773984E-3  
 2.728000000000000E10   -1.479968661442399E-3   1.220687641762197E-3  
 2.730000000000000E10    1.116030733101070E-3   1.745781977660954E-3  
 2.732000000000000E10    1.865064958110452E-3  -1.241948921233416E-3  
 2.734000000000000E10   -9.022006997838616E-4  -1.822377787902951E-3  
 2.736000000000000E10   -1.964611234143376E-3   7.225427543744445E-4  
 2.738000000000000E10    7.158447988331318E-4   1.782750827260315E-3  
 2.740000000000000E10    1.525153988040984E-3  -6.450093351304531E-4  
 2.742000000000000E10   -5.430938908830285E-4  -1.133526442572475E-3  
 2.744000000000000E10   -1.127834897488356E-3   3.858177515212447E-4  
 2.746000000000000E10    3.272851754445583E-4   6.698361248709261E-4  
 2.748000000000000E10   -4.488199920160696E-5   1.795060052245390E-5  
 2.750000000000000E10   -1.909606944536790E-4  -2.683995990082622E-4  
 2.752000000000000E10    3.003299934789538E-4   2.964549057651311E-4  
 2.754000000000000E10   -9.639332711230964E-5  -6.102067418396473E-4  
 2.756000000000000E10   -1.005943980999291E-3  -2.285178779857233E-4  
