#  HZ   S   RI   R     50.00 
! Rohde & Schwarz ZVA40 4Ports - Version 3.90 - 1145.1110k42 SN: 100403
! Date: 2023-10-04 10:44:53
! Measurement: S12 
! 
 2.200000000000000E10   -3.358723595738411E-3   2.174268942326307E-3  
 2.202000000000000E10    3.012918168678880E-3   2.407004125416279E-3  
 2.204000000000000E10    2.446683822199702E-3  -3.127359086647630E-3  
 2.206000000000000E10   -3.315448993816972E-3  -2.653430681675673E-3  
 2.208000000000000E10   -1.519843353889883E-3   3.670651232823730E-3  
 2.210000000000000E10    4.109445028007031E-3   1.301493728533387E-3  
 2.212000000000000E10    8.055819780565798E-4  -4.445105791091919E-3  
 2.214000000000000E10   -4.376898519694805E-3  -6.859216955490410E-5  
 2.216000000000000E10    1.567368279211223E-3   4.709103610366583E-3  
 2.218000000000000E10    4.297563340514898E-3  -2.358930883929133E-3  
 2.220000000000000E10   -2.796846674755216E-3  -4.071220755577087E-3  
 2.222000000000000E10   -3.210332710295916E-3   3.266779938712716E-3  
 2.224000000000000E10    3.895480185747147E-3   2.399311633780599E-3  
 2.226000000000000E10    1.892265048809350E-3  -3.939745947718620E-3  
 2.228000000000000E10   -4.478569142520428E-3  -1.656577805988491E-3  
 2.230000000000000E10   -5.646177451126277E-4   4.109752830117941E-3  
 2.232000000000000E10    4.164682701230049E-3  -2.421377139398828E-4  
 2.234000000000000E10   -6.969971000216901E-4  -3.745058784261346E-3  
 2.236000000000000E10   -3.336706897243857E-3   1.303619355894625E-3  
 2.238000000000000E10    1.771266222931445E-3   3.113597864285111E-3  
 2.240000000000000E10    2.637926256284118E-3  -2.261320361867547E-3  
 2.242000000000000E10   -2.415336435660720E-3  -1.871986663900316E-3  
 2.244000000000000E10   -1.595181180164218E-3   2.443305682390928E-3  
 2.246000000000000E10    2.834706334397197E-3   1.023284741677344E-3  
 2.248000000000000E10    8.341994252987206E-4  -2.477928996086121E-3  
 2.250000000000000E10   -2.473603002727032E-3  -5.775801255367696E-4  
 2.252000000000000E10    1.630367623874918E-4   2.570311538875103E-3  
 2.254000000000000E10    2.428325125947595E-3  -5.798904021503404E-5  
 2.256000000000000E10   -9.134744323091582E-5  -1.676265383139253E-3  
 2.258000000000000E10   -2.069039735943079E-3   5.725552910007536E-4  
 2.260000000000000E10    5.435210769064724E-4   1.941777300089598E-3  
 2.262000000000000E10    1.105899224057794E-3  -5.472707562148571E-4  
 2.264000000000000E10   -7.531183655373752E-4  -8.938104729168117E-4  
 2.266000000000000E10   -8.502386626787484E-4   2.866163558792323E-4  
 2.268000000000000E10    6.127788801677525E-4   1.885686215246096E-4  
 2.270000000000000E10    1.303633616771549E-4  -3.881833108607680E-4  
 2.272000000000000E10   -2.985245828313055E-7  -1.723159075481817E-4  
 2.274000000000000E10    4.491880827117711E-4   4.192251944914460E-4  
 2.276000000000000E10    1.079264402505942E-4  -7.103692041710019E-5  
 2.278000000000000E10   -4.260602290742099E-4   4.055042809341103E-4  
 2.280000000000000E10    1.255057031812612E-5   5.819757934659720E-4  
 2.282000000000000E10    5.161036388017237E-4  -1.328069920418784E-4  
 2.284000000000000E10   -2.811874437611550E-4   3.476518031675369E-5  
 2.286000000000000E10    5.179631989449263E-4   2.060718106804416E-4  
 2.288000000000000E10    4.510201979428530E-4  -5.898590898141265E-4  
 2.290000000000000E10   -7.862795609980822E-4   7.661952258786187E-5  
 2.292000000000000E10    5.814959877170622E-5   1.386324642226100E-3  
 2.294000000000000E10    1.519444049336016E-3   1.465423993067816E-4  
 2.296000000000000E10   -5.589521024376154E-4  -1.534453011117876E-3  
 2.298000000000000E10   -1.937794615514576E-3   5.554714589379728E-4  
 2.300000000000000E10    5.905082798562944E-4   1.958203734830022E-3  
 2.302000000000000E10    2.189048333093524E-3  -1.231047790497541E-3  
 2.304000000000000E10   -4.997993819415569E-4  -2.205334138125181E-3  
 2.306000000000000E10   -2.050926443189383E-3   1.347867189906538E-3  
 2.308000000000000E10    1.556186703965068E-3   2.293378114700317E-3  
 2.310000000000000E10    1.660026609897614E-3  -1.529531669802964E-3  
 2.312000000000000E10   -1.851627603173256E-3  -1.515066833235323E-3  
 2.314000000000000E10   -1.367429271340370E-3   2.395657356828451E-3  
 2.316000000000000E10    2.222407143563032E-3   8.472435292787850E-4  
 2.318000000000000E10    3.234588075429201E-4  -2.253394108265638E-3  
 2.320000000000000E10   -2.200964139774442E-3  -1.755625125952065E-4  
 2.322000000000000E10    3.533223934937269E-4   2.560083521530032E-3  
 2.324000000000000E10    2.775983884930611E-3  -7.140283705666661E-4  
 2.326000000000000E10   -1.366821350529790E-3  -2.314872108399868E-3  
 2.328000000000000E10   -2.103558275848627E-3   2.204434946179390E-3  
 2.330000000000000E10    2.197200432419777E-3   2.459377283230424E-3  
 2.332000000000000E10    1.908602658659220E-3  -2.664279891178012E-3  
 2.334000000000000E10   -3.138789208605886E-3  -1.641590031795204E-3  
 2.336000000000000E10   -1.879435032606125E-3   3.361041424795985E-3  
 2.338000000000000E10    3.666787175461650E-3   1.736671198159456E-3  
 2.340000000000000E10    1.072076265700162E-3  -3.792467759922147E-3  
 2.342000000000000E10   -3.740219166502357E-3  -5.051450571045280E-4  
 2.344000000000000E10   -8.715614239918068E-5   4.042199812829495E-3  
 2.346000000000000E10    3.589263651520014E-3  -8.249822712969035E-5  
 2.348000000000000E10   -6.937114521861076E-4  -3.399970941245556E-3  
 2.350000000000000E10   -3.365245182067156E-3   1.353431725874543E-3  
 2.352000000000000E10    1.392384525388479E-3   2.803224604576826E-3  
 2.354000000000000E10    2.766202203929424E-3  -1.974840648472309E-3  
 2.356000000000000E10   -2.540213521569967E-3  -2.183799864724279E-3  
 2.358000000000000E10   -1.757081714458764E-3   2.931621624156833E-3  
 2.360000000000000E10    3.122491296380758E-3   1.840334618464112E-3  
 2.362000000000000E10    1.159500097855926E-3  -3.840188728645444E-3  
 2.364000000000000E10   -4.056291654706001E-3  -2.620707091409713E-4  
 2.366000000000000E10   -2.380462101427838E-4   4.009896423667669E-3  
 2.368000000000000E10    3.635968081653118E-3   7.815281423972920E-5  
 2.370000000000000E10   -7.379395538009703E-5  -4.680132027715445E-3  
 2.372000000000000E10   -4.814832005649805E-3   8.021543617360294E-4  
 2.374000000000000E10    1.578962081111968E-3   4.347470588982105E-3  
 2.376000000000000E10    4.571398720145226E-3  -1.583797391504049E-3  
 2.378000000000000E10   -2.297263126820326E-3  -4.289486911147833E-3  
 2.380000000000000E10   -3.527828492224217E-3   3.104464150965214E-3  
 2.382000000000000E10    2.850259887054563E-3   3.126233350485563E-3  
 2.384000000000000E10    2.934464020654559E-3  -3.033671760931611E-3  
 2.386000000000000E10   -3.429323201999068E-3  -2.005085814744234E-3  
 2.388000000000000E10   -1.525832689367235E-3   3.219223581254482E-3  
 2.390000000000000E10    4.050717223435640E-3   7.006314699538052E-4  
 2.392000000000000E10    1.986368442885578E-4  -3.949131816625595E-3  
 2.394000000000000E10   -3.642078954726458E-3   9.257333585992456E-4  
 2.396000000000000E10    1.171813230030239E-3   3.721463726833463E-3  
 2.398000000000000E10    4.077576566487551E-3  -1.894184155389667E-3  
 2.400000000000000E10   -2.164457226172090E-3  -3.801007289439440E-3  
 2.402000000000000E10   -3.219652688130736E-3   3.404034534469247E-3  
 2.404000000000000E10    3.457762766629458E-3   3.015314694494009E-3  
 2.406000000000000E10    2.974719041958451E-3  -4.021899309009314E-3  
 2.408000000000000E10   -4.269012250006199E-3  -2.599594881758094E-3  
 2.410000000000000E10   -2.167183905839920E-3   4.185118246823549E-3  
 2.412000000000000E10    4.125127103179693E-3   1.957518048584461E-3  
 2.414000000000000E10    1.524030813015997E-3  -3.908002283424139E-3  
 2.416000000000000E10   -4.104095976799727E-3  -1.712743309326470E-3  
 2.418000000000000E10   -8.041277178563178E-4   3.886686637997627E-3  
 2.420000000000000E10    3.811422735452652E-3   2.493361243978143E-4  
 2.422000000000000E10    3.463130269665271E-4  -3.734109224751592E-3  
 2.424000000000000E10   -3.663566661998630E-3  -4.377703226055019E-5  
 2.426000000000000E10    6.786236772313714E-4   3.636074485257268E-3  
 2.428000000000000E10    3.287995234131813E-3  -1.379253691993654E-3  
 2.430000000000000E10   -2.046022564172745E-3  -3.360922215506434E-3  
 2.432000000000000E10   -3.056279150769115E-3   2.301119035109878E-3  
 2.434000000000000E10    3.185261972248554E-3   2.287936396896839E-3  
 2.436000000000000E10    1.928575453348458E-3  -3.683824092149735E-3  
 2.438000000000000E10   -3.980418667197228E-3  -2.314676530659199E-3  
 2.440000000000000E10   -1.835385803133249E-3   4.297824576497078E-3  
 2.442000000000000E10    4.591176286339760E-3   1.534888520836830E-3  
 2.444000000000000E10    8.246192010119557E-4  -4.888980183750391E-3  
 2.446000000000000E10   -4.470656625926495E-3  -8.969044429250062E-4  
 2.448000000000000E10   -7.489403360523284E-4   4.633379634469748E-3  
 2.450000000000000E10    4.785242490470409E-3  -1.627265301067382E-4  
 2.452000000000000E10   -4.787554789800197E-4  -4.684780258685350E-3  
 2.454000000000000E10   -4.723300226032734E-3   1.863745710579678E-4  
 2.456000000000000E10    1.080686808563769E-3   4.545924719423056E-3  
 2.458000000000000E10    3.957309294492006E-3  -1.937028835527599E-3  
 2.460000000000000E10   -2.353041199967265E-3  -3.672403749078512E-3  
 2.462000000000000E10   -3.397832857444882E-3   2.292329445481300E-3  
 2.464000000000000E10    3.025140147656202E-3   2.578332554548979E-3  
 2.466000000000000E10    1.979583175852895E-3  -3.718461142852902E-3  
 2.468000000000000E10   -4.086056724190712E-3  -2.048294292762876E-3  
 2.470000000000000E10   -1.409198739565909E-3   4.467090126127005E-3  
 2.472000000000000E10    4.500086419284344E-3   2.107140171574429E-4  
 2.474000000000000E10   -7.185632421169430E-5  -4.944211803376675E-3  
 2.476000000000000E10   -5.211463663727045E-3   4.679973644670099E-4  
 2.478000000000000E10    5.645449855364859E-4   5.163018591701984E-3  
 2.480000000000000E10    4.922106862068176E-3  -1.383479335345328E-3  
 2.482000000000000E10   -1.692934543825686E-3  -5.269036628305912E-3  
 2.484000000000000E10   -5.407373420894146E-3   1.954475650563836E-3  
 2.486000000000000E10    2.456572139635682E-3   4.809836391359568E-3  
 2.488000000000000E10    3.811947070062161E-3  -3.329742001369596E-3  
 2.490000000000000E10   -3.628198057413101E-3  -3.264913568273187E-3  
 2.492000000000000E10   -2.997155068442226E-3   3.432978410273790E-3  
 2.494000000000000E10    3.430479438975453E-3   2.071426482871175E-3  
 2.496000000000000E10    1.300118630751967E-3  -4.190550185739994E-3  
 2.498000000000000E10   -4.551834892481566E-3  -6.253689061850309E-4  
 2.500000000000000E10   -1.805762003641576E-4   3.942646551877260E-3  
 2.502000000000000E10    3.891173051670194E-3  -7.691755890846252E-4  
 2.504000000000000E10   -1.660231151618063E-3  -4.065435379743576E-3  
 2.506000000000000E10   -4.118726588785648E-3   1.692912192083895E-3  
 2.508000000000000E10    2.294166479259729E-3   3.956661093980074E-3  
 2.510000000000000E10    3.883143421262503E-3  -2.849146025255323E-3  
 2.512000000000000E10   -3.670759033411741E-3  -4.194672685116530E-3  
 2.514000000000000E10   -3.705731360241771E-3   4.102731123566628E-3  
 2.516000000000000E10    4.173772409558296E-3   2.887808950617909E-3  
 2.518000000000000E10    2.875507809221745E-3  -4.459771327674389E-3  
 2.520000000000000E10   -4.818439949303865E-3  -2.407252555713058E-3  
 2.522000000000000E10   -1.921043498441577E-3   4.325105808675289E-3  
 2.524000000000000E10    4.196184687316418E-3   1.020123250782490E-3  
 2.526000000000000E10    9.754810016602278E-4  -4.148958250880241E-3  
 2.528000000000000E10   -4.380740690976381E-3  -6.161266355775297E-4  
 2.530000000000000E10    3.827851032838225E-4   3.838666947558522E-3  
 2.532000000000000E10    3.601456759497523E-3  -6.945329951122403E-4  
 2.534000000000000E10   -1.679089153185487E-3  -3.481172723695636E-3  
 2.536000000000000E10   -3.105161245912314E-3   2.113016089424491E-3  
 2.538000000000000E10    2.478450303897262E-3   2.462995005771518E-3  
 2.540000000000000E10    2.152447123080492E-3  -3.028303850442171E-3  
 2.542000000000000E10   -3.779751248657703E-3  -2.167856786400080E-3  
 2.544000000000000E10   -1.540943281725049E-3   4.060535691678524E-3  
 2.546000000000000E10    4.295702558010817E-3   1.176159945316613E-3  
 2.548000000000000E10    6.610095733776689E-4  -4.499709233641625E-3  
 2.550000000000000E10   -4.752779845148325E-3  -2.138034906238318E-4  
 2.552000000000000E10    3.026478807441890E-4   4.757470916956663E-3  
 2.554000000000000E10    3.951617982238531E-3  -6.911685341037810E-4  
 2.556000000000000E10   -9.486487833783031E-4  -4.558005370199680E-3  
 2.558000000000000E10   -4.371292423456907E-3   1.473256386816502E-3  
 2.560000000000000E10    1.881724223494530E-3   3.778374521061778E-3  
 2.562000000000000E10    3.105334006249905E-3  -2.102788770571351E-3  
 2.564000000000000E10   -2.771590836346149E-3  -2.721241908147931E-3  
 2.566000000000000E10   -2.374382456764579E-3   3.059987444430590E-3  
 2.568000000000000E10    3.618761431425810E-3   1.606947975233197E-3  
 2.570000000000000E10    7.166158757172525E-4  -3.667928744107485E-3  
 2.572000000000000E10   -4.214458167552948E-3  -2.019828389165923E-4  
 2.574000000000000E10    6.456518894992769E-4   4.227179568260908E-3  
 2.576000000000000E10    4.113969393074513E-3  -1.517103053629398E-3  
 2.578000000000000E10   -1.952648744918406E-3  -4.094886593520641E-3  
 2.580000000000000E10   -3.917588852345944E-3   2.739381743595004E-3  
 2.582000000000000E10    3.023096825927496E-3   3.560709301382303E-3  
 2.584000000000000E10    3.770787734538317E-3  -2.992218825966120E-3  
 2.586000000000000E10   -3.906420432031155E-3  -2.995949471369386E-3  
 2.588000000000000E10   -3.173381322994828E-3   3.490207949653268E-3  
 2.590000000000000E10    3.264140337705612E-3   2.739337040111423E-3  
 2.592000000000000E10    2.429946558550000E-3  -3.257068805396557E-3  
 2.594000000000000E10   -3.488155314698815E-3  -2.236258238554001E-3  
 2.596000000000000E10   -1.723108813166618E-3   3.486890345811844E-3  
 2.598000000000000E10    3.594714915379882E-3   1.256854273378849E-3  
 2.600000000000000E10    7.433767314068973E-4  -3.151589771732688E-3  
 2.602000000000000E10   -3.077102592214942E-3   2.236299478681758E-4  
 2.604000000000000E10    5.321518401615322E-4   3.075994784012437E-3  
 2.606000000000000E10    2.533223712816834E-3  -1.122664776630700E-3  
 2.608000000000000E10   -1.990063581615686E-3  -1.944869058206677E-3  
 2.610000000000000E10   -1.726540736854076E-3   2.351608360186219E-3  
 2.612000000000000E10    2.856453415006399E-3   1.757216057740152E-3  
 2.614000000000000E10    1.413793419487774E-3  -3.196739358827472E-3  
 2.616000000000000E10   -3.393616061657667E-3  -6.701573729515076E-4  
 2.618000000000000E10   -1.192281604744494E-3   3.746590111404657E-3  
 2.620000000000000E10    4.093709401786327E-3   7.323020254261792E-4  
 2.622000000000000E10    2.898033562814817E-5  -3.906378056854010E-3  
 2.624000000000000E10   -4.105464089661837E-3   1.946518605109304E-4  
 2.626000000000000E10    4.064376989845187E-4   3.894268069416285E-3  
 2.628000000000000E10    3.886402584612370E-3  -6.691826856695116E-4  
 2.630000000000000E10   -1.394067541696131E-3  -3.639518981799483E-3  
 2.632000000000000E10   -2.958863740786910E-3   1.578474300913513E-3  
 2.634000000000000E10    1.444810186512768E-3   2.959895180538297E-3  
 2.636000000000000E10    2.499272348359227E-3  -2.149150473996997E-3  
 2.638000000000000E10   -2.229952253401279E-3  -1.295742345973849E-3  
 2.640000000000000E10   -1.062853028997779E-3   2.286779461428523E-3  
 2.642000000000000E10    2.392295515164733E-3   9.425571770407260E-4  
 2.644000000000000E10    4.590671451296657E-4  -2.430530264973640E-3  
 2.646000000000000E10   -2.689822111278772E-3   2.874026249628514E-4  
 2.648000000000000E10    3.907519276253879E-4   3.069011494517326E-3  
 2.650000000000000E10    3.025290090590715E-3  -4.601551336236298E-4  
 2.652000000000000E10   -1.329434220679104E-3  -2.928068628534675E-3  
 2.654000000000000E10   -2.607148373499513E-3   1.277340343222022E-3  
 2.656000000000000E10    1.226021209731698E-3   2.857555169612169E-3  
 2.658000000000000E10    2.366861561313272E-3  -1.359577290713787E-3  
 2.660000000000000E10   -1.494343974627554E-3  -1.823001075536013E-3  
 2.662000000000000E10   -1.847628969699144E-3   1.531496876850724E-3  
 2.664000000000000E10    1.620845170691609E-3   1.517887692898512E-3  
 2.666000000000000E10    1.053390325978398E-3  -1.334042171947658E-3  
 2.668000000000000E10   -1.591354841366410E-3  -3.966286312788725E-4  
 2.670000000000000E10   -4.021303029730916E-4   1.127672614529729E-3  
 2.672000000000000E10    1.056872541084886E-3   6.806362216593698E-5  
 2.674000000000000E10   -7.324514444917440E-4  -1.204940490424633E-3  
 2.676000000000000E10   -9.570912807248533E-4   8.920761174522340E-4  
 2.678000000000000E10    9.101877803914249E-4   1.311811851337552E-3  
 2.680000000000000E10    1.087705022655428E-3  -1.528841094113886E-3  
 2.682000000000000E10   -1.518310280516744E-3  -9.707584395073354E-4  
 2.684000000000000E10   -1.298658084124327E-3   1.916726585477591E-3  
 2.686000000000000E10    1.849779277108610E-3   1.386752468533814E-3  
 2.688000000000000E10    1.087721902877092E-3  -1.820744015276432E-3  
 2.690000000000000E10   -2.017812570556998E-3  -1.323211006820202E-3  
 2.692000000000000E10   -1.303705153986812E-3   2.108387183398008E-3  
 2.694000000000000E10    2.051604446023703E-3   1.195913529954851E-3  
 2.696000000000000E10    1.128627452999353E-3  -1.207532593980432E-3  
 2.698000000000000E10   -1.321316347457469E-3  -1.118749263696373E-3  
 2.700000000000000E10   -9.476501145400107E-4   1.323532313108444E-3  
 2.702000000000000E10    1.180255785584450E-3   9.765003924258053E-4  
 2.704000000000000E10    5.696231964975596E-4  -7.571104215458036E-4  
 2.706000000000000E10   -5.704458453692496E-4  -1.779267477104440E-4  
 2.708000000000000E10    4.270257340976968E-5   7.581604295410216E-4  
 2.710000000000000E10    2.394961775280535E-4  -2.633555268403143E-4  
 2.712000000000000E10   -3.790700575336814E-4   1.819344033719972E-4  
 2.714000000000000E10    1.028075785143301E-4   7.900955388322473E-4  
 2.716000000000000E10    1.034809160046279E-3  -1.182949199574068E-4  
 2.718000000000000E10    6.271910388022661E-5  -9.630048880353570E-4  
 2.720000000000000E10   -1.560424803756177E-3   1.361966569675133E-4  
 2.722000000000000E10    2.442282566335052E-4   1.582347322255373E-3  
 2.724000000000000E10    1.621986273676157E-3   3.399183042347431E-4  
 2.726000000000000E10    1.007859318633564E-4  -1.658260705880821E-3  
 2.728000000000000E10   -1.500526908785105E-3  -3.207152622053400E-5  
 2.730000000000000E10   -4.751956439577043E-4   1.768571673892438E-3  
 2.732000000000000E10    1.574947847984731E-3   5.399814690463245E-4  
 2.734000000000000E10    5.123846931383014E-4  -1.017326838336885E-3  
 2.736000000000000E10   -1.106259063817561E-3  -5.550358910113573E-4  
 2.738000000000000E10   -8.516668458469212E-4   1.113844919018447E-3  
 2.740000000000000E10    6.919463048689067E-4   8.416854543611407E-4  
 2.742000000000000E10    2.752640575636178E-4  -2.832452300935984E-4  
 2.744000000000000E10   -2.744844532571733E-4  -4.242205177433789E-4  
 2.746000000000000E10   -5.072262138128281E-4   1.169327242678264E-5  
 2.748000000000000E10   -2.895567740779370E-4   7.610164902871475E-5  
 2.750000000000000E10   -3.672774182632566E-4   5.707918317057192E-4  
 2.752000000000000E10    8.275701547972858E-4   6.202837103046477E-4  
 2.754000000000000E10    3.883102326653898E-4  -7.573189213871956E-4  
 2.756000000000000E10   -7.421492482535541E-4  -8.421650854870677E-4  
